! File created by SignalIntegrity v1.1.10: Signal and Power Integrity Tools
! https://github.com/TeledyneLeCroy/SignalIntegrity
# MHz S MA R 50.0
0.0 0.015394 0.0 1.069594 -0.0 1.15999 -0.0 0.00993 180.0
20.0 0.019561 -13.816964 1.067008 -36.539726 1.157103 -36.512448 0.016408 91.950944
40.0 0.024203 -55.411398 1.059749 -73.155796 1.149021 -73.082283 0.02209 45.653548
60.0 0.025061 -115.61697 1.052619 -109.898354 1.140795 -109.825299 0.017974 12.118341
80.0 0.030295 172.158075 1.049792 -146.683831 1.136688 -146.596645 0.007405 33.487756
100.0 0.044979 108.406241 1.052102 176.52402 1.138745 176.595886 0.023744 69.411889
120.0 0.06256 57.499387 1.056616 139.842792 1.142816 139.828112 0.046905 34.017065
140.0 0.074977 13.141673 1.061732 103.336622 1.148295 103.285013 0.06374 -4.35581
160.0 0.078614 -28.366373 1.064549 66.66052 1.151551 66.580028 0.076027 -42.94775
180.0 0.071735 -67.438167 1.058337 29.86342 1.145784 29.760167 0.075924 -82.243147
200.0 0.058742 -104.137597 1.050156 -6.804407 1.137998 -6.907551 0.065542 -118.734843
220.0 0.042565 -140.651554 1.045404 -43.608451 1.133561 -43.665364 0.052538 -156.568982
240.0 0.030696 179.543583 1.043135 -80.418803 1.131141 -80.383701 0.043052 164.434183
260.0 0.029462 137.024538 1.044062 -117.055203 1.131871 -116.979491 0.045107 127.827868
280.0 0.037319 99.744633 1.047201 -153.549502 1.135172 -153.477244 0.056474 96.424052
300.0 0.049057 68.050174 1.050525 169.941319 1.138011 169.990124 0.068364 66.041615
320.0 0.054965 38.963212 1.05164 133.278281 1.138894 133.286741 0.070318 35.774238
340.0 0.057884 10.425032 1.048865 96.453289 1.136137 96.431518 0.065307 6.06402
360.0 0.058043 -23.619868 1.044661 59.607724 1.131548 59.577461 0.055753 -27.950927
380.0 0.055364 -58.984961 1.040776 22.854429 1.128251 22.809243 0.045328 -62.957161
400.0 0.056863 -90.571985 1.039229 -13.815038 1.127063 -13.863366 0.037945 -89.458908
420.0 0.060622 -123.155122 1.038212 -50.410952 1.126155 -50.449012 0.039062 -110.67759
440.0 0.066398 -160.564208 1.035527 -86.938894 1.123392 -86.939298 0.045036 -143.350091
460.0 0.074017 156.311648 1.031653 -123.429261 1.120232 -123.441811 0.055765 172.190849
480.0 0.086246 110.428996 1.029276 -159.983481 1.117577 -159.963262 0.07416 123.882064
500.0 0.099662 67.057238 1.028101 163.34695 1.1162 163.354357 0.097465 80.659098
520.0 0.104024 25.387844 1.027615 126.655423 1.11474 126.648625 0.111508 40.543404
540.0 0.093409 -16.029046 1.028113 90.055448 1.114643 89.995585 0.10633 1.084219
560.0 0.071727 -60.641542 1.029741 53.438575 1.115937 53.371601 0.086902 -38.91515
580.0 0.048958 -110.535414 1.028569 16.858049 1.114832 16.761186 0.060767 -79.479665
600.0 0.031189 -162.809409 1.026407 -19.701356 1.112069 -19.787257 0.039417 -112.840197
620.0 0.017534 142.775878 1.025679 -56.298654 1.11156 -56.365413 0.026905 -133.084632
640.0 0.004995 97.604085 1.024944 -93.006476 1.111243 -93.034517 0.024505 -146.576059
660.0 0.007483 -176.511522 1.025382 -129.712164 1.111154 -129.747855 0.029975 -177.086577
680.0 0.020275 135.147399 1.025461 -166.391787 1.110608 -166.390968 0.037198 139.108987
700.0 0.035717 88.914268 1.024063 157.025012 1.108728 156.976885 0.044834 96.915727
720.0 0.045788 47.545009 1.0214 120.551786 1.106311 120.476328 0.047539 63.891889
740.0 0.047066 9.111762 1.018925 84.088545 1.104194 84.002186 0.044177 41.902983
760.0 0.040025 -28.003168 1.017225 47.587234 1.103091 47.520766 0.040116 32.509923
780.0 0.029511 -61.965459 1.017448 10.971118 1.103559 10.959042 0.044856 23.13393
800.0 0.023127 -92.824803 1.019681 -25.746819 1.105249 -25.706787 0.054717 -1.435286
820.0 0.019308 -131.389187 1.020011 -62.546616 1.105372 -62.44481 0.061317 -37.610097
840.0 0.017191 175.447691 1.01738 -99.242001 1.102231 -99.115226 0.059048 -78.928096
860.0 0.019814 109.818882 1.013113 -135.759224 1.097925 -135.662247 0.049719 -125.130903
880.0 0.027614 50.896437 1.0096 -172.229463 1.093994 -172.155036 0.038659 -177.260483
900.0 0.032576 0.548043 1.007888 151.356186 1.092302 151.398523 0.032584 130.7394
920.0 0.032132 -52.936718 1.008304 114.86072 1.093118 114.899861 0.027946 96.850895
940.0 0.032309 -122.760139 1.009797 78.313074 1.095623 78.316369 0.028282 94.02357
960.0 0.043635 168.147962 1.010577 41.683085 1.095891 41.727681 0.044788 91.410466
980.0 0.062644 114.53745 1.009512 5.055017 1.095668 5.10878 0.071073 68.824423
1000.0 0.0776 66.759013 1.006812 -31.570925 1.092187 -31.508942 0.097847 35.788044
1020.0 0.081675 21.841364 1.004239 -68.095579 1.089541 -67.99692 0.115396 -2.462244
1040.0 0.074611 -21.097493 1.006053 -104.777448 1.091241 -104.696492 0.11882 -42.17076
1060.0 0.057687 -57.725827 1.004708 -141.667542 1.089257 -141.568578 0.106635 -80.455879
1080.0 0.041892 -87.446948 1.001869 -178.216691 1.086014 -178.127407 0.091805 -114.906187
1100.0 0.028712 -112.282418 1.002261 145.259651 1.086649 145.31795 0.082657 -151.334145
1120.0 0.026666 -125.979802 0.999475 108.672847 1.083031 108.73024 0.081985 172.996877
1140.0 0.042661 -156.702481 0.993456 72.337699 1.076125 72.322116 0.09478 141.87491
1160.0 0.068252 159.613622 0.990705 36.187931 1.073381 36.169188 0.122245 110.687491
1180.0 0.091686 117.09406 0.995379 -0.17884 1.078808 -0.194806 0.153581 74.144308
1200.0 0.111758 76.783611 1.000886 -36.985074 1.084867 -36.993265 0.173132 33.635082
1220.0 0.124026 35.478306 1.004214 -73.942363 1.088597 -73.920518 0.165293 -9.123891
1240.0 0.127494 -4.778858 1.001585 -110.857713 1.085241 -110.810204 0.13874 -44.257309
1260.0 0.119231 -47.974981 1.000969 -147.332067 1.084769 -147.281889 0.125482 -74.638501
1280.0 0.091081 -86.223713 1.00222 175.742987 1.085394 175.785157 0.106896 -108.837706
1300.0 0.078393 -110.429105 0.990829 138.79486 1.073592 138.8172 0.091972 -136.976823
1320.0 0.089334 -144.4706 0.978449 102.317366 1.060571 102.32523 0.097051 -165.341834
1340.0 0.104742 174.754519 0.969393 66.108756 1.050665 66.094787 0.119984 161.253509
1360.0 0.122515 132.555236 0.966985 30.06351 1.048756 30.11115 0.149432 124.166585
1380.0 0.135517 91.745306 0.970657 -6.142191 1.05228 -6.059506 0.179002 86.627436
1400.0 0.138949 51.365448 0.976595 -42.548187 1.058006 -42.450321 0.199819 48.785255
1420.0 0.128468 12.686629 0.980028 -79.105636 1.061801 -79.004308 0.206692 10.958586
1440.0 0.107159 -22.456339 0.982921 -115.692219 1.06497 -115.577167 0.197997 -25.523522
1460.0 0.083383 -52.411844 0.984024 -152.362584 1.066239 -152.237235 0.180468 -60.583951
1480.0 0.065032 -74.802536 0.984764 171.003282 1.067387 171.099566 0.159983 -95.225892
1500.0 0.060091 -96.72639 0.984479 134.288654 1.067548 134.354831 0.144809 -130.208103
1520.0 0.066047 -128.101053 0.983564 97.635374 1.066909 97.694752 0.141038 -165.801854
1540.0 0.078691 -168.261054 0.983294 60.884587 1.067153 60.925691 0.152855 157.565772
1560.0 0.098446 148.796228 0.980208 24.065395 1.063735 24.132172 0.169579 120.112727
1580.0 0.119295 107.082959 0.976193 -12.589526 1.059678 -12.514564 0.184255 84.035087
1600.0 0.134408 67.091228 0.973419 -49.095119 1.056593 -48.952785 0.191267 48.106214
1620.0 0.140472 28.585728 0.973633 -85.516236 1.056442 -85.386544 0.184458 12.502143
1640.0 0.135154 -8.642609 0.975337 -121.904851 1.057626 -121.731184 0.16426 -22.213691
1660.0 0.118187 -44.296928 0.978469 -158.376774 1.060216 -158.214414 0.136387 -54.343093
1680.0 0.099044 -78.760527 0.980189 165.010368 1.061937 165.118641 0.108525 -83.966141
1700.0 0.082808 -114.979688 0.97976 128.271332 1.060892 128.315524 0.092077 -114.067798
1720.0 0.074757 -156.075227 0.97659 91.470054 1.057693 91.466787 0.089584 -150.531121
1740.0 0.074148 157.901863 0.971981 54.733625 1.053412 54.70569 0.098395 166.834859
1760.0 0.078284 111.953821 0.969091 18.213192 1.050589 18.194399 0.114095 122.983288
1780.0 0.079122 67.886457 0.969728 -18.185524 1.051203 -18.169609 0.127423 81.742608
1800.0 0.07214 24.944682 0.973518 -54.564461 1.05484 -54.524926 0.130582 42.140224
1820.0 0.054096 -17.986748 0.978255 -91.063205 1.060142 -91.017326 0.117979 4.458047
1840.0 0.02648 -62.764946 0.981165 -127.756563 1.062917 -127.69552 0.091907 -30.154386
1860.0 0.005463 128.678266 0.981195 -164.579172 1.06221 -164.523106 0.056312 -56.992871
1880.0 0.02936 51.600727 0.978419 158.614122 1.059149 158.641996 0.025434 -57.155315
1900.0 0.042131 8.842118 0.975833 121.858257 1.056474 121.858505 0.027334 -24.767066
1920.0 0.039743 -35.539728 0.974891 85.132471 1.056523 85.095492 0.035526 -39.886252
1940.0 0.026914 -89.556323 0.975529 48.39664 1.05749 48.362902 0.034227 -73.048774
1960.0 0.016836 178.795216 0.975974 11.651701 1.058768 11.628928 0.026484 -115.688758
1980.0 0.024087 84.539995 0.975179 -25.102575 1.056933 -25.038563 0.020516 -164.006349
2000.0 0.031787 23.768653 0.972893 -61.701748 1.053731 -61.580112 0.021377 161.3
2020.0 0.031042 -33.398544 0.970832 -98.218407 1.051456 -98.088403 0.034227 139.524302
2040.0 0.025251 -109.302702 0.968795 -134.751236 1.048975 -134.640475 0.058872 110.770913
2060.0 0.033609 162.804767 0.967034 -171.350644 1.046912 -171.244716 0.091598 77.926222
2080.0 0.05575 104.195839 0.965577 151.926698 1.045781 151.992574 0.120502 43.089816
2100.0 0.078179 62.765614 0.96422 115.099307 1.044479 115.162209 0.137277 7.908083
2120.0 0.092049 26.787253 0.962028 78.25949 1.042508 78.286867 0.134042 -27.780533
2140.0 0.094579 -6.378739 0.959987 41.551763 1.040597 41.604576 0.115332 -62.541141
2160.0 0.090829 -38.260165 0.95882 5.007298 1.039661 5.048658 0.090976 -95.210422
2180.0 0.085509 -71.004471 0.958045 -31.453449 1.038873 -31.364698 0.072928 -123.253276
2200.0 0.083145 -107.930611 0.957602 -67.897829 1.037839 -67.76432 0.069254 -149.001828
2220.0 0.085889 -150.628984 0.95632 -104.36774 1.03633 -104.25478 0.082948 179.295287
2240.0 0.095534 163.275889 0.955184 -140.990331 1.034443 -140.893721 0.109434 142.624344
2260.0 0.110369 117.716406 0.953443 -177.729354 1.032425 -177.682419 0.146018 103.844223
2280.0 0.123898 75.867277 0.951807 145.445689 1.031883 145.446024 0.183301 65.48415
2300.0 0.125921 38.625112 0.951336 108.694213 1.031583 108.710737 0.21023 27.723212
2320.0 0.11729 7.180051 0.952786 71.977367 1.034305 72.016005 0.216105 -9.408994
2340.0 0.103983 -18.911947 0.954376 35.267528 1.035741 35.368877 0.204248 -44.909655
2360.0 0.096353 -41.64659 0.953696 -1.384546 1.03445 -1.230417 0.183107 -79.173402
2380.0 0.096354 -67.300638 0.951233 -37.957177 1.030129 -37.776321 0.164912 -112.470057
2400.0 0.100654 -100.075565 0.947741 -74.600364 1.025969 -74.445462 0.157917 -147.36879
2420.0 0.110267 -140.510638 0.944515 -111.365473 1.021229 -111.258385 0.162626 174.711955
2440.0 0.125108 173.885889 0.939983 -148.207243 1.016282 -148.161454 0.176571 133.987516
2460.0 0.144219 127.83158 0.933582 174.985027 1.010412 174.983579 0.196764 93.713039
2480.0 0.160455 84.572953 0.927484 138.398943 1.00462 138.391582 0.212221 55.564608
2500.0 0.167613 45.035542 0.924377 102.051547 1.002017 102.04616 0.216259 20.644298
2520.0 0.165033 8.146872 0.92443 65.714167 1.003119 65.75282 0.207765 -11.843576
2540.0 0.151242 -27.795443 0.923995 29.290606 1.002312 29.353959 0.190041 -43.376231
2560.0 0.130089 -63.195977 0.922052 -7.071862 0.99953 -6.98005 0.164843 -74.62155
2580.0 0.107004 -98.359986 0.921038 -43.332709 0.998308 -43.300874 0.142846 -105.213432
2600.0 0.08878 -134.691864 0.922175 -79.757306 0.999149 -79.756358 0.132647 -136.920407
2620.0 0.078298 -174.534965 0.922678 -116.360883 1.000376 -116.383872 0.135731 -174.287141
2640.0 0.076956 143.168417 0.923144 -153.027522 1.001242 -153.032631 0.148297 144.7283
2660.0 0.082105 102.174308 0.924456 170.319316 1.002938 170.28843 0.166007 103.480587
2680.0 0.087412 64.392049 0.927382 133.692621 1.006818 133.700385 0.184251 64.400189
2700.0 0.084893 31.559367 0.931856 97.064668 1.011961 97.110944 0.19223 27.619467
2720.0 0.072741 5.704868 0.936495 60.399365 1.016029 60.401381 0.181245 -6.654789
2740.0 0.061064 -9.341605 0.93815 23.671275 1.017195 23.676439 0.152282 -36.961428
2760.0 0.062488 -19.214716 0.937165 -13.106293 1.016493 -13.115407 0.122195 -61.650613
2780.0 0.075106 -41.916122 0.933963 -49.9624 1.012824 -49.958675 0.10366 -82.280793
2800.0 0.085763 -78.724235 0.929745 -86.857281 1.00894 -86.841744 0.100257 -108.96331
2820.0 0.089085 -126.609312 0.92564 -123.871421 1.004426 -123.815102 0.102681 -146.355011
2840.0 0.091682 178.077989 0.920814 -160.723899 0.998527 -160.66322 0.110383 167.215427
2860.0 0.102074 120.90668 0.916141 162.62977 0.993275 162.67123 0.12681 119.41979
2880.0 0.114669 69.051948 0.91162 126.354424 0.987929 126.344755 0.146026 76.037829
2900.0 0.117867 22.496344 0.90896 90.350321 0.986092 90.310312 0.156029 38.275672
2920.0 0.105118 -21.224876 0.910113 54.470867 0.988041 54.386493 0.153827 5.101994
2940.0 0.080042 -65.590294 0.914736 18.286628 0.993081 18.234321 0.140978 -24.582174
2960.0 0.051472 -118.346384 0.920354 -18.2466 0.999497 -18.250898 0.123146 -52.34208
2980.0 0.035404 170.199413 0.926397 -55.202933 1.00554 -55.178024 0.105277 -81.382113
3000.0 0.041534 98.113853 0.929935 -92.37354 1.008071 -92.309808 0.085211 -118.475873
3020.0 0.052911 49.952468 0.932053 -129.475207 1.010145 -129.441129 0.063935 -168.241097
3040.0 0.058635 15.420701 0.933585 -166.447962 1.011834 -166.475696 0.057052 124.444151
3060.0 0.057953 -14.155634 0.933749 156.702202 1.012238 156.656592 0.066774 60.853344
3080.0 0.051198 -43.559528 0.933042 120.069956 1.01199 119.979465 0.074814 9.899359
3100.0 0.038411 -80.510714 0.931431 83.495078 1.010425 83.449438 0.064755 -38.372274
3120.0 0.023369 -142.726061 0.928692 46.881605 1.008369 46.867174 0.037892 -99.667074
3140.0 0.026192 121.69841 0.925598 10.219095 1.004459 10.210453 0.032891 139.518344
3160.0 0.042218 62.212483 0.923435 -26.551443 1.001446 -26.533157 0.071401 67.853947
3180.0 0.049158 19.364472 0.924179 -63.373635 1.001225 -63.365197 0.106225 21.122617
3200.0 0.040489 -16.199715 0.928497 -100.301161 1.004774 -100.326428 0.121012 -21.279966
3220.0 0.016824 -36.545195 0.93409 -137.332713 1.010869 -137.36096 0.110377 -62.727312
3240.0 0.023028 55.531261 0.936806 -174.389304 1.013991 -174.399396 0.077245 -107.325307
3260.0 0.059658 30.833787 0.935598 148.698497 1.013686 148.654897 0.035307 -166.091525
3280.0 0.089382 -5.856816 0.929876 111.991359 1.007103 111.951337 0.023692 66.941167
3300.0 0.103607 -48.332956 0.92382 75.344733 1.000611 75.317767 0.040003 -6.604255
3320.0 0.098912 -97.81582 0.91686 38.497 0.993467 38.427933 0.039159 -60.046969
3340.0 0.084714 -154.601419 0.907645 1.506989 0.98386 1.407875 0.026275 -131.481318
3360.0 0.080973 144.045351 0.899365 -35.385232 0.974982 -35.462794 0.033503 133.033358
3380.0 0.089781 88.553755 0.893854 -72.146799 0.969732 -72.187334 0.061811 76.350044
3400.0 0.100412 44.004314 0.891148 -108.643495 0.966348 -108.662567 0.089728 36.956713
3420.0 0.104118 7.15079 0.890214 -144.848803 0.965554 -144.809206 0.112405 4.741541
3440.0 0.099551 -25.534394 0.890806 179.120148 0.965654 179.159517 0.127048 -25.565467
3460.0 0.086912 -56.752624 0.892708 143.05872 0.966669 143.112972 0.134228 -56.323413
3480.0 0.068342 -88.793786 0.895189 106.794012 0.968559 106.820532 0.130996 -91.125001
3500.0 0.049971 -125.483046 0.899493 70.256086 0.973359 70.232023 0.122354 -132.933179
3520.0 0.036634 179.575606 0.904722 33.185072 0.978905 33.092637 0.11791 175.050804
3540.0 0.036068 103.234945 0.904096 -4.005478 0.978943 -4.10968 0.124671 115.552497
3560.0 0.044806 43.51845 0.90491 -40.818841 0.98016 -40.897719 0.137094 61.870296
3580.0 0.048718 -2.107283 0.909666 -77.524147 0.985848 -77.607479 0.144469 14.86397
3600.0 0.037144 -42.78891 0.9153 -114.308566 0.992667 -114.351961 0.132324 -27.849134
3620.0 0.01225 -81.122898 0.919517 -151.176115 0.997247 -151.178447 0.097227 -64.727332
3640.0 0.023779 64.750449 0.921015 171.772549 0.998947 171.813787 0.044106 -90.443489
3660.0 0.060623 22.604805 0.91647 134.601911 0.993714 134.669437 0.032293 -17.979841
3680.0 0.084055 -19.446813 0.908811 97.658055 0.985647 97.700722 0.082041 -36.430597
3700.0 0.089553 -67.656224 0.905251 60.629421 0.98123 60.681189 0.112464 -79.389321
3720.0 0.074936 -124.860831 0.897407 23.395761 0.97292 23.382504 0.116578 -130.288429
3740.0 0.063061 168.223743 0.886315 -13.477304 0.961842 -13.488356 0.113367 174.253223
3760.0 0.070754 99.484275 0.879477 -49.94004 0.954423 -49.957621 0.123705 118.304039
3780.0 0.08877 44.178486 0.877138 -86.172376 0.951856 -86.208205 0.147865 68.500001
3800.0 0.098946 -1.8098 0.876407 -122.333895 0.950765 -122.357122 0.17302 24.646585
3820.0 0.093335 -42.603054 0.87653 -158.271743 0.950558 -158.336073 0.18735 -14.710918
3840.0 0.075374 -81.637489 0.880587 165.828418 0.954325 165.705211 0.186935 -51.859855
3860.0 0.052904 -123.760945 0.889841 129.588883 0.965106 129.405287 0.176178 -89.325391
3880.0 0.038223 174.883816 0.898229 92.620915 0.975053 92.371649 0.158564 -133.883382
3900.0 0.042922 99.224807 0.901978 55.335741 0.979704 55.12944 0.132816 171.597882
3920.0 0.05871 46.022809 0.907193 17.978385 0.98567 17.826031 0.120265 110.054002
3940.0 0.06869 7.379772 0.909788 -19.533377 0.988632 -19.608133 0.12282 50.054856
3960.0 0.070073 -23.606133 0.906949 -56.619339 0.984157 -56.666532 0.124793 -0.476018
3980.0 0.064972 -52.306892 0.903339 -93.204696 0.978782 -93.238407 0.117 -44.933199
4000.0 0.050404 -81.540236 0.901124 -129.493649 0.975517 -129.522625 0.093445 -89.279079
4020.0 0.028782 -115.723273 0.902533 -165.815705 0.976732 -165.87084 0.057248 -145.976453
4040.0 0.00591 132.042337 0.905981 157.371636 0.98075 157.277015 0.042572 105.194562
4060.0 0.02639 18.068133 0.905441 120.104552 0.981741 120.048009 0.085224 21.420052
4080.0 0.037856 -27.534425 0.90448 82.924738 0.981705 82.946555 0.122526 -33.599606
4100.0 0.031594 -74.246011 0.906179 45.76667 0.984219 45.835553 0.135181 -85.480359
4120.0 0.016636 -161.561647 0.90892 8.649975 0.986123 8.759181 0.128868 -142.173473
4140.0 0.035383 83.858229 0.908995 -28.370239 0.98613 -28.232832 0.1225 152.450865
4160.0 0.069518 30.769779 0.905424 -65.213897 0.981501 -65.10622 0.135803 85.965636
4180.0 0.094117 -14.274904 0.899744 -101.853758 0.975451 -101.823531 0.160774 28.234943
4200.0 0.101237 -57.967962 0.894757 -138.459338 0.97028 -138.437234 0.177757 -21.817611
4220.0 0.087766 -104.567126 0.892444 -175.159292 0.968881 -175.164875 0.175657 -68.558281
4240.0 0.064014 -162.494909 0.892311 147.925283 0.969262 147.897334 0.154326 -116.102522
4260.0 0.053652 121.467561 0.892058 110.794734 0.969517 110.783072 0.124889 -170.251479
4280.0 0.067423 53.260957 0.891108 73.678961 0.968016 73.683861 0.107055 125.266179
4300.0 0.082101 3.695527 0.888136 36.745817 0.964623 36.725866 0.114848 60.505493
4320.0 0.08547 -37.957904 0.884957 0.122034 0.960394 0.039847 0.130932 7.326881
4340.0 0.076445 -78.561008 0.884967 -36.359284 0.960076 -36.453923 0.139157 -37.188291
4360.0 0.057678 -125.735869 0.885079 -72.923031 0.960223 -73.016349 0.133949 -78.251564
4380.0 0.040767 169.593193 0.883986 -109.499263 0.958736 -109.611247 0.116347 -119.786837
4400.0 0.045823 93.035706 0.882742 -146.152243 0.957434 -146.272407 0.096422 -170.374839
4420.0 0.066698 39.169484 0.883104 177.122864 0.958371 176.999225 0.08813 123.698829
4440.0 0.084011 -0.495914 0.887044 140.160575 0.962216 140.075859 0.109852 54.675735
4460.0 0.088967 -35.703344 0.891394 103.046827 0.967 102.98747 0.140197 -4.251137
4480.0 0.079212 -69.061454 0.8974 65.82322 0.973967 65.829861 0.152915 -57.875281
4500.0 0.057251 -99.683964 0.902116 28.596413 0.97856 28.667942 0.136064 -113.690845
4520.0 0.029795 -120.856623 0.904009 -8.605542 0.980223 -8.515486 0.100457 179.291769
4540.0 0.014178 -85.366126 0.901698 -45.622891 0.977206 -45.517891 0.087433 91.959138
4560.0 0.028056 -79.466916 0.899725 -82.61143 0.973706 -82.514774 0.113777 13.508602
4580.0 0.034662 -117.851003 0.893703 -119.802138 0.967367 -119.773892 0.137313 -47.128463
4600.0 0.040367 -176.976255 0.886858 -156.934644 0.960467 -156.944505 0.14196 -101.742572
4620.0 0.063118 117.191448 0.881207 165.831317 0.955004 165.784223 0.133107 -160.525828
