! File created by SignalIntegrity v1.1.10: Signal and Power Integrity Tools
! https://github.com/TeledyneLeCroy/SignalIntegrity
# MHz S MA R 50.0
0.0 0.003821 -0.0
20.0 0.008687 50.188328
40.0 0.015166 42.679522
60.0 0.020827 29.445121
80.0 0.023736 12.002435
100.0 0.025503 -7.214252
120.0 0.025513 -28.989926
140.0 0.025202 -51.862884
160.0 0.023344 -72.467175
180.0 0.019857 -93.549055
200.0 0.013685 -115.827365
220.0 0.006101 -160.536674
240.0 0.008323 97.918723
260.0 0.016818 64.145493
280.0 0.023966 47.924054
300.0 0.026808 33.491343
320.0 0.025663 18.944781
340.0 0.020948 0.982548
360.0 0.015345 -24.566526
380.0 0.011266 -56.625555
400.0 0.007829 -92.93333
420.0 0.003941 -133.173884
440.0 0.004628 90.425221
460.0 0.012974 55.909538
480.0 0.021555 40.824419
500.0 0.027425 27.415187
520.0 0.029446 13.721942
540.0 0.027329 -2.479655
560.0 0.022077 -23.497222
580.0 0.017113 -53.586288
600.0 0.014207 -92.899616
620.0 0.012696 -134.232702
640.0 0.011518 179.361484
660.0 0.013223 127.825281
680.0 0.018689 88.852554
700.0 0.024859 63.730703
720.0 0.029008 44.216982
740.0 0.029719 26.605783
760.0 0.027205 7.777483
780.0 0.021983 -12.951139
800.0 0.016327 -38.670448
820.0 0.010544 -72.80899
840.0 0.005543 -128.490473
860.0 0.006697 133.465765
880.0 0.014706 92.343508
900.0 0.0238 68.459529
920.0 0.031004 50.25382
940.0 0.034979 32.971544
960.0 0.035378 14.904495
980.0 0.033205 -4.968338
1000.0 0.029512 -27.045157
1020.0 0.024527 -50.101116
1040.0 0.018245 -76.435686
1060.0 0.010597 -111.842489
1080.0 0.007068 162.565436
1100.0 0.014964 102.864453
1120.0 0.024633 76.976176
1140.0 0.03122 58.013208
1160.0 0.034908 39.896593
1180.0 0.035549 20.648213
1200.0 0.033039 -0.271516
1220.0 0.029279 -23.756563
1240.0 0.024415 -47.566897
1260.0 0.017643 -74.664971
1280.0 0.010107 -113.3112
1300.0 0.008267 160.291104
1320.0 0.016435 104.409661
1340.0 0.025821 79.101524
1360.0 0.033121 57.793348
1380.0 0.038056 38.49389
1400.0 0.040145 18.371806
1420.0 0.039525 -1.970006
1440.0 0.037088 -22.408835
1460.0 0.032082 -43.713352
1480.0 0.023273 -66.83227
1500.0 0.013804 -101.652069
1520.0 0.009719 -179.628534
1540.0 0.017843 121.188767
1560.0 0.027406 93.953681
1580.0 0.035073 72.302664
1600.0 0.04041 52.212938
1620.0 0.043394 32.442741
1640.0 0.043716 13.184138
1660.0 0.041726 -5.144441
1680.0 0.035921 -22.114032
1700.0 0.027635 -38.819505
1720.0 0.016558 -54.689931
1740.0 0.004389 -73.454356
1760.0 0.007546 96.802475
1780.0 0.018538 76.492924
1800.0 0.027739 58.841903
1820.0 0.035432 39.771142
1840.0 0.04095 21.161637
1860.0 0.043796 3.884811
1880.0 0.04317 -13.460396
1900.0 0.038947 -30.521788
1920.0 0.031111 -49.150724
1940.0 0.020393 -71.46325
1960.0 0.010499 -109.966257
1980.0 0.007758 152.720235
2000.0 0.016308 100.589223
2020.0 0.025894 72.603638
2040.0 0.034369 50.455516
2060.0 0.041595 31.454314
2080.0 0.045219 13.805288
2100.0 0.045232 -3.496044
2120.0 0.041391 -20.73251
2140.0 0.034245 -38.277416
2160.0 0.02452 -58.534871
2180.0 0.013788 -84.1417
2200.0 0.004493 -152.005163
2220.0 0.011103 97.955383
2240.0 0.022102 70.607621
2260.0 0.03248 50.605242
2280.0 0.040469 32.826558
2300.0 0.045236 16.160301
2320.0 0.046394 -0.97637
2340.0 0.043662 -18.69685
2360.0 0.037729 -36.62526
2380.0 0.029157 -56.359664
2400.0 0.019203 -77.824728
2420.0 0.008087 -110.898792
2440.0 0.006698 110.613657
2460.0 0.019054 71.807649
2480.0 0.03148 52.984276
2500.0 0.041539 36.667374
2520.0 0.047698 20.464162
2540.0 0.049713 4.414692
2560.0 0.047896 -12.778743
2580.0 0.042675 -30.328786
2600.0 0.034574 -48.192996
2620.0 0.024377 -66.57157
2640.0 0.011658 -86.543374
2660.0 0.001811 115.254162
2680.0 0.015775 71.518604
2700.0 0.028734 53.971349
2720.0 0.039682 37.688665
2740.0 0.047568 21.290985
2760.0 0.05163 4.994386
2780.0 0.052042 -11.793162
2800.0 0.048436 -28.568328
2820.0 0.041952 -45.015395
2840.0 0.031858 -60.377318
2860.0 0.019016 -73.212832
2880.0 0.005262 -69.036221
2900.0 0.01093 57.077201
2920.0 0.025163 47.936833
2940.0 0.037187 33.597631
2960.0 0.04698 17.853506
2980.0 0.05374 1.191999
3000.0 0.056434 -15.810657
3020.0 0.055476 -32.519704
3040.0 0.050593 -48.82478
3060.0 0.041415 -65.730623
3080.0 0.029222 -83.339183
3100.0 0.014751 -105.19747
3120.0 0.003332 140.716796
3140.0 0.016362 65.154063
3160.0 0.03031 43.80876
3180.0 0.042309 25.239217
3200.0 0.051639 7.644674
3220.0 0.057249 -9.610739
3240.0 0.058988 -26.159979
3260.0 0.055864 -41.978139
3280.0 0.048501 -58.641843
3300.0 0.038042 -75.602914
3320.0 0.024321 -94.05347
3340.0 0.010091 -119.180372
3360.0 0.005491 86.669131
3380.0 0.019359 49.393115
3400.0 0.032364 29.342136
3420.0 0.043543 11.396445
3440.0 0.051555 -5.002452
3460.0 0.05555 -21.019135
3480.0 0.055342 -36.777678
3500.0 0.050696 -52.544704
3520.0 0.042324 -67.957499
3540.0 0.030918 -83.128022
3560.0 0.018278 -97.229204
3580.0 0.004779 -92.828755
3600.0 0.010527 30.391732
3620.0 0.023959 20.601246
3640.0 0.035792 7.051019
3660.0 0.045337 -7.74907
3680.0 0.050857 -22.607142
3700.0 0.051922 -37.994196
3720.0 0.049119 -53.610625
3740.0 0.042752 -69.269965
3760.0 0.033372 -85.542684
3780.0 0.021506 -101.339197
3800.0 0.008174 -111.622389
3820.0 0.00603 33.749295
3840.0 0.020271 26.383616
3860.0 0.032937 11.410018
3880.0 0.043256 -3.531194
3900.0 0.050433 -19.600539
3920.0 0.053733 -36.039586
3940.0 0.052892 -52.290666
3960.0 0.04927 -68.67553
3980.0 0.042266 -84.711908
4000.0 0.032102 -100.488405
4020.0 0.019672 -115.519724
4040.0 0.005545 -128.247957
4060.0 0.009267 29.303353
4080.0 0.022978 16.289931
4100.0 0.035058 1.005104
4120.0 0.043787 -15.125891
4140.0 0.049535 -31.322454
4160.0 0.05149 -47.567345
4180.0 0.049795 -63.02736
4200.0 0.044975 -79.233472
4220.0 0.03639 -94.503459
4240.0 0.024937 -109.259798
4260.0 0.011783 -120.350458
4280.0 0.002949 3.080352
4300.0 0.016564 14.341643
4320.0 0.029669 0.514581
4340.0 0.040329 -14.930091
4360.0 0.048681 -30.638768
4380.0 0.053534 -46.008504
4400.0 0.054283 -61.949405
4420.0 0.051075 -77.639526
4440.0 0.044167 -93.290474
4460.0 0.033975 -109.970367
4480.0 0.021696 -127.251782
4500.0 0.008345 -151.331253
4520.0 0.005999 44.103175
4540.0 0.019202 15.335356
4560.0 0.031238 -3.994674
4580.0 0.04155 -21.206566
4600.0 0.048541 -37.072261
4620.0 0.051395 -52.342192
4640.0 0.050946 -67.544979
4660.0 0.046155 -82.452942
4680.0 0.038258 -96.149808
4700.0 0.027791 -108.591748
4720.0 0.015855 -115.703197
4740.0 0.005584 -76.446914
4760.0 0.013359 -14.372475
4780.0 0.025605 -18.479631
4800.0 0.036555 -30.807475
4820.0 0.044813 -43.928078
4840.0 0.049363 -59.011256
4860.0 0.050541 -73.640309
4880.0 0.047621 -89.263408
4900.0 0.041245 -105.193646
4920.0 0.031843 -121.441668
4940.0 0.020322 -138.903625
4960.0 0.007085 -161.63226
4980.0 0.006909 21.53862
5000.0 0.01973 -0.331979
5020.0 0.031231 -17.707008
5040.0 0.040364 -34.703304
5060.0 0.046873 -51.124784
5080.0 0.049407 -67.673406
5100.0 0.048244 -84.419567
5120.0 0.043506 -100.595254
5140.0 0.035547 -116.933347
5160.0 0.024276 -132.972015
5180.0 0.010856 -154.615881
5200.0 0.003962 39.836887
5220.0 0.018465 7.869958
5240.0 0.031447 -9.831637
5260.0 0.042476 -27.032061
5280.0 0.050601 -44.416767
5300.0 0.055237 -61.556118
5320.0 0.057071 -78.504835
5340.0 0.055159 -95.242143
5360.0 0.050384 -111.098283
5380.0 0.041393 -127.174399
5400.0 0.029713 -142.866093
5420.0 0.016164 -158.814255
5440.0 0.001617 -169.70943
5460.0 0.012672 -10.307203
5480.0 0.025825 -26.553717
5500.0 0.036888 -43.310155
5520.0 0.045152 -59.636521
5540.0 0.050534 -75.692278
5560.0 0.05224 -92.107348
5580.0 0.050734 -107.375259
5600.0 0.04544 -122.73419
5620.0 0.037338 -137.213305
5640.0 0.026697 -150.539736
5660.0 0.01438 -158.290521
5680.0 0.004334 -108.125085
5700.0 0.013143 -45.101814
5720.0 0.02466 -52.01025
5740.0 0.033577 -65.044689
5760.0 0.040017 -79.976341
5780.0 0.043134 -94.853879
5800.0 0.042294 -110.736061
5820.0 0.038677 -127.45131
5840.0 0.032358 -143.82079
5860.0 0.023639 -159.294722
5880.0 0.012597 -173.384099
5900.0 0.001191 -108.668174
5920.0 0.013538 -35.744874
5940.0 0.026191 -47.747637
5960.0 0.037625 -62.28623
5980.0 0.045651 -77.049384
6000.0 0.050607 -92.254478
6020.0 0.051956 -108.338336
6040.0 0.049828 -124.778348
6060.0 0.044616 -141.617198
6080.0 0.037139 -158.197517
6100.0 0.027016 -174.660119
6120.0 0.015091 169.47061
6140.0 0.002006 164.16588
6160.0 0.011673 -47.713803
6180.0 0.023929 -61.723883
6200.0 0.034242 -77.152115
6220.0 0.041669 -93.353879
6240.0 0.046303 -109.966705
6260.0 0.047009 -126.999103
6280.0 0.045038 -144.517606
6300.0 0.039949 -162.626154
6320.0 0.031769 177.233852
6340.0 0.021557 154.912667
6360.0 0.01102 115.919895
6380.0 0.008134 20.263322
6400.0 0.017811 -32.288404
6420.0 0.028301 -58.279015
6440.0 0.036963 -78.85214
6460.0 0.043662 -97.033163
6480.0 0.046852 -114.529835
6500.0 0.046552 -130.995767
6520.0 0.043018 -147.095779
6540.0 0.035574 -162.395311
6560.0 0.026139 -178.426451
6580.0 0.014628 167.92355
6600.0 0.00333 -175.525249
6620.0 0.009805 -68.346537
6640.0 0.021408 -79.459999
6660.0 0.032035 -95.397265
6680.0 0.041 -111.431948
6700.0 0.047606 -127.174132
6720.0 0.050255 -142.750828
6740.0 0.048983 -158.61684
6760.0 0.043922 -175.562402
6780.0 0.035661 166.61497
6800.0 0.026063 145.647116
6820.0 0.015614 120.210493
6840.0 0.006261 69.623654
6860.0 0.008809 -44.911274
6880.0 0.018707 -81.450246
6900.0 0.028608 -104.479729
6920.0 0.035755 -122.993915
6940.0 0.040185 -140.565859
6960.0 0.040694 -158.532116
6980.0 0.037176 -177.27611
7000.0 0.031253 161.190421
7020.0 0.023219 135.065803
7040.0 0.015196 100.519062
7060.0 0.010779 34.568936
7080.0 0.015943 -29.742652
7100.0 0.025484 -65.263703
7120.0 0.035116 -89.896403
7140.0 0.043384 -110.959825
7160.0 0.048878 -130.236494
7180.0 0.05149 -149.105431
7200.0 0.05072 -167.293121
7220.0 0.04676 174.136483
7240.0 0.039816 155.963249
7260.0 0.029714 137.236027
7280.0 0.018478 114.850854
7300.0 0.006804 68.467813
7320.0 0.009228 -51.24106
7340.0 0.019737 -86.534631
7360.0 0.028854 -108.834484
7380.0 0.035703 -129.913481
7400.0 0.040169 -149.933069
7420.0 0.042618 -170.270921
7440.0 0.042218 171.271171
7460.0 0.039166 152.923212
7480.0 0.032199 135.06021
7500.0 0.02212 115.921469
7520.0 0.010549 86.384601
7540.0 0.006306 -31.064955
7560.0 0.016537 -82.303943
7580.0 0.02669 -107.018733
7600.0 0.035193 -128.61097
7620.0 0.04173 -150.035913
7640.0 0.046912 -170.333043
7660.0 0.050153 170.637757
7680.0 0.050862 152.691231
7700.0 0.047337 135.552226
7720.0 0.040493 118.317927
7740.0 0.030432 98.521619
7760.0 0.019327 72.674968
7780.0 0.010105 23.824884
7800.0 0.010285 -55.794447
7820.0 0.016565 -103.04534
7840.0 0.023432 -133.583953
7860.0 0.028989 -158.594264
7880.0 0.033331 179.881338
7900.0 0.036114 159.7605
7920.0 0.036064 141.918664
7940.0 0.032517 125.106987
7960.0 0.026405 108.208052
7980.0 0.017418 89.204846
8000.0 0.007351 64.543046
8020.0 0.003862 -90.915204
8040.0 0.013797 -124.235094
8060.0 0.023032 -145.182266
8080.0 0.029941 -164.687545
8100.0 0.034966 175.985512
8120.0 0.038076 158.11392
8140.0 0.039102 139.712115
8160.0 0.037706 121.99967
8180.0 0.033534 104.165778
8200.0 0.026828 86.576478
8220.0 0.018326 67.701009
8240.0 0.008566 38.539499
8260.0 0.004784 -83.738586
8280.0 0.013348 -130.623525
8300.0 0.021257 -152.755079
8320.0 0.026954 -172.257199
8340.0 0.029998 168.336178
8360.0 0.03101 148.180804
8380.0 0.030909 127.603264
8400.0 0.028892 108.26303
8420.0 0.025091 88.762876
8440.0 0.018725 69.756203
8460.0 0.010327 46.555078
8480.0 0.003046 -44.110115
8500.0 0.011483 -126.613728
8520.0 0.020647 -149.020015
8540.0 0.027916 -166.787866
8560.0 0.032945 176.106704
8580.0 0.035587 158.384779
8600.0 0.036035 141.154618
8620.0 0.034942 124.822792
8640.0 0.031866 108.599755
8660.0 0.026667 94.576441
8680.0 0.019707 84.578114
8700.0 0.012231 85.274177
8720.0 0.007452 125.733235
8740.0 0.013054 163.561379
8760.0 0.02144 162.88301
8780.0 0.029004 153.68708
8800.0 0.034234 141.451678
8820.0 0.037143 127.100336
8840.0 0.038062 111.770492
8860.0 0.0366 95.65855
8880.0 0.033497 78.949318
8900.0 0.028574 62.134575
8920.0 0.022036 45.149639
8940.0 0.014322 28.551627
8960.0 0.005216 8.357409
8980.0 0.004446 -174.866215
9000.0 0.013567 168.078714
9020.0 0.021521 153.737781
9040.0 0.027814 139.987286
9060.0 0.031245 125.665703
9080.0 0.032149 111.218664
9100.0 0.031047 95.636599
9120.0 0.028248 79.241273
9140.0 0.024969 62.79272
9160.0 0.020043 47.753534
9180.0 0.014689 35.524691
9200.0 0.008548 28.937056
9220.0 0.003717 66.645726
9240.0 0.006495 130.478073
9260.0 0.012104 134.359188
9280.0 0.016303 128.46521
9300.0 0.018722 119.468962
9320.0 0.018789 110.358865
9340.0 0.0172 101.536187
9360.0 0.014642 94.334472
9380.0 0.011533 92.240725
9400.0 0.009246 99.907104
9420.0 0.009134 116.836422
9440.0 0.011905 123.397801
9460.0 0.015903 122.764483
9480.0 0.020447 116.183554
9500.0 0.024397 108.231137
9520.0 0.027301 98.155684
9540.0 0.027708 87.55359
9560.0 0.026749 76.014276
9580.0 0.023302 65.06733
9600.0 0.017871 52.862745
9620.0 0.011939 39.318509
9640.0 0.00538 23.140193
9660.0 0.001192 -159.172483
9680.0 0.007192 173.995567
9700.0 0.01372 156.951219
9720.0 0.020212 140.600748
9740.0 0.026504 127.076183
9760.0 0.031477 113.990145
9780.0 0.034977 102.25966
9800.0 0.036138 91.839763
9820.0 0.034753 81.309666
9840.0 0.031424 71.598507
9860.0 0.026177 62.80479
9880.0 0.020499 55.533114
9900.0 0.015106 53.546864
9920.0 0.011433 65.162497
9940.0 0.011795 83.537794
9960.0 0.015996 92.414396
9980.0 0.021469 91.116617
10000.0 0.026134 84.659198
10020.0 0.030379 75.288875
10040.0 0.032789 64.281806
10060.0 0.032875 52.811914
10080.0 0.030856 40.010395
10100.0 0.027007 27.137683
10120.0 0.021757 12.736667
10140.0 0.015767 -1.099315
10160.0 0.008883 -17.0487
10180.0 0.002489 -37.916042
10200.0 0.003991 135.989013
10220.0 0.00962 117.460319
10240.0 0.014335 102.963439
10260.0 0.017788 87.636112
10280.0 0.019918 72.97042
10300.0 0.020247 60.252138
10320.0 0.01814 49.435436
10340.0 0.014443 43.410169
10360.0 0.009384 44.833044
10380.0 0.005873 85.769311
10400.0 0.009795 124.817268
10420.0 0.016357 125.226611
10440.0 0.022368 116.198474
10460.0 0.027664 103.425806
10480.0 0.031571 88.007671
10500.0 0.034902 73.132358
10520.0 0.036799 58.708661
10540.0 0.036425 45.769141
10560.0 0.033375 34.447195
10580.0 0.028095 25.701393
10600.0 0.020602 20.887558
10620.0 0.013244 25.145088
10640.0 0.008996 55.543401
10660.0 0.011579 83.817884
10680.0 0.017069 85.471469
10700.0 0.021684 75.175396
10720.0 0.025153 60.402337
10740.0 0.027712 43.913839
10760.0 0.028653 28.003736
10780.0 0.026897 11.884091
10800.0 0.02218 -5.124681
10820.0 0.015169 -25.846145
10840.0 0.006756 -62.319872
10860.0 0.007226 -172.499943
10880.0 0.016543 149.026742
10900.0 0.02578 129.310986
10920.0 0.033163 112.796922
10940.0 0.038444 96.039636
10960.0 0.041168 80.132751
10980.0 0.041806 64.051094
11000.0 0.040027 48.74839
11020.0 0.036192 34.976062
11040.0 0.030679 23.485583
11060.0 0.02299 18.241665
11080.0 0.016131 26.47507
11100.0 0.014078 55.040234
11120.0 0.019783 74.622108
11140.0 0.027628 75.236949
11160.0 0.035313 67.280175
11180.0 0.040034 55.746881
11200.0 0.042439 41.662936
11220.0 0.042897 26.21767
11240.0 0.04092 10.503831
11260.0 0.036548 -5.101321
11280.0 0.029664 -19.244168
11300.0 0.020733 -31.031184
11320.0 0.00934 -33.634246
11340.0 0.005435 71.516636
11360.0 0.017367 86.845856
11380.0 0.028211 77.363054
11400.0 0.037214 64.834201
11420.0 0.042866 49.572591
11440.0 0.046099 33.672777
11460.0 0.046765 16.953654
11480.0 0.044542 0.24432
11500.0 0.0402 -16.453376
11520.0 0.033688 -32.528613
11540.0 0.024612 -47.558022
11560.0 0.014199 -61.036777
11580.0 0.002395 -67.616212
11600.0 0.009228 85.023996
11620.0 0.018848 71.487543
11640.0 0.026886 56.818087
11660.0 0.031543 41.76758
11680.0 0.033529 26.720285
11700.0 0.032114 11.757062
11720.0 0.027737 -3.297184
11740.0 0.021571 -17.535216
11760.0 0.013248 -29.87357
11780.0 0.004687 -14.897558
11800.0 0.007893 74.746141
11820.0 0.018388 74.48797
11840.0 0.028282 61.065732
11860.0 0.037659 46.816714
11880.0 0.04475 32.906479
11900.0 0.048211 18.036159
11920.0 0.048192 3.338497
11940.0 0.044807 -12.792195
11960.0 0.037914 -29.961783
11980.0 0.030324 -48.839299
12000.0 0.020771 -70.0257
12020.0 0.010944 -94.655381
12040.0 0.002763 167.120663
12060.0 0.012265 78.055646
12080.0 0.023546 55.175598
12100.0 0.033893 38.237333
12120.0 0.041229 23.598129
12140.0 0.04459 8.463552
12160.0 0.043891 -7.059641
12180.0 0.03954 -23.572763
12200.0 0.033131 -41.050221
12220.0 0.024832 -59.313441
12240.0 0.01576 -77.909874
12260.0 0.005036 -92.949494
12280.0 0.006976 61.396638
12300.0 0.019213 48.77155
12320.0 0.030877 34.618764
12340.0 0.039873 20.047622
12360.0 0.045775 5.153105
12380.0 0.047874 -10.360941
12400.0 0.046726 -26.684219
12420.0 0.042991 -43.585466
12440.0 0.037008 -60.212498
12460.0 0.029246 -76.808806
12480.0 0.019734 -90.144888
12500.0 0.008833 -96.241031
12520.0 0.004427 13.238627
12540.0 0.014734 23.484252
12560.0 0.023848 13.494957
12580.0 0.030754 -1.205804
12600.0 0.034476 -17.048342
12620.0 0.035248 -34.719966
12640.0 0.033693 -52.061405
12660.0 0.029629 -70.617226
12680.0 0.022706 -89.866423
12700.0 0.014295 -112.368507
12720.0 0.005365 -163.235168
12740.0 0.008953 81.406571
12760.0 0.018619 49.266765
12780.0 0.026986 28.068527
12800.0 0.03327 9.379862
12820.0 0.037377 -9.882135
12840.0 0.039286 -28.649088
12860.0 0.038954 -46.917511
12880.0 0.036333 -64.118366
12900.0 0.030277 -79.727104
12920.0 0.021558 -94.240255
12940.0 0.010768 -109.651615
12960.0 0.000936 21.417562
12980.0 0.011968 37.760096
13000.0 0.020971 19.759679
13020.0 0.028072 1.966394
13040.0 0.033296 -16.807051
13060.0 0.036246 -36.219534
13080.0 0.037037 -55.597703
13100.0 0.035549 -74.364452
13120.0 0.031086 -93.707485
13140.0 0.02381 -115.23536
13160.0 0.014652 -144.644232
13180.0 0.008031 148.32019
13200.0 0.014065 72.743862
13220.0 0.024017 41.801527
13240.0 0.032622 19.579143
13260.0 0.039147 -0.640666
13280.0 0.043201 -19.553553
13300.0 0.045037 -38.105132
13320.0 0.044323 -55.633137
13340.0 0.04144 -73.226458
13360.0 0.036311 -88.780977
13380.0 0.028992 -102.648176
13400.0 0.019876 -113.028454
13420.0 0.011031 -112.038231
13440.0 0.006846 -63.455785
13460.0 0.012495 -34.963442
13480.0 0.019675 -40.068406
13500.0 0.024946 -54.190149
13520.0 0.027978 -71.260341
13540.0 0.029031 -92.101477
13560.0 0.028147 -114.307359
13580.0 0.025727 -138.595768
13600.0 0.021868 -167.272255
13620.0 0.018335 154.974953
13640.0 0.017604 106.785962
13660.0 0.022417 62.57333
13680.0 0.030063 30.644096
13700.0 0.038441 5.826578
13720.0 0.044597 -15.425941
13740.0 0.048539 -35.6039
13760.0 0.050364 -55.45263
13780.0 0.049337 -74.232608
13800.0 0.046536 -93.727118
13820.0 0.040812 -113.321123
13840.0 0.033072 -133.287129
13860.0 0.024411 -155.028034
13880.0 0.014559 177.779539
13900.0 0.006449 116.897552
13920.0 0.010238 25.765134
13940.0 0.019118 -7.67372
13960.0 0.027391 -29.471018
13980.0 0.033604 -47.416523
14000.0 0.037471 -63.249891
14020.0 0.038767 -78.004762
14040.0 0.037773 -91.002968
14060.0 0.03465 -101.99659
14080.0 0.030268 -109.843952
14100.0 0.025954 -112.733152
14120.0 0.023719 -108.871483
14140.0 0.024486 -103.494644
14160.0 0.028487 -101.824419
14180.0 0.033822 -105.506587
14200.0 0.038952 -114.459281
14220.0 0.042717 -124.722927
14240.0 0.044066 -137.495727
14260.0 0.043148 -151.665323
14280.0 0.040164 -167.309084
14300.0 0.03575 177.074463
14320.0 0.029574 160.252591
14340.0 0.02216 146.250539
14360.0 0.013344 135.998465
14380.0 0.005012 152.111666
14400.0 0.007874 -118.791671
14420.0 0.016593 -119.388615
14440.0 0.024163 -132.570194
14460.0 0.029416 -148.65109
14480.0 0.032811 -166.992954
14500.0 0.034085 172.529244
14520.0 0.034256 151.027575
14540.0 0.033466 128.262086
14560.0 0.031524 105.484556
14580.0 0.027942 79.661933
14600.0 0.024114 51.032429
14620.0 0.020864 15.865718
14640.0 0.020304 -22.386904
14660.0 0.021583 -59.568972
14680.0 0.024073 -89.692671
14700.0 0.025043 -114.941982
14720.0 0.024657 -139.900962
14740.0 0.022339 -164.892287
14760.0 0.019322 168.570347
