! File created by SignalIntegrity v1.1.10: Signal and Power Integrity Tools
! https://github.com/TeledyneLeCroy/SignalIntegrity
# MHz S MA R 50.0
0.0 0.002755 -180.0
20.0 0.005645 99.887593
40.0 0.010181 65.867483
60.0 0.014642 41.149835
80.0 0.018161 20.502216
100.0 0.020101 1.439523
120.0 0.020738 -17.049251
140.0 0.019815 -35.398843
160.0 0.017487 -52.763951
180.0 0.013736 -67.781941
200.0 0.008958 -75.080955
220.0 0.003594 -40.276566
240.0 0.007353 28.10616
260.0 0.014319 31.552631
280.0 0.019545 22.565914
300.0 0.02201 10.837167
320.0 0.021293 -4.272228
340.0 0.018168 -24.643737
360.0 0.015204 -51.699911
380.0 0.012903 -84.424535
400.0 0.011333 -117.820396
420.0 0.008862 -153.214683
440.0 0.006769 153.312507
460.0 0.009938 90.357141
480.0 0.015963 58.335967
500.0 0.021025 39.651852
520.0 0.023213 24.67355
540.0 0.021773 9.690923
560.0 0.01774 -8.118284
580.0 0.012541 -32.798356
600.0 0.007838 -70.591502
620.0 0.00576 -127.341576
640.0 0.005945 167.271732
660.0 0.008191 110.006421
680.0 0.013043 74.606756
700.0 0.018204 50.044833
720.0 0.021452 29.43993
740.0 0.022701 10.396709
760.0 0.021736 -11.241046
780.0 0.019412 -37.338989
800.0 0.01684 -67.154929
820.0 0.014776 -99.345322
840.0 0.012416 -136.175876
860.0 0.010568 177.38533
880.0 0.012945 126.253063
900.0 0.017912 89.333292
920.0 0.023228 64.920677
940.0 0.026442 44.179249
960.0 0.027177 24.124725
980.0 0.02554 3.786763
1000.0 0.022167 -18.915751
1020.0 0.018246 -43.622561
1040.0 0.01346 -71.33773
1060.0 0.008052 -110.338896
1080.0 0.006116 168.025307
1100.0 0.011587 109.193457
1120.0 0.018478 82.62321
1140.0 0.023936 62.269932
1160.0 0.02683 43.49365
1180.0 0.027141 23.982435
1200.0 0.025282 2.492615
1220.0 0.022355 -20.345962
1240.0 0.018405 -45.372561
1260.0 0.013722 -73.223995
1280.0 0.0082 -116.81649
1300.0 0.007923 162.895954
1320.0 0.014082 115.111836
1340.0 0.020956 88.504035
1360.0 0.026178 67.678279
1380.0 0.029325 47.91289
1400.0 0.030274 28.10938
1420.0 0.029403 7.97332
1440.0 0.026653 -12.08282
1460.0 0.022311 -31.564342
1480.0 0.01576 -52.153321
1500.0 0.007707 -78.301258
1520.0 0.003449 158.106934
1540.0 0.011696 101.630519
1560.0 0.020118 79.186989
1580.0 0.02686 60.285238
1600.0 0.032003 41.152574
1620.0 0.034926 22.980233
1640.0 0.035998 4.24329
1660.0 0.034171 -13.709299
1680.0 0.030218 -32.259083
1700.0 0.023509 -51.891386
1720.0 0.015501 -78.150088
1740.0 0.008413 -125.850906
1760.0 0.008694 152.657067
1780.0 0.01492 107.404443
1800.0 0.021509 80.03194
1820.0 0.026568 57.197321
1840.0 0.030299 37.093847
1860.0 0.031809 18.337749
1880.0 0.03084 0.733868
1900.0 0.027106 -16.908715
1920.0 0.021414 -35.03038
1940.0 0.01375 -56.349165
1960.0 0.005944 -89.886652
1980.0 0.004025 138.299841
2000.0 0.011597 92.069982
2020.0 0.019167 68.485196
2040.0 0.026107 48.217021
2060.0 0.031616 30.275936
2080.0 0.034757 13.597896
2100.0 0.035016 -2.531358
2120.0 0.032221 -18.54967
2140.0 0.026846 -35.450518
2160.0 0.019121 -54.219522
2180.0 0.010575 -77.448497
2200.0 0.002691 -153.232822
2220.0 0.009079 95.838403
2240.0 0.017946 71.29633
2260.0 0.026221 53.38082
2280.0 0.032725 35.751599
2300.0 0.036645 19.584687
2320.0 0.03724 3.56999
2340.0 0.034972 -12.828701
2360.0 0.030196 -29.921862
2380.0 0.022922 -47.781422
2400.0 0.014571 -67.3029
2420.0 0.005083 -97.519905
2440.0 0.005839 102.445422
2460.0 0.015887 75.819581
2480.0 0.024763 58.174053
2500.0 0.031578 40.951032
2520.0 0.035857 24.292884
2540.0 0.037278 6.990061
2560.0 0.036199 -11.21975
2580.0 0.032858 -29.357033
2600.0 0.027147 -47.86731
2620.0 0.019331 -67.593526
2640.0 0.010063 -92.417647
2660.0 0.003348 156.781927
2680.0 0.012612 87.543092
2700.0 0.022585 65.782319
2720.0 0.030238 46.909677
2740.0 0.035762 29.633642
2760.0 0.038741 11.649953
2780.0 0.039053 -6.937461
2800.0 0.03706 -25.450609
2820.0 0.032692 -43.499969
2840.0 0.025318 -62.344765
2860.0 0.015887 -84.334476
2880.0 0.005833 -128.458294
2900.0 0.008864 106.302185
2920.0 0.01922 76.65846
2940.0 0.028485 56.830309
2960.0 0.035497 38.745541
2980.0 0.03988 20.783344
3000.0 0.041817 3.649734
3020.0 0.040632 -13.160757
3040.0 0.036837 -29.282837
3060.0 0.030011 -44.41577
3080.0 0.020772 -58.078281
3100.0 0.00992 -67.630803
3120.0 0.002805 39.060101
3140.0 0.013624 60.980699
3160.0 0.0241 48.549187
3180.0 0.03286 33.05901
3200.0 0.039192 17.737081
3220.0 0.043073 1.871214
3240.0 0.044041 -13.63714
3260.0 0.04178 -28.760114
3280.0 0.036376 -43.427537
3300.0 0.028313 -57.760038
3320.0 0.018554 -70.132837
3340.0 0.007599 -70.973324
3360.0 0.005578 34.467408
3380.0 0.01597 41.189919
3400.0 0.026104 29.206141
3420.0 0.033943 15.235522
3440.0 0.039578 0.665873
3460.0 0.042204 -14.331078
3480.0 0.041774 -30.001674
3500.0 0.038183 -45.604429
3520.0 0.032195 -61.092603
3540.0 0.024048 -77.085214
3560.0 0.014322 -91.509153
3580.0 0.003626 -95.184011
3600.0 0.007935 45.473725
3620.0 0.018444 35.165732
3640.0 0.027949 21.154264
3660.0 0.034731 6.686262
3680.0 0.038759 -7.592392
3700.0 0.039773 -22.612973
3720.0 0.037576 -37.796384
3740.0 0.032954 -52.514112
3760.0 0.026013 -67.283432
3780.0 0.017458 -79.251333
3800.0 0.007591 -77.066754
3820.0 0.005889 18.702846
3840.0 0.016321 29.810733
3860.0 0.025621 20.36828
3880.0 0.033617 8.107216
3900.0 0.039036 -5.855171
3920.0 0.041753 -20.4172
3940.0 0.04169 -34.830123
3960.0 0.039027 -49.134004
3980.0 0.033518 -62.546244
4000.0 0.025844 -73.116716
4020.0 0.016192 -79.320912
4040.0 0.007234 -56.158764
4060.0 0.009869 10.992639
4080.0 0.019117 16.778211
4100.0 0.027431 7.330675
4120.0 0.034134 -4.873247
4140.0 0.038307 -18.825915
4160.0 0.039995 -33.43835
4180.0 0.039118 -47.555478
4200.0 0.035511 -61.509434
4220.0 0.029205 -73.870935
4240.0 0.020747 -83.811792
4260.0 0.010669 -84.223121
4280.0 0.005643 -15.189224
4300.0 0.013975 15.521418
4320.0 0.023669 10.6526
4340.0 0.031669 -0.924075
4360.0 0.037821 -13.840548
4380.0 0.041731 -27.712306
4400.0 0.042476 -41.695184
4420.0 0.040431 -55.135043
4440.0 0.03544 -67.884872
4460.0 0.028382 -79.907776
4480.0 0.019636 -87.546858
4500.0 0.010854 -82.70061
4520.0 0.008159 -31.684469
4540.0 0.015459 -5.617993
4560.0 0.024371 -9.745321
4580.0 0.032244 -19.690838
4600.0 0.038025 -31.785724
4620.0 0.040588 -44.706077
4640.0 0.040182 -58.442824
4660.0 0.036721 -72.267397
4680.0 0.030462 -86.558995
4700.0 0.022654 -101.429846
4720.0 0.013451 -113.489259
4740.0 0.003734 -103.097232
4760.0 0.007764 11.095952
4780.0 0.017791 4.809481
4800.0 0.026848 -7.493082
4820.0 0.0343 -20.781361
4840.0 0.038912 -34.029321
4860.0 0.040521 -47.296973
4880.0 0.038556 -60.378872
4900.0 0.034261 -73.248893
4920.0 0.027228 -85.338594
4940.0 0.01872 -93.604563
4960.0 0.010245 -87.887958
4980.0 0.007573 -32.627899
5000.0 0.014835 -8.595388
5020.0 0.023829 -12.415605
5040.0 0.031295 -23.207611
5060.0 0.036916 -35.297872
5080.0 0.039703 -48.332197
5100.0 0.039326 -61.323694
5120.0 0.036139 -73.806205
5140.0 0.03007 -85.239653
5160.0 0.022082 -93.906198
5180.0 0.013224 -91.902363
5200.0 0.007911 -52.953972
5220.0 0.014129 -15.646853
5240.0 0.023278 -15.463096
5260.0 0.031787 -24.797299
5280.0 0.039021 -37.758693
5300.0 0.043633 -51.184657
5320.0 0.045576 -65.489361
5340.0 0.044926 -79.340352
5360.0 0.040824 -92.823275
5380.0 0.033904 -105.977318
5400.0 0.024951 -117.743695
5420.0 0.014651 -124.919705
5440.0 0.005416 -95.127132
5460.0 0.010138 -24.782136
5480.0 0.019925 -24.978654
5500.0 0.028844 -36.600847
5520.0 0.035901 -50.408421
5540.0 0.040602 -64.423248
5560.0 0.042279 -79.039027
5580.0 0.040886 -94.107406
5600.0 0.036444 -109.092164
5620.0 0.029638 -124.17253
5640.0 0.020699 -140.440585
5660.0 0.010636 -157.692109
5680.0 0.000547 115.13516
5700.0 0.010258 -3.424525
5720.0 0.019824 -19.59266
5740.0 0.027489 -35.230275
5760.0 0.032879 -50.755003
5780.0 0.035757 -66.076287
5800.0 0.035398 -81.3345
5820.0 0.032173 -96.429964
5840.0 0.02687 -111.274783
5860.0 0.01944 -124.587539
5880.0 0.010173 -131.256802
5900.0 0.003598 -70.637893
5920.0 0.01167 -20.684624
5940.0 0.021938 -26.977706
5960.0 0.030875 -38.742661
5980.0 0.037617 -52.435896
6000.0 0.041367 -66.75213
6020.0 0.042324 -81.880392
6040.0 0.040746 -97.872
6060.0 0.036557 -113.985273
6080.0 0.029712 -130.156332
6100.0 0.021835 -145.072584
6120.0 0.011984 -158.161263
6140.0 0.001669 -125.901816
6160.0 0.010208 -21.961514
6180.0 0.020852 -32.717219
6200.0 0.029213 -46.704974
6220.0 0.035319 -61.334523
6240.0 0.038541 -76.470016
6260.0 0.038923 -92.210985
6280.0 0.037048 -108.438695
6300.0 0.032916 -123.806482
6320.0 0.026651 -138.063691
6340.0 0.018258 -148.550814
6360.0 0.009171 -146.988083
6380.0 0.00591 -74.073213
6400.0 0.014614 -51.010315
6420.0 0.023521 -57.974678
6440.0 0.031237 -70.719168
6460.0 0.035863 -84.929546
6480.0 0.038023 -100.137795
6500.0 0.037606 -116.453623
6520.0 0.034222 -133.161593
6540.0 0.028768 -150.882879
6560.0 0.021006 -170.173399
6580.0 0.011621 164.150298
6600.0 0.003972 88.030833
6620.0 0.010944 -6.588787
6640.0 0.020448 -33.182856
6660.0 0.029157 -52.8618
6680.0 0.036476 -69.93661
6700.0 0.040787 -86.572983
6720.0 0.042428 -102.701579
6740.0 0.040562 -118.699525
6760.0 0.036055 -134.868038
6780.0 0.028746 -152.033968
6800.0 0.020178 -169.91217
6820.0 0.01017 170.801844
6840.0 0.000926 96.37445
6860.0 0.009426 -33.131171
6880.0 0.018495 -51.888946
6900.0 0.026358 -68.91504
6920.0 0.032131 -85.335595
6940.0 0.035327 -100.639354
6960.0 0.035356 -116.268146
6980.0 0.032157 -131.366112
7000.0 0.026655 -145.959651
7020.0 0.019033 -160.302869
7040.0 0.010141 -169.247888
7060.0 0.002908 -102.74419
7080.0 0.011157 -54.889681
7100.0 0.020752 -64.409716
7120.0 0.029603 -77.879575
7140.0 0.036511 -92.969862
7160.0 0.041139 -107.941385
7180.0 0.043019 -123.93629
7200.0 0.042399 -140.029681
7220.0 0.038755 -156.416063
7240.0 0.03234 -172.600779
7260.0 0.023793 170.263068
7280.0 0.013384 151.881168
7300.0 0.003402 109.263907
7320.0 0.008212 -40.173478
7340.0 0.017319 -62.238794
7360.0 0.025041 -81.434782
7380.0 0.030648 -99.34333
7400.0 0.034886 -117.978634
7420.0 0.036513 -135.272054
7440.0 0.035779 -152.389084
7460.0 0.032348 -168.11389
7480.0 0.025651 177.323096
7500.0 0.0168 162.933561
7520.0 0.005879 154.505241
7540.0 0.005091 -54.949414
7560.0 0.015561 -65.190507
7580.0 0.023997 -81.209356
7600.0 0.031212 -98.530198
7620.0 0.036624 -116.321172
7640.0 0.040731 -133.616333
7660.0 0.042631 -150.179934
7680.0 0.041973 -165.47162
7700.0 0.037903 -179.859382
7720.0 0.030914 166.44561
7740.0 0.0218 152.66091
7760.0 0.011644 140.544295
7780.0 0.002131 145.909316
7800.0 0.006852 -83.294351
7820.0 0.013912 -99.174353
7840.0 0.019754 -118.003457
7860.0 0.024771 -137.432853
7880.0 0.028719 -155.347427
7900.0 0.030515 -172.355719
7920.0 0.029618 172.231709
7940.0 0.026164 156.823563
7960.0 0.019873 141.281648
7980.0 0.012025 122.558678
8000.0 0.00411 86.416068
8020.0 0.005569 -56.782911
8040.0 0.012685 -86.594669
8060.0 0.019067 -106.774845
8080.0 0.024371 -126.368101
8100.0 0.028353 -145.298109
8120.0 0.030793 -162.286455
8140.0 0.031273 -179.02388
8160.0 0.02995 165.087972
8180.0 0.025724 150.048934
8200.0 0.019918 136.767869
8220.0 0.012731 126.292291
8240.0 0.004983 127.508088
8260.0 0.004382 -127.29179
8280.0 0.011557 -120.982773
8300.0 0.017846 -133.076201
8320.0 0.022048 -147.691119
8340.0 0.024932 -163.050922
8360.0 0.025902 -179.36634
8380.0 0.025008 163.413032
8400.0 0.023007 146.898723
8420.0 0.019013 132.352014
8440.0 0.013822 121.731197
8460.0 0.007453 121.898551
8480.0 0.004107 -170.845661
8500.0 0.01027 -139.107508
8520.0 0.017513 -144.044728
8540.0 0.023363 -155.518482
8560.0 0.027249 -169.407006
8580.0 0.028854 174.941869
8600.0 0.029049 157.675655
8620.0 0.027606 139.503646
8640.0 0.024877 120.824824
8660.0 0.020704 101.721357
8680.0 0.01517 80.673527
8700.0 0.008764 54.383863
8720.0 0.003712 -21.011924
8740.0 0.008826 -106.202685
8760.0 0.016382 -131.470392
8780.0 0.022235 -149.545567
8800.0 0.026684 -166.022702
8820.0 0.028726 177.559066
8840.0 0.029131 160.870205
8860.0 0.027968 144.221516
8880.0 0.025457 127.501205
8900.0 0.022226 112.340058
8920.0 0.017868 101.012554
8940.0 0.012515 96.931339
8960.0 0.007594 112.062398
8980.0 0.008117 154.923175
9000.0 0.013183 170.770148
9020.0 0.018632 167.243327
9040.0 0.022455 158.139559
9060.0 0.02499 145.760117
9080.0 0.025946 132.07319
9100.0 0.025149 117.564729
9120.0 0.023554 102.136073
9140.0 0.020966 88.433815
9160.0 0.0175 76.327133
9180.0 0.012862 68.579439
9200.0 0.00804 72.169206
9220.0 0.005228 106.160328
9240.0 0.007211 142.004984
9260.0 0.010904 145.692507
9280.0 0.013514 139.634867
9300.0 0.014666 127.614834
9320.0 0.014117 113.931167
9340.0 0.01265 97.144147
9360.0 0.010165 78.312186
9380.0 0.007591 56.700911
9400.0 0.00388 24.213051
9420.0 0.001799 -72.971122
9440.0 0.005316 -141.349596
9460.0 0.01 -166.0827
9480.0 0.014414 176.677822
9500.0 0.018328 161.259303
9520.0 0.021108 147.082347
9540.0 0.022425 134.105491
9560.0 0.022111 121.671904
9580.0 0.020343 109.828787
9600.0 0.017764 101.054332
9620.0 0.014218 94.546179
9640.0 0.010744 97.600739
9660.0 0.009268 111.028702
9680.0 0.010513 128.460746
9700.0 0.01421 133.055651
9720.0 0.018562 127.953707
9740.0 0.02281 118.469208
9760.0 0.025992 108.4501
9780.0 0.027439 96.834215
9800.0 0.0275 84.102321
9820.0 0.025756 71.435923
9840.0 0.022334 57.153948
9860.0 0.017323 42.456788
9880.0 0.011706 24.930155
9900.0 0.005657 2.0554
9920.0 0.001231 -108.547417
9940.0 0.006475 174.635614
9960.0 0.012061 150.936363
9980.0 0.017409 132.496304
10000.0 0.022283 115.728194
10020.0 0.025729 101.259855
10040.0 0.027602 87.286012
10060.0 0.027712 73.712125
10080.0 0.025563 59.419188
10100.0 0.021727 45.489372
10120.0 0.016725 31.201388
10140.0 0.011386 15.4608
10160.0 0.00606 -1.993043
10180.0 0.001062 -31.831887
10200.0 0.003653 141.005501
10220.0 0.008092 123.115924
10240.0 0.012011 106.568708
10260.0 0.014722 92.881598
10280.0 0.01666 80.470485
10300.0 0.016468 70.688057
10320.0 0.014554 62.452425
10340.0 0.011044 56.716287
10360.0 0.006979 63.713268
10380.0 0.005278 99.170806
10400.0 0.007729 122.624005
10420.0 0.011969 119.265775
10440.0 0.01589 108.190798
10460.0 0.019815 93.113399
10480.0 0.02333 78.45858
10500.0 0.02572 64.387296
10520.0 0.026213 49.958254
10540.0 0.024659 37.395967
10560.0 0.020946 23.816058
10580.0 0.01561 9.283739
10600.0 0.0093 -10.171405
10620.0 0.002546 -38.247619
10640.0 0.004093 160.476631
10660.0 0.010071 137.383975
10680.0 0.015265 118.335755
10700.0 0.019415 100.841803
10720.0 0.023033 84.381884
10740.0 0.024956 69.327305
10760.0 0.02555 55.321086
10780.0 0.024405 43.568797
10800.0 0.021332 34.579387
10820.0 0.017835 29.348255
10840.0 0.013931 33.02077
10860.0 0.012133 46.496765
10880.0 0.013765 60.119535
10900.0 0.017347 63.25916
10920.0 0.021028 57.65515
10940.0 0.024031 45.880424
10960.0 0.02571 32.326319
10980.0 0.025925 17.402597
11000.0 0.024756 0.878769
11020.0 0.021455 -15.794058
11040.0 0.016773 -35.404072
11060.0 0.010419 -59.886958
11080.0 0.004668 -124.330932
11100.0 0.008608 147.09964
11120.0 0.016276 118.46654
11140.0 0.022967 97.965559
11160.0 0.028068 80.346652
11180.0 0.031093 61.609922
11200.0 0.032219 43.670182
11220.0 0.032484 24.990897
11240.0 0.030792 7.234315
11260.0 0.026926 -9.030356
11280.0 0.021542 -24.772664
11300.0 0.013906 -36.882509
11320.0 0.005165 -39.369796
11340.0 0.004946 86.726302
11360.0 0.014068 85.164446
11380.0 0.021585 71.805087
11400.0 0.027522 55.91639
11420.0 0.031606 39.363228
11440.0 0.033825 21.452804
11460.0 0.034121 3.204407
11480.0 0.032615 -14.784291
11500.0 0.029222 -32.683999
11520.0 0.02351 -50.631888
11540.0 0.016562 -72.356418
11560.0 0.009078 -103.376036
11580.0 0.005213 175.051461
11600.0 0.009692 108.374068
11620.0 0.015664 78.833888
11640.0 0.02021 57.017775
11660.0 0.02292 37.193858
11680.0 0.02342 17.824923
11700.0 0.021886 -1.114552
11720.0 0.018836 -21.784517
11740.0 0.013901 -43.939028
11760.0 0.00775 -72.966522
11780.0 0.003483 -161.365667
11800.0 0.008942 119.874395
11820.0 0.01657 92.659494
11840.0 0.023698 71.868343
11860.0 0.029584 53.068665
11880.0 0.033683 35.44254
11900.0 0.035564 17.851894
11920.0 0.034874 0.316737
11940.0 0.032231 -18.672312
11960.0 0.027614 -38.399757
11980.0 0.021788 -59.586073
12000.0 0.015326 -82.673117
12020.0 0.008267 -117.349079
12040.0 0.004569 146.759797
12060.0 0.011123 82.180238
12080.0 0.018782 55.558404
12100.0 0.025066 36.022294
12120.0 0.029556 17.901092
12140.0 0.031329 -0.301581
12160.0 0.030305 -19.239945
12180.0 0.027296 -39.305399
12200.0 0.022893 -61.288136
12220.0 0.017609 -87.256739
12240.0 0.011707 -121.449583
12260.0 0.007436 178.995011
12280.0 0.0104 106.117411
12300.0 0.017496 67.061335
12320.0 0.024447 42.799138
12340.0 0.03051 22.377483
12360.0 0.034035 2.885828
12380.0 0.035081 -16.473904
12400.0 0.034044 -36.48378
12420.0 0.030815 -58.477735
12440.0 0.026356 -82.381396
12460.0 0.02124 -109.772163
12480.0 0.015894 -145.251226
12500.0 0.013161 166.071192
12520.0 0.014598 115.369274
12540.0 0.01858 76.643083
12560.0 0.023701 47.701244
12580.0 0.027112 23.716778
12600.0 0.028946 1.944775
12620.0 0.028718 -18.586319
12640.0 0.026362 -39.599958
12660.0 0.02209 -61.839112
12680.0 0.016575 -86.457868
12700.0 0.009778 -121.5641
12720.0 0.006304 165.00111
12740.0 0.010847 98.245138
12760.0 0.017175 64.587617
12780.0 0.022875 40.390384
12800.0 0.027109 18.711038
12820.0 0.029573 -2.646458
12840.0 0.030514 -23.420826
12860.0 0.029293 -44.664604
12880.0 0.026127 -67.135082
12900.0 0.021074 -91.312832
12920.0 0.015456 -123.358876
12940.0 0.011422 -173.010461
12960.0 0.012436 128.551342
12980.0 0.017483 87.547433
13000.0 0.02286 59.359049
13020.0 0.027389 34.630942
13040.0 0.029993 12.388287
13060.0 0.031301 -8.642046
13080.0 0.030727 -29.162889
13100.0 0.028214 -49.481316
13120.0 0.023677 -68.616259
13140.0 0.017223 -89.168899
13160.0 0.00893 -116.346806
13180.0 0.002986 150.722051
13200.0 0.009808 67.086031
13220.0 0.017543 40.325025
13240.0 0.023821 19.3822
13260.0 0.02866 -0.993817
13280.0 0.032034 -22.108164
13300.0 0.033782 -42.575428
13320.0 0.033618 -64.204105
13340.0 0.031795 -86.060382
13360.0 0.027911 -109.758872
13380.0 0.023136 -137.071469
13400.0 0.018816 -173.005338
13420.0 0.017377 142.736809
13440.0 0.019693 102.329451
13460.0 0.023441 70.045788
13480.0 0.026918 43.783152
13500.0 0.029173 21.081909
13520.0 0.029959 0.70486
13540.0 0.028902 -18.634753
13560.0 0.026276 -35.118423
13580.0 0.021641 -49.279204
13600.0 0.015889 -58.502131
13620.0 0.009834 -50.635661
13640.0 0.008309 -10.700256
13660.0 0.014289 7.76927
13680.0 0.021624 3.248566
13700.0 0.028478 -8.642051
13720.0 0.033946 -23.22741
13740.0 0.037823 -38.179864
13760.0 0.039445 -54.988862
13780.0 0.038962 -71.684037
13800.0 0.035745 -89.634163
13820.0 0.031157 -108.159415
13840.0 0.024986 -128.510757
13860.0 0.018162 -151.295271
13880.0 0.010761 179.436099
13900.0 0.005328 116.213412
13920.0 0.007633 25.507182
13940.0 0.014271 -10.38249
13960.0 0.020076 -34.92256
13980.0 0.02445 -56.275092
14000.0 0.026796 -77.167176
14020.0 0.027374 -101.249118
14040.0 0.026418 -126.742821
14060.0 0.025728 -156.207414
14080.0 0.025237 171.911512
14100.0 0.025682 141.683385
14120.0 0.027117 110.007618
14140.0 0.02931 80.663731
14160.0 0.031868 52.150106
14180.0 0.035222 26.788622
14200.0 0.037582 4.471685
14220.0 0.038325 -16.029963
14240.0 0.037227 -35.032109
14260.0 0.033762 -54.060053
14280.0 0.028338 -74.298048
14300.0 0.021885 -96.220475
14320.0 0.015429 -123.43698
14340.0 0.009528 -161.001189
14360.0 0.006833 133.559958
14380.0 0.009522 70.93282
14400.0 0.014959 34.899307
14420.0 0.020379 11.450472
14440.0 0.025002 -6.895269
14460.0 0.02755 -23.003135
14480.0 0.02853 -37.593096
14500.0 0.027281 -50.835592
14520.0 0.024574 -63.232409
14540.0 0.020663 -73.516328
14560.0 0.016987 -80.757176
14580.0 0.013356 -80.690848
14600.0 0.011902 -71.589833
14620.0 0.012998 -63.492923
14640.0 0.015352 -59.774987
14660.0 0.017962 -64.397815
14680.0 0.020092 -71.535085
14700.0 0.020521 -80.571469
14720.0 0.019949 -90.616105
14740.0 0.016944 -101.482135
14760.0 0.013188 -109.424264
14780.0 0.008797 -112.445094
