! File created by SignalIntegrity v1.1.10: Signal and Power Integrity Tools
! https://github.com/TeledyneLeCroy/SignalIntegrity
# MHz S MA R 50.0
0.0 0.999714 0.0
20.0 0.998804 -32.08384
40.0 0.994763 -64.508883
60.0 0.990552 -97.427149
80.0 0.987331 -130.865174
100.0 0.985395 -164.634952
120.0 0.984737 161.639384
140.0 0.982944 128.226088
160.0 0.9793 95.188111
180.0 0.976081 62.487415
200.0 0.975335 30.066235
220.0 0.978636 -2.158613
240.0 0.983042 -34.246468
260.0 0.985546 -66.496218
280.0 0.98517 -99.168298
300.0 0.982399 -132.348836
320.0 0.97908 -165.877425
340.0 0.974884 160.580587
360.0 0.9697 127.258634
380.0 0.964197 94.213442
400.0 0.961097 61.420515
420.0 0.962347 28.894289
440.0 0.96651 -3.413944
460.0 0.970736 -35.701117
480.0 0.970879 -68.261429
500.0 0.967556 -101.368171
520.0 0.963748 -134.946378
540.0 0.961249 -168.685286
560.0 0.958682 157.920325
580.0 0.955427 125.060011
600.0 0.949139 92.598616
620.0 0.944805 60.348843
640.0 0.944563 28.111933
660.0 0.949496 -4.082338
680.0 0.956183 -36.420128
700.0 0.961565 -69.049141
720.0 0.962568 -102.124917
740.0 0.960538 -135.543442
760.0 0.956878 -169.079812
780.0 0.951535 157.616621
800.0 0.945596 124.668749
820.0 0.940756 92.053006
840.0 0.939507 59.660132
860.0 0.9423 27.392707
880.0 0.94801 -4.900724
900.0 0.953384 -37.464805
920.0 0.956258 -70.451393
940.0 0.956805 -103.863557
960.0 0.954371 -137.509514
980.0 0.949141 -171.049787
1000.0 0.941436 155.705975
1020.0 0.933066 122.836201
1040.0 0.928464 90.258944
1060.0 0.930026 58.003377
1080.0 0.936672 25.941673
1100.0 0.944643 -6.125389
1120.0 0.951071 -38.456844
1140.0 0.953549 -71.333464
1160.0 0.95225 -104.686603
1180.0 0.947708 -138.343234
1200.0 0.941141 -171.999858
1220.0 0.933405 154.635102
1240.0 0.927301 121.689082
1260.0 0.925131 89.174833
1280.0 0.927455 56.977618
1300.0 0.933128 24.990575
1320.0 0.939903 -7.100981
1340.0 0.944765 -39.551438
1360.0 0.946817 -72.534044
1380.0 0.944816 -105.991811
1400.0 0.938684 -139.748042
1420.0 0.930236 -173.523322
1440.0 0.921939 152.946875
1460.0 0.917673 119.819944
1480.0 0.918959 87.318003
1500.0 0.925238 55.356893
1520.0 0.932751 23.714292
1540.0 0.938628 -7.988798
1560.0 0.941275 -40.147863
1580.0 0.940243 -72.969143
1600.0 0.936635 -106.500835
1620.0 0.930791 -140.492302
1640.0 0.924657 -174.599713
1660.0 0.92035 151.586421
1680.0 0.919186 118.326119
1700.0 0.921062 85.794369
1720.0 0.924101 53.778727
1740.0 0.927115 21.98719
1760.0 0.929484 -9.969036
1780.0 0.931533 -42.361841
1800.0 0.93175 -75.310682
1820.0 0.930146 -108.834602
1840.0 0.926536 -142.709739
1860.0 0.922272 -176.609686
1880.0 0.919213 149.830081
1900.0 0.917962 116.834448
1920.0 0.918683 84.520141
1940.0 0.91999 52.643282
1960.0 0.921781 20.877882
1980.0 0.924394 -11.047315
2000.0 0.927586 -43.367749
2020.0 0.930392 -76.237928
2040.0 0.929726 -109.620425
2060.0 0.925872 -143.436753
2080.0 0.919979 -177.381961
2100.0 0.914996 148.875394
2120.0 0.911336 115.672958
2140.0 0.911037 83.062381
2160.0 0.912567 50.983359
2180.0 0.916197 19.181571
2200.0 0.920749 -12.684544
2220.0 0.924535 -44.83039
2240.0 0.925951 -77.475519
2260.0 0.924313 -110.754472
2280.0 0.919342 -144.618353
2300.0 0.914158 -178.656107
2320.0 0.909707 147.497357
2340.0 0.907551 114.229361
2360.0 0.907285 81.568313
2380.0 0.910253 49.460556
2400.0 0.914103 17.677952
2420.0 0.918935 -14.112382
2440.0 0.922609 -46.144959
2460.0 0.92366 -78.757283
2480.0 0.92122 -112.034135
2500.0 0.916031 -145.921947
2520.0 0.910281 179.988218
2540.0 0.905574 146.070633
2560.0 0.903325 112.671659
2580.0 0.903779 79.912664
2600.0 0.907464 47.818804
2620.0 0.912766 16.14263
2640.0 0.917465 -15.450881
2660.0 0.919256 -47.342723
2680.0 0.91774 -79.942138
2700.0 0.914071 -113.33854
2720.0 0.909724 -147.351252
2740.0 0.905762 178.433379
2760.0 0.903306 144.474377
2780.0 0.902404 111.094406
2800.0 0.90306 78.393735
2820.0 0.906007 46.316533
2840.0 0.910244 14.648424
2860.0 0.913503 -16.933555
2880.0 0.91506 -48.884921
2900.0 0.913399 -81.499531
2920.0 0.910345 -114.918024
2940.0 0.906706 -148.942144
2960.0 0.903811 176.85194
2980.0 0.902135 142.926096
3000.0 0.901326 109.604449
3020.0 0.90223 77.021232
3040.0 0.903938 45.119359
3060.0 0.906974 13.588148
3080.0 0.908861 -17.909369
3100.0 0.910195 -49.754995
3120.0 0.910007 -82.26976
3140.0 0.908854 -115.526472
3160.0 0.905789 -149.436795
3180.0 0.902742 176.344629
3200.0 0.899239 142.234085
3220.0 0.897789 108.589689
3240.0 0.898196 75.655129
3260.0 0.900829 43.490861
3280.0 0.904239 11.875621
3300.0 0.907148 -19.53772
3320.0 0.909204 -51.147515
3340.0 0.908849 -83.307667
3360.0 0.907292 -116.168303
3380.0 0.903609 -149.749949
3400.0 0.899207 176.215207
3420.0 0.895655 142.037033
3440.0 0.894085 108.183312
3460.0 0.895281 74.972743
3480.0 0.897629 42.47629
3500.0 0.901421 10.571784
3520.0 0.905423 -21.029377
3540.0 0.908598 -52.660837
3560.0 0.909099 -84.609525
3580.0 0.906301 -117.167332
3600.0 0.900835 -150.450989
3620.0 0.894022 175.63144
3640.0 0.88955 141.467493
3660.0 0.88921 107.529932
3680.0 0.89269 74.240797
3700.0 0.897658 41.772123
3720.0 0.902326 9.942453
3740.0 0.90547 -21.563648
3760.0 0.906924 -53.126059
3780.0 0.905482 -85.074687
3800.0 0.901873 -117.718633
3820.0 0.896196 -151.129121
3840.0 0.891618 174.830401
3860.0 0.88926 140.570056
3880.0 0.890155 106.5953
3900.0 0.893364 73.283608
3920.0 0.897384 40.734135
3940.0 0.90165 8.892222
3960.0 0.904528 -22.514891
3980.0 0.90511 -53.824062
4000.0 0.9023 -85.544386
4020.0 0.897127 -117.9821
4040.0 0.891281 -151.320516
4060.0 0.888056 174.653247
4080.0 0.888113 140.375861
4100.0 0.890757 106.34118
4120.0 0.894088 72.957529
4140.0 0.896874 40.30352
4160.0 0.89889 8.30939
4180.0 0.899813 -23.283401
4200.0 0.899432 -54.81789
4220.0 0.898245 -86.601386
4240.0 0.895606 -118.976309
4260.0 0.892496 -152.083564
4280.0 0.889793 174.128893
4300.0 0.888369 140.003768
4320.0 0.888217 105.987725
4340.0 0.889943 72.416172
4360.0 0.892656 39.56968
4380.0 0.895537 7.459112
4400.0 0.898351 -24.089821
4420.0 0.899125 -55.43086
4440.0 0.897976 -86.967057
4460.0 0.89485 -119.07253
4480.0 0.891432 -151.958225
4500.0 0.888004 174.413304
4520.0 0.885429 140.267056
4540.0 0.884739 106.003937
4560.0 0.886166 72.083848
4580.0 0.88986 38.862571
4600.0 0.894163 6.41509
4620.0 0.89745 -25.327588
4640.0 0.898498 -56.743864
4660.0 0.896822 -88.23212
4680.0 0.892936 -120.196306
4700.0 0.887986 -152.849161
4720.0 0.883827 173.755025
4740.0 0.880756 139.838939
4760.0 0.880775 105.743545
4780.0 0.883247 71.948469
4800.0 0.888175 38.787507
4820.0 0.893302 6.474648
4840.0 0.896536 -25.191165
4860.0 0.895794 -56.601424
4880.0 0.892737 -88.112469
4900.0 0.887986 -120.207014
4920.0 0.883325 -153.029838
4940.0 0.88028 173.423799
4960.0 0.879233 139.339361
4980.0 0.880317 105.144592
5000.0 0.882983 71.231401
5020.0 0.886536 37.976783
5040.0 0.890111 5.495556
5060.0 0.892265 -26.309821
5080.0 0.892033 -57.721057
5100.0 0.889421 -89.148915
5120.0 0.884759 -121.009098
5140.0 0.879664 -153.623474
5160.0 0.875515 172.916738
5180.0 0.874465 138.834928
5200.0 0.876499 104.504643
5220.0 0.879998 70.44527
5240.0 0.884231 37.086635
5260.0 0.887042 4.451048
5280.0 0.888712 -27.439138
5300.0 0.888771 -58.807422
5320.0 0.887203 -90.04703
5340.0 0.883825 -121.545312
5360.0 0.879887 -153.674412
5380.0 0.875913 173.405145
5400.0 0.873599 139.653091
5420.0 0.873958 105.432741
5440.0 0.876329 71.197163
5460.0 0.879699 37.359085
5480.0 0.882959 4.269382
5500.0 0.885089 -28.010227
5520.0 0.885646 -59.653386
5540.0 0.884283 -91.036519
5560.0 0.880804 -122.512546
5580.0 0.877165 -154.486139
5600.0 0.874181 172.809911
5620.0 0.873038 139.375533
5640.0 0.873754 105.434025
5660.0 0.875817 71.381248
5680.0 0.878688 37.569848
5700.0 0.880924 4.348637
5720.0 0.88154 -28.196604
5740.0 0.880977 -60.144842
5760.0 0.878668 -91.803317
5780.0 0.87511 -123.552764
5800.0 0.871878 -155.707367
5820.0 0.869999 171.456193
5840.0 0.869462 137.995379
5860.0 0.870389 104.027733
5880.0 0.872819 69.954086
5900.0 0.875821 36.163442
5920.0 0.878869 3.001979
5940.0 0.88126 -29.337967
5960.0 0.881108 -61.016958
5980.0 0.878328 -92.363952
6000.0 0.874001 -123.784648
6020.0 0.870194 -155.70206
6040.0 0.867219 171.6644
6060.0 0.866243 138.250051
6080.0 0.866605 104.233757
6100.0 0.868651 69.952807
6120.0 0.87165 35.799734
6140.0 0.874972 2.317222
6160.0 0.877878 -30.305904
6180.0 0.877927 -62.144293
6200.0 0.87503 -93.531779
6220.0 0.870534 -124.966567
6240.0 0.865906 -156.838582
6260.0 0.862968 170.584606
6280.0 0.86301 137.200538
6300.0 0.864604 103.170586
6320.0 0.867828 68.824929
6340.0 0.870931 34.647658
6360.0 0.873655 1.037495
6380.0 0.874757 -31.748106
6400.0 0.873864 -63.776074
6420.0 0.870961 -95.299571
6440.0 0.867093 -126.674913
6460.0 0.863476 -158.341344
6480.0 0.861946 169.371571
6500.0 0.861912 136.364489
6520.0 0.864235 102.718244
6540.0 0.867235 68.691808
6560.0 0.869257 34.715908
6580.0 0.87018 1.151474
6600.0 0.869545 -31.78063
6620.0 0.867664 -64.074982
6640.0 0.865492 -95.884554
6660.0 0.863503 -127.482504
6680.0 0.861977 -159.254121
6700.0 0.861307 168.486679
6720.0 0.861363 135.492628
6740.0 0.862272 101.74291
6760.0 0.863525 67.537994
6780.0 0.864576 33.267571
6800.0 0.864829 -0.636948
6820.0 0.864551 -33.885142
6840.0 0.864174 -66.407558
6860.0 0.863446 -98.304622
6880.0 0.862816 -129.814668
6900.0 0.861343 -161.422396
6920.0 0.859292 166.53027
6940.0 0.85747 133.672353
6960.0 0.856744 100.03244
6980.0 0.857704 65.844118
7000.0 0.859876 31.606269
7020.0 0.862444 -2.193394
7040.0 0.864047 -35.286725
7060.0 0.864095 -67.560573
7080.0 0.863144 -99.151761
7100.0 0.8612 -130.404286
7120.0 0.858287 -161.713414
7140.0 0.855734 166.44048
7160.0 0.853892 133.739535
7180.0 0.853086 100.118073
7200.0 0.854499 65.762418
7220.0 0.857557 31.198991
7240.0 0.860999 -3.073104
7260.0 0.863736 -36.570896
7280.0 0.86339 -69.152123
7300.0 0.860196 -100.970632
7320.0 0.854345 -132.433548
7340.0 0.849189 -164.016171
7360.0 0.8466 163.947707
7380.0 0.848069 131.22832
7400.0 0.852552 97.872246
7420.0 0.857406 63.960513
7440.0 0.860906 29.835897
7460.0 0.862315 -4.138633
7480.0 0.861741 -37.618181
7500.0 0.859743 -70.400295
7520.0 0.856089 -102.463015
7540.0 0.851999 -134.103176
7560.0 0.849046 -165.669899
7580.0 0.848916 162.456283
7600.0 0.851307 130.066657
7620.0 0.854496 96.97062
7640.0 0.855658 63.206996
7660.0 0.854461 28.8866
7680.0 0.853196 -5.621723
7700.0 0.852863 -39.766448
7720.0 0.853782 -73.098778
7740.0 0.85441 -105.543728
7760.0 0.854217 -137.221196
7780.0 0.852978 -168.610854
7800.0 0.852234 159.842192
7820.0 0.852949 127.875358
7840.0 0.853923 95.296089
7860.0 0.853479 62.030584
7880.0 0.851354 28.11003
7900.0 0.849516 -6.1192
7920.0 0.849771 -40.19463
7940.0 0.851942 -73.638742
7960.0 0.854859 -106.208898
7980.0 0.855298 -138.08934
8000.0 0.853738 -169.603269
8020.0 0.851064 158.760331
8040.0 0.848767 126.606451
8060.0 0.848004 93.7918
8080.0 0.848734 60.334951
8100.0 0.849994 26.390239
8120.0 0.85065 -7.687405
8140.0 0.851484 -41.563719
8160.0 0.852117 -74.943071
8180.0 0.85258 -107.643285
8200.0 0.852641 -139.688474
8220.0 0.852621 -171.383509
8240.0 0.851623 156.959954
8260.0 0.850943 124.963901
8280.0 0.850013 92.412208
8300.0 0.850545 59.251064
8320.0 0.851509 25.593891
8340.0 0.85223 -8.214266
8360.0 0.852035 -41.872025
8380.0 0.850283 -75.198602
8400.0 0.848179 -108.058865
8420.0 0.847209 -140.411799
8440.0 0.847416 -172.420827
8460.0 0.849181 155.734978
8480.0 0.850892 123.786744
8500.0 0.851893 91.427812
8520.0 0.851675 58.493663
8540.0 0.85134 25.00841
8560.0 0.850496 -8.827092
8580.0 0.849004 -42.66562
8600.0 0.847198 -76.261748
8620.0 0.845546 -109.479179
8640.0 0.844705 -142.209699
8660.0 0.845807 -174.53414
8680.0 0.848338 153.409537
8700.0 0.851007 121.431593
8720.0 0.851429 89.170734
8740.0 0.850008 56.426287
8760.0 0.847864 23.124584
8780.0 0.846723 -10.626469
8800.0 0.847079 -44.424681
8820.0 0.848517 -77.915328
8840.0 0.848945 -110.93419
8860.0 0.849367 -143.440143
8880.0 0.84965 -175.538231
8900.0 0.850567 152.631814
8920.0 0.851467 120.844552
8940.0 0.850999 88.879995
8960.0 0.848731 56.492389
8980.0 0.844893 23.477091
9000.0 0.842114 -10.109587
9020.0 0.841651 -43.969412
9040.0 0.843344 -77.781926
9060.0 0.846074 -111.20355
9080.0 0.848328 -144.125175
9100.0 0.849139 -176.603025
9120.0 0.849994 151.265432
9140.0 0.850319 119.28752
9160.0 0.849862 87.279002
9180.0 0.848839 55.095022
9200.0 0.846151 22.534318
9220.0 0.843192 -10.448947
9240.0 0.840864 -43.831411
9260.0 0.84085 -77.314182
9280.0 0.842753 -110.67804
9300.0 0.845259 -143.741828
9320.0 0.847479 -176.481923
9340.0 0.848125 151.039749
9360.0 0.847914 118.650082
9380.0 0.846804 86.187586
9400.0 0.845206 53.563841
9420.0 0.842782 20.70233
9440.0 0.840408 -12.403562
9460.0 0.838488 -45.721484
9480.0 0.838062 -79.097909
9500.0 0.838917 -112.303817
9520.0 0.842039 -145.213783
9540.0 0.845554 -177.730495
9560.0 0.848271 150.067816
9580.0 0.849543 118.046684
9600.0 0.849302 86.014457
9620.0 0.847089 53.727869
9640.0 0.843575 21.107923
9660.0 0.839561 -11.973474
9680.0 0.83568 -45.487551
9700.0 0.833554 -79.2516
9720.0 0.833764 -113.060044
9740.0 0.836979 -146.64732
9760.0 0.841902 -179.744284
9780.0 0.846461 147.683915
9800.0 0.8487 115.557875
9820.0 0.848301 83.649316
9840.0 0.845037 51.699396
9860.0 0.840453 19.463364
9880.0 0.836592 -13.123969
9900.0 0.834082 -46.102599
9920.0 0.83377 -79.328609
9940.0 0.834868 -112.705741
9960.0 0.83726 -146.013135
9980.0 0.840791 -179.129628
10000.0 0.84492 148.124278
10020.0 0.848222 115.804476
10040.0 0.848962 83.774169
10060.0 0.845904 51.872087
10080.0 0.840407 19.78124
10100.0 0.834642 -12.717476
10120.0 0.831585 -45.663843
10140.0 0.831605 -78.928624
10160.0 0.83411 -112.310369
10180.0 0.83791 -145.664882
10200.0 0.840494 -178.901942
10220.0 0.842054 148.035284
10240.0 0.842455 115.265157
10260.0 0.84187 82.769972
10280.0 0.839332 50.486316
10300.0 0.834573 18.187778
10320.0 0.829083 -14.389109
10340.0 0.825188 -47.345628
10360.0 0.824624 -80.644919
10380.0 0.827725 -114.116438
10400.0 0.83261 -147.554691
10420.0 0.837586 179.211823
10440.0 0.840919 146.242158
10460.0 0.842228 113.633319
10480.0 0.841853 81.375276
10500.0 0.839031 49.370865
10520.0 0.833883 17.404151
10540.0 0.828102 -14.775937
10560.0 0.822958 -47.359403
10580.0 0.821153 -80.34406
10600.0 0.823266 -113.653197
10620.0 0.827671 -147.0442
10640.0 0.832608 179.637111
10660.0 0.836244 146.568333
10680.0 0.83889 113.783966
10700.0 0.839257 81.377946
10720.0 0.837927 49.246488
10740.0 0.834547 17.235787
10760.0 0.828911 -14.914592
10780.0 0.822912 -47.48818
10800.0 0.81838 -80.652407
10820.0 0.816909 -114.363591
10840.0 0.81976 -148.371725
10860.0 0.825537 177.650972
10880.0 0.831993 144.085794
10900.0 0.835657 111.075073
10920.0 0.836671 78.610447
10940.0 0.834655 46.559826
10960.0 0.831341 14.735956
10980.0 0.827502 -17.0489
11000.0 0.824174 -49.058804
11020.0 0.820954 -81.440285
11040.0 0.819465 -114.410747
11060.0 0.82029 -147.831179
11080.0 0.824945 178.530577
11100.0 0.831175 145.054969
11120.0 0.836454 112.087228
11140.0 0.838172 79.645719
11160.0 0.835789 47.62163
11180.0 0.829975 15.766577
11200.0 0.822922 -16.213689
11220.0 0.817789 -48.477939
11240.0 0.814789 -81.203744
11260.0 0.814157 -114.414498
11280.0 0.816501 -148.069144
11300.0 0.821242 178.110451
11320.0 0.826407 144.438889
11340.0 0.830785 111.178698
11360.0 0.832071 78.457248
11380.0 0.830163 46.227619
11400.0 0.82648 14.321993
11420.0 0.822733 -17.477555
11440.0 0.819482 -49.420539
11460.0 0.817562 -81.671291
11480.0 0.817095 -114.437597
11500.0 0.817933 -147.761999
11520.0 0.820795 178.507713
11540.0 0.824672 144.644691
11560.0 0.827863 111.006951
11580.0 0.829279 77.831857
11600.0 0.826721 45.126048
11620.0 0.822063 12.804499
11640.0 0.816339 -19.352264
11660.0 0.811949 -51.598952
11680.0 0.810346 -84.071448
11700.0 0.810926 -116.890746
11720.0 0.813943 -150.05035
11740.0 0.818018 176.537222
11760.0 0.822274 143.059641
11780.0 0.825965 109.774604
11800.0 0.827661 76.881157
11820.0 0.827389 44.517771
11840.0 0.824306 12.583473
11860.0 0.819052 -19.16687
11880.0 0.812888 -51.03326
11900.0 0.807422 -83.329448
11920.0 0.804876 -116.242746
11940.0 0.806393 -149.739733
11960.0 0.811638 176.399493
11980.0 0.81789 142.495689
12000.0 0.822535 108.754427
12020.0 0.824945 75.465694
12040.0 0.825125 42.773858
12060.0 0.822502 10.627885
12080.0 0.81803 -21.132476
12100.0 0.812159 -52.876663
12120.0 0.80671 -84.911629
12140.0 0.80383 -117.542853
12160.0 0.804967 -150.794735
12180.0 0.81048 175.537131
12200.0 0.817724 141.678603
12220.0 0.823876 108.010766
12240.0 0.826916 74.74478
12260.0 0.82603 42.023048
12280.0 0.821701 9.793168
12300.0 0.815271 -22.105565
12320.0 0.808392 -53.972327
12340.0 0.803057 -86.081799
12360.0 0.801202 -118.669142
12380.0 0.804335 -151.750757
12400.0 0.810191 174.768259
12420.0 0.816647 141.091106
12440.0 0.820371 107.433234
12460.0 0.820764 73.91455
12480.0 0.818057 40.776697
12500.0 0.813945 8.055012
12520.0 0.809501 -24.294223
12540.0 0.806003 -56.453771
12560.0 0.803773 -88.683238
12580.0 0.80334 -121.205285
12600.0 0.805359 -154.14958
12620.0 0.809282 172.48034
12640.0 0.813962 138.849958
12660.0 0.817559 105.24884
12680.0 0.818604 71.919965
12700.0 0.81715 39.044748
12720.0 0.813365 6.639138
12740.0 0.808836 -25.41462
12760.0 0.804805 -57.35218
12780.0 0.802529 -89.40559
12800.0 0.802218 -121.80348
12820.0 0.804139 -154.64033
12840.0 0.807339 172.017721
12860.0 0.810978 138.309221
12880.0 0.814074 104.481262
12900.0 0.816247 70.897063
12920.0 0.816365 37.833712
12940.0 0.813889 5.380567
12960.0 0.809077 -26.705897
12980.0 0.803545 -58.688175
13000.0 0.798556 -90.873077
13020.0 0.796608 -123.481644
13040.0 0.797971 -156.618695
13060.0 0.80216 169.787519
13080.0 0.80747 135.918442
13100.0 0.812485 102.090417
13120.0 0.81604 68.656526
13140.0 0.817339 35.836386
13160.0 0.815644 3.667616
13180.0 0.81108 -28.066845
13200.0 0.804568 -59.644422
13220.0 0.799019 -91.487401
13240.0 0.796049 -123.804212
13260.0 0.797035 -156.740835
13280.0 0.801254 169.755837
13300.0 0.807634 135.888411
13320.0 0.813226 101.941111
13340.0 0.816228 68.218292
13360.0 0.815902 34.959803
13380.0 0.811787 2.183627
13400.0 0.805389 -30.27562
13420.0 0.798888 -62.651283
13440.0 0.794914 -95.154294
13460.0 0.795555 -127.878648
13480.0 0.79968 -160.890957
13500.0 0.805761 165.843383
13520.0 0.811323 132.480382
13540.0 0.814861 99.116444
13560.0 0.816231 66.038731
13580.0 0.815817 33.412067
13600.0 0.813847 1.262562
13620.0 0.811024 -30.453629
13640.0 0.807515 -62.010737
13660.0 0.804169 -93.699915
13680.0 0.802191 -125.873148
13700.0 0.801235 -158.71765
13720.0 0.802456 167.68669
13740.0 0.805153 133.519451
13760.0 0.807987 99.122392
13780.0 0.809837 64.917453
13800.0 0.810061 31.236972
13820.0 0.808498 -1.796601
13840.0 0.806506 -34.168388
13860.0 0.80519 -66.072026
13880.0 0.804841 -97.698758
13900.0 0.804729 -129.351092
13920.0 0.804802 -161.383133
13940.0 0.804714 165.993139
13960.0 0.805046 132.683439
13980.0 0.806727 98.885556
14000.0 0.809912 64.979783
14020.0 0.812508 31.316088
14040.0 0.813082 -1.9092
14060.0 0.810323 -34.740118
14080.0 0.805178 -67.369888
14100.0 0.800538 -100.026358
14120.0 0.797388 -132.845643
14140.0 0.797501 -165.889215
14160.0 0.800898 160.829274
14180.0 0.806038 127.469123
14200.0 0.812027 94.221942
14220.0 0.817155 61.314476
14240.0 0.81928 28.84317
14260.0 0.817777 -3.22875
14280.0 0.813179 -35.085714
14300.0 0.807614 -67.004688
14320.0 0.8032 -99.103747
14340.0 0.80139 -131.518399
14360.0 0.801875 -164.35104
14380.0 0.804039 162.452737
14400.0 0.807273 128.986543
14420.0 0.810823 95.45578
14440.0 0.814374 62.181141
14460.0 0.816242 29.375594
14480.0 0.816127 -2.8683
14500.0 0.813245 -34.709825
14520.0 0.809371 -66.377188
14540.0 0.805529 -98.153585
14560.0 0.803065 -130.249547
14580.0 0.80262 -162.822374
14600.0 0.802748 164.072305
14620.0 0.80292 130.452055
14640.0 0.803596 96.468943
14660.0 0.804979 62.453662
14680.0 0.806948 28.774965
14700.0 0.808898 -4.310669
14720.0 0.810327 -36.723259
14740.0 0.809817 -68.691988
