! File created by SignalIntegrity v1.1.10: Signal and Power Integrity Tools
! https://github.com/TeledyneLeCroy/SignalIntegrity
# MHz S MA R 50.0
0.0 1.289844 -0.0
20.0 1.287554 -31.880076
40.0 1.282202 -64.166108
60.0 1.276424 -97.082009
80.0 1.273931 -130.554068
100.0 1.27478 -164.288801
120.0 1.275293 162.062999
140.0 1.273199 128.700491
160.0 1.267059 95.646983
180.0 1.260708 62.812243
200.0 1.259063 30.240536
220.0 1.262529 -2.164474
240.0 1.268007 -34.516872
260.0 1.271159 -67.034936
280.0 1.271268 -99.958012
300.0 1.268511 -133.309681
320.0 1.265312 -166.842784
340.0 1.260988 159.721141
360.0 1.2533 126.571138
380.0 1.245813 93.708763
400.0 1.24076 61.107668
420.0 1.242417 28.709503
440.0 1.248306 -3.426907
460.0 1.25375 -35.56611
480.0 1.254381 -67.971728
500.0 1.250535 -100.909061
520.0 1.245839 -134.382952
540.0 1.242752 -167.997079
560.0 1.239831 158.610257
580.0 1.234195 125.631388
600.0 1.225543 92.937985
620.0 1.219269 60.380884
640.0 1.219386 27.964206
660.0 1.22529 -4.40928
680.0 1.232987 -36.781404
700.0 1.2376 -69.363609
720.0 1.237539 -102.462635
740.0 1.234477 -135.967013
760.0 1.229889 -169.592363
780.0 1.224222 156.973252
800.0 1.219307 123.918438
820.0 1.215588 91.229815
840.0 1.215125 58.967166
860.0 1.219967 26.945254
880.0 1.225644 -4.969298
900.0 1.230005 -37.0621
920.0 1.231313 -69.674774
940.0 1.229853 -102.885664
960.0 1.226937 -136.537093
980.0 1.223113 -170.353578
1000.0 1.216215 156.053121
1020.0 1.209819 122.787546
1040.0 1.206278 89.965854
1060.0 1.208172 57.609338
1080.0 1.213864 25.71443
1100.0 1.219291 -6.067404
1120.0 1.22101 -38.128943
1140.0 1.21981 -70.739151
1160.0 1.217371 -104.086588
1180.0 1.21581 -137.903985
1200.0 1.214637 -171.82641
1220.0 1.211834 154.5499
1240.0 1.208426 121.435374
1260.0 1.205735 88.874305
1280.0 1.204893 56.791941
1300.0 1.204355 25.004763
1320.0 1.203934 -6.871635
1340.0 1.204205 -39.094786
1360.0 1.20637 -71.952627
1380.0 1.209926 -105.364178
1400.0 1.212695 -139.113944
1420.0 1.21222 -172.926637
1440.0 1.207971 153.467155
1460.0 1.201861 120.290438
1480.0 1.196617 87.643282
1500.0 1.193879 55.460099
1520.0 1.191979 23.509728
1540.0 1.191475 -8.478912
1560.0 1.193956 -40.876783
1580.0 1.200793 -73.785907
1600.0 1.208204 -107.180987
1620.0 1.21257 -140.912874
1640.0 1.21083 -174.739596
1660.0 1.204017 151.594793
1680.0 1.195898 118.280693
1700.0 1.18912 85.517594
1720.0 1.185867 53.264967
1740.0 1.185691 21.370226
1760.0 1.18898 -10.374749
1780.0 1.195867 -42.249667
1800.0 1.203439 -74.4872
1820.0 1.20789 -107.336908
1840.0 1.205674 -140.78339
1860.0 1.197859 -174.719049
1880.0 1.188156 151.16751
1900.0 1.182856 117.371641
1920.0 1.181858 84.208313
1940.0 1.184519 51.777727
1960.0 1.187929 19.876269
1980.0 1.191741 -11.789564
2000.0 1.195779 -43.532723
2020.0 1.197103 -75.725867
2040.0 1.195837 -108.695533
2060.0 1.190129 -142.463424
2080.0 1.183869 -176.768011
2100.0 1.180381 148.934591
2120.0 1.18182 115.17669
2140.0 1.185873 82.246654
2160.0 1.189056 50.168742
2180.0 1.189487 18.610012
2200.0 1.187664 -12.6967
2220.0 1.184608 -44.306083
2240.0 1.181828 -76.608423
2260.0 1.180187 -109.862687
2280.0 1.179797 -143.967359
2300.0 1.18277 -178.416538
2320.0 1.187479 147.432684
2340.0 1.19183 113.951298
2360.0 1.190649 81.28639
2380.0 1.185875 49.251374
2400.0 1.178558 17.565994
2420.0 1.172309 -14.049672
2440.0 1.168915 -45.943509
2460.0 1.170714 -78.424621
2480.0 1.175005 -111.697589
2500.0 1.181659 -145.582054
2520.0 1.187419 -179.761629
2540.0 1.189522 146.381559
2560.0 1.187347 112.951094
2580.0 1.180186 80.143492
2600.0 1.171073 47.821775
2620.0 1.162495 15.872676
2640.0 1.160304 -15.872701
2660.0 1.163223 -47.670187
2680.0 1.171671 -79.911762
2700.0 1.180499 -112.774468
2720.0 1.187013 -146.312484
2740.0 1.187301 179.686411
2760.0 1.181665 145.673855
2780.0 1.173375 111.812497
2800.0 1.16482 78.459963
2820.0 1.161256 45.636811
2840.0 1.160392 13.623388
2860.0 1.165646 -17.835279
2880.0 1.171817 -49.067465
2900.0 1.180193 -80.650332
2920.0 1.182105 -113.026081
2940.0 1.180891 -146.391027
2960.0 1.17312 179.422463
2980.0 1.165953 144.781279
3000.0 1.161142 110.229712
3020.0 1.16198 76.333485
3040.0 1.167697 43.385238
3060.0 1.172282 11.574161
3080.0 1.175454 -19.564128
3100.0 1.174647 -50.431409
3120.0 1.17264 -81.92656
3140.0 1.166536 -114.303827
3160.0 1.161457 -147.949928
3180.0 1.157599 177.520255
3200.0 1.160562 142.722046
3220.0 1.168282 108.262876
3240.0 1.17756 74.725776
3260.0 1.182965 42.248812
3280.0 1.180146 10.751004
3300.0 1.170057 -20.333902
3320.0 1.158191 -51.465528
3340.0 1.150594 -83.327642
3360.0 1.148792 -116.075419
3380.0 1.153766 -149.725207
3400.0 1.161354 176.183572
3420.0 1.170765 142.013553
3440.0 1.175779 108.185379
3460.0 1.177467 74.914108
3480.0 1.171951 42.273436
3500.0 1.163311 10.265358
3520.0 1.154102 -21.443796
3540.0 1.150065 -53.01572
3560.0 1.151432 -84.895688
3580.0 1.156972 -117.231767
3600.0 1.163586 -150.239172
3620.0 1.166177 176.250914
3640.0 1.167261 142.291151
3660.0 1.164651 108.286058
3680.0 1.161648 74.522545
3700.0 1.156295 41.314166
3720.0 1.152334 8.800774
3740.0 1.149463 -23.138857
3760.0 1.152429 -54.691811
3780.0 1.157733 -86.285798
3800.0 1.162603 -118.202789
3820.0 1.164341 -150.843276
3840.0 1.161335 175.777298
3860.0 1.156101 141.713396
3880.0 1.151301 107.359499
3900.0 1.151278 73.148035
3920.0 1.152568 39.549569
3940.0 1.156654 6.929446
3960.0 1.160269 -24.784064
3980.0 1.163355 -55.88156
4000.0 1.162455 -86.959023
4020.0 1.158079 -118.553177
4040.0 1.150148 -151.114123
4060.0 1.143755 175.278847
4080.0 1.143004 140.881167
4100.0 1.149407 106.390049
4120.0 1.158842 72.277497
4140.0 1.16554 39.040434
4160.0 1.16824 6.700804
4180.0 1.164792 -24.822901
4200.0 1.158424 -56.043221
4220.0 1.15034 -87.40545
4240.0 1.14378 -119.373215
4260.0 1.13936 -152.203825
4280.0 1.140733 174.176328
4300.0 1.147324 140.026576
4320.0 1.156676 105.780099
4340.0 1.164829 71.872999
4360.0 1.167656 38.643351
4380.0 1.164482 6.163463
4400.0 1.156828 -25.636671
4420.0 1.1473 -57.107964
4440.0 1.14026 -88.657455
4460.0 1.13735 -120.655635
4480.0 1.139224 -153.22975
4500.0 1.145983 173.651451
4520.0 1.153286 140.077265
4540.0 1.158841 106.305367
4560.0 1.159875 72.500631
4580.0 1.157077 39.041155
4600.0 1.152304 6.133906
4620.0 1.148455 -26.128083
4640.0 1.145345 -57.881778
4660.0 1.144757 -89.355731
4680.0 1.145271 -121.045536
4700.0 1.145099 -153.152714
4720.0 1.144521 174.014016
4740.0 1.143543 140.442273
4760.0 1.143394 106.333002
4780.0 1.143513 72.01129
4800.0 1.145096 38.009732
4820.0 1.14682 4.811047
4840.0 1.148483 -27.558053
4860.0 1.149266 -59.289021
4880.0 1.148447 -90.656007
4900.0 1.14652 -122.149901
4920.0 1.143238 -154.114705
4940.0 1.140028 173.192598
4960.0 1.137462 139.693654
4980.0 1.137646 105.602473
5000.0 1.139985 71.337486
5020.0 1.144057 37.413812
5040.0 1.148144 4.26512
5060.0 1.150307 -28.017375
5080.0 1.150264 -59.60407
5100.0 1.146023 -90.904494
5120.0 1.139949 -122.359228
5140.0 1.131764 -154.4267
5160.0 1.126092 172.630659
5180.0 1.12619 138.855611
5200.0 1.132525 104.635956
5220.0 1.142963 70.448118
5240.0 1.151879 36.850491
5260.0 1.154891 3.986722
5280.0 1.152215 -28.106191
5300.0 1.145612 -59.705956
5320.0 1.137806 -91.069718
5340.0 1.131821 -122.596488
5360.0 1.127675 -154.564747
5380.0 1.126488 172.798715
5400.0 1.129087 139.469567
5420.0 1.134387 105.571701
5440.0 1.13995 71.498238
5460.0 1.143667 37.607298
5480.0 1.143827 4.252027
5500.0 1.141432 -28.374262
5520.0 1.138068 -60.41301
5540.0 1.13424 -92.019926
5560.0 1.131265 -123.520486
5580.0 1.128946 -155.278971
5600.0 1.128769 172.396844
5620.0 1.129646 139.388837
5640.0 1.131066 105.672608
5660.0 1.133015 71.528894
5680.0 1.134324 37.330232
5700.0 1.135118 3.532507
5720.0 1.13559 -29.543692
5740.0 1.134745 -61.873165
5760.0 1.132945 -93.653783
5780.0 1.130285 -125.232721
5800.0 1.127193 -156.948748
5820.0 1.125614 170.843001
5840.0 1.125064 137.993199
5860.0 1.12559 104.486327
5880.0 1.126065 70.464644
5900.0 1.127634 36.370483
5920.0 1.129919 2.678466
5940.0 1.13257 -30.318955
5960.0 1.133615 -62.495637
5980.0 1.13213 -94.062531
6000.0 1.129357 -125.412844
6020.0 1.125575 -156.934221
6040.0 1.122632 171.049851
6060.0 1.121152 138.321098
6080.0 1.121221 104.797303
6100.0 1.121741 70.716214
6120.0 1.12356 36.427459
6140.0 1.126432 2.42832
6160.0 1.128586 -30.861133
6180.0 1.129578 -63.314152
6200.0 1.127422 -95.111251
6220.0 1.123807 -126.548324
6240.0 1.120473 -158.089976
6260.0 1.117874 169.947283
6280.0 1.118108 137.360863
6300.0 1.119297 104.079085
6320.0 1.123042 70.277143
6340.0 1.125837 36.321838
6360.0 1.127564 2.55789
6380.0 1.126532 -30.665304
6400.0 1.123917 -63.267713
6420.0 1.121001 -95.312361
6440.0 1.117833 -127.013034
6460.0 1.115882 -158.747116
6480.0 1.114169 169.181527
6500.0 1.114062 136.479316
6520.0 1.115285 103.041111
6540.0 1.117735 69.06036
6560.0 1.120946 34.85421
6580.0 1.122777 0.922232
6600.0 1.121592 -32.411307
6620.0 1.118913 -65.105953
6640.0 1.115977 -97.187078
6660.0 1.114669 -128.816279
6680.0 1.11524 -160.292096
6700.0 1.115648 168.026156
6720.0 1.115958 135.806485
6740.0 1.116435 102.885656
6760.0 1.11686 69.270425
6780.0 1.116863 35.255954
6800.0 1.115842 1.241779
6820.0 1.113079 -32.466643
6840.0 1.11002 -65.648991
6860.0 1.108886 -98.216602
6880.0 1.109143 -130.302815
6900.0 1.112067 -162.061768
6920.0 1.114135 166.134166
6940.0 1.115823 133.928267
6960.0 1.115544 101.168377
6980.0 1.115801 67.828488
7000.0 1.114878 34.142094
7020.0 1.112693 0.400239
7040.0 1.110223 -33.081521
7060.0 1.107957 -66.080851
7080.0 1.108004 -98.509976
7100.0 1.109942 -130.447806
7120.0 1.112867 -162.117417
7140.0 1.114736 166.146806
7160.0 1.1146 133.988412
7180.0 1.112384 101.176231
7200.0 1.108816 67.59731
7220.0 1.105408 33.467205
7240.0 1.103661 -0.837521
7260.0 1.104163 -34.851439
7280.0 1.107008 -68.144787
7300.0 1.108962 -100.635067
7320.0 1.110303 -132.554553
7340.0 1.108939 -164.160971
7360.0 1.106399 164.075648
7380.0 1.105554 131.896535
7400.0 1.105909 99.156956
7420.0 1.10719 65.876261
7440.0 1.107046 32.164629
7460.0 1.106509 -1.807959
7480.0 1.10672 -35.623227
7500.0 1.107722 -68.881011
7520.0 1.108597 -101.499222
7540.0 1.107895 -133.517433
7560.0 1.105543 -165.255089
7580.0 1.103814 162.898944
7600.0 1.103301 130.736919
7620.0 1.105295 98.147329
7640.0 1.108051 65.071058
7660.0 1.109044 31.518599
7680.0 1.106754 -2.344181
7700.0 1.103584 -36.284298
7720.0 1.100679 -69.964924
7740.0 1.098841 -103.126739
7760.0 1.09802 -135.785877
7780.0 1.09791 -168.069711
7800.0 1.099441 159.758427
7820.0 1.102899 127.558738
7840.0 1.107522 95.120129
7860.0 1.110364 62.375232
7880.0 1.109717 29.199725
7900.0 1.104729 -4.325037
7920.0 1.097987 -38.059834
7940.0 1.094009 -71.672703
7960.0 1.094328 -104.86635
7980.0 1.097207 -137.498408
8000.0 1.100976 -169.586267
8020.0 1.104158 158.56441
8040.0 1.105379 126.720327
8060.0 1.105082 94.542759
8080.0 1.103733 61.877742
8100.0 1.10033 28.690526
8120.0 1.095792 -4.953023
8140.0 1.09074 -38.809244
8160.0 1.088804 -72.640048
8180.0 1.090911 -106.122208
8200.0 1.097535 -139.076333
8220.0 1.104055 -171.434521
8240.0 1.10891 156.653049
8260.0 1.109664 124.789337
8280.0 1.105554 92.634157
8300.0 1.099554 59.897661
8320.0 1.094789 26.612776
8340.0 1.091391 -7.020197
8360.0 1.090959 -40.632417
8380.0 1.092076 -74.034839
8400.0 1.094173 -107.079814
8420.0 1.096555 -139.740014
8440.0 1.099059 -172.072144
8460.0 1.100822 155.795905
8480.0 1.101477 123.631088
8500.0 1.101361 91.194026
8520.0 1.099884 58.360836
8540.0 1.099048 25.072203
8560.0 1.097671 -8.484104
8580.0 1.09561 -42.086371
8600.0 1.093673 -75.533868
8620.0 1.091794 -108.752754
8640.0 1.091517 -141.625242
8660.0 1.092995 -174.077281
8680.0 1.096345 153.770046
8700.0 1.099506 121.786452
8720.0 1.101918 89.777284
8740.0 1.102557 57.464362
8760.0 1.100923 24.731489
8780.0 1.096846 -8.40314
8800.0 1.092035 -41.833104
8820.0 1.087424 -75.465128
8840.0 1.084701 -109.031019
8860.0 1.083888 -142.458795
8880.0 1.087389 -175.608847
8900.0 1.09394 151.631615
8920.0 1.101794 119.293437
8940.0 1.108658 87.18479
8960.0 1.110075 55.136941
8980.0 1.102886 22.763238
9000.0 1.09191 -10.123712
9020.0 1.081353 -43.557745
9040.0 1.076313 -77.237933
9060.0 1.078821 -110.883005
9080.0 1.086044 -144.101975
9100.0 1.093618 -176.803544
9120.0 1.097925 150.877595
9140.0 1.099839 118.775962
9160.0 1.099498 86.670978
9180.0 1.097939 54.414751
9200.0 1.094698 21.882421
9220.0 1.090631 -10.943794
9240.0 1.08647 -44.06576
9260.0 1.084864 -77.356419
9280.0 1.086257 -110.658612
9300.0 1.090093 -143.719982
9320.0 1.095042 -176.452572
9340.0 1.097939 151.166423
9360.0 1.09822 118.991713
9380.0 1.095255 86.826313
9400.0 1.091332 54.432086
9420.0 1.085612 21.763359
9440.0 1.081185 -11.319359
9460.0 1.078398 -44.653936
9480.0 1.07809 -78.164539
9500.0 1.080851 -111.709884
9520.0 1.085393 -145.063833
9540.0 1.090202 -178.067556
9560.0 1.093397 149.280525
9580.0 1.094702 116.86521
9600.0 1.094569 84.510704
9620.0 1.093182 52.050799
9640.0 1.091375 19.414297
9660.0 1.089142 -13.43553
9680.0 1.084124 -46.425404
9700.0 1.079064 -79.631348
9720.0 1.073637 -112.979859
9740.0 1.07351 -146.383539
9760.0 1.078548 -179.506319
9780.0 1.087294 147.940608
9800.0 1.09536 115.927023
9820.0 1.099617 84.265077
9840.0 1.098497 52.575342
9860.0 1.092155 20.48819
9880.0 1.084306 -12.145649
9900.0 1.076975 -45.26883
9920.0 1.072234 -78.850725
9940.0 1.071133 -112.615872
9960.0 1.073981 -146.389467
9980.0 1.080017 -179.865234
10000.0 1.0871 147.175178
10020.0 1.091682 114.802826
10040.0 1.093829 82.835117
10060.0 1.091706 50.977789
10080.0 1.08688 18.991189
10100.0 1.081138 -13.429029
10120.0 1.076266 -46.19699
10140.0 1.075321 -79.387342
10160.0 1.077272 -112.619695
10180.0 1.081479 -145.868117
10200.0 1.083783 -178.927979
10220.0 1.084403 148.19008
10240.0 1.082529 115.49261
10260.0 1.080733 82.912207
10280.0 1.079204 50.416316
10300.0 1.07882 17.853806
10320.0 1.076734 -14.832198
10340.0 1.073931 -47.755407
10360.0 1.071969 -80.953925
10380.0 1.072266 -114.253202
10400.0 1.074916 -147.565796
10420.0 1.077896 179.376394
10440.0 1.08061 146.578181
10460.0 1.081459 114.120574
10480.0 1.08316 81.926575
10500.0 1.083352 49.891314
10520.0 1.082937 17.872144
10540.0 1.078211 -14.314441
10560.0 1.071602 -46.925314
10580.0 1.064302 -80.022035
10600.0 1.060912 -113.571538
10620.0 1.06129 -147.342301
10640.0 1.06547 179.003788
10660.0 1.071316 145.665822
10680.0 1.076577 112.781975
10700.0 1.081216 80.338339
10720.0 1.085068 48.210292
10740.0 1.085515 16.209906
10760.0 1.079992 -15.836393
10780.0 1.070844 -48.206105
10800.0 1.05939 -81.125369
10820.0 1.053026 -114.510897
10840.0 1.05356 -148.134842
10860.0 1.061763 178.450858
10880.0 1.072418 145.613565
10900.0 1.080607 113.40611
10920.0 1.083765 81.637657
10940.0 1.080926 49.938312
10960.0 1.073927 17.953664
10980.0 1.065667 -14.546083
11000.0 1.058338 -47.587931
11020.0 1.054553 -81.136711
11040.0 1.053834 -115.07887
11060.0 1.057082 -149.184119
11080.0 1.063161 176.940055
11100.0 1.069858 143.603499
11120.0 1.075082 110.992632
11140.0 1.076459 79.006696
11160.0 1.073664 47.394325
11180.0 1.069021 15.700231
11200.0 1.063555 -16.268287
11220.0 1.059981 -48.683589
11240.0 1.058502 -81.504194
11260.0 1.057776 -114.75342
11280.0 1.057547 -148.32396
11300.0 1.056514 177.949125
11320.0 1.056059 144.368853
11340.0 1.057599 111.226746
11360.0 1.059827 78.655108
11380.0 1.063318 46.588393
11400.0 1.066639 14.773901
11420.0 1.068343 -17.008015
11440.0 1.068044 -49.012053
11460.0 1.064754 -81.441575
11480.0 1.059082 -114.496798
11500.0 1.052816 -148.205077
11520.0 1.048783 177.576194
11540.0 1.048679 143.399365
11560.0 1.053498 109.717769
11580.0 1.060127 76.795575
11600.0 1.065403 44.606162
11620.0 1.066108 12.848543
11640.0 1.061842 -18.927232
11660.0 1.054767 -51.041634
11680.0 1.048038 -83.727049
11700.0 1.044702 -117.035231
11720.0 1.045892 -150.784935
11740.0 1.050454 175.347982
11760.0 1.0563 141.735257
11780.0 1.061511 108.61877
11800.0 1.066042 76.113043
11820.0 1.067298 44.137602
11840.0 1.066251 12.597437
11860.0 1.060676 -18.897517
11880.0 1.051087 -50.737018
11900.0 1.041594 -83.28949
11920.0 1.036475 -116.657298
11940.0 1.038563 -150.577975
11960.0 1.045847 175.336721
11980.0 1.053806 141.569384
12000.0 1.058971 108.279065
12020.0 1.059823 75.495312
12040.0 1.05871 43.137878
12060.0 1.055677 11.099148
12080.0 1.05207 -20.79726
12100.0 1.047895 -52.806615
12120.0 1.044428 -85.215825
12140.0 1.043624 -118.216554
12160.0 1.045305 -151.740538
12180.0 1.048925 174.435566
12200.0 1.052238 140.596576
12220.0 1.053287 107.023343
12240.0 1.053104 73.884014
12260.0 1.053117 41.295393
12280.0 1.052934 9.238767
12300.0 1.052503 -22.4424
12320.0 1.049793 -54.084648
12340.0 1.045938 -86.070467
12360.0 1.042668 -118.685318
12380.0 1.041571 -152.027999
12400.0 1.042646 174.104839
12420.0 1.044524 139.946029
12440.0 1.04596 105.867765
12460.0 1.046868 72.169876
12480.0 1.048922 39.098377
12500.0 1.050452 6.75502
12520.0 1.051109 -25.013311
12540.0 1.049415 -56.506034
12560.0 1.045857 -88.1823
12580.0 1.04238 -120.419129
12600.0 1.040573 -153.324675
12620.0 1.041277 173.113261
12640.0 1.044461 139.202933
12660.0 1.048334 105.329924
12680.0 1.051024 71.821396
12700.0 1.051996 38.900793
12720.0 1.049731 6.570351
12740.0 1.0454 -25.320211
12760.0 1.040493 -57.102798
12780.0 1.037076 -89.087371
12800.0 1.036181 -121.507352
12820.0 1.038131 -154.491033
12840.0 1.041378 171.984792
12860.0 1.044688 138.038269
12880.0 1.047049 104.051943
12900.0 1.048698 70.321943
12920.0 1.049571 37.206453
12940.0 1.048137 4.83582
12960.0 1.044213 -27.015062
12980.0 1.038776 -58.633047
13000.0 1.034347 -90.424226
13020.0 1.032684 -122.630757
13040.0 1.035073 -155.410775
13060.0 1.038939 171.288337
13080.0 1.043518 137.56796
13100.0 1.046255 103.697084
13120.0 1.047392 69.972209
13140.0 1.047141 36.728414
13160.0 1.04551 4.110295
13180.0 1.042495 -27.91377
13200.0 1.037987 -59.657448
13220.0 1.03345 -91.515265
13240.0 1.030811 -123.840139
13260.0 1.031266 -156.816221
13280.0 1.035563 169.537178
13300.0 1.040959 135.465415
13320.0 1.046015 101.263916
13340.0 1.048903 67.307606
13360.0 1.049206 33.897343
13380.0 1.046978 1.242871
13400.0 1.043365 -30.735661
13420.0 1.038736 -62.317405
13440.0 1.03527 -93.810088
13460.0 1.034132 -125.508327
13480.0 1.036317 -157.675855
13500.0 1.040828 169.599727
13520.0 1.045465 136.401906
13540.0 1.049289 102.865304
13560.0 1.049526 69.256402
13580.0 1.047209 35.796944
13600.0 1.043276 2.738083
13620.0 1.039054 -29.9007
13640.0 1.035762 -62.195795
13660.0 1.033079 -94.375269
13680.0 1.032674 -126.733707
13700.0 1.034064 -159.5178
13720.0 1.037175 167.133529
13740.0 1.041182 133.308315
13760.0 1.043962 99.220848
13780.0 1.045084 65.1595
13800.0 1.044439 31.453966
13820.0 1.04275 -1.70446
13840.0 1.041731 -34.198908
13860.0 1.040536 -66.132051
13880.0 1.039547 -97.731754
13900.0 1.038429 -129.376947
13920.0 1.036436 -161.42074
13940.0 1.035161 165.823286
13960.0 1.035743 132.332995
13980.0 1.038642 98.288212
14000.0 1.0433 64.191514
14020.0 1.048462 30.497698
14040.0 1.050485 -2.493121
14060.0 1.049565 -34.748592
14080.0 1.046638 -66.374996
14100.0 1.04266 -97.676358
14120.0 1.040547 -128.918909
14140.0 1.040029 -160.398156
14160.0 1.040487 167.564587
14180.0 1.041028 134.775762
14200.0 1.040673 101.16903
14220.0 1.039842 66.910707
14240.0 1.039332 32.431218
14260.0 1.038544 -1.819387
14280.0 1.037899 -35.441382
14300.0 1.036364 -68.327475
14320.0 1.035928 -100.569971
14340.0 1.036115 -132.434377
14360.0 1.038121 -164.176457
14380.0 1.041695 163.882445
14400.0 1.046168 131.572094
14420.0 1.050449 98.804748
14440.0 1.053068 65.615351
14460.0 1.051704 32.134288
14480.0 1.045873 -1.470752
14500.0 1.036656 -35.054963
14520.0 1.028234 -68.480971
14540.0 1.023392 -101.62681
14560.0 1.024579 -134.478484
14580.0 1.031826 -167.036698
14600.0 1.040738 160.620402
14620.0 1.047627 128.231372
14640.0 1.049966 95.592328
14660.0 1.04872 62.605435
14680.0 1.044825 29.311135
14700.0 1.041092 -4.025224
14720.0 1.037417 -37.168809
