! File created by SignalIntegrity v1.1.10: Signal and Power Integrity Tools
! https://github.com/TeledyneLeCroy/SignalIntegrity
# MHz S MA R 50.0
0.0 1.28991 180.0
20.0 1.286951 146.54942
40.0 1.279987 113.226498
60.0 1.272959 80.118465
80.0 1.268871 47.349257
100.0 1.270091 14.822851
120.0 1.276281 -17.451651
140.0 1.283981 -49.687287
160.0 1.288734 -82.083498
180.0 1.287086 -114.851428
200.0 1.277989 -148.127642
220.0 1.26693 178.176004
240.0 1.258972 144.343106
260.0 1.259033 110.907182
280.0 1.262996 78.159371
300.0 1.265495 45.975068
320.0 1.264607 13.98044
340.0 1.262184 -18.303943
360.0 1.263398 -51.072099
380.0 1.268593 -84.240981
400.0 1.272129 -117.608003
420.0 1.269455 -151.027383
440.0 1.259732 175.470279
460.0 1.247449 141.950273
480.0 1.240372 108.709024
500.0 1.239198 75.940666
520.0 1.241418 43.667263
540.0 1.244327 11.587154
560.0 1.245917 -20.675816
580.0 1.248473 -53.311286
600.0 1.251979 -86.346588
620.0 1.2527 -119.610162
640.0 1.249436 -153.007957
660.0 1.242747 173.61469
680.0 1.237077 140.459954
700.0 1.234462 107.737157
720.0 1.235431 75.51902
740.0 1.236889 43.557536
760.0 1.238182 11.505844
780.0 1.241249 -20.918536
800.0 1.247149 -53.832484
820.0 1.251972 -87.128573
840.0 1.252736 -120.658194
860.0 1.245994 -154.316807
880.0 1.236839 172.112676
900.0 1.228523 138.826692
920.0 1.223926 106.028541
940.0 1.223278 73.756824
960.0 1.225104 41.763375
980.0 1.228665 9.792985
1000.0 1.234011 -22.524264
1020.0 1.240269 -55.225868
1040.0 1.243282 -88.301203
1060.0 1.241194 -121.744064
1080.0 1.234702 -155.311051
1100.0 1.22632 171.175998
1120.0 1.219706 138.011047
1140.0 1.215737 105.349792
1160.0 1.214367 73.09068
1180.0 1.216729 40.982564
1200.0 1.223643 8.793485
1220.0 1.233973 -23.646985
1240.0 1.243429 -56.362679
1260.0 1.246707 -89.417913
1280.0 1.240432 -122.738989
1300.0 1.228248 -156.334117
1320.0 1.214932 170.046851
1340.0 1.205769 136.702821
1360.0 1.202043 103.86584
1380.0 1.205207 71.551552
1400.0 1.21321 39.58505
1420.0 1.224621 7.694934
1440.0 1.235012 -24.358266
1460.0 1.240081 -56.815644
1480.0 1.236845 -89.808702
1500.0 1.226353 -123.382022
1520.0 1.213845 -157.226342
1540.0 1.204663 169.008785
1560.0 1.200959 135.69808
1580.0 1.201668 103.082466
1600.0 1.206765 71.065913
1620.0 1.214625 39.409519
1640.0 1.223513 7.816313
1660.0 1.229385 -24.07145
1680.0 1.229307 -56.556921
1700.0 1.221962 -89.863768
1720.0 1.212299 -123.785892
1740.0 1.204677 -158.025493
1760.0 1.201715 167.972363
1780.0 1.200746 134.577167
1800.0 1.202273 101.91105
1820.0 1.20405 69.840097
1840.0 1.208201 38.13911
1860.0 1.213018 6.416557
1880.0 1.216487 -25.630692
1900.0 1.217382 -58.259829
1920.0 1.215452 -91.520705
1940.0 1.212232 -125.24003
1960.0 1.209637 -159.021015
1980.0 1.206575 167.477812
2000.0 1.202361 134.43056
2020.0 1.197848 101.883072
2040.0 1.195689 69.769608
2060.0 1.197232 37.872972
2080.0 1.20186 5.920961
2100.0 1.20883 -26.312433
2120.0 1.213482 -59.089304
2140.0 1.216153 -92.256545
2160.0 1.21472 -125.772597
2180.0 1.209408 -159.308231
2200.0 1.199737 167.224514
2220.0 1.188124 134.005869
2240.0 1.179535 101.119215
2260.0 1.177438 68.655513
2280.0 1.184954 36.522496
2300.0 1.198151 4.596959
2320.0 1.212356 -27.425752
2340.0 1.221912 -59.762836
2360.0 1.224005 -92.564662
2380.0 1.215867 -125.788297
2400.0 1.202038 -159.397621
2420.0 1.185213 166.735175
2440.0 1.173601 132.954113
2460.0 1.170592 99.654624
2480.0 1.177925 67.121334
2500.0 1.192793 35.272106
2520.0 1.206903 3.779634
2540.0 1.217516 -27.860455
2560.0 1.219234 -59.953254
2580.0 1.21325 -92.749194
2600.0 1.200441 -126.182433
2620.0 1.187211 -160.210293
2640.0 1.175219 165.553248
2660.0 1.171221 131.611482
2680.0 1.173997 98.385875
2700.0 1.183652 66.166135
2720.0 1.195303 34.627325
2740.0 1.205247 3.411675
2760.0 1.209073 -28.152836
2780.0 1.206364 -60.249496
2800.0 1.198973 -93.259998
2820.0 1.188143 -126.950343
2840.0 1.181296 -161.221381
2860.0 1.177111 164.490979
2880.0 1.177616 130.668747
2900.0 1.179625 97.693189
2920.0 1.183481 65.634421
2940.0 1.186248 34.037682
2960.0 1.189957 2.599497
2980.0 1.191624 -29.232228
3000.0 1.192445 -61.520847
3020.0 1.191497 -94.459413
3040.0 1.189276 -127.824615
3060.0 1.186643 -161.588302
3080.0 1.181913 164.647655
3100.0 1.176182 131.140857
3120.0 1.168256 98.123757
3140.0 1.165005 65.651544
3160.0 1.165046 33.503789
3180.0 1.17306 1.503956
3200.0 1.184575 -30.606047
3220.0 1.197122 -62.805821
3240.0 1.201763 -95.294594
3260.0 1.200555 -128.136598
3280.0 1.190134 -161.462166
3300.0 1.174751 164.824884
3320.0 1.15841 130.906011
3340.0 1.146976 97.274772
3360.0 1.146973 64.072395
3380.0 1.157862 31.596993
3400.0 1.177351 -0.290897
3420.0 1.195301 -31.90165
3440.0 1.205873 -63.526842
3460.0 1.203919 -95.578759
3480.0 1.192284 -128.376029
3500.0 1.173979 -162.038993
3520.0 1.158149 163.652166
3540.0 1.148459 129.181353
3560.0 1.147516 95.276439
3580.0 1.155429 62.125759
3600.0 1.168436 29.956079
3620.0 1.183263 -1.66518
3640.0 1.192304 -32.994693
3660.0 1.193336 -64.56277
3680.0 1.18475 -96.722704
3700.0 1.172178 -129.686933
3720.0 1.159789 -163.466002
3740.0 1.152615 162.273863
3760.0 1.150486 128.001135
3780.0 1.154759 94.342509
3800.0 1.16297 61.476341
3820.0 1.172597 29.525456
3840.0 1.179812 -2.068135
3860.0 1.181642 -33.571349
3880.0 1.177708 -65.471629
3900.0 1.170914 -97.90448
3920.0 1.166156 -131.050449
3940.0 1.163104 -164.702858
3960.0 1.162491 161.407223
3980.0 1.159855 127.58354
4000.0 1.156965 94.176494
4020.0 1.153995 61.188818
4040.0 1.154228 28.748675
4060.0 1.156817 -3.499547
4080.0 1.161549 -35.518887
4100.0 1.166565 -67.643409
4120.0 1.170196 -99.941879
4140.0 1.17169 -132.606101
4160.0 1.168782 -165.691381
4180.0 1.162501 160.744928
4200.0 1.151356 126.908095
4220.0 1.142473 93.083828
4240.0 1.138584 59.651601
4260.0 1.142593 26.737047
4280.0 1.150963 -5.63282
4300.0 1.161794 -37.543014
4320.0 1.170466 -69.301278
4340.0 1.173835 -101.06997
4360.0 1.171173 -133.264965
4380.0 1.162202 -166.114373
4400.0 1.149428 160.270035
4420.0 1.136882 126.09488
4440.0 1.131228 91.815986
4460.0 1.133266 58.002729
4480.0 1.143344 24.897576
4500.0 1.156058 -7.399651
4520.0 1.167035 -39.171618
4540.0 1.171614 -70.698427
4560.0 1.16874 -102.475378
4580.0 1.159404 -134.77826
4600.0 1.148389 -167.971698
4620.0 1.139054 158.047963
4640.0 1.134987 123.676953
4660.0 1.137214 89.445319
4680.0 1.143748 55.877617
4700.0 1.151338 23.112253
4720.0 1.157686 -8.98136
4740.0 1.160225 -40.657652
4760.0 1.15922 -72.237971
4780.0 1.154997 -104.026572
4800.0 1.149363 -136.309204
4820.0 1.144728 -169.24188
4840.0 1.140739 157.162121
4860.0 1.139804 123.216529
4880.0 1.141271 89.271102
4900.0 1.144812 55.677616
4920.0 1.149059 22.671249
4940.0 1.151509 -9.816759
4960.0 1.15238 -41.890342
4980.0 1.150215 -73.808783
5000.0 1.146795 -105.905621
5020.0 1.143981 -138.348006
5040.0 1.142568 -171.280234
5060.0 1.142326 155.389167
5080.0 1.141316 121.755646
5100.0 1.140022 88.097461
5120.0 1.13764 54.61691
5140.0 1.138283 21.485164
5160.0 1.140117 -11.185352
5180.0 1.143691 -43.464389
5200.0 1.146048 -75.425894
5220.0 1.147276 -107.346785
5240.0 1.147201 -139.54488
5260.0 1.144251 -172.229467
5280.0 1.139416 154.439578
5300.0 1.132826 120.541268
5320.0 1.12793 86.346931
5340.0 1.126974 52.195545
5360.0 1.13144 18.523095
5380.0 1.139032 -14.415532
5400.0 1.146291 -46.59244
5420.0 1.15053 -78.241131
5440.0 1.149806 -109.753381
5460.0 1.145448 -141.520094
5480.0 1.139197 -173.879774
5500.0 1.13227 152.990833
5520.0 1.127319 119.154361
5540.0 1.125153 84.947937
5560.0 1.128191 50.753848
5580.0 1.133903 17.005991
5600.0 1.140886 -15.994286
5620.0 1.145474 -48.247029
5640.0 1.147007 -79.953859
5660.0 1.144324 -111.44615
5680.0 1.140008 -143.091506
5700.0 1.133625 -175.228663
5720.0 1.128369 151.940685
5740.0 1.126268 118.430989
5760.0 1.127741 84.509933
5780.0 1.132435 50.540938
5800.0 1.137519 16.901006
5820.0 1.141086 -16.185531
5840.0 1.142153 -48.711638
5860.0 1.140732 -80.7855
5880.0 1.139354 -112.553843
5900.0 1.136194 -144.389898
5920.0 1.131683 -176.546189
5940.0 1.127653 150.647565
5960.0 1.125519 117.116607
5980.0 1.127117 83.145507
6000.0 1.131737 49.009011
6020.0 1.13651 15.148148
6040.0 1.138602 -18.177785
6060.0 1.138471 -50.875495
6080.0 1.13625 -83.041528
6100.0 1.133374 -114.839579
6120.0 1.131058 -146.544194
6140.0 1.128691 -178.444208
6160.0 1.127099 149.151169
6180.0 1.12689 116.133751
6200.0 1.127485 82.54822
6220.0 1.129369 48.644523
6240.0 1.130803 14.717533
6260.0 1.131849 -18.897741
6280.0 1.132328 -51.947001
6300.0 1.13155 -84.399718
6320.0 1.131259 -116.372521
6340.0 1.12933 -148.14859
6360.0 1.126971 179.899143
6380.0 1.125471 147.551459
6400.0 1.125048 114.569546
6420.0 1.125324 81.002892
6440.0 1.127333 47.100722
6460.0 1.129331 13.197008
6480.0 1.131189 -20.367498
6500.0 1.132573 -53.263935
6520.0 1.132584 -85.485068
6540.0 1.130713 -117.158932
6560.0 1.127393 -148.706857
6580.0 1.12401 179.607405
6600.0 1.122271 147.451528
6620.0 1.121922 114.646842
6640.0 1.122147 81.131401
6660.0 1.122933 47.063876
6680.0 1.124391 12.754323
6700.0 1.127795 -21.317761
6720.0 1.131184 -54.707668
6740.0 1.132995 -87.27093
6760.0 1.130733 -119.145999
6780.0 1.126677 -150.71149
6800.0 1.121895 177.668071
6820.0 1.119058 145.702934
6840.0 1.118769 113.183029
6860.0 1.119373 80.038944
6880.0 1.120933 46.36618
6900.0 1.123231 12.399927
6920.0 1.126014 -21.430836
6940.0 1.127435 -54.83194
6960.0 1.127261 -87.536574
6980.0 1.124077 -119.705564
7000.0 1.119287 -151.552194
7020.0 1.115096 176.571409
7040.0 1.112962 144.379872
7060.0 1.113205 111.680881
7080.0 1.117375 78.369435
7100.0 1.121918 44.617081
7120.0 1.126413 10.687596
7140.0 1.12858 -23.055779
7160.0 1.128202 -56.357004
7180.0 1.124512 -89.057485
7200.0 1.11924 -121.194158
7220.0 1.115221 -152.954753
7240.0 1.112665 175.439394
7260.0 1.112604 143.684107
7280.0 1.11476 111.507298
7300.0 1.1186 78.713233
7320.0 1.122181 45.329989
7340.0 1.124307 11.566893
7360.0 1.124313 -22.307365
7380.0 1.120847 -55.977603
7400.0 1.116581 -89.193991
7420.0 1.112622 -121.860979
7440.0 1.11184 -153.94525
7460.0 1.112846 174.356462
7480.0 1.113919 142.719112
7500.0 1.114485 110.704139
7520.0 1.114965 78.042989
7540.0 1.116302 44.64314
7560.0 1.117865 10.73979
7580.0 1.11899 -23.292435
7600.0 1.117702 -57.169476
7620.0 1.114845 -90.541226
7640.0 1.112415 -123.290638
7660.0 1.112159 -155.337512
7680.0 1.112788 173.18923
7700.0 1.1129 141.924407
7720.0 1.111291 110.390959
7740.0 1.109477 78.185782
7760.0 1.109073 45.148478
7780.0 1.112086 11.470979
7800.0 1.117471 -22.460751
7820.0 1.121261 -56.243101
7840.0 1.120397 -89.587088
7860.0 1.116624 -122.400243
7880.0 1.110936 -154.671781
7900.0 1.106712 173.402966
7920.0 1.104123 141.620576
7940.0 1.10313 109.623527
7960.0 1.104126 77.183366
7980.0 1.106141 44.182584
8000.0 1.109963 10.581096
8020.0 1.114069 -23.282126
8040.0 1.115983 -57.070405
8060.0 1.115441 -90.475684
8080.0 1.111305 -123.337891
8100.0 1.106129 -155.628631
8120.0 1.101609 172.412532
8140.0 1.09964 140.598615
8160.0 1.100608 108.672915
8180.0 1.103326 76.464951
8200.0 1.107106 43.766195
8220.0 1.110946 10.527188
8240.0 1.113469 -23.047854
8260.0 1.113532 -56.752616
8280.0 1.1104 -90.257144
8300.0 1.104805 -123.358273
8320.0 1.09883 -156.013845
8340.0 1.095762 171.687963
8360.0 1.096646 139.597049
8380.0 1.101008 107.605107
8400.0 1.105886 75.531636
8420.0 1.108092 43.128661
8440.0 1.107004 10.185492
8460.0 1.103013 -23.343039
8480.0 1.099855 -57.224345
8500.0 1.098464 -90.96466
8520.0 1.099239 -124.215461
8540.0 1.100524 -156.782018
8560.0 1.102011 171.219089
8580.0 1.102447 139.514599
8600.0 1.103009 107.764835
8620.0 1.102784 75.742126
8640.0 1.102155 43.260317
8660.0 1.100466 10.098458
8680.0 1.097671 -23.672918
8700.0 1.094836 -57.814891
8720.0 1.093877 -91.935966
8740.0 1.094959 -125.58339
8760.0 1.098449 -158.478581
8780.0 1.101711 169.378475
8800.0 1.102009 137.781054
8820.0 1.100552 106.297864
8840.0 1.096001 74.583983
8860.0 1.093692 42.374043
8880.0 1.092803 9.531836
8900.0 1.095891 -23.809374
8920.0 1.098946 -57.482773
8940.0 1.100864 -91.139006
8960.0 1.1002 -124.606932
8980.0 1.09838 -157.64555
9000.0 1.096073 169.730877
9020.0 1.092705 137.427689
9040.0 1.090748 105.298474
9060.0 1.089665 73.178283
9080.0 1.09079 40.882312
9100.0 1.093476 8.352687
9120.0 1.095712 -24.569219
9140.0 1.095403 -57.849442
9160.0 1.093317 -91.443022
9180.0 1.090404 -125.102789
9200.0 1.089992 -158.630266
9220.0 1.092183 168.245563
9240.0 1.095623 135.62888
9260.0 1.09722 103.359745
9280.0 1.095424 71.212376
9300.0 1.092163 38.854073
9320.0 1.087805 6.146883
9340.0 1.085787 -27.023519
9360.0 1.085606 -60.446899
9380.0 1.086176 -93.963672
9400.0 1.085951 -127.315741
9420.0 1.08651 -160.456363
9440.0 1.087544 166.761605
9460.0 1.090692 134.361111
9480.0 1.094115 102.373606
9500.0 1.096408 70.597919
9520.0 1.094705 38.783744
9540.0 1.089844 6.541133
9560.0 1.083988 -26.363672
9580.0 1.080456 -59.899092
9600.0 1.081979 -93.725633
9620.0 1.0866 -127.405979
9640.0 1.092819 -160.668679
9660.0 1.096367 166.598979
9680.0 1.096564 134.263004
9700.0 1.093064 102.181751
9720.0 1.087769 70.190605
9740.0 1.08114 37.96646
9760.0 1.075788 5.389041
9780.0 1.073142 -27.758254
9800.0 1.074796 -61.401876
9820.0 1.079956 -95.332665
9840.0 1.085918 -129.152448
9860.0 1.090733 -162.632287
9880.0 1.092097 164.325261
9900.0 1.09053 131.642063
9920.0 1.087219 99.340441
9940.0 1.085019 67.2782
9960.0 1.082869 35.315624
9980.0 1.082502 3.326918
10000.0 1.081414 -28.974675
10020.0 1.081537 -61.805365
10040.0 1.08128 -95.207004
10060.0 1.082785 -128.979413
10080.0 1.084186 -162.913619
10100.0 1.08651 163.398493
10120.0 1.088322 130.085505
10140.0 1.088395 97.250923
10160.0 1.086584 64.848942
10180.0 1.082009 32.793431
10200.0 1.077868 0.719521
10220.0 1.074105 -31.508949
10240.0 1.071715 -64.178851
10260.0 1.071839 -97.291011
10280.0 1.075673 -130.725749
10300.0 1.082414 -164.175963
10320.0 1.090945 162.625888
10340.0 1.096703 129.83741
10360.0 1.097383 97.509887
10380.0 1.091407 65.368458
10400.0 1.080595 33.276376
10420.0 1.069976 0.88794
10440.0 1.063947 -31.901676
10460.0 1.062976 -65.100934
10480.0 1.066825 -98.66338
10500.0 1.073855 -132.4616
10520.0 1.08241 -166.273506
10540.0 1.092186 160.178754
10560.0 1.09957 127.182895
10580.0 1.101959 94.809123
10600.0 1.09575 62.865923
10620.0 1.08464 31.121229
10640.0 1.072548 -0.839648
10660.0 1.064992 -33.18231
10680.0 1.064886 -66.017422
10700.0 1.070863 -99.167596
10720.0 1.080272 -132.568444
10740.0 1.087465 -166.021455
10760.0 1.09219 160.551194
10780.0 1.092187 127.268641
10800.0 1.089309 94.198108
10820.0 1.083159 61.456924
10840.0 1.076545 29.00005
10860.0 1.070424 -3.351156
10880.0 1.067431 -35.83791
10900.0 1.067401 -68.621202
10920.0 1.070639 -101.803597
10940.0 1.075425 -135.285729
10960.0 1.080653 -168.85861
10980.0 1.085877 157.654581
11000.0 1.089571 124.5214
11020.0 1.091655 91.877156
11040.0 1.090634 59.813057
11060.0 1.087327 28.218797
11080.0 1.080958 -3.216835
11100.0 1.074385 -34.986552
11120.0 1.068061 -67.424698
11140.0 1.065484 -100.716263
11160.0 1.067598 -134.723491
11180.0 1.073499 -169.061372
11200.0 1.080734 156.676538
11220.0 1.086844 122.842014
11240.0 1.09129 89.689072
11260.0 1.091211 57.381324
11280.0 1.087628 25.731504
11300.0 1.080241 -5.543726
11320.0 1.070105 -37.038763
11340.0 1.060259 -69.248197
11360.0 1.05634 -102.449268
11380.0 1.060951 -136.453404
11400.0 1.073821 -170.729061
11420.0 1.08849 155.202233
11440.0 1.099499 121.710847
11460.0 1.101211 88.849725
11480.0 1.094309 56.545732
11500.0 1.08302 24.666643
11520.0 1.072412 -6.979813
11540.0 1.064959 -38.731053
11560.0 1.062326 -70.851015
11580.0 1.064506 -103.471432
11600.0 1.070324 -136.63471
11620.0 1.078608 -170.202662
11640.0 1.086876 156.086081
11660.0 1.09182 122.565248
11680.0 1.092996 89.452996
11700.0 1.087959 56.838197
11720.0 1.079465 24.678108
11740.0 1.071261 -7.264826
11760.0 1.065187 -39.255344
11780.0 1.06336 -71.596147
11800.0 1.065561 -104.415741
11820.0 1.070557 -137.842742
11840.0 1.076206 -171.732993
11860.0 1.082552 154.15242
11880.0 1.087116 120.199197
11900.0 1.089391 86.77047
11920.0 1.087049 54.086434
11940.0 1.081595 22.050356
11960.0 1.075902 -9.563743
11980.0 1.070886 -41.048632
12000.0 1.068468 -72.753853
12020.0 1.066735 -104.953157
12040.0 1.065723 -137.865236
12060.0 1.066299 -171.546322
12080.0 1.071169 154.229382
12100.0 1.079339 120.026343
12120.0 1.087811 86.36841
12140.0 1.09165 53.641687
12160.0 1.088603 21.667293
12180.0 1.080826 -9.865717
12200.0 1.071588 -41.375355
12220.0 1.064381 -73.192988
12240.0 1.06146 -105.59435
12260.0 1.061998 -138.658835
12280.0 1.065399 -172.400219
12300.0 1.071319 153.417795
12320.0 1.079233 119.213742
12340.0 1.084979 85.527854
12360.0 1.086741 52.63559
12380.0 1.083145 20.549098
12400.0 1.075664 -10.998853
12420.0 1.068098 -42.387728
12440.0 1.062359 -73.961961
12460.0 1.060261 -105.977994
12480.0 1.062153 -138.68163
12500.0 1.067261 -172.075802
12520.0 1.074081 153.985249
12540.0 1.08044 119.872119
12560.0 1.083239 86.040377
12580.0 1.081166 52.71461
12600.0 1.074547 20.006165
12620.0 1.067725 -12.172313
12640.0 1.062365 -44.0623
12660.0 1.059516 -75.902189
12680.0 1.060266 -107.958605
12700.0 1.063206 -140.545968
12720.0 1.067448 -173.725199
12740.0 1.072465 152.567916
12760.0 1.076842 118.66603
12780.0 1.078476 84.966047
12800.0 1.077075 51.773465
12820.0 1.073138 19.183514
12840.0 1.06823 -12.832101
12860.0 1.064227 -44.483409
12880.0 1.061372 -76.116683
12900.0 1.060793 -108.03045
12920.0 1.061765 -140.560037
12940.0 1.064562 -173.840676
12960.0 1.068973 152.271607
12980.0 1.072847 118.160138
13000.0 1.074793 84.236853
13020.0 1.073212 50.802256
13040.0 1.068702 17.978119
13060.0 1.063958 -14.279033
13080.0 1.060377 -46.100009
13100.0 1.058217 -77.796134
13120.0 1.057768 -109.683433
13140.0 1.058149 -142.051538
13160.0 1.059752 -175.127543
13180.0 1.063552 151.224159
13200.0 1.067826 117.330625
13220.0 1.071644 83.635835
13240.0 1.071933 50.454651
13260.0 1.069163 17.87975
13280.0 1.064012 -14.122219
13300.0 1.060449 -45.764946
13320.0 1.058315 -77.291648
13340.0 1.057776 -108.984836
13360.0 1.057976 -141.174771
13380.0 1.057645 -174.040964
13400.0 1.057595 152.313674
13420.0 1.057731 118.116209
13440.0 1.059112 83.779964
13460.0 1.060506 49.784854
13480.0 1.060448 16.3948
13500.0 1.058863 -16.323339
13520.0 1.056932 -48.545348
13540.0 1.054447 -80.519926
13560.0 1.053448 -112.526888
13580.0 1.053109 -144.804243
13600.0 1.053375 -177.533508
13620.0 1.053646 149.303804
13640.0 1.055207 115.831901
13660.0 1.056869 82.349405
13680.0 1.059102 49.209362
13700.0 1.060662 16.588925
13720.0 1.060433 -15.444801
13740.0 1.058412 -47.099296
13760.0 1.054602 -78.630008
13780.0 1.050676 -110.388264
13800.0 1.047789 -142.613586
13820.0 1.047229 -175.432304
13840.0 1.048086 151.200686
13860.0 1.05074 117.492848
13880.0 1.052843 83.711993
13900.0 1.052541 50.181465
13920.0 1.051264 17.042452
13940.0 1.048442 -15.624581
13960.0 1.046366 -47.824854
13980.0 1.045759 -79.791712
14000.0 1.046517 -111.670312
14020.0 1.047577 -143.785448
14040.0 1.048032 -176.391782
14060.0 1.048196 150.373326
14080.0 1.046948 116.457481
14100.0 1.045465 82.0614
14120.0 1.043862 47.568559
14140.0 1.043497 13.415158
14160.0 1.044259 -20.062899
14180.0 1.045638 -52.742965
14200.0 1.046237 -84.713604
14220.0 1.046329 -116.244584
14240.0 1.046803 -147.634545
14260.0 1.04742 -179.183497
14280.0 1.048521 148.897452
14300.0 1.048712 116.519117
14320.0 1.046664 83.510882
14340.0 1.042135 49.988435
14360.0 1.038039 16.057186
14380.0 1.035592 -17.943828
14400.0 1.038436 -51.663021
14420.0 1.04409 -84.773483
14440.0 1.049045 -117.240661
14460.0 1.050939 -149.224335
14480.0 1.049156 178.928154
14500.0 1.045292 146.97696
14520.0 1.041552 114.704203
14540.0 1.03902 82.058184
14560.0 1.03856 49.186441
14580.0 1.039024 16.197938
14600.0 1.039748 -16.780297
14620.0 1.040867 -49.664199
14640.0 1.041412 -82.429346
14660.0 1.040941 -115.072885
14680.0 1.03919 -147.655679
14700.0 1.0366 179.646427
14720.0 1.034648 146.789248
