! File created by SignalIntegrity v1.1.10: Signal and Power Integrity Tools
! https://github.com/TeledyneLeCroy/SignalIntegrity
# MHz S MA R 50.0
0.0 0.999323 -180.0
20.0 0.9973 146.865653
40.0 0.990807 113.713264
60.0 0.984947 80.636588
80.0 0.983671 47.76525
100.0 0.986697 15.188799
120.0 0.992306 -17.147362
140.0 0.997866 -49.404223
160.0 1.000607 -81.825436
180.0 0.997944 -114.615818
200.0 0.990647 -147.915466
220.0 0.982453 178.256873
240.0 0.977218 144.27953
260.0 0.977073 110.565234
280.0 0.980267 77.525035
300.0 0.981833 45.060911
320.0 0.980616 12.894028
340.0 0.978578 -19.404586
360.0 0.978545 -52.024688
380.0 0.982174 -84.914353
400.0 0.986123 -117.917357
420.0 0.985648 -150.999437
440.0 0.97917 175.781828
460.0 0.970071 142.453176
480.0 0.963468 109.242923
500.0 0.961914 76.389831
520.0 0.962685 44.022859
540.0 0.964009 11.84361
560.0 0.965279 -20.41609
580.0 0.967396 -53.025614
600.0 0.970712 -85.983877
620.0 0.972452 -119.272052
640.0 0.970395 -152.703824
660.0 0.965144 173.829223
680.0 0.959201 140.445491
700.0 0.954957 107.40191
720.0 0.9536 74.806757
740.0 0.953909 42.541649
760.0 0.955774 10.345746
780.0 0.959913 -22.010843
800.0 0.965593 -54.600854
820.0 0.970618 -87.457888
840.0 0.970778 -120.576958
860.0 0.965942 -153.935668
880.0 0.958448 172.591507
900.0 0.951558 139.217611
920.0 0.949947 106.275493
940.0 0.950689 73.885407
960.0 0.952864 41.877133
980.0 0.955164 9.95138
1000.0 0.957318 -22.205636
1020.0 0.959564 -54.762594
1040.0 0.95995 -87.812242
1060.0 0.957726 -121.319502
1080.0 0.954302 -155.082502
1100.0 0.950199 171.213802
1120.0 0.947954 137.894069
1140.0 0.947348 105.180483
1160.0 0.946646 72.933218
1180.0 0.947006 40.955242
1200.0 0.94841 8.952447
1220.0 0.95184 -23.305994
1240.0 0.955579 -55.960684
1260.0 0.957347 -89.052597
1280.0 0.955493 -122.568194
1300.0 0.951965 -156.342162
1320.0 0.948258 169.988806
1340.0 0.945463 136.740986
1360.0 0.943502 104.107627
1380.0 0.942018 71.998296
1400.0 0.941176 40.157285
1420.0 0.94194 8.298866
1440.0 0.944483 -23.843752
1460.0 0.947657 -56.463294
1480.0 0.949768 -89.646433
1500.0 0.950277 -123.265255
1520.0 0.948567 -157.134739
1540.0 0.944856 169.055064
1560.0 0.941067 135.668936
1580.0 0.936973 102.771865
1600.0 0.934758 70.412567
1620.0 0.935892 38.422799
1640.0 0.939317 6.635787
1660.0 0.944004 -25.203386
1680.0 0.947123 -57.398883
1700.0 0.947663 -90.139418
1720.0 0.946352 -123.486981
1740.0 0.943162 -157.183215
1760.0 0.939267 169.082098
1780.0 0.935572 135.656136
1800.0 0.932023 102.699665
1820.0 0.93134 70.302733
1840.0 0.932652 38.292212
1860.0 0.93593 6.505511
1880.0 0.93957 -25.40424
1900.0 0.941923 -57.71398
1920.0 0.942573 -90.652116
1940.0 0.941446 -124.18752
1960.0 0.938798 -158.096369
1980.0 0.934639 167.950583
2000.0 0.930488 134.279469
2020.0 0.928133 101.172201
2040.0 0.928712 68.69991
2060.0 0.931683 36.843175
2080.0 0.935176 5.340956
2100.0 0.936788 -26.266687
2120.0 0.936319 -58.359168
2140.0 0.935259 -91.215028
2160.0 0.933295 -124.774394
2180.0 0.931516 -158.784346
2200.0 0.929363 167.176952
2220.0 0.928125 133.489012
2240.0 0.927292 100.41793
2260.0 0.92788 68.060841
2280.0 0.92978 36.308485
2300.0 0.931392 4.815111
2320.0 0.932488 -26.812491
2340.0 0.932981 -58.97019
2360.0 0.932085 -91.848654
2380.0 0.931981 -125.427657
2400.0 0.930613 -159.501066
2420.0 0.929006 166.385239
2440.0 0.927463 132.631855
2460.0 0.926588 99.579615
2480.0 0.924662 67.294149
2500.0 0.923686 35.558509
2520.0 0.922467 4.047341
2540.0 0.922857 -27.678712
2560.0 0.924996 -59.929867
2580.0 0.928225 -92.75039
2600.0 0.930191 -126.168054
2620.0 0.930834 -160.050312
2640.0 0.927948 165.958338
2660.0 0.924259 132.261631
2680.0 0.920606 99.118238
2700.0 0.917936 66.661694
2720.0 0.917296 34.808793
2740.0 0.918278 3.198488
2760.0 0.921394 -28.494092
2780.0 0.925165 -60.562599
2800.0 0.928655 -93.175492
2820.0 0.929727 -126.450984
2840.0 0.927079 -160.290203
2860.0 0.922794 165.626064
2880.0 0.917714 131.768683
2900.0 0.915076 98.514219
2920.0 0.913913 66.029816
2940.0 0.914376 34.178913
2960.0 0.916564 2.670522
2980.0 0.919659 -28.892588
3000.0 0.92293 -60.825497
3020.0 0.924358 -93.431991
3040.0 0.922788 -126.835435
3060.0 0.919251 -160.950573
3080.0 0.9148 164.61771
3100.0 0.91158 130.410003
3120.0 0.910582 96.906607
3140.0 0.911743 64.315454
3160.0 0.913628 32.512532
3180.0 0.915946 1.18719
3200.0 0.918304 -30.100074
3220.0 0.919286 -61.722053
3240.0 0.918636 -94.119127
3260.0 0.916559 -127.411483
3280.0 0.913041 -161.47386
3300.0 0.909786 164.03601
3320.0 0.90733 129.706181
3340.0 0.906691 96.003733
3360.0 0.907794 63.134303
3380.0 0.91017 31.120082
3400.0 0.913034 -0.340281
3420.0 0.91515 -31.566602
3440.0 0.915675 -63.136287
3460.0 0.914751 -95.332162
3480.0 0.912483 -128.451402
3500.0 0.910158 -162.353842
3520.0 0.908125 163.33808
3540.0 0.906922 129.070939
3560.0 0.905841 95.351856
3580.0 0.906023 62.383121
3600.0 0.90667 30.174406
3620.0 0.907809 -1.495264
3640.0 0.908372 -32.942536
3660.0 0.908173 -64.686617
3680.0 0.907568 -96.999514
3700.0 0.907071 -130.093215
3720.0 0.905966 -163.850546
3740.0 0.904629 162.00302
3760.0 0.902355 127.830836
3780.0 0.900494 94.055623
3800.0 0.900685 60.989861
3820.0 0.902768 28.697692
3840.0 0.90503 -2.956976
3860.0 0.906814 -34.319933
3880.0 0.907219 -65.873223
3900.0 0.906592 -97.999414
3920.0 0.905385 -130.928935
3940.0 0.902918 -164.627734
3960.0 0.900024 161.12031
3980.0 0.896981 126.728813
4000.0 0.895361 92.694173
4020.0 0.896536 59.371221
4040.0 0.898275 26.914643
4060.0 0.900741 -4.805702
4080.0 0.903078 -36.165819
4100.0 0.903946 -67.586177
4120.0 0.903667 -99.477762
4140.0 0.901622 -132.119204
4160.0 0.897809 -165.654905
4180.0 0.893634 160.112792
4200.0 0.890554 125.597944
4220.0 0.890715 91.356779
4240.0 0.893562 57.891893
4260.0 0.897614 25.395026
4280.0 0.900385 -6.276625
4300.0 0.901232 -37.534211
4320.0 0.899964 -68.857486
4340.0 0.897418 -100.723996
4360.0 0.893786 -133.439902
4380.0 0.890881 -167.065849
4400.0 0.888485 158.636246
4420.0 0.888569 124.071757
4440.0 0.889828 89.81765
4460.0 0.892195 56.301939
4480.0 0.894801 23.693259
4500.0 0.896148 -8.178818
4520.0 0.896812 -39.557673
4540.0 0.896176 -70.857094
4560.0 0.894573 -102.533522
4580.0 0.891828 -134.958296
4600.0 0.88863 -168.256967
4620.0 0.887173 157.683284
4640.0 0.887541 123.308456
4660.0 0.88934 89.139853
4680.0 0.89104 55.581543
4700.0 0.891917 22.817326
4720.0 0.891845 -9.333323
4740.0 0.891577 -41.045395
4760.0 0.891463 -72.694138
4780.0 0.89147 -104.577848
4800.0 0.890156 -137.055598
4820.0 0.887781 -170.283989
4840.0 0.885753 155.799055
4860.0 0.885453 121.463825
4880.0 0.886261 87.282514
4900.0 0.888328 53.686174
4920.0 0.890555 20.873889
4940.0 0.892126 -11.15493
4960.0 0.892224 -42.696669
4980.0 0.891444 -74.118074
5000.0 0.88912 -105.816779
5020.0 0.886303 -138.147124
5040.0 0.882971 -171.320702
5060.0 0.881225 154.790392
5080.0 0.880975 120.455254
5100.0 0.882534 86.215718
5120.0 0.885207 52.524666
5140.0 0.888273 19.629741
5160.0 0.890053 -12.434684
5180.0 0.89043 -43.959856
5200.0 0.889382 -75.297737
5220.0 0.887185 -106.858114
5240.0 0.884055 -139.043179
5260.0 0.880694 -172.062699
5280.0 0.878034 154.061566
5300.0 0.877279 119.561774
5320.0 0.878209 84.979491
5340.0 0.88146 50.787763
5360.0 0.885739 17.438084
5380.0 0.8884 -15.017134
5400.0 0.889595 -46.705127
5420.0 0.887978 -78.057814
5440.0 0.885676 -109.491692
5460.0 0.882287 -141.387947
5480.0 0.879379 -174.01473
5500.0 0.876681 152.589312
5520.0 0.875292 118.501819
5540.0 0.876061 84.149718
5560.0 0.878382 50.003405
5580.0 0.881804 16.443347
5600.0 0.884737 -16.331175
5620.0 0.886106 -48.370042
5640.0 0.886058 -80.011555
5660.0 0.884196 -111.593791
5680.0 0.881174 -143.518517
5700.0 0.877655 -176.051264
5720.0 0.87515 150.692756
5740.0 0.874755 116.893482
5760.0 0.876883 82.821565
5780.0 0.880262 49.01397
5800.0 0.883538 15.760332
5820.0 0.885139 -16.799542
5840.0 0.885141 -48.789531
5860.0 0.883516 -80.467038
5880.0 0.881185 -112.137726
5900.0 0.877963 -144.147875
5920.0 0.874735 -176.776716
5940.0 0.872445 149.784561
5960.0 0.871995 115.733798
5980.0 0.874419 81.435692
6000.0 0.878569 47.377147
6020.0 0.881832 13.968433
6040.0 0.883523 -18.757256
6060.0 0.88265 -50.81287
6080.0 0.88127 -82.484616
6100.0 0.879143 -114.040812
6120.0 0.876875 -145.836575
6140.0 0.874425 -178.178189
6160.0 0.872301 148.75491
6180.0 0.871767 115.013465
6200.0 0.872738 80.945175
6220.0 0.874975 46.980855
6240.0 0.877317 13.450168
6260.0 0.87872 -19.405885
6280.0 0.87938 -51.622397
6300.0 0.879673 -83.330628
6320.0 0.879679 -114.815798
6340.0 0.878489 -146.4103
6360.0 0.875558 -178.469117
6380.0 0.872093 148.688791
6400.0 0.869097 115.076707
6420.0 0.867743 80.916189
6440.0 0.869333 46.634976
6460.0 0.872623 12.707231
6480.0 0.876288 -20.534639
6500.0 0.879156 -53.0386
6520.0 0.88066 -84.953181
6540.0 0.880166 -116.546698
6560.0 0.877705 -148.237738
6580.0 0.874178 179.633049
6600.0 0.869597 146.816545
6620.0 0.866066 113.330297
6640.0 0.864864 79.339055
6660.0 0.86723 45.230779
6680.0 0.87186 11.521754
6700.0 0.877545 -21.458655
6720.0 0.88133 -53.681576
6740.0 0.8817 -85.302565
6760.0 0.879216 -116.728176
6780.0 0.874405 -148.346819
6800.0 0.869098 179.481708
6820.0 0.866113 146.647341
6840.0 0.865335 113.222598
6860.0 0.866258 79.392107
6880.0 0.868573 45.479058
6900.0 0.871206 11.841278
6920.0 0.87387 -21.257389
6940.0 0.875255 -53.706774
6960.0 0.874908 -85.621453
6980.0 0.873596 -117.285197
7000.0 0.871017 -149.095697
7020.0 0.86913 178.706005
7040.0 0.867521 145.950746
7060.0 0.867007 112.544041
7080.0 0.867396 78.669222
7100.0 0.868583 44.581868
7120.0 0.869904 10.653748
7140.0 0.870921 -22.754216
7160.0 0.871469 -55.520795
7180.0 0.871826 -87.663031
7200.0 0.871935 -119.381541
7220.0 0.872274 -150.958146
7240.0 0.871746 177.32818
7260.0 0.870276 145.172544
7280.0 0.868026 112.426708
7300.0 0.866177 79.015855
7320.0 0.865304 45.205972
7340.0 0.864503 11.323696
7360.0 0.865177 -22.291169
7380.0 0.866837 -55.365542
7400.0 0.869455 -87.805114
7420.0 0.87308 -119.67988
7440.0 0.875 -151.250035
7460.0 0.87418 177.128405
7480.0 0.869249 145.029286
7500.0 0.862718 112.155144
7520.0 0.857938 78.459165
7540.0 0.857897 44.290522
7560.0 0.861132 10.137902
7580.0 0.866347 -23.468424
7600.0 0.869862 -56.357533
7620.0 0.871854 -88.558148
7640.0 0.872946 -120.230812
7660.0 0.872509 -151.570802
7680.0 0.869735 177.01993
7700.0 0.864854 145.154441
7720.0 0.859611 112.574594
7740.0 0.856805 79.179643
7760.0 0.858283 45.211858
7780.0 0.862181 11.169165
7800.0 0.865665 -22.552202
7820.0 0.866949 -55.798369
7840.0 0.865902 -88.536495
7860.0 0.86451 -120.878426
7880.0 0.863752 -152.947674
7900.0 0.863893 175.088529
7920.0 0.863662 143.018358
7940.0 0.862411 110.578759
7960.0 0.861091 77.632203
7980.0 0.860083 44.23974
8000.0 0.859681 10.580975
8020.0 0.859069 -22.983495
8040.0 0.858459 -56.229217
8060.0 0.857893 -89.045985
8080.0 0.858095 -121.428551
8100.0 0.860145 -153.479052
8120.0 0.861912 174.683001
8140.0 0.863375 142.786895
8160.0 0.862506 110.582559
8180.0 0.859203 77.817395
8200.0 0.855761 44.418741
8220.0 0.852374 10.58982
8240.0 0.851333 -23.370547
8260.0 0.852626 -57.036645
8280.0 0.855078 -90.145013
8300.0 0.857902 -122.698965
8320.0 0.859913 -154.795437
8340.0 0.8609 173.303733
8360.0 0.860655 141.39526
8380.0 0.859315 109.172727
8400.0 0.856697 76.511623
8420.0 0.853036 43.335573
8440.0 0.849458 9.673508
8460.0 0.847725 -24.205049
8480.0 0.848796 -57.94674
8500.0 0.85317 -91.171925
8520.0 0.857646 -123.762407
8540.0 0.860688 -155.792103
8560.0 0.860688 172.457624
8580.0 0.858272 140.618973
8600.0 0.855221 108.454234
8620.0 0.852783 75.886625
8640.0 0.851309 42.882653
8660.0 0.850346 9.551104
8680.0 0.849709 -23.960878
8700.0 0.849605 -57.447189
8720.0 0.851196 -90.6322
8740.0 0.853246 -123.41029
8760.0 0.854924 -155.718528
8780.0 0.855244 172.254374
8800.0 0.853679 140.2376
8820.0 0.851629 107.980762
8840.0 0.850129 75.35448
8860.0 0.848686 42.288939
8880.0 0.847449 8.873536
8900.0 0.845992 -24.774205
8920.0 0.844534 -58.520518
8940.0 0.844278 -92.111274
8960.0 0.84635 -125.379431
8980.0 0.850117 -158.096196
9000.0 0.853468 169.692922
9020.0 0.855094 137.780579
9040.0 0.854342 105.885699
9060.0 0.851868 73.723427
9080.0 0.848564 41.171024
9100.0 0.845278 8.172577
9120.0 0.84267 -25.250595
9140.0 0.840826 -58.924349
9160.0 0.840368 -92.648806
9180.0 0.842846 -126.166551
9200.0 0.846566 -159.283804
9220.0 0.850832 168.067142
9240.0 0.853056 135.803744
9260.0 0.852473 103.694372
9280.0 0.849331 71.435163
9300.0 0.845825 38.890064
9320.0 0.84298 6.02107
9340.0 0.841361 -27.076004
9360.0 0.840995 -60.243528
9380.0 0.84148 -93.399945
9400.0 0.842546 -126.441519
9420.0 0.84431 -159.270133
9440.0 0.846917 168.12294
9460.0 0.848967 135.794904
9480.0 0.849837 103.539334
9500.0 0.848229 71.216976
9520.0 0.844194 38.585554
9540.0 0.839772 5.514288
9560.0 0.836336 -27.958057
9580.0 0.835628 -61.630806
9600.0 0.837176 -95.269597
9620.0 0.840885 -128.601873
9640.0 0.84453 -161.52225
9660.0 0.84744 165.951902
9680.0 0.849204 133.789791
9700.0 0.849611 101.831369
9720.0 0.848085 69.9345
9740.0 0.84495 37.827256
9760.0 0.840718 5.340591
9780.0 0.836218 -27.604691
9800.0 0.833571 -61.055369
9820.0 0.833279 -94.747329
9840.0 0.836072 -128.439552
9860.0 0.840248 -161.874019
9880.0 0.843767 165.103729
9900.0 0.845597 132.448054
9920.0 0.845224 100.081312
9940.0 0.843274 67.803003
9960.0 0.840634 35.481737
9980.0 0.837852 2.956362
10000.0 0.835132 -29.902516
10020.0 0.833261 -63.176832
10040.0 0.833732 -96.785597
10060.0 0.836607 -130.516252
10080.0 0.841207 -164.097105
10100.0 0.845382 162.678078
10120.0 0.847175 129.896522
10140.0 0.846078 97.450733
10160.0 0.842736 65.201597
10180.0 0.83872 32.986407
10200.0 0.834908 0.698922
10220.0 0.832168 -31.811313
10240.0 0.830301 -64.639875
10260.0 0.830903 -97.822956
10280.0 0.834407 -131.217453
10300.0 0.840246 -164.506591
10320.0 0.846263 162.522018
10340.0 0.848875 129.947109
10360.0 0.847664 97.675954
10380.0 0.843125 65.508498
10400.0 0.837312 33.278056
10420.0 0.833369 0.872617
10440.0 0.830935 -31.798345
10460.0 0.830088 -64.790057
10480.0 0.830721 -98.174768
10500.0 0.832845 -131.907005
10520.0 0.83766 -165.760508
10540.0 0.84385 160.652998
10560.0 0.849344 127.556232
10580.0 0.851108 95.051065
10600.0 0.848232 62.889905
10620.0 0.842067 30.848762
10640.0 0.835271 -1.373363
10660.0 0.830015 -33.930931
10680.0 0.827909 -66.915501
10700.0 0.829242 -100.2554
10720.0 0.832769 -133.835981
10740.0 0.83811 -167.43792
10760.0 0.842649 159.189776
10780.0 0.846008 126.244395
10800.0 0.846805 93.814746
10820.0 0.844727 61.846779
10840.0 0.841082 30.136803
10860.0 0.836192 -1.604338
10880.0 0.831658 -33.668771
10900.0 0.828994 -66.19492
10920.0 0.828794 -99.33781
10940.0 0.831123 -132.928888
10960.0 0.834825 -166.811293
10980.0 0.838485 159.377871
11000.0 0.84055 125.85312
11020.0 0.840963 92.771155
11040.0 0.839823 60.211565
11060.0 0.83718 27.989805
11080.0 0.833387 -4.12883
11100.0 0.830165 -36.476184
11120.0 0.829197 -69.234404
11140.0 0.830832 -102.414429
11160.0 0.834323 -135.944675
11180.0 0.837483 -169.690781
11200.0 0.838586 156.602049
11220.0 0.838351 123.148771
11240.0 0.838058 90.130024
11260.0 0.837757 57.737504
11280.0 0.837011 25.867818
11300.0 0.835075 -5.716944
11320.0 0.831589 -37.436855
11340.0 0.82771 -69.656061
11360.0 0.825788 -102.624267
11380.0 0.827467 -136.27176
11400.0 0.831881 -170.283467
11420.0 0.836988 155.688061
11440.0 0.840669 121.971766
11460.0 0.841482 88.807724
11480.0 0.840354 56.219251
11500.0 0.837805 24.14851
11520.0 0.834081 -7.591484
11540.0 0.830635 -39.35169
11560.0 0.827742 -71.416776
11580.0 0.82706 -104.020333
11600.0 0.828796 -137.152538
11620.0 0.832602 -170.712971
11640.0 0.83781 155.601333
11660.0 0.841836 122.149535
11680.0 0.843217 89.159006
11700.0 0.841586 56.646209
11720.0 0.837477 24.504872
11740.0 0.831836 -7.482437
11760.0 0.826689 -39.608783
11780.0 0.823794 -72.149363
11800.0 0.82405 -105.20813
11820.0 0.827075 -138.782295
11840.0 0.832648 -172.659195
11860.0 0.838581 153.428161
11880.0 0.842435 119.836613
11900.0 0.843557 86.798099
11920.0 0.841141 54.318517
11940.0 0.836698 22.299199
11960.0 0.831593 -9.466857
11980.0 0.828019 -41.216859
12000.0 0.826045 -73.222431
12020.0 0.826341 -105.652871
12040.0 0.827991 -138.684163
12060.0 0.830362 -172.268202
12080.0 0.833488 153.870558
12100.0 0.836302 120.064013
12120.0 0.837865 86.652343
12140.0 0.836954 53.808189
12160.0 0.833915 21.489829
12180.0 0.830299 -10.493123
12200.0 0.828057 -42.412624
12220.0 0.82774 -74.454673
12240.0 0.828827 -106.798072
12260.0 0.830426 -139.648352
12280.0 0.830881 -173.059985
12300.0 0.830774 153.095822
12320.0 0.831238 119.131314
12340.0 0.832356 85.475522
12360.0 0.833591 52.455207
12380.0 0.833336 20.135208
12400.0 0.831713 -11.667863
12420.0 0.828828 -43.280449
12440.0 0.825886 -75.051111
12460.0 0.82464 -107.247096
12480.0 0.824948 -140.018673
12500.0 0.827474 -173.355631
12520.0 0.830855 153.000569
12540.0 0.834256 119.347275
12560.0 0.836515 86.026875
12580.0 0.836486 53.203666
12600.0 0.833839 20.853369
12620.0 0.829814 -11.116058
12640.0 0.825188 -43.009522
12660.0 0.822165 -75.095995
12680.0 0.82102 -107.639068
12700.0 0.822031 -140.696076
12720.0 0.825393 -174.256782
12740.0 0.829974 151.930791
12760.0 0.834343 118.20487
12780.0 0.836319 84.863777
12800.0 0.835572 52.077405
12820.0 0.831662 19.786676
12840.0 0.826592 -12.166198
12860.0 0.82191 -44.053803
12880.0 0.819278 -76.122709
12900.0 0.819119 -108.575572
12920.0 0.82176 -141.539972
12940.0 0.826398 -174.930036
12960.0 0.831727 151.488094
12980.0 0.835226 117.973046
13000.0 0.835313 84.778255
13020.0 0.832582 51.989583
13040.0 0.827675 19.631878
13060.0 0.82292 -12.412492
13080.0 0.819818 -44.304287
13100.0 0.818823 -76.296119
13120.0 0.818906 -108.613251
13140.0 0.820618 -141.513514
13160.0 0.822634 -174.95085
13180.0 0.825341 151.218635
13200.0 0.827549 117.320811
13220.0 0.827868 83.702107
13240.0 0.826193 50.542635
13260.0 0.823371 17.877217
13280.0 0.821219 -14.316979
13300.0 0.82092 -46.161058
13320.0 0.822242 -77.881748
13340.0 0.823325 -109.749159
13360.0 0.823802 -141.987784
13380.0 0.823079 -174.833083
13400.0 0.822582 151.81493
13420.0 0.822706 118.251861
13440.0 0.823444 84.818546
13460.0 0.824052 51.813144
13480.0 0.823818 19.354152
13500.0 0.82206 -12.682163
13520.0 0.819257 -44.539087
13540.0 0.815845 -76.558586
13560.0 0.812494 -109.056758
13580.0 0.810816 -142.242074
13600.0 0.810822 -176.074789
13620.0 0.813249 149.696347
13640.0 0.816878 115.42987
13660.0 0.819961 81.546969
13680.0 0.821831 48.303324
13700.0 0.822167 15.80584
13720.0 0.821292 -16.016666
13740.0 0.819458 -47.41299
13760.0 0.816645 -78.704615
13780.0 0.813883 -110.269567
13800.0 0.811703 -142.410401
13820.0 0.810984 -175.228409
13840.0 0.811956 151.357417
13860.0 0.813909 117.569474
13880.0 0.815415 83.738181
13900.0 0.815671 50.157094
13920.0 0.814206 16.997936
13940.0 0.81218 -15.710733
13960.0 0.81022 -48.058442
13980.0 0.809075 -80.227957
14000.0 0.809876 -112.409387
14020.0 0.812018 -144.752161
14040.0 0.815142 -177.27514
14060.0 0.818152 150.041919
14080.0 0.819419 117.245141
14100.0 0.817945 84.400666
14120.0 0.814447 51.572347
14140.0 0.811106 18.904476
14160.0 0.808907 -13.54674
14180.0 0.807542 -45.793823
14200.0 0.806629 -78.023642
14220.0 0.804851 -110.476423
14240.0 0.803228 -143.403802
14260.0 0.803173 -176.909213
14280.0 0.804885 149.20956
14300.0 0.808048 115.251275
14320.0 0.810741 81.517236
14340.0 0.811886 48.223201
14360.0 0.811477 15.37372
14380.0 0.810189 -17.004532
14400.0 0.808541 -49.078656
14420.0 0.806735 -81.078574
14440.0 0.804408 -113.278008
14460.0 0.801993 -146.008417
14480.0 0.799857 -179.412734
14500.0 0.80016 146.671939
14520.0 0.802321 112.497435
14540.0 0.805582 78.464222
14560.0 0.808378 44.954248
14580.0 0.80953 12.050163
14600.0 0.809449 -20.204488
14620.0 0.808014 -51.996746
14640.0 0.806553 -83.585083
14660.0 0.804174 -115.279293
14680.0 0.801883 -147.372342
14700.0 0.800958 179.966526
14720.0 0.801118 146.712455
