! File created by SignalIntegrity v1.1.10: Signal and Power Integrity Tools
! https://github.com/TeledyneLeCroy/SignalIntegrity
# MHz S MA R 50.0
0.0 0.005619 -180.0 1.090704 -0.0 1.182609 0.0 0.007493 -0.0
20.0 0.012324 80.353923 1.088485 -32.894498 1.180237 -32.850599 0.01666 31.784994
40.0 0.018973 30.427803 1.082716 -65.910702 1.173985 -65.864356 0.025022 10.11956
60.0 0.020788 -9.328105 1.077459 -99.136809 1.16759 -99.082209 0.025667 -20.880769
80.0 0.015349 -47.511113 1.075254 -132.518139 1.164342 -132.455455 0.018118 -54.181502
100.0 0.003721 -76.033536 1.076732 -165.871366 1.165091 -165.842707 0.004919 -85.601656
120.0 0.009461 59.693169 1.07945 160.935348 1.167765 160.930873 0.00988 47.863531
140.0 0.020783 25.892276 1.081556 127.922667 1.169718 127.849539 0.023343 10.358515
160.0 0.027023 -7.803733 1.080662 94.999524 1.16909 94.896043 0.032561 -27.763832
180.0 0.025363 -39.822656 1.077035 62.012677 1.166157 61.893942 0.034433 -66.436296
200.0 0.016981 -63.89543 1.072306 28.863851 1.162107 28.785525 0.027076 -105.25751
220.0 0.006126 -34.545149 1.068482 -4.419368 1.159155 -4.456023 0.012337 -164.14677
240.0 0.015466 9.879406 1.067882 -37.730005 1.158137 -37.720264 0.014193 76.109804
260.0 0.023774 -8.718168 1.069321 -70.965589 1.159216 -70.882015 0.025457 26.749372
280.0 0.022013 -34.133262 1.070955 -104.057722 1.16084 -103.96324 0.025796 -7.121382
300.0 0.01247 -61.002131 1.071093 -137.040537 1.160574 -136.986707 0.014999 -37.71499
320.0 0.001671 63.879032 1.06909 -170.073913 1.157911 -170.05987 0.00073 97.246612
340.0 0.013211 45.273069 1.065836 156.833062 1.154482 156.814088 0.012342 75.777641
360.0 0.018778 2.910276 1.062957 123.653334 1.151374 123.630908 0.01732 34.158476
380.0 0.021 -46.025869 1.061804 90.449063 1.150884 90.401947 0.017287 -18.039803
400.0 0.020622 -96.333954 1.061302 57.276541 1.150936 57.24439 0.014303 -71.350639
420.0 0.016497 -150.926253 1.061135 24.20531 1.151487 24.149018 0.00813 -132.376266
440.0 0.013023 130.941887 1.059299 -8.845515 1.150014 -8.854258 0.008772 83.148458
460.0 0.017948 56.230514 1.056513 -41.860527 1.147197 -41.882317 0.022253 30.613914
480.0 0.022794 11.756828 1.053268 -74.96841 1.143548 -74.968029 0.029464 -2.274728
500.0 0.019267 -20.440952 1.050714 -108.104519 1.140767 -108.074048 0.025085 -33.675676
520.0 0.007647 -44.493612 1.05014 -141.275224 1.139153 -141.268979 0.010409 -64.172159
540.0 0.00608 75.015586 1.049616 -174.363009 1.138018 -174.370704 0.006485 82.900029
560.0 0.015267 52.116233 1.049599 152.599003 1.137672 152.541161 0.017718 43.718509
580.0 0.016731 13.158246 1.048687 119.603149 1.136133 119.534235 0.0219 -3.001985
600.0 0.012985 -39.743022 1.046822 86.618092 1.134211 86.521618 0.023038 -60.422847
620.0 0.009933 -112.989327 1.044575 53.532368 1.131609 53.475531 0.023461 -119.239807
640.0 0.010833 159.378317 1.043405 20.404694 1.131017 20.366074 0.023422 177.884503
660.0 0.015794 89.095927 1.042959 -12.678579 1.130522 -12.69674 0.025059 111.522401
680.0 0.021534 38.773176 1.04351 -45.697054 1.130644 -45.730018 0.030424 56.012788
700.0 0.022178 0.598507 1.044661 -78.65562 1.131415 -78.702618 0.030157 13.757108
720.0 0.015133 -32.529946 1.044731 -111.626447 1.131821 -111.688336 0.020663 -22.412733
740.0 0.003275 -48.727176 1.043467 -144.633908 1.130979 -144.712203 0.004381 -45.782843
760.0 0.009673 59.507787 1.04232 -177.716511 1.129811 -177.774156 0.01162 84.509048
780.0 0.018644 22.131002 1.04108 149.153412 1.12936 149.146284 0.021185 47.053464
800.0 0.02395 -23.682971 1.041302 116.028405 1.129503 116.061855 0.022702 3.139351
820.0 0.025397 -73.606207 1.041897 82.930253 1.129459 83.009544 0.018399 -48.647371
840.0 0.023183 -127.143902 1.042089 49.851845 1.128899 49.965804 0.011019 -121.349563
860.0 0.020699 168.676695 1.041012 16.802724 1.127977 16.909739 0.014008 128.317133
880.0 0.023134 101.453612 1.039536 -16.224227 1.126054 -16.145315 0.027339 68.974861
900.0 0.026955 50.897308 1.038256 -49.255622 1.125541 -49.216061 0.035421 29.560587
920.0 0.024502 11.255975 1.037435 -82.29742 1.124667 -82.27173 0.032383 -5.428028
940.0 0.0138 -20.951855 1.037334 -115.366074 1.125388 -115.366833 0.018269 -37.732438
960.0 0.002142 57.100245 1.037104 -148.433644 1.125104 -148.375721 0.001846 67.083903
980.0 0.015235 70.740097 1.035797 178.539749 1.123779 178.581159 0.019508 64.481377
1000.0 0.024445 34.194652 1.03409 145.485085 1.121914 145.549118 0.031972 25.856726
1020.0 0.027149 -5.69352 1.032372 112.425416 1.119602 112.510259 0.036844 -14.814775
1040.0 0.023345 -49.497826 1.031577 79.30368 1.118802 79.401349 0.032332 -56.662384
1060.0 0.014932 -105.742262 1.03156 46.189652 1.118371 46.278072 0.020551 -109.021768
1080.0 0.011088 153.976345 1.03199 13.112902 1.119085 13.203688 0.013983 149.651119
1100.0 0.019993 81.468092 1.032256 -19.844278 1.119042 -19.795585 0.025861 74.48873
1120.0 0.025254 39.947717 1.032499 -52.774101 1.11873 -52.727693 0.032717 32.712144
1140.0 0.021515 4.829185 1.031838 -85.71366 1.117877 -85.691743 0.02754 -1.760108
1160.0 0.009663 -24.466067 1.030924 -118.72651 1.117005 -118.770965 0.012355 -32.780734
1180.0 0.005914 91.924564 1.030011 -151.857214 1.115977 -151.896291 0.007616 94.202601
1200.0 0.01927 65.470807 1.029213 174.975473 1.115516 174.983277 0.025263 62.172283
1220.0 0.027455 27.011464 1.030039 141.848833 1.116093 141.855878 0.036131 23.225843
1240.0 0.029351 -13.756664 1.030748 108.75798 1.116817 108.800301 0.038868 -17.237942
1260.0 0.02407 -58.780579 1.031091 75.728526 1.116643 75.779275 0.03281 -60.321404
1280.0 0.015563 -120.320979 1.029918 42.717376 1.115836 42.717103 0.019565 -116.766362
1300.0 0.014366 145.530117 1.027421 9.700689 1.112982 9.715114 0.015276 140.302489
1320.0 0.022031 83.477159 1.02519 -23.332006 1.110738 -23.340425 0.02602 72.582738
1340.0 0.025326 41.159032 1.023384 -56.383607 1.109215 -56.374391 0.029966 29.969577
1360.0 0.018683 7.217054 1.02303 -89.42129 1.109073 -89.412614 0.023505 -5.14142
1380.0 0.005701 -12.908486 1.02346 -122.52654 1.110075 -122.475491 0.006257 -25.205299
1400.0 0.012107 97.764235 1.024399 -155.577843 1.110034 -155.502469 0.015764 86.366757
1420.0 0.02713 66.382895 1.024344 171.353147 1.109895 171.479819 0.036393 55.010217
1440.0 0.036709 30.744934 1.023592 138.318706 1.109102 138.449697 0.050331 18.981178
1460.0 0.038033 -5.41282 1.023405 105.266595 1.108603 105.380219 0.053573 -17.595726
1480.0 0.029746 -41.927586 1.022788 72.211882 1.10863 72.296202 0.044243 -57.427172
1500.0 0.014669 -83.841513 1.021616 39.151338 1.107756 39.227021 0.026512 -107.975456
1520.0 0.005536 140.388371 1.019686 6.107929 1.106497 6.146151 0.01718 160.923231
1540.0 0.01668 66.909129 1.018108 -26.948262 1.105316 -26.897365 0.025233 85.52389
1560.0 0.020806 28.645755 1.017151 -59.983973 1.104367 -59.91872 0.028123 42.25767
1580.0 0.014698 -4.002388 1.017664 -93.045181 1.104666 -92.975677 0.018637 5.583624
1600.0 0.002477 55.490089 1.01897 -126.132584 1.105751 -126.041049 0.002658 61.329303
1620.0 0.020182 89.675689 1.019804 -159.223928 1.1065 -159.083558 0.024248 98.777383
1640.0 0.039432 57.924562 1.020651 167.745295 1.1066 167.903871 0.046413 66.185589
1660.0 0.051674 23.803887 1.020117 134.76389 1.106169 134.907855 0.061629 32.248762
1680.0 0.053658 -10.951968 1.019182 101.781459 1.104455 101.898782 0.063805 -0.684684
1700.0 0.045128 -46.420571 1.017889 68.725362 1.102462 68.790265 0.052863 -33.777532
1720.0 0.02923 -87.955184 1.015834 35.61111 1.100475 35.611975 0.031565 -65.74428
1740.0 0.014872 -148.434323 1.014241 2.485086 1.099038 2.479118 0.008628 -100.260179
1760.0 0.011553 115.208119 1.01368 -30.585613 1.09891 -30.616611 0.009191 52.502584
1780.0 0.012866 52.710621 1.014628 -63.598374 1.099778 -63.630114 0.016068 18.606577
1800.0 0.007895 12.020233 1.015602 -96.578809 1.100719 -96.547051 0.010502 -9.218198
1820.0 0.005307 128.069073 1.016229 -129.52289 1.100811 -129.482632 0.006735 102.42026
1840.0 0.022843 101.94062 1.016033 -162.508566 1.100235 -162.462893 0.029373 83.255564
1860.0 0.039184 66.756675 1.01471 164.45328 1.098409 164.505994 0.052883 51.337247
1880.0 0.049653 32.867727 1.013229 131.385382 1.097093 131.405082 0.068664 18.394722
1900.0 0.05025 -0.866391 1.012381 98.25146 1.09654 98.267801 0.071244 -14.50963
1920.0 0.040817 -35.169268 1.012708 65.115728 1.096678 65.110035 0.059562 -48.832438
1940.0 0.025662 -71.285387 1.012626 31.965364 1.097691 31.932263 0.039128 -87.10499
1960.0 0.009926 -119.243627 1.012614 -1.121776 1.097645 -1.121905 0.017774 -139.133542
1980.0 0.00455 96.823487 1.012583 -34.137339 1.097852 -34.077291 0.009148 111.632758
2000.0 0.008515 28.896056 1.012176 -67.089444 1.096907 -66.996109 0.012235 39.272014
2020.0 0.004319 -7.718187 1.011925 -100.035847 1.096324 -99.890899 0.005884 4.231921
2040.0 0.009399 119.91281 1.011194 -132.99797 1.094673 -132.878763 0.011899 116.88619
2060.0 0.028835 89.791275 1.010085 -166.067265 1.093166 -165.935733 0.036058 88.988005
2080.0 0.047589 56.709005 1.008049 160.84792 1.091711 160.938013 0.060602 56.487855
2100.0 0.059194 24.183233 1.007228 127.72342 1.090647 127.783826 0.076353 23.426783
2120.0 0.060059 -7.677897 1.007536 94.594386 1.091769 94.610405 0.078715 -9.813205
2140.0 0.050347 -40.43277 1.008422 61.437285 1.093439 61.475992 0.066302 -43.513572
2160.0 0.034045 -74.008154 1.009704 28.363192 1.094335 28.421914 0.044927 -79.534888
2180.0 0.015832 -112.852348 1.009436 -4.621911 1.094672 -4.528575 0.021366 -120.401415
2200.0 0.002957 159.485336 1.007885 -37.535334 1.092357 -37.435406 0.004666 153.217079
2220.0 0.005762 30.961955 1.005437 -70.441157 1.089621 -70.328056 0.007113 28.523079
2240.0 0.001545 13.15827 1.003641 -103.411129 1.087031 -103.302516 0.00238 22.809333
2260.0 0.013554 121.407169 1.002134 -136.464824 1.086056 -136.424965 0.01676 114.899845
2280.0 0.034714 89.585841 1.001872 -169.631636 1.085947 -169.559541 0.042687 85.555515
2300.0 0.054112 57.042955 1.003144 157.200857 1.087643 157.247367 0.067436 53.544665
2320.0 0.065356 24.516312 1.005384 124.11458 1.091028 124.179184 0.082964 20.530551
2340.0 0.065811 -8.100905 1.008142 91.085584 1.093846 91.183055 0.084514 -12.955822
2360.0 0.05594 -40.806513 1.008901 58.076129 1.094664 58.214929 0.072234 -47.626196
2380.0 0.038819 -74.565034 1.00849 25.064406 1.092014 25.229572 0.051057 -83.085609
2400.0 0.019866 -109.766128 1.00521 -7.970339 1.088373 -7.805214 0.026042 -120.311725
2420.0 0.004622 -159.862111 1.001942 -41.03805 1.083444 -40.921962 0.006822 -171.555189
2440.0 0.003403 43.33358 0.999733 -74.08812 1.080834 -74.042245 0.003929 28.355191
2460.0 0.0023 129.505702 0.998705 -107.161227 1.080942 -107.16834 0.002534 105.868086
2480.0 0.017677 119.876164 0.999704 -140.248558 1.082606 -140.262517 0.021995 114.128775
2500.0 0.038509 89.278592 1.000928 -173.322696 1.085424 -173.286431 0.050357 83.950033
2520.0 0.057103 55.571214 1.002373 153.687516 1.087467 153.692574 0.076961 52.524715
2540.0 0.067709 22.194538 1.002989 120.708492 1.08808 120.756392 0.092297 20.423244
2560.0 0.068468 -11.569585 1.003404 87.724972 1.08751 87.794788 0.092987 -12.609963
2580.0 0.059413 -45.291596 1.002619 54.711744 1.0861 54.7697 0.078986 -46.014045
2600.0 0.043319 -79.849501 1.000571 21.623556 1.08375 21.607787 0.055262 -79.758964
2620.0 0.024219 -115.633138 0.997793 -11.507783 1.081206 -11.536092 0.028351 -113.739986
2640.0 0.007983 -161.675826 0.995249 -44.633116 1.079357 -44.660291 0.007369 -149.768217
2660.0 0.002064 81.606377 0.993881 -77.708812 1.07857 -77.737295 0.001435 19.62521
2680.0 0.00405 145.024287 0.994723 -110.772682 1.079921 -110.740165 0.005176 135.785379
2700.0 0.020059 122.713672 0.997227 -143.736888 1.082158 -143.707802 0.026016 110.525788
2720.0 0.041664 89.671294 0.998558 -176.683331 1.083461 -176.671784 0.054931 79.711705
2740.0 0.061265 55.11809 0.999045 150.391899 1.08389 150.399999 0.081168 48.489447
2760.0 0.072671 21.348402 0.998148 117.440975 1.083048 117.411179 0.097738 16.077703
2780.0 0.074001 -12.704039 0.996637 84.399248 1.081189 84.395347 0.099674 -16.97792
2800.0 0.065792 -46.314898 0.994788 51.225343 1.079745 51.246263 0.085837 -49.574594
2820.0 0.049039 -80.344504 0.994078 17.958771 1.078626 18.002124 0.061684 -81.95514
2840.0 0.028154 -115.701619 0.993927 -15.264175 1.077428 -15.204769 0.032956 -112.250073
2860.0 0.009826 -153.782178 0.994132 -48.367368 1.077565 -48.287914 0.009879 -136.237721
2880.0 0.000743 126.993055 0.995212 -81.281864 1.07803 -81.287397 0.001352 -29.865989
2900.0 0.004519 172.691433 0.995604 -114.106145 1.079514 -114.13413 0.006183 120.284539
2920.0 0.02115 129.147512 0.995155 -146.932189 1.07972 -146.982812 0.027296 100.687678
2940.0 0.042959 93.828534 0.993046 -179.841721 1.079076 -179.890811 0.05604 71.610072
2960.0 0.063399 59.52207 0.990858 147.13221 1.076422 147.120951 0.083703 39.399996
2980.0 0.075967 26.285364 0.989638 113.973683 1.074086 114.009013 0.101813 6.904665
3000.0 0.077811 -6.323749 0.989974 80.766382 1.073408 80.791049 0.106049 -25.976121
3020.0 0.068775 -38.316549 0.991411 47.525057 1.074972 47.541111 0.093172 -58.811886
3040.0 0.05111 -70.591882 0.993701 14.323474 1.076061 14.336725 0.067598 -91.189132
3060.0 0.02858 -100.405701 0.994361 -18.732892 1.077907 -18.790168 0.036619 -122.612681
3080.0 0.008733 -127.871415 0.993459 -51.680474 1.078012 -51.760183 0.010897 -147.974404
3100.0 0.001741 -6.237134 0.99162 -84.528938 1.076395 -84.575932 0.002616 -50.503734
3120.0 0.001527 133.242031 0.988883 -117.363928 1.07338 -117.390917 0.003042 -169.59382
3140.0 0.017355 112.465611 0.986819 -150.304527 1.070564 -150.314678 0.020833 112.825828
3160.0 0.039229 81.682574 0.98539 176.604133 1.068163 176.605666 0.048796 76.154995
3180.0 0.060603 49.656473 0.985442 143.404486 1.067524 143.424496 0.076964 41.562605
3200.0 0.074445 18.142661 0.987742 110.205726 1.069188 110.164038 0.097971 8.044245
3220.0 0.078157 -12.671299 0.990956 77.030691 1.073319 76.977964 0.103907 -24.984986
3240.0 0.069805 -43.507912 0.994759 43.941481 1.077254 43.937037 0.092877 -57.592161
3260.0 0.051471 -73.506078 0.996044 10.967351 1.079642 10.930066 0.067397 -89.449847
3280.0 0.027955 -102.848805 0.994577 -21.965366 1.077436 -21.9997 0.035888 -118.983336
3300.0 0.006613 -118.814908 0.989699 -54.900696 1.072223 -54.937005 0.008557 -132.713316
3320.0 0.007271 -5.972343 0.983642 -87.840376 1.065425 -87.906798 0.008406 -32.236491
3340.0 0.007292 -26.719227 0.979141 -120.889588 1.060941 -120.981043 0.007833 -64.760384
3360.0 0.006822 82.290142 0.978085 -154.033671 1.060992 -154.095122 0.008455 127.248319
3380.0 0.027066 69.569566 0.980414 172.813124 1.063821 172.743941 0.0325 76.695125
3400.0 0.048031 40.376735 0.985234 139.718443 1.068966 139.693719 0.0602 40.863146
3420.0 0.063451 10.402188 0.990011 106.744144 1.073534 106.769813 0.082203 7.047561
3440.0 0.068048 -20.069314 0.993084 73.843238 1.076247 73.891288 0.090344 -25.330837
3460.0 0.061519 -49.882278 0.993567 40.900173 1.0759 40.963754 0.082454 -57.16498
3480.0 0.044629 -80.155819 0.991124 7.878259 1.072795 7.897109 0.059485 -87.794979
3500.0 0.022333 -108.172199 0.986818 -25.27253 1.067727 -25.309096 0.028972 -115.634173
3520.0 0.002928 -71.15201 0.982174 -58.491372 1.063036 -58.576378 0.004643 -87.879095
3540.0 0.013385 -12.720715 0.979353 -91.679839 1.060607 -91.774001 0.015829 -20.470479
3560.0 0.015287 -40.764225 0.979502 -124.744655 1.061249 -124.843743 0.017951 -44.041938
3580.0 0.005032 -66.146455 0.981335 -157.729316 1.063677 -157.768916 0.006237 -50.68469
3600.0 0.014003 67.901884 0.983695 169.378999 1.066808 169.325036 0.018248 51.927601
3620.0 0.034406 39.964653 0.985554 136.46924 1.068788 136.463416 0.044495 27.100879
3640.0 0.050643 10.459674 0.985737 103.55724 1.069184 103.601502 0.066718 -2.171332
3660.0 0.056364 -18.871637 0.984786 70.521873 1.068089 70.603739 0.075957 -33.139809
3680.0 0.051696 -48.173526 0.983364 37.415147 1.066243 37.451269 0.06884 -63.661196
3700.0 0.03668 -77.896358 0.981508 4.20712 1.064346 4.232028 0.048053 -93.421519
3720.0 0.015745 -104.193668 0.979382 -29.046444 1.062366 -29.031322 0.020287 -117.517842
3740.0 0.005706 10.521889 0.977733 -62.25418 1.060976 -62.266018 0.007275 -20.338904
3760.0 0.019275 -3.71977 0.977272 -95.340888 1.060933 -95.353591 0.02286 -25.229441
3780.0 0.021038 -29.914901 0.978638 -128.285998 1.062203 -128.288787 0.02505 -52.892088
3800.0 0.01185 -44.444938 0.980865 -161.118231 1.064284 -161.150152 0.013148 -78.899197
3820.0 0.011335 33.90921 0.982638 166.105689 1.065428 166.039168 0.010862 51.4084
3840.0 0.030178 28.649897 0.982502 133.256763 1.065421 133.129076 0.037826 27.40086
3860.0 0.046059 4.390842 0.981024 100.329458 1.063677 100.138711 0.059336 -2.895111
3880.0 0.052671 -23.458239 0.978762 67.198989 1.062263 66.98633 0.068642 -33.982248
3900.0 0.047809 -51.852003 0.977625 33.907805 1.061932 33.672379 0.062199 -65.278037
3920.0 0.032711 -80.346052 0.977798 0.569161 1.062804 0.397257 0.041003 -95.878495
3940.0 0.010697 -100.402903 0.978919 -32.744521 1.063679 -32.833419 0.013042 -113.954165
3960.0 0.01322 18.066169 0.98029 -65.834439 1.063691 -65.871894 0.016725 -4.642808
3980.0 0.029302 -4.754207 0.980403 -98.702689 1.062247 -98.736552 0.036786 -27.937206
4000.0 0.033622 -30.88108 0.978802 -131.463009 1.059678 -131.46741 0.04283 -57.949934
4020.0 0.0266 -50.964028 0.976239 -164.203765 1.056714 -164.278748 0.032993 -88.218993
4040.0 0.014038 -42.604327 0.973953 162.881075 1.054643 162.77901 0.010733 -117.37252
4060.0 0.019215 3.895582 0.97229 129.756541 1.053905 129.684146 0.016647 26.012319
4080.0 0.033569 -4.517908 0.972866 96.524921 1.055524 96.515333 0.039896 -3.89298
4100.0 0.040704 -27.532364 0.975281 63.263715 1.059088 63.319827 0.052008 -35.320192
4120.0 0.037998 -55.113044 0.979236 30.073958 1.062603 30.194815 0.047799 -66.372874
4140.0 0.024295 -81.672931 0.982073 -3.026887 1.065032 -2.8928 0.029625 -95.387977
4160.0 0.004933 -72.514345 0.981573 -36.031615 1.064603 -35.937026 0.005386 -74.355606
4180.0 0.019688 15.740938 0.978091 -68.995209 1.060955 -68.935744 0.025813 0.727193
4200.0 0.036332 -9.075733 0.973502 -101.937112 1.055809 -101.928858 0.04577 -27.253126
4220.0 0.041455 -37.374233 0.969039 -134.911734 1.051661 -134.897324 0.052497 -57.079447
4240.0 0.034753 -62.246909 0.966996 -167.932245 1.050038 -167.936069 0.043721 -87.674568
4260.0 0.019666 -76.442828 0.967663 159.027064 1.050949 159.008136 0.022753 -115.907972
4280.0 0.01067 -27.411644 0.969924 125.954306 1.053338 125.906378 0.004754 -2.358745
4300.0 0.02354 -8.896605 0.973316 92.872818 1.05669 92.840572 0.027923 -10.580502
4320.0 0.03229 -28.924785 0.976289 59.861412 1.060019 59.812636 0.040964 -40.447264
4340.0 0.030839 -53.880668 0.978578 26.835677 1.062016 26.779135 0.038633 -71.109418
4360.0 0.017217 -76.671646 0.978988 -6.150329 1.061386 -6.277524 0.021365 -96.322461
4380.0 0.006508 15.907302 0.976285 -39.225307 1.058987 -39.340839 0.008747 3.586362
4400.0 0.029538 18.013754 0.971867 -72.297246 1.054109 -72.409059 0.03736 -1.354407
4420.0 0.04781 -8.42857 0.9672 -105.386591 1.049063 -105.515044 0.05988 -30.640775
4440.0 0.055311 -36.463046 0.963893 -138.445908 1.045377 -138.556813 0.068318 -61.602336
4460.0 0.050653 -63.475999 0.963698 -171.521955 1.045506 -171.599262 0.06133 -93.570664
4480.0 0.036703 -86.748864 0.966432 155.450774 1.048882 155.427877 0.041445 -127.123539
4500.0 0.019763 -96.057187 0.970567 122.428486 1.052826 122.506613 0.015081 -167.627753
4520.0 0.012808 -60.380195 0.974573 89.502328 1.056629 89.58384 0.009886 9.801266
4540.0 0.018739 -49.192167 0.976673 56.556973 1.057932 56.66571 0.024325 -32.680291
4560.0 0.019321 -65.872547 0.976309 23.551566 1.056706 23.620856 0.025181 -64.530554
4580.0 0.009057 -74.77281 0.973856 -9.56822 1.054419 -9.531932 0.011085 -82.61293
4600.0 0.012755 28.248607 0.970763 -42.793364 1.051654 -42.804735 0.016953 24.033417
4620.0 0.035466 11.800122 0.967412 -76.05464 1.048447 -76.092224 0.044761 3.416462
4640.0 0.053765 -16.02391 0.96548 -109.246825 1.047428 -109.259211 0.067315 -25.926816
