! File created by SignalIntegrity v1.4.2: Signal and Power Integrity Tools
! https://github.com/Nubis-Communications/SignalIntegrity
# MHz S MA R 48.0
0.0 1.0 0.0 2.0 0.0 0.0 0.0 1.0 180.0
83.40780458742925 1.0 0.0 2.0 -0.384462 0.0 0.0 1.0 180.0
166.8156091748585 1.0 0.0 2.0 -0.768926 0.0 0.0 1.0 180.0
250.22341376228778 1.0 0.0 2.0 -1.153394 0.0 0.0 1.0 180.0
333.631218349717 1.0 0.0 2.0 -1.537868 0.0 0.0 1.0 180.0
417.0390229371463 1.0 0.0 2.0 -1.922351 0.0 0.0 1.0 180.0
500.44682752457555 1.0 0.0 2.0 -2.306844 0.0 0.0 1.0 180.0
583.8546321120048 1.0 0.0 2.0 -2.69135 0.0 0.0 1.0 180.0
667.262436699434 1.0 0.0 2.0 -3.07587 0.0 0.0 1.0 180.0
750.6702412868633 1.0 0.0 2.0 -3.460408 0.0 0.0 1.0 180.0
834.0780458742926 1.0 0.0 2.0 -3.844964 0.0 0.0 1.0 180.0
917.4858504617217 1.0 0.0 2.0 -4.229541 0.0 0.0 1.0 180.0
1000.8936550491511 1.0 0.0 2.0 -4.614142 0.0 0.0 1.0 180.0
1084.3014596365801 1.0 0.0 2.0 -4.998767 0.0 0.0 1.0 180.0
1167.7092642240095 1.0 0.0 2.0 -5.383421 0.0 0.0 1.0 180.0
1251.117068811439 1.0 0.0 2.0 -5.768103 0.0 0.0 1.0 180.0
1334.524873398868 1.0 0.0 2.0 -6.152817 0.0 0.0 1.0 180.0
1417.9326779862974 1.0 0.0 2.0 -6.537565 0.0 0.0 1.0 180.0
1501.3404825737266 1.0 0.0 2.0 -6.922349 0.0 0.0 1.0 180.0
1584.748287161156 1.0 0.0 2.000001 -7.307171 0.0 0.0 1.0 180.0
1668.1560917485851 1.0 0.0 2.000001 -7.692032 0.0 0.0 1.0 180.0
1751.5638963360143 1.0 0.0 2.000001 -8.076937 0.0 0.0 1.0 180.0
1834.9717009234434 1.0 0.0 2.000001 -8.461885 0.0 0.0 1.0 180.0
1918.3795055108728 1.0 0.0 2.000001 -8.84688 0.0 0.0 1.0 180.0
2001.7873100983022 1.0 0.0 2.000001 -9.231923 0.0 0.0 1.0 180.0
2085.1951146857314 1.0 0.0 2.000001 -9.617018 0.0 0.0 1.0 180.0
2168.6029192731603 1.0 0.0 2.000001 -10.002165 0.0 0.0 1.0 180.0
2252.01072386059 1.0 0.0 2.000001 -10.387368 0.0 0.0 1.0 180.0
2335.418528448019 1.0 0.0 2.000001 -10.772627 0.0 0.0 1.0 180.0
2418.8263330354484 1.0 0.0 2.000001 -11.157946 0.0 0.0 1.0 180.0
2502.234137622878 1.0 0.0 2.000001 -11.543327 0.0 0.0 1.0 180.0
2585.641942210307 1.0 0.0 2.000001 -11.928772 0.0 0.0 1.0 180.0
2669.049746797736 1.0 0.0 2.000002 -12.314282 0.0 0.0 1.0 180.0
2752.457551385165 1.0 0.0 2.000002 -12.699861 0.0 0.0 1.0 180.0
2835.865355972595 1.0 0.0 2.000002 -13.08551 0.0 0.0 1.0 180.0
2919.273160560024 1.0 0.0 2.000002 -13.471231 0.0 0.0 1.0 180.0
3002.680965147453 1.0 0.0 2.000002 -13.857027 0.0 0.0 1.0 180.0
3086.088769734882 1.0 0.0 2.000002 -14.2429 0.0 0.0 1.0 180.0
3169.496574322312 1.0 0.0 2.000002 -14.628853 0.0 0.0 1.0 180.0
3252.904378909741 1.0 0.0 2.000002 -15.014886 0.0 0.0 1.0 180.0
3336.3121834971703 1.0 0.0 2.000002 -15.401004 0.0 0.0 1.0 180.0
3419.7199880845997 1.0 0.0 2.000003 -15.787207 0.0 0.0 1.0 180.0
3503.1277926720286 1.0 0.0 2.000003 -16.173498 0.0 0.0 1.0 180.0
3586.535597259458 1.0 0.0 2.000003 -16.55988 0.0 0.0 1.0 180.0
3669.943401846887 1.0 0.0 2.000003 -16.946354 0.0 0.0 1.0 180.0
3753.3512064343167 1.0 0.0 2.000003 -17.332923 0.0 0.0 1.0 180.0
3836.7590110217457 1.0 0.0 2.000003 -17.71959 0.0 0.0 1.0 180.0
3920.166815609175 1.0 0.0 2.000003 -18.106355 0.0 0.0 1.0 180.0
4003.5746201966044 1.0 0.0 2.000003 -18.493223 0.0 0.0 1.0 180.0
4086.9824247840334 1.0 0.0 2.000004 -18.880194 0.0 0.0 1.0 180.0
4170.390229371463 1.0 0.0 2.000004 -19.267272 0.0 0.0 1.0 180.0
4253.798033958892 1.0 0.0 2.000004 -19.654459 0.0 0.0 1.0 180.0
4337.205838546321 1.0 0.0 2.000004 -20.041757 0.0 0.0 1.0 180.0
4420.613643133751 1.0 0.0 2.000004 -20.429168 0.0 0.0 1.0 180.0
4504.02144772118 1.0 0.0 2.000004 -20.816694 0.0 0.0 1.0 180.0
4587.429252308609 1.0 0.0 2.000005 -21.204339 0.0 0.0 1.0 180.0
4670.837056896038 1.0 0.0 2.000005 -21.592104 0.0 0.0 1.0 180.0
4754.2448614834675 1.0 0.0 2.000005 -21.979993 0.0 0.0 1.0 180.0
4837.652666070897 1.0 0.0 2.000005 -22.368006 0.0 0.0 1.0 180.0
4921.060470658326 1.0 0.0 2.000005 -22.756147 0.0 0.0 1.0 180.0
5004.468275245756 1.0 0.0 2.000005 -23.144418 0.0 0.0 1.0 180.0
5087.876079833184 1.0 0.0 2.000005 -23.532821 0.0 0.0 1.0 180.0
5171.283884420614 1.0 0.0 2.000006 -23.92136 0.0 0.0 1.0 180.0
5254.691689008043 1.0 0.0 2.000006 -24.310036 0.0 0.0 1.0 180.0
5338.099493595472 1.0 0.0 2.000006 -24.698852 0.0 0.0 1.0 180.0
5421.507298182902 1.0 0.0 2.000006 -25.08781 0.0 0.0 1.0 180.0
5504.91510277033 1.0 0.0 2.000006 -25.476913 0.0 0.0 1.0 180.0
5588.32290735776 1.0 0.0 2.000006 -25.866164 0.0 0.0 1.0 180.0
5671.73071194519 1.0 0.0 2.000006 -26.255564 0.0 0.0 1.0 180.0
5755.138516532618 1.0 0.0 2.000006 -26.645117 0.0 0.0 1.0 180.0
5838.546321120048 1.0 0.0 2.000007 -27.034825 0.0 0.0 1.0 180.0
5921.954125707478 1.0 0.0 2.000007 -27.42469 0.0 0.0 1.0 180.0
6005.361930294906 1.0 0.0 2.000007 -27.814716 0.0 0.0 1.0 180.0
6088.769734882336 1.0 0.0 2.000007 -28.204904 0.0 0.0 1.0 180.0
6172.177539469764 1.0 0.0 2.000007 -28.595258 0.0 0.0 1.0 180.0
6255.585344057194 1.0 0.0 2.000007 -28.98578 0.0 0.0 1.0 180.0
6338.993148644624 1.0 0.0 2.000007 -29.376473 0.0 0.0 1.0 180.0
6422.400953232052 1.0 0.0 2.000007 -29.767339 0.0 0.0 1.0 180.0
6505.808757819482 1.0 0.0 2.000007 -30.158381 0.0 0.0 1.0 180.0
6589.216562406911 1.0 0.0 2.000007 -30.549602 0.0 0.0 1.0 180.0
6672.624366994341 1.0 0.0 2.000007 -30.941004 0.0 0.0 1.0 180.0
6756.03217158177 1.0 0.0 2.000007 -31.332591 0.0 0.0 1.0 180.0
6839.439976169199 1.0 0.0 2.000007 -31.724364 0.0 0.0 1.0 180.0
6922.847780756628 1.0 0.0 2.000007 -32.116328 0.0 0.0 1.0 180.0
7006.255585344057 1.0 0.0 2.000006 -32.508484 0.0 0.0 1.0 180.0
7089.6633899314875 1.0 0.0 2.000006 -32.900836 0.0 0.0 1.0 180.0
7173.071194518916 1.0 0.0 2.000006 -33.293386 0.0 0.0 1.0 180.0
7256.478999106345 1.0 0.0 2.000006 -33.686137 0.0 0.0 1.0 180.0
7339.886803693774 1.0 0.0 2.000005 -34.079092 0.0 0.0 1.0 180.0
7423.294608281203 1.0 0.0 2.000005 -34.472254 0.0 0.0 1.0 180.0
7506.7024128686335 1.0 0.0 2.000005 -34.865626 0.0 0.0 1.0 180.0
7590.110217456062 1.0 0.0 2.000004 -35.259211 0.0 0.0 1.0 180.0
7673.518022043491 1.0 0.0 2.000004 -35.653011 0.0 0.0 1.0 180.0
7756.925826630921 1.0 0.0 2.000003 -36.047031 0.0 0.0 1.0 180.0
7840.33363121835 1.0 0.0 2.000002 -36.441272 0.0 0.0 1.0 180.0
7923.7414358057795 1.0 0.0 2.000002 -36.835738 0.0 0.0 1.0 180.0
8007.149240393209 1.0 0.0 2.000001 -37.230433 0.0 0.0 1.0 180.0
8090.557044980637 1.0 0.0 2.0 -37.625358 0.0 0.0 1.0 180.0
8173.964849568067 1.0 0.0 1.999999 -38.020518 0.0 0.0 1.0 180.0
8257.372654155497 1.0 0.0 1.999998 -38.415915 0.0 0.0 1.0 180.0
8340.780458742925 1.0 0.0 1.999997 -38.811552 0.0 0.0 1.0 180.0
8424.188263330354 1.0 0.0 1.999996 -39.207433 0.0 0.0 1.0 180.0
8507.596067917784 1.0 0.0 1.999994 -39.603562 0.0 0.0 1.0 180.0
8591.003872505213 1.0 0.0 1.999993 -39.99994 0.0 0.0 1.0 180.0
8674.411677092641 1.0 0.0 1.999991 -40.396572 0.0 0.0 1.0 180.0
8757.819481680071 1.0 0.0 1.99999 -40.793461 0.0 0.0 1.0 180.0
8841.227286267502 1.0 0.0 1.999988 -41.19061 0.0 0.0 1.0 180.0
8924.63509085493 1.0 0.0 1.999986 -41.588023 0.0 0.0 1.0 180.0
9008.04289544236 1.0 0.0 1.999984 -41.985703 0.0 0.0 1.0 180.0
9091.450700029789 1.0 0.0 1.999981 -42.383653 0.0 0.0 1.0 180.0
9174.858504617217 1.0 0.0 1.999979 -42.781877 0.0 0.0 1.0 180.0
9258.266309204648 1.0 0.0 1.999976 -43.180379 0.0 0.0 1.0 180.0
9341.674113792076 1.0 0.0 1.999973 -43.579161 0.0 0.0 1.0 180.0
9425.081918379505 1.0 0.0 1.99997 -43.978228 0.0 0.0 1.0 180.0
9508.489722966935 1.0 0.0 1.999967 -44.377583 0.0 0.0 1.0 180.0
9591.897527554365 1.0 0.0 1.999964 -44.777229 0.0 0.0 1.0 180.0
9675.305332141794 1.0 0.0 1.99996 -45.177171 0.0 0.0 1.0 180.0
9758.713136729224 1.0 0.0 1.999956 -45.577413 0.0 0.0 1.0 180.0
9842.120941316653 1.0 0.0 1.999952 -45.977956 0.0 0.0 1.0 180.0
9925.528745904081 1.0 0.0 1.999947 -46.378807 0.0 0.0 1.0 180.0
10008.936550491511 1.0 0.0 1.999942 -46.779968 0.0 0.0 1.0 180.0
10092.34435507894 1.0 0.0 1.999937 -47.181443 0.0 0.0 1.0 180.0
10175.752159666368 1.0 0.0 1.999931 -47.583236 0.0 0.0 1.0 180.0
10259.159964253797 1.0 0.0 1.999926 -47.985351 0.0 0.0 1.0 180.0
10342.567768841229 1.0 0.0 1.999919 -48.387792 0.0 0.0 1.0 180.0
10425.975573428657 1.0 0.0 1.999913 -48.790563 0.0 0.0 1.0 180.0
10509.383378016086 1.0 0.0 1.999906 -49.193667 0.0 0.0 1.0 180.0
10592.791182603516 1.0 0.0 1.999898 -49.59711 0.0 0.0 1.0 180.0
10676.198987190945 1.0 0.0 1.999891 -50.000895 0.0 0.0 1.0 180.0
10759.606791778373 1.0 0.0 1.999882 -50.405026 0.0 0.0 1.0 180.0
10843.014596365803 1.0 0.0 1.999874 -50.809507 0.0 0.0 1.0 180.0
10926.422400953232 1.0 0.0 1.999864 -51.214343 0.0 0.0 1.0 180.0
11009.83020554066 1.0 0.0 1.999854 -51.619538 0.0 0.0 1.0 180.0
11093.238010128092 1.0 0.0 1.999844 -52.025096 0.0 0.0 1.0 180.0
11176.64581471552 1.0 0.0 1.999833 -52.431021 0.0 0.0 1.0 180.0
11260.05361930295 1.0 0.0 1.999822 -52.837319 0.0 0.0 1.0 180.0
11343.46142389038 1.0 0.0 1.999809 -53.243992 0.0 0.0 1.0 180.0
11426.869228477808 1.0 0.0 1.999797 -53.651047 0.0 0.0 1.0 180.0
11510.277033065237 1.0 0.0 1.999783 -54.058487 0.0 0.0 1.0 180.0
11593.684837652667 1.0 0.0 1.999769 -54.466316 0.0 0.0 1.0 180.0
11677.092642240095 1.0 0.0 1.999754 -54.87454 0.0 0.0 1.0 180.0
11760.500446827524 1.0 0.0 1.999738 -55.283163 0.0 0.0 1.0 180.0
11843.908251414956 1.0 0.0 1.999721 -55.69219 0.0 0.0 1.0 180.0
11927.316056002384 1.0 0.0 1.999704 -56.101625 0.0 0.0 1.0 180.0
12010.723860589813 1.0 0.0 1.999685 -56.511473 0.0 0.0 1.0 180.0
12094.131665177243 1.0 0.0 1.999666 -56.921739 0.0 0.0 1.0 180.0
12177.539469764672 1.0 0.0 1.999646 -57.332429 0.0 0.0 1.0 180.0
12260.9472743521 1.0 0.0 1.999624 -57.743546 0.0 0.0 1.0 180.0
12344.355078939529 1.0 0.0 1.999602 -58.155096 0.0 0.0 1.0 180.0
12427.762883526959 1.0 0.0 1.999578 -58.567084 0.0 0.0 1.0 180.0
12511.170688114387 1.0 0.0 1.999554 -58.979514 0.0 0.0 1.0 180.0
12594.578492701818 1.0 0.0 1.999528 -59.392393 0.0 0.0 1.0 180.0
12677.986297289248 1.0 0.0 1.999501 -59.805724 0.0 0.0 1.0 180.0
12761.394101876676 1.0 0.0 1.999472 -60.219514 0.0 0.0 1.0 180.0
12844.801906464105 1.0 0.0 1.999442 -60.633768 0.0 0.0 1.0 180.0
12928.209711051535 1.0 0.0 1.999411 -61.04849 0.0 0.0 1.0 180.0
13011.617515638964 1.0 0.0 1.999379 -61.463686 0.0 0.0 1.0 180.0
13095.025320226392 1.0 0.0 1.999345 -61.879362 0.0 0.0 1.0 180.0
13178.433124813822 1.0 0.0 1.999309 -62.295523 0.0 0.0 1.0 180.0
13261.84092940125 1.0 0.0 1.999271 -62.712174 0.0 0.0 1.0 180.0
13345.248733988681 1.0 0.0 1.999232 -63.129322 0.0 0.0 1.0 180.0
13428.656538576111 1.0 0.0 1.999192 -63.54697 0.0 0.0 1.0 180.0
13512.06434316354 1.0 0.0 1.999149 -63.965127 0.0 0.0 1.0 180.0
13595.472147750968 1.0 0.0 1.999104 -64.383796 0.0 0.0 1.0 180.0
13678.879952338399 1.0 0.0 1.999058 -64.802983 0.0 0.0 1.0 180.0
13762.287756925827 1.0 0.0 1.999009 -65.222695 0.0 0.0 1.0 180.0
13845.695561513256 1.0 0.0 1.998958 -65.642938 0.0 0.0 1.0 180.0
13929.103366100686 1.0 0.0 1.998906 -66.063716 0.0 0.0 1.0 180.0
14012.511170688114 1.0 0.0 1.99885 -66.485037 0.0 0.0 1.0 180.0
14095.918975275543 1.0 0.0 1.998793 -66.906905 0.0 0.0 1.0 180.0
14179.326779862975 1.0 0.0 1.998733 -67.329328 0.0 0.0 1.0 180.0
14262.734584450403 1.0 0.0 1.99867 -67.752311 0.0 0.0 1.0 180.0
14346.142389037832 1.0 0.0 1.998605 -68.17586 0.0 0.0 1.0 180.0
14429.550193625262 1.0 0.0 1.998537 -68.599982 0.0 0.0 1.0 180.0
14512.95799821269 1.0 0.0 1.998466 -69.024682 0.0 0.0 1.0 180.0
14596.36580280012 1.0 0.0 1.998393 -69.449968 0.0 0.0 1.0 180.0
14679.773607387548 1.0 0.0 1.998316 -69.875844 0.0 0.0 1.0 180.0
14763.181411974978 1.0 0.0 1.998236 -70.302319 0.0 0.0 1.0 180.0
14846.589216562406 1.0 0.0 1.998153 -70.729397 0.0 0.0 1.0 180.0
14929.997021149837 1.0 0.0 1.998067 -71.157086 0.0 0.0 1.0 180.0
15013.404825737267 1.0 0.0 1.997977 -71.585393 0.0 0.0 1.0 180.0
15096.812630324695 1.0 0.0 1.997884 -72.014323 0.0 0.0 1.0 180.0
15180.220434912124 1.0 0.0 1.997787 -72.443883 0.0 0.0 1.0 180.0
15263.628239499554 1.0 0.0 1.997686 -72.87408 0.0 0.0 1.0 180.0
15347.036044086983 1.0 0.0 1.997581 -73.304922 0.0 0.0 1.0 180.0
15430.443848674411 1.0 0.0 1.997472 -73.736413 0.0 0.0 1.0 180.0
15513.851653261841 1.0 0.0 1.997359 -74.168562 0.0 0.0 1.0 180.0
15597.25945784927 1.0 0.0 1.997242 -74.601375 0.0 0.0 1.0 180.0
15680.6672624367 1.0 0.0 1.99712 -75.034858 0.0 0.0 1.0 180.0
15764.07506702413 1.0 0.0 1.996993 -75.46902 0.0 0.0 1.0 180.0
15847.482871611559 1.0 0.0 1.996862 -75.903867 0.0 0.0 1.0 180.0
15930.890676198987 1.0 0.0 1.996725 -76.339405 0.0 0.0 1.0 180.0
16014.298480786418 1.0 0.0 1.996584 -76.775643 0.0 0.0 1.0 180.0
16097.706285373846 1.0 0.0 1.996438 -77.212586 0.0 0.0 1.0 180.0
16181.114089961275 1.0 0.0 1.996286 -77.650243 0.0 0.0 1.0 180.0
16264.521894548705 1.0 0.0 1.996128 -78.08862 0.0 0.0 1.0 180.0
16347.929699136133 1.0 0.0 1.995965 -78.527725 0.0 0.0 1.0 180.0
16431.337503723564 1.0 0.0 1.995796 -78.967564 0.0 0.0 1.0 180.0
16514.745308310994 1.0 0.0 1.99562 -79.408146 0.0 0.0 1.0 180.0
16598.15311289842 1.0 0.0 1.995439 -79.849477 0.0 0.0 1.0 180.0
16681.56091748585 1.0 0.0 1.995251 -80.291564 0.0 0.0 1.0 180.0
16764.96872207328 1.0 0.0 1.995056 -80.734416 0.0 0.0 1.0 180.0
16848.376526660708 1.0 0.0 1.994854 -81.17804 0.0 0.0 1.0 180.0
16931.78433124814 1.0 0.0 1.994646 -81.622442 0.0 0.0 1.0 180.0
17015.19213583557 1.0 0.0 1.99443 -82.067631 0.0 0.0 1.0 180.0
17098.599940422995 1.0 0.0 1.994206 -82.513613 0.0 0.0 1.0 180.0
17182.007745010425 1.0 0.0 1.993975 -82.960397 0.0 0.0 1.0 180.0
17265.415549597856 1.0 0.0 1.993736 -83.40799 0.0 0.0 1.0 180.0
17348.823354185282 1.0 0.0 1.993489 -83.8564 0.0 0.0 1.0 180.0
17432.231158772713 1.0 0.0 1.993233 -84.305633 0.0 0.0 1.0 180.0
17515.638963360143 1.0 0.0 1.992969 -84.755698 0.0 0.0 1.0 180.0
17599.046767947573 1.0 0.0 1.992696 -85.206603 0.0 0.0 1.0 180.0
17682.454572535004 1.0 0.0 1.992414 -85.658354 0.0 0.0 1.0 180.0
17765.862377122434 1.0 0.0 1.992122 -86.110959 0.0 0.0 1.0 180.0
17849.27018170986 1.0 0.0 1.991821 -86.564427 0.0 0.0 1.0 180.0
17932.67798629729 1.0 0.0 1.99151 -87.018764 0.0 0.0 1.0 180.0
18016.08579088472 1.0 0.0 1.991189 -87.473979 0.0 0.0 1.0 180.0
18099.493595472148 1.0 0.0 1.990857 -87.930078 0.0 0.0 1.0 180.0
18182.901400059578 1.0 0.0 1.990515 -88.38707 0.0 0.0 1.0 180.0
18266.30920464701 1.0 0.0 1.990161 -88.844962 0.0 0.0 1.0 180.0
18349.717009234435 1.0 0.0 1.989796 -89.303762 0.0 0.0 1.0 180.0
18433.124813821865 1.0 0.0 1.98942 -89.763478 0.0 0.0 1.0 180.0
18516.532618409296 1.0 0.0 1.989032 -90.224116 0.0 0.0 1.0 180.0
18599.940422996722 1.0 0.0 1.988631 -90.685685 0.0 0.0 1.0 180.0
18683.348227584152 1.0 0.0 1.988218 -91.148192 0.0 0.0 1.0 180.0
18766.756032171583 1.0 0.0 1.987792 -91.611644 0.0 0.0 1.0 180.0
18850.16383675901 1.0 0.0 1.987353 -92.07605 0.0 0.0 1.0 180.0
18933.57164134644 1.0 0.0 1.986901 -92.541416 0.0 0.0 1.0 180.0
19016.97944593387 1.0 0.0 1.986434 -93.00775 0.0 0.0 1.0 180.0
19100.3872505213 1.0 0.0 1.985953 -93.475059 0.0 0.0 1.0 180.0
19183.79505510873 1.0 0.0 1.985458 -93.943351 0.0 0.0 1.0 180.0
19267.20285969616 1.0 0.0 1.984948 -94.412634 0.0 0.0 1.0 180.0
19350.610664283588 1.0 0.0 1.984422 -94.882913 0.0 0.0 1.0 180.0
19434.018468871018 1.0 0.0 1.983881 -95.354197 0.0 0.0 1.0 180.0
19517.426273458448 1.0 0.0 1.983324 -95.826493 0.0 0.0 1.0 180.0
19600.834078045875 1.0 0.0 1.98275 -96.299807 0.0 0.0 1.0 180.0
19684.241882633305 1.0 0.0 1.982159 -96.774147 0.0 0.0 1.0 180.0
19767.649687220735 1.0 0.0 1.981551 -97.24952 0.0 0.0 1.0 180.0
19851.057491808162 1.0 0.0 1.980926 -97.725932 0.0 0.0 1.0 180.0
19934.465296395592 1.0 0.0 1.980282 -98.20339 0.0 0.0 1.0 180.0
20017.873100983023 1.0 0.0 1.97962 -98.681902 0.0 0.0 1.0 180.0
20101.28090557045 1.0 0.0 1.978939 -99.161473 0.0 0.0 1.0 180.0
20184.68871015788 1.0 0.0 1.978238 -99.64211 0.0 0.0 1.0 180.0
20268.096514745306 1.0 0.0 1.977518 -100.12382 0.0 0.0 1.0 180.0
20351.504319332736 1.0 0.0 1.976778 -100.606609 0.0 0.0 1.0 180.0
20434.912123920167 1.0 0.0 1.976016 -101.090483 0.0 0.0 1.0 180.0
20518.319928507593 1.0 0.0 1.975234 -101.575448 0.0 0.0 1.0 180.0
20601.727733095027 1.0 0.0 1.97443 -102.06151 0.0 0.0 1.0 180.0
20685.135537682458 1.0 0.0 1.973604 -102.548675 0.0 0.0 1.0 180.0
20768.543342269884 1.0 0.0 1.972755 -103.036949 0.0 0.0 1.0 180.0
20851.951146857315 1.0 0.0 1.971883 -103.526337 0.0 0.0 1.0 180.0
20935.358951444745 1.0 0.0 1.970988 -104.016844 0.0 0.0 1.0 180.0
21018.76675603217 1.0 0.0 1.970068 -104.508477 0.0 0.0 1.0 180.0
21102.174560619602 1.0 0.0 1.969124 -105.001239 0.0 0.0 1.0 180.0
21185.582365207032 1.0 0.0 1.968155 -105.495137 0.0 0.0 1.0 180.0
21268.99016979446 1.0 0.0 1.96716 -105.990173 0.0 0.0 1.0 180.0
21352.39797438189 1.0 0.0 1.966139 -106.486355 0.0 0.0 1.0 180.0
21435.80577896932 1.0 0.0 1.965092 -106.983684 0.0 0.0 1.0 180.0
21519.213583556746 1.0 0.0 1.964017 -107.482167 0.0 0.0 1.0 180.0
21602.621388144176 1.0 0.0 1.962914 -107.981806 0.0 0.0 1.0 180.0
21686.029192731607 1.0 0.0 1.961783 -108.482606 0.0 0.0 1.0 180.0
21769.436997319033 1.0 0.0 1.960624 -108.98457 0.0 0.0 1.0 180.0
21852.844801906464 1.0 0.0 1.959434 -109.487702 0.0 0.0 1.0 180.0
21936.252606493894 1.0 0.0 1.958215 -109.992005 0.0 0.0 1.0 180.0
22019.66041108132 1.0 0.0 1.956966 -110.497481 0.0 0.0 1.0 180.0
22103.06821566875 1.0 0.0 1.955685 -111.004133 0.0 0.0 1.0 180.0
22186.476020256185 1.0 0.0 1.954372 -111.511964 0.0 0.0 1.0 180.0
22269.88382484361 1.0 0.0 1.953028 -112.020975 0.0 0.0 1.0 180.0
22353.29162943104 1.0 0.0 1.95165 -112.53117 0.0 0.0 1.0 180.0
22436.699434018472 1.0 0.0 1.950239 -113.042548 0.0 0.0 1.0 180.0
22520.1072386059 1.0 0.0 1.948794 -113.555113 0.0 0.0 1.0 180.0
22603.51504319333 1.0 0.0 1.947314 -114.068864 0.0 0.0 1.0 180.0
22686.92284778076 1.0 0.0 1.945799 -114.583802 0.0 0.0 1.0 180.0
22770.330652368186 1.0 0.0 1.944248 -115.099928 0.0 0.0 1.0 180.0
22853.738456955616 1.0 0.0 1.942661 -115.617242 0.0 0.0 1.0 180.0
22937.146261543046 1.0 0.0 1.941036 -116.135744 0.0 0.0 1.0 180.0
23020.554066130473 1.0 0.0 1.939374 -116.655433 0.0 0.0 1.0 180.0
23103.961870717903 1.0 0.0 1.937674 -117.176308 0.0 0.0 1.0 180.0
23187.369675305334 1.0 0.0 1.935935 -117.698368 0.0 0.0 1.0 180.0
23270.77747989276 1.0 0.0 1.934156 -118.221612 0.0 0.0 1.0 180.0
23354.18528448019 1.0 0.0 1.932337 -118.746038 0.0 0.0 1.0 180.0
23437.59308906762 1.0 0.0 1.930477 -119.271643 0.0 0.0 1.0 180.0
23521.000893655048 1.0 0.0 1.928576 -119.798424 0.0 0.0 1.0 180.0
23604.408698242478 1.0 0.0 1.926633 -120.32638 0.0 0.0 1.0 180.0
23687.81650282991 1.0 0.0 1.924647 -120.855505 0.0 0.0 1.0 180.0
23771.22430741734 1.0 0.0 1.922618 -121.385797 0.0 0.0 1.0 180.0
23854.63211200477 1.0 0.0 1.920546 -121.917251 0.0 0.0 1.0 180.0
23938.0399165922 1.0 0.0 1.918428 -122.449862 0.0 0.0 1.0 180.0
24021.447721179626 1.0 0.0 1.916266 -122.983626 0.0 0.0 1.0 180.0
24104.855525767056 1.0 0.0 1.914058 -123.518537 0.0 0.0 1.0 180.0
24188.263330354486 1.0 0.0 1.911804 -124.054589 0.0 0.0 1.0 180.0
24271.671134941913 1.0 0.0 1.909503 -124.591775 0.0 0.0 1.0 180.0
24355.078939529343 1.0 0.0 1.907155 -125.130089 0.0 0.0 1.0 180.0
24438.486744116773 1.0 0.0 1.904758 -125.669523 0.0 0.0 1.0 180.0
24521.8945487042 1.0 0.0 1.902313 -126.21007 0.0 0.0 1.0 180.0
24605.30235329163 1.0 0.0 1.899818 -126.751722 0.0 0.0 1.0 180.0
24688.710157879057 1.0 0.0 1.897274 -127.294469 0.0 0.0 1.0 180.0
24772.117962466487 1.0 0.0 1.89468 -127.838303 0.0 0.0 1.0 180.0
24855.525767053918 1.0 0.0 1.892034 -128.383214 0.0 0.0 1.0 180.0
24938.933571641344 1.0 0.0 1.889338 -128.929192 0.0 0.0 1.0 180.0
25022.341376228775 1.0 0.0 1.886589 -129.476225 0.0 0.0 1.0 180.0
25105.749180816205 1.0 0.0 1.883787 -130.024304 0.0 0.0 1.0 180.0
25189.156985403635 1.0 0.0 1.880933 -130.573417 0.0 0.0 1.0 180.0
25272.564789991065 1.0 0.0 1.878025 -131.12355 0.0 0.0 1.0 180.0
25355.972594578496 1.0 0.0 1.875063 -131.674692 0.0 0.0 1.0 180.0
25439.380399165922 1.0 0.0 1.872046 -132.22683 0.0 0.0 1.0 180.0
25522.788203753353 1.0 0.0 1.868974 -132.779949 0.0 0.0 1.0 180.0
25606.196008340783 1.0 0.0 1.865847 -133.334036 0.0 0.0 1.0 180.0
25689.60381292821 1.0 0.0 1.862664 -133.889075 0.0 0.0 1.0 180.0
