! File created by SignalIntegrity v1.4.2: Signal and Power Integrity Tools
! https://github.com/Nubis-Communications/SignalIntegrity
# MHz S MA R 48.0
0.0 1.0 0.0 2.0 0.0 0.0 0.0 1.0 180.0
1000.0 1.0 0.0 1.998607 0.0 0.0 0.0 1.0 180.0
2000.0 1.0 0.0 1.994434 0.0 0.0 0.0 1.0 180.0
3000.0 1.0 0.0 1.987498 0.0 0.0 0.0 1.0 180.0
4000.0 1.0 0.0 1.977829 0.0 0.0 0.0 1.0 180.0
5000.0 1.0 0.0 1.965466 0.0 0.0 0.0 1.0 180.0
6000.0 1.0 0.0 1.95046 0.0 0.0 0.0 1.0 180.0
7000.0 1.0 0.0 1.932874 0.0 0.0 0.0 1.0 180.0
8000.0 1.0 0.0 1.912779 0.0 0.0 0.0 1.0 180.0
9000.0 1.0 0.0 1.890257 0.0 0.0 0.0 1.0 180.0
10000.0 1.0 0.0 1.865399 0.0 0.0 0.0 1.0 180.0
11000.0 1.0 0.0 1.838305 0.0 0.0 0.0 1.0 180.0
12000.0 1.0 0.0 1.809082 0.0 0.0 0.0 1.0 180.0
13000.0 1.0 0.0 1.777844 0.0 0.0 0.0 1.0 180.0
14000.0 1.0 0.0 1.744713 0.0 0.0 0.0 1.0 180.0
15000.0 1.0 0.0 1.709815 0.0 0.0 0.0 1.0 180.0
16000.0 1.0 0.0 1.673282 0.0 0.0 0.0 1.0 180.0
17000.0 1.0 0.0 1.635249 0.0 0.0 0.0 1.0 180.0
18000.0 1.0 0.0 1.595855 0.0 0.0 0.0 1.0 180.0
19000.0 1.0 0.0 1.555242 0.0 0.0 0.0 1.0 180.0
20000.0 1.0 0.0 1.513552 0.0 0.0 0.0 1.0 180.0
21000.0 1.0 0.0 1.470928 0.0 0.0 0.0 1.0 180.0
22000.0 1.0 0.0 1.427514 0.0 0.0 0.0 1.0 180.0
23000.0 1.0 0.0 1.383453 0.0 0.0 0.0 1.0 180.0
24000.0 1.0 0.0 1.338884 0.0 0.0 0.0 1.0 180.0
25000.0 1.0 0.0 1.293947 0.0 0.0 0.0 1.0 180.0
26000.0 1.0 0.0 1.248777 0.0 0.0 0.0 1.0 180.0
27000.0 1.0 0.0 1.203505 0.0 0.0 0.0 1.0 180.0
28000.0 1.0 0.0 1.15826 0.0 0.0 0.0 1.0 180.0
29000.0 1.0 0.0 1.113163 0.0 0.0 0.0 1.0 180.0
30000.0 1.0 0.0 1.068333 0.0 0.0 0.0 1.0 180.0
31000.0 1.0 0.0 1.02388 0.0 0.0 0.0 1.0 180.0
32000.0 1.0 0.0 0.97991 0.0 0.0 0.0 1.0 180.0
33000.0 1.0 0.0 0.936523 0.0 0.0 0.0 1.0 180.0
34000.0 1.0 0.0 0.893811 0.0 0.0 0.0 1.0 180.0
35000.0 1.0 0.0 0.851858 0.0 0.0 0.0 1.0 180.0
36000.0 1.0 0.0 0.810745 0.0 0.0 0.0 1.0 180.0
37000.0 1.0 0.0 0.770541 0.0 0.0 0.0 1.0 180.0
38000.0 1.0 0.0 0.731311 0.0 0.0 0.0 1.0 180.0
39000.0 1.0 0.0 0.693112 0.0 0.0 0.0 1.0 180.0
40000.0 1.0 0.0 0.655993 0.0 0.0 0.0 1.0 180.0
41000.0 1.0 0.0 0.619998 0.0 0.0 0.0 1.0 180.0
42000.0 1.0 0.0 0.585162 0.0 0.0 0.0 1.0 180.0
43000.0 1.0 0.0 0.551514 0.0 0.0 0.0 1.0 180.0
44000.0 1.0 0.0 0.519077 0.0 0.0 0.0 1.0 180.0
45000.0 1.0 0.0 0.487868 0.0 0.0 0.0 1.0 180.0
46000.0 1.0 0.0 0.457896 0.0 0.0 0.0 1.0 180.0
47000.0 1.0 0.0 0.429168 0.0 0.0 0.0 1.0 180.0
48000.0 1.0 0.0 0.401682 0.0 0.0 0.0 1.0 180.0
49000.0 1.0 0.0 0.375432 0.0 0.0 0.0 1.0 180.0
50000.0 1.0 0.0 0.350409 0.0 0.0 0.0 1.0 180.0
51000.0 1.0 0.0 0.326599 0.0 0.0 0.0 1.0 180.0
52000.0 1.0 0.0 0.303983 0.0 0.0 0.0 1.0 180.0
53000.0 1.0 0.0 0.282539 0.0 0.0 0.0 1.0 180.0
54000.0 1.0 0.0 0.262242 0.0 0.0 0.0 1.0 180.0
55000.0 1.0 0.0 0.243064 0.0 0.0 0.0 1.0 180.0
56000.0 1.0 0.0 0.224975 0.0 0.0 0.0 1.0 180.0
57000.0 1.0 0.0 0.207942 0.0 0.0 0.0 1.0 180.0
58000.0 1.0 0.0 0.191931 0.0 0.0 0.0 1.0 180.0
59000.0 1.0 0.0 0.176906 0.0 0.0 0.0 1.0 180.0
60000.0 1.0 0.0 0.162831 0.0 0.0 0.0 1.0 180.0
61000.0 1.0 0.0 0.149666 0.0 0.0 0.0 1.0 180.0
62000.0 1.0 0.0 0.137374 0.0 0.0 0.0 1.0 180.0
63000.0 1.0 0.0 0.125917 0.0 0.0 0.0 1.0 180.0
64000.0 1.0 0.0 0.115254 0.0 0.0 0.0 1.0 180.0
65000.0 1.0 0.0 0.105347 0.0 0.0 0.0 1.0 180.0
66000.0 1.0 0.0 0.096158 0.0 0.0 0.0 1.0 180.0
67000.0 1.0 0.0 0.087648 0.0 0.0 0.0 1.0 180.0
68000.0 1.0 0.0 0.07978 0.0 0.0 0.0 1.0 180.0
69000.0 1.0 0.0 0.072517 0.0 0.0 0.0 1.0 180.0
70000.0 1.0 0.0 0.065823 0.0 0.0 0.0 1.0 180.0
71000.0 1.0 0.0 0.059664 0.0 0.0 0.0 1.0 180.0
72000.0 1.0 0.0 0.054007 0.0 0.0 0.0 1.0 180.0
73000.0 1.0 0.0 0.048817 0.0 0.0 0.0 1.0 180.0
74000.0 1.0 0.0 0.044065 0.0 0.0 0.0 1.0 180.0
75000.0 1.0 0.0 0.03972 0.0 0.0 0.0 1.0 180.0
76000.0 1.0 0.0 0.035753 0.0 0.0 0.0 1.0 180.0
77000.0 1.0 0.0 0.032138 0.0 0.0 0.0 1.0 180.0
78000.0 1.0 0.0 0.028848 0.0 0.0 0.0 1.0 180.0
79000.0 1.0 0.0 0.025859 0.0 0.0 0.0 1.0 180.0
80000.0 1.0 0.0 0.023148 0.0 0.0 0.0 1.0 180.0
81000.0 1.0 0.0 0.020691 0.0 0.0 0.0 1.0 180.0
82000.0 1.0 0.0 0.01847 0.0 0.0 0.0 1.0 180.0
83000.0 1.0 0.0 0.016464 0.0 0.0 0.0 1.0 180.0
84000.0 1.0 0.0 0.014656 0.0 0.0 0.0 1.0 180.0
85000.0 1.0 0.0 0.013028 0.0 0.0 0.0 1.0 180.0
86000.0 1.0 0.0 0.011565 0.0 0.0 0.0 1.0 180.0
87000.0 1.0 0.0 0.010252 0.0 0.0 0.0 1.0 180.0
88000.0 1.0 0.0 0.009075 0.0 0.0 0.0 1.0 180.0
89000.0 1.0 0.0 0.008022 0.0 0.0 0.0 1.0 180.0
90000.0 1.0 0.0 0.007081 0.0 0.0 0.0 1.0 180.0
91000.0 1.0 0.0 0.006242 0.0 0.0 0.0 1.0 180.0
92000.0 1.0 0.0 0.005495 0.0 0.0 0.0 1.0 180.0
93000.0 1.0 0.0 0.004831 0.0 0.0 0.0 1.0 180.0
94000.0 1.0 0.0 0.004241 0.0 0.0 0.0 1.0 180.0
95000.0 1.0 0.0 0.003717 0.0 0.0 0.0 1.0 180.0
96000.0 1.0 0.0 0.003254 0.0 0.0 0.0 1.0 180.0
97000.0 1.0 0.0 0.002845 0.0 0.0 0.0 1.0 180.0
98000.0 1.0 0.0 0.002483 0.0 0.0 0.0 1.0 180.0
99000.0 1.0 0.0 0.002165 0.0 0.0 0.0 1.0 180.0
100000.0 1.0 0.0 0.001885 0.0 0.0 0.0 1.0 180.0
