! File created by SignalIntegrity v1.4.2: Signal and Power Integrity Tools
! https://github.com/Nubis-Communications/SignalIntegrity
# MHz S MA R 50.0
0.0 1.0 0.0 10.0 0.0 0.0 0.0 1.0 180.0
83.40780458742925 1.0 0.0 9.999964 0.0 0.0 0.0 1.0 180.0
166.8156091748585 1.0 0.0 9.999854 0.0 0.0 0.0 1.0 180.0
250.22341376228778 1.0 0.0 9.999672 0.0 0.0 0.0 1.0 180.0
333.631218349717 1.0 0.0 9.999416 0.0 0.0 0.0 1.0 180.0
417.0390229371463 1.0 0.0 9.999088 0.0 0.0 0.0 1.0 180.0
500.44682752457555 1.0 0.0 9.998686 0.0 0.0 0.0 1.0 180.0
583.8546321120048 1.0 0.0 9.998212 0.0 0.0 0.0 1.0 180.0
667.262436699434 1.0 0.0 9.997665 0.0 0.0 0.0 1.0 180.0
750.6702412868633 1.0 0.0 9.997044 0.0 0.0 0.0 1.0 180.0
834.0780458742926 1.0 0.0 9.996351 0.0 0.0 0.0 1.0 180.0
917.4858504617217 1.0 0.0 9.995585 0.0 0.0 0.0 1.0 180.0
1000.8936550491511 1.0 0.0 9.994746 0.0 0.0 0.0 1.0 180.0
1084.3014596365801 1.0 0.0 9.993834 0.0 0.0 0.0 1.0 180.0
1167.7092642240095 1.0 0.0 9.992849 0.0 0.0 0.0 1.0 180.0
1251.117068811439 1.0 0.0 9.991792 0.0 0.0 0.0 1.0 180.0
1334.524873398868 1.0 0.0 9.990661 0.0 0.0 0.0 1.0 180.0
1417.9326779862974 1.0 0.0 9.989457 0.0 0.0 0.0 1.0 180.0
1501.3404825737266 1.0 0.0 9.988181 0.0 0.0 0.0 1.0 180.0
1584.748287161156 1.0 0.0 9.986832 0.0 0.0 0.0 1.0 180.0
1668.1560917485851 1.0 0.0 9.98541 0.0 0.0 0.0 1.0 180.0
1751.5638963360143 1.0 0.0 9.983915 0.0 0.0 0.0 1.0 180.0
1834.9717009234434 1.0 0.0 9.982348 0.0 0.0 0.0 1.0 180.0
1918.3795055108728 1.0 0.0 9.980707 0.0 0.0 0.0 1.0 180.0
2001.7873100983022 1.0 0.0 9.978994 0.0 0.0 0.0 1.0 180.0
2085.1951146857314 1.0 0.0 9.977209 0.0 0.0 0.0 1.0 180.0
2168.6029192731603 1.0 0.0 9.97535 0.0 0.0 0.0 1.0 180.0
2252.01072386059 1.0 0.0 9.973419 0.0 0.0 0.0 1.0 180.0
2335.418528448019 1.0 0.0 9.971416 0.0 0.0 0.0 1.0 180.0
2418.8263330354484 1.0 0.0 9.969339 0.0 0.0 0.0 1.0 180.0
2502.234137622878 1.0 0.0 9.96719 0.0 0.0 0.0 1.0 180.0
2585.641942210307 1.0 0.0 9.964969 0.0 0.0 0.0 1.0 180.0
2669.049746797736 1.0 0.0 9.962675 0.0 0.0 0.0 1.0 180.0
2752.457551385165 1.0 0.0 9.960309 0.0 0.0 0.0 1.0 180.0
2835.865355972595 1.0 0.0 9.95787 0.0 0.0 0.0 1.0 180.0
2919.273160560024 1.0 0.0 9.955358 0.0 0.0 0.0 1.0 180.0
3002.680965147453 1.0 0.0 9.952775 0.0 0.0 0.0 1.0 180.0
3086.088769734882 1.0 0.0 9.950119 0.0 0.0 0.0 1.0 180.0
3169.496574322312 1.0 0.0 9.94739 0.0 0.0 0.0 1.0 180.0
3252.904378909741 1.0 0.0 9.94459 0.0 0.0 0.0 1.0 180.0
3336.3121834971703 1.0 0.0 9.941717 0.0 0.0 0.0 1.0 180.0
3419.7199880845997 1.0 0.0 9.938771 0.0 0.0 0.0 1.0 180.0
3503.1277926720286 1.0 0.0 9.935754 0.0 0.0 0.0 1.0 180.0
3586.535597259458 1.0 0.0 9.932665 0.0 0.0 0.0 1.0 180.0
3669.943401846887 1.0 0.0 9.929503 0.0 0.0 0.0 1.0 180.0
3753.3512064343167 1.0 0.0 9.926269 0.0 0.0 0.0 1.0 180.0
3836.7590110217457 1.0 0.0 9.922964 0.0 0.0 0.0 1.0 180.0
3920.166815609175 1.0 0.0 9.919586 0.0 0.0 0.0 1.0 180.0
4003.5746201966044 1.0 0.0 9.916137 0.0 0.0 0.0 1.0 180.0
4086.9824247840334 1.0 0.0 9.912615 0.0 0.0 0.0 1.0 180.0
4170.390229371463 1.0 0.0 9.909022 0.0 0.0 0.0 1.0 180.0
4253.798033958892 1.0 0.0 9.905357 0.0 0.0 0.0 1.0 180.0
4337.205838546321 1.0 0.0 9.90162 0.0 0.0 0.0 1.0 180.0
4420.613643133751 1.0 0.0 9.897812 0.0 0.0 0.0 1.0 180.0
4504.02144772118 1.0 0.0 9.893931 0.0 0.0 0.0 1.0 180.0
4587.429252308609 1.0 0.0 9.88998 0.0 0.0 0.0 1.0 180.0
4670.837056896038 1.0 0.0 9.885956 0.0 0.0 0.0 1.0 180.0
4754.2448614834675 1.0 0.0 9.881862 0.0 0.0 0.0 1.0 180.0
4837.652666070897 1.0 0.0 9.877696 0.0 0.0 0.0 1.0 180.0
4921.060470658326 1.0 0.0 9.873458 0.0 0.0 0.0 1.0 180.0
5004.468275245756 1.0 0.0 9.869149 0.0 0.0 0.0 1.0 180.0
5087.876079833184 1.0 0.0 9.864769 0.0 0.0 0.0 1.0 180.0
5171.283884420614 1.0 0.0 9.860318 0.0 0.0 0.0 1.0 180.0
5254.691689008043 1.0 0.0 9.855795 0.0 0.0 0.0 1.0 180.0
5338.099493595472 1.0 0.0 9.851202 0.0 0.0 0.0 1.0 180.0
5421.507298182902 1.0 0.0 9.846537 0.0 0.0 0.0 1.0 180.0
5504.91510277033 1.0 0.0 9.841801 0.0 0.0 0.0 1.0 180.0
5588.32290735776 1.0 0.0 9.836995 0.0 0.0 0.0 1.0 180.0
5671.73071194519 1.0 0.0 9.832118 0.0 0.0 0.0 1.0 180.0
5755.138516532618 1.0 0.0 9.82717 0.0 0.0 0.0 1.0 180.0
5838.546321120048 1.0 0.0 9.822151 0.0 0.0 0.0 1.0 180.0
5921.954125707478 1.0 0.0 9.817061 0.0 0.0 0.0 1.0 180.0
6005.361930294906 1.0 0.0 9.811901 0.0 0.0 0.0 1.0 180.0
6088.769734882336 1.0 0.0 9.806671 0.0 0.0 0.0 1.0 180.0
6172.177539469764 1.0 0.0 9.80137 0.0 0.0 0.0 1.0 180.0
6255.585344057194 1.0 0.0 9.795998 0.0 0.0 0.0 1.0 180.0
6338.993148644624 1.0 0.0 9.790557 0.0 0.0 0.0 1.0 180.0
6422.400953232052 1.0 0.0 9.785045 0.0 0.0 0.0 1.0 180.0
6505.808757819482 1.0 0.0 9.779463 0.0 0.0 0.0 1.0 180.0
6589.216562406911 1.0 0.0 9.773811 0.0 0.0 0.0 1.0 180.0
6672.624366994341 1.0 0.0 9.768088 0.0 0.0 0.0 1.0 180.0
6756.03217158177 1.0 0.0 9.762296 0.0 0.0 0.0 1.0 180.0
6839.439976169199 1.0 0.0 9.756434 0.0 0.0 0.0 1.0 180.0
6922.847780756628 1.0 0.0 9.750503 0.0 0.0 0.0 1.0 180.0
7006.255585344057 1.0 0.0 9.744501 0.0 0.0 0.0 1.0 180.0
7089.6633899314875 1.0 0.0 9.73843 0.0 0.0 0.0 1.0 180.0
7173.071194518916 1.0 0.0 9.732289 0.0 0.0 0.0 1.0 180.0
7256.478999106345 1.0 0.0 9.726079 0.0 0.0 0.0 1.0 180.0
7339.886803693774 1.0 0.0 9.7198 0.0 0.0 0.0 1.0 180.0
7423.294608281203 1.0 0.0 9.713451 0.0 0.0 0.0 1.0 180.0
7506.7024128686335 1.0 0.0 9.707033 0.0 0.0 0.0 1.0 180.0
7590.110217456062 1.0 0.0 9.700546 0.0 0.0 0.0 1.0 180.0
7673.518022043491 1.0 0.0 9.693989 0.0 0.0 0.0 1.0 180.0
7756.925826630921 1.0 0.0 9.687364 0.0 0.0 0.0 1.0 180.0
7840.33363121835 1.0 0.0 9.68067 0.0 0.0 0.0 1.0 180.0
7923.7414358057795 1.0 0.0 9.673907 0.0 0.0 0.0 1.0 180.0
8007.149240393209 1.0 0.0 9.667076 0.0 0.0 0.0 1.0 180.0
8090.557044980637 1.0 0.0 9.660175 0.0 0.0 0.0 1.0 180.0
8173.964849568067 1.0 0.0 9.653207 0.0 0.0 0.0 1.0 180.0
8257.372654155497 1.0 0.0 9.646169 0.0 0.0 0.0 1.0 180.0
8340.780458742925 1.0 0.0 9.639064 0.0 0.0 0.0 1.0 180.0
8424.188263330354 1.0 0.0 9.63189 0.0 0.0 0.0 1.0 180.0
8507.596067917784 1.0 0.0 9.624648 0.0 0.0 0.0 1.0 180.0
8591.003872505213 1.0 0.0 9.617338 0.0 0.0 0.0 1.0 180.0
8674.411677092641 1.0 0.0 9.60996 0.0 0.0 0.0 1.0 180.0
8757.819481680071 1.0 0.0 9.602515 0.0 0.0 0.0 1.0 180.0
8841.227286267502 1.0 0.0 9.595001 0.0 0.0 0.0 1.0 180.0
8924.63509085493 1.0 0.0 9.58742 0.0 0.0 0.0 1.0 180.0
9008.04289544236 1.0 0.0 9.579771 0.0 0.0 0.0 1.0 180.0
9091.450700029789 1.0 0.0 9.572055 0.0 0.0 0.0 1.0 180.0
9174.858504617217 1.0 0.0 9.564271 0.0 0.0 0.0 1.0 180.0
9258.266309204648 1.0 0.0 9.55642 0.0 0.0 0.0 1.0 180.0
9341.674113792076 1.0 0.0 9.548502 0.0 0.0 0.0 1.0 180.0
9425.081918379505 1.0 0.0 9.540517 0.0 0.0 0.0 1.0 180.0
9508.489722966935 1.0 0.0 9.532464 0.0 0.0 0.0 1.0 180.0
9591.897527554365 1.0 0.0 9.524345 0.0 0.0 0.0 1.0 180.0
9675.305332141794 1.0 0.0 9.51616 0.0 0.0 0.0 1.0 180.0
9758.713136729224 1.0 0.0 9.507907 0.0 0.0 0.0 1.0 180.0
9842.120941316653 1.0 0.0 9.499588 0.0 0.0 0.0 1.0 180.0
9925.528745904081 1.0 0.0 9.491203 0.0 0.0 0.0 1.0 180.0
10008.936550491511 1.0 0.0 9.482751 0.0 0.0 0.0 1.0 180.0
10092.34435507894 1.0 0.0 9.474233 0.0 0.0 0.0 1.0 180.0
10175.752159666368 1.0 0.0 9.465649 0.0 0.0 0.0 1.0 180.0
10259.159964253797 1.0 0.0 9.456999 0.0 0.0 0.0 1.0 180.0
10342.567768841229 1.0 0.0 9.448283 0.0 0.0 0.0 1.0 180.0
10425.975573428657 1.0 0.0 9.439502 0.0 0.0 0.0 1.0 180.0
10509.383378016086 1.0 0.0 9.430655 0.0 0.0 0.0 1.0 180.0
10592.791182603516 1.0 0.0 9.421742 0.0 0.0 0.0 1.0 180.0
10676.198987190945 1.0 0.0 9.412764 0.0 0.0 0.0 1.0 180.0
10759.606791778373 1.0 0.0 9.40372 0.0 0.0 0.0 1.0 180.0
10843.014596365803 1.0 0.0 9.394612 0.0 0.0 0.0 1.0 180.0
10926.422400953232 1.0 0.0 9.385438 0.0 0.0 0.0 1.0 180.0
11009.83020554066 1.0 0.0 9.376199 0.0 0.0 0.0 1.0 180.0
11093.238010128092 1.0 0.0 9.366896 0.0 0.0 0.0 1.0 180.0
11176.64581471552 1.0 0.0 9.357528 0.0 0.0 0.0 1.0 180.0
11260.05361930295 1.0 0.0 9.348095 0.0 0.0 0.0 1.0 180.0
11343.46142389038 1.0 0.0 9.338598 0.0 0.0 0.0 1.0 180.0
11426.869228477808 1.0 0.0 9.329036 0.0 0.0 0.0 1.0 180.0
11510.277033065237 1.0 0.0 9.31941 0.0 0.0 0.0 1.0 180.0
11593.684837652667 1.0 0.0 9.309721 0.0 0.0 0.0 1.0 180.0
11677.092642240095 1.0 0.0 9.299967 0.0 0.0 0.0 1.0 180.0
11760.500446827524 1.0 0.0 9.290149 0.0 0.0 0.0 1.0 180.0
11843.908251414956 1.0 0.0 9.280268 0.0 0.0 0.0 1.0 180.0
11927.316056002384 1.0 0.0 9.270323 0.0 0.0 0.0 1.0 180.0
12010.723860589813 1.0 0.0 9.260315 0.0 0.0 0.0 1.0 180.0
12094.131665177243 1.0 0.0 9.250243 0.0 0.0 0.0 1.0 180.0
12177.539469764672 1.0 0.0 9.240109 0.0 0.0 0.0 1.0 180.0
12260.9472743521 1.0 0.0 9.229911 0.0 0.0 0.0 1.0 180.0
12344.355078939529 1.0 0.0 9.21965 0.0 0.0 0.0 1.0 180.0
12427.762883526959 1.0 0.0 9.209327 0.0 0.0 0.0 1.0 180.0
12511.170688114387 1.0 0.0 9.19894 0.0 0.0 0.0 1.0 180.0
12594.578492701818 1.0 0.0 9.188492 0.0 0.0 0.0 1.0 180.0
12677.986297289248 1.0 0.0 9.177981 0.0 0.0 0.0 1.0 180.0
12761.394101876676 1.0 0.0 9.167407 0.0 0.0 0.0 1.0 180.0
12844.801906464105 1.0 0.0 9.156772 0.0 0.0 0.0 1.0 180.0
12928.209711051535 1.0 0.0 9.146075 0.0 0.0 0.0 1.0 180.0
13011.617515638964 1.0 0.0 9.135316 0.0 0.0 0.0 1.0 180.0
13095.025320226392 1.0 0.0 9.124495 0.0 0.0 0.0 1.0 180.0
13178.433124813822 1.0 0.0 9.113613 0.0 0.0 0.0 1.0 180.0
13261.84092940125 1.0 0.0 9.102669 0.0 0.0 0.0 1.0 180.0
13345.248733988681 1.0 0.0 9.091664 0.0 0.0 0.0 1.0 180.0
13428.656538576111 1.0 0.0 9.080598 0.0 0.0 0.0 1.0 180.0
13512.06434316354 1.0 0.0 9.069471 0.0 0.0 0.0 1.0 180.0
13595.472147750968 1.0 0.0 9.058283 0.0 0.0 0.0 1.0 180.0
13678.879952338399 1.0 0.0 9.047034 0.0 0.0 0.0 1.0 180.0
13762.287756925827 1.0 0.0 9.035725 0.0 0.0 0.0 1.0 180.0
13845.695561513256 1.0 0.0 9.024355 0.0 0.0 0.0 1.0 180.0
13929.103366100686 1.0 0.0 9.012926 0.0 0.0 0.0 1.0 180.0
14012.511170688114 1.0 0.0 9.001436 0.0 0.0 0.0 1.0 180.0
14095.918975275543 1.0 0.0 8.989886 0.0 0.0 0.0 1.0 180.0
14179.326779862975 1.0 0.0 8.978277 0.0 0.0 0.0 1.0 180.0
14262.734584450403 1.0 0.0 8.966607 0.0 0.0 0.0 1.0 180.0
14346.142389037832 1.0 0.0 8.954879 0.0 0.0 0.0 1.0 180.0
14429.550193625262 1.0 0.0 8.943091 0.0 0.0 0.0 1.0 180.0
14512.95799821269 1.0 0.0 8.931243 0.0 0.0 0.0 1.0 180.0
14596.36580280012 1.0 0.0 8.919337 0.0 0.0 0.0 1.0 180.0
14679.773607387548 1.0 0.0 8.907372 0.0 0.0 0.0 1.0 180.0
14763.181411974978 1.0 0.0 8.895348 0.0 0.0 0.0 1.0 180.0
14846.589216562406 1.0 0.0 8.883266 0.0 0.0 0.0 1.0 180.0
14929.997021149837 1.0 0.0 8.871125 0.0 0.0 0.0 1.0 180.0
15013.404825737267 1.0 0.0 8.858926 0.0 0.0 0.0 1.0 180.0
15096.812630324695 1.0 0.0 8.846669 0.0 0.0 0.0 1.0 180.0
15180.220434912124 1.0 0.0 8.834353 0.0 0.0 0.0 1.0 180.0
15263.628239499554 1.0 0.0 8.82198 0.0 0.0 0.0 1.0 180.0
15347.036044086983 1.0 0.0 8.80955 0.0 0.0 0.0 1.0 180.0
15430.443848674411 1.0 0.0 8.797062 0.0 0.0 0.0 1.0 180.0
15513.851653261841 1.0 0.0 8.784517 0.0 0.0 0.0 1.0 180.0
15597.25945784927 1.0 0.0 8.771914 0.0 0.0 0.0 1.0 180.0
15680.6672624367 1.0 0.0 8.759255 0.0 0.0 0.0 1.0 180.0
15764.07506702413 1.0 0.0 8.746539 0.0 0.0 0.0 1.0 180.0
15847.482871611559 1.0 0.0 8.733766 0.0 0.0 0.0 1.0 180.0
15930.890676198987 1.0 0.0 8.720937 0.0 0.0 0.0 1.0 180.0
16014.298480786418 1.0 0.0 8.708051 0.0 0.0 0.0 1.0 180.0
16097.706285373846 1.0 0.0 8.695109 0.0 0.0 0.0 1.0 180.0
16181.114089961275 1.0 0.0 8.682112 0.0 0.0 0.0 1.0 180.0
16264.521894548705 1.0 0.0 8.669058 0.0 0.0 0.0 1.0 180.0
16347.929699136133 1.0 0.0 8.655949 0.0 0.0 0.0 1.0 180.0
16431.337503723564 1.0 0.0 8.642785 0.0 0.0 0.0 1.0 180.0
16514.745308310994 1.0 0.0 8.629565 0.0 0.0 0.0 1.0 180.0
16598.15311289842 1.0 0.0 8.61629 0.0 0.0 0.0 1.0 180.0
16681.56091748585 1.0 0.0 8.60296 0.0 0.0 0.0 1.0 180.0
16764.96872207328 1.0 0.0 8.589575 0.0 0.0 0.0 1.0 180.0
16848.376526660708 1.0 0.0 8.576135 0.0 0.0 0.0 1.0 180.0
16931.78433124814 1.0 0.0 8.562642 0.0 0.0 0.0 1.0 180.0
17015.19213583557 1.0 0.0 8.549094 0.0 0.0 0.0 1.0 180.0
17098.599940422995 1.0 0.0 8.535491 0.0 0.0 0.0 1.0 180.0
17182.007745010425 1.0 0.0 8.521835 0.0 0.0 0.0 1.0 180.0
17265.415549597856 1.0 0.0 8.508125 0.0 0.0 0.0 1.0 180.0
17348.823354185282 1.0 0.0 8.494362 0.0 0.0 0.0 1.0 180.0
17432.231158772713 1.0 0.0 8.480545 0.0 0.0 0.0 1.0 180.0
17515.638963360143 1.0 0.0 8.466675 0.0 0.0 0.0 1.0 180.0
17599.046767947573 1.0 0.0 8.452752 0.0 0.0 0.0 1.0 180.0
17682.454572535004 1.0 0.0 8.438776 0.0 0.0 0.0 1.0 180.0
17765.862377122434 1.0 0.0 8.424748 0.0 0.0 0.0 1.0 180.0
17849.27018170986 1.0 0.0 8.410667 0.0 0.0 0.0 1.0 180.0
17932.67798629729 1.0 0.0 8.396534 0.0 0.0 0.0 1.0 180.0
18016.08579088472 1.0 0.0 8.382348 0.0 0.0 0.0 1.0 180.0
18099.493595472148 1.0 0.0 8.368111 0.0 0.0 0.0 1.0 180.0
18182.901400059578 1.0 0.0 8.353822 0.0 0.0 0.0 1.0 180.0
18266.30920464701 1.0 0.0 8.339481 0.0 0.0 0.0 1.0 180.0
18349.717009234435 1.0 0.0 8.325089 0.0 0.0 0.0 1.0 180.0
18433.124813821865 1.0 0.0 8.310645 0.0 0.0 0.0 1.0 180.0
18516.532618409296 1.0 0.0 8.296151 0.0 0.0 0.0 1.0 180.0
18599.940422996722 1.0 0.0 8.281606 0.0 0.0 0.0 1.0 180.0
18683.348227584152 1.0 0.0 8.26701 0.0 0.0 0.0 1.0 180.0
18766.756032171583 1.0 0.0 8.252364 0.0 0.0 0.0 1.0 180.0
18850.16383675901 1.0 0.0 8.237667 0.0 0.0 0.0 1.0 180.0
18933.57164134644 1.0 0.0 8.222921 0.0 0.0 0.0 1.0 180.0
19016.97944593387 1.0 0.0 8.208124 0.0 0.0 0.0 1.0 180.0
19100.3872505213 1.0 0.0 8.193278 0.0 0.0 0.0 1.0 180.0
19183.79505510873 1.0 0.0 8.178382 0.0 0.0 0.0 1.0 180.0
19267.20285969616 1.0 0.0 8.163437 0.0 0.0 0.0 1.0 180.0
19350.610664283588 1.0 0.0 8.148443 0.0 0.0 0.0 1.0 180.0
19434.018468871018 1.0 0.0 8.1334 0.0 0.0 0.0 1.0 180.0
19517.426273458448 1.0 0.0 8.118308 0.0 0.0 0.0 1.0 180.0
19600.834078045875 1.0 0.0 8.103168 0.0 0.0 0.0 1.0 180.0
19684.241882633305 1.0 0.0 8.087979 0.0 0.0 0.0 1.0 180.0
19767.649687220735 1.0 0.0 8.072742 0.0 0.0 0.0 1.0 180.0
19851.057491808162 1.0 0.0 8.057457 0.0 0.0 0.0 1.0 180.0
19934.465296395592 1.0 0.0 8.042125 0.0 0.0 0.0 1.0 180.0
20017.873100983023 1.0 0.0 8.026745 0.0 0.0 0.0 1.0 180.0
20101.28090557045 1.0 0.0 8.011317 0.0 0.0 0.0 1.0 180.0
20184.68871015788 1.0 0.0 7.995842 0.0 0.0 0.0 1.0 180.0
20268.096514745306 1.0 0.0 7.98032 0.0 0.0 0.0 1.0 180.0
20351.504319332736 1.0 0.0 7.964752 0.0 0.0 0.0 1.0 180.0
20434.912123920167 1.0 0.0 7.949137 0.0 0.0 0.0 1.0 180.0
20518.319928507593 1.0 0.0 7.933475 0.0 0.0 0.0 1.0 180.0
20601.727733095027 1.0 0.0 7.917768 0.0 0.0 0.0 1.0 180.0
20685.135537682458 1.0 0.0 7.902014 0.0 0.0 0.0 1.0 180.0
20768.543342269884 1.0 0.0 7.886215 0.0 0.0 0.0 1.0 180.0
20851.951146857315 1.0 0.0 7.87037 0.0 0.0 0.0 1.0 180.0
20935.358951444745 1.0 0.0 7.854479 0.0 0.0 0.0 1.0 180.0
21018.76675603217 1.0 0.0 7.838544 0.0 0.0 0.0 1.0 180.0
21102.174560619602 1.0 0.0 7.822563 0.0 0.0 0.0 1.0 180.0
21185.582365207032 1.0 0.0 7.806538 0.0 0.0 0.0 1.0 180.0
21268.99016979446 1.0 0.0 7.790468 0.0 0.0 0.0 1.0 180.0
21352.39797438189 1.0 0.0 7.774354 0.0 0.0 0.0 1.0 180.0
21435.80577896932 1.0 0.0 7.758195 0.0 0.0 0.0 1.0 180.0
21519.213583556746 1.0 0.0 7.741993 0.0 0.0 0.0 1.0 180.0
21602.621388144176 1.0 0.0 7.725747 0.0 0.0 0.0 1.0 180.0
21686.029192731607 1.0 0.0 7.709457 0.0 0.0 0.0 1.0 180.0
21769.436997319033 1.0 0.0 7.693124 0.0 0.0 0.0 1.0 180.0
21852.844801906464 1.0 0.0 7.676748 0.0 0.0 0.0 1.0 180.0
21936.252606493894 1.0 0.0 7.660329 0.0 0.0 0.0 1.0 180.0
22019.66041108132 1.0 0.0 7.643868 0.0 0.0 0.0 1.0 180.0
22103.06821566875 1.0 0.0 7.627364 0.0 0.0 0.0 1.0 180.0
22186.476020256185 1.0 0.0 7.610817 0.0 0.0 0.0 1.0 180.0
22269.88382484361 1.0 0.0 7.594229 0.0 0.0 0.0 1.0 180.0
22353.29162943104 1.0 0.0 7.577598 0.0 0.0 0.0 1.0 180.0
22436.699434018472 1.0 0.0 7.560927 0.0 0.0 0.0 1.0 180.0
22520.1072386059 1.0 0.0 7.544213 0.0 0.0 0.0 1.0 180.0
22603.51504319333 1.0 0.0 7.527458 0.0 0.0 0.0 1.0 180.0
22686.92284778076 1.0 0.0 7.510663 0.0 0.0 0.0 1.0 180.0
22770.330652368186 1.0 0.0 7.493826 0.0 0.0 0.0 1.0 180.0
22853.738456955616 1.0 0.0 7.476949 0.0 0.0 0.0 1.0 180.0
22937.146261543046 1.0 0.0 7.460032 0.0 0.0 0.0 1.0 180.0
23020.554066130473 1.0 0.0 7.443074 0.0 0.0 0.0 1.0 180.0
23103.961870717903 1.0 0.0 7.426077 0.0 0.0 0.0 1.0 180.0
23187.369675305334 1.0 0.0 7.40904 0.0 0.0 0.0 1.0 180.0
23270.77747989276 1.0 0.0 7.391963 0.0 0.0 0.0 1.0 180.0
23354.18528448019 1.0 0.0 7.374847 0.0 0.0 0.0 1.0 180.0
23437.59308906762 1.0 0.0 7.357692 0.0 0.0 0.0 1.0 180.0
23521.000893655048 1.0 0.0 7.340498 0.0 0.0 0.0 1.0 180.0
23604.408698242478 1.0 0.0 7.323266 0.0 0.0 0.0 1.0 180.0
23687.81650282991 1.0 0.0 7.305995 0.0 0.0 0.0 1.0 180.0
23771.22430741734 1.0 0.0 7.288685 0.0 0.0 0.0 1.0 180.0
23854.63211200477 1.0 0.0 7.271338 0.0 0.0 0.0 1.0 180.0
23938.0399165922 1.0 0.0 7.253953 0.0 0.0 0.0 1.0 180.0
24021.447721179626 1.0 0.0 7.236531 0.0 0.0 0.0 1.0 180.0
24104.855525767056 1.0 0.0 7.219071 0.0 0.0 0.0 1.0 180.0
24188.263330354486 1.0 0.0 7.201574 0.0 0.0 0.0 1.0 180.0
24271.671134941913 1.0 0.0 7.18404 0.0 0.0 0.0 1.0 180.0
24355.078939529343 1.0 0.0 7.16647 0.0 0.0 0.0 1.0 180.0
24438.486744116773 1.0 0.0 7.148863 0.0 0.0 0.0 1.0 180.0
24521.8945487042 1.0 0.0 7.13122 0.0 0.0 0.0 1.0 180.0
24605.30235329163 1.0 0.0 7.113541 0.0 0.0 0.0 1.0 180.0
24688.710157879057 1.0 0.0 7.095826 0.0 0.0 0.0 1.0 180.0
24772.117962466487 1.0 0.0 7.078076 0.0 0.0 0.0 1.0 180.0
24855.525767053918 1.0 0.0 7.06029 0.0 0.0 0.0 1.0 180.0
24938.933571641344 1.0 0.0 7.042469 0.0 0.0 0.0 1.0 180.0
25022.341376228775 1.0 0.0 7.024614 0.0 0.0 0.0 1.0 180.0
25105.749180816205 1.0 0.0 7.006723 0.0 0.0 0.0 1.0 180.0
25189.156985403635 1.0 0.0 6.988799 0.0 0.0 0.0 1.0 180.0
25272.564789991065 1.0 0.0 6.97084 0.0 0.0 0.0 1.0 180.0
25355.972594578496 1.0 0.0 6.952847 0.0 0.0 0.0 1.0 180.0
25439.380399165922 1.0 0.0 6.93482 0.0 0.0 0.0 1.0 180.0
25522.788203753353 1.0 0.0 6.91676 0.0 0.0 0.0 1.0 180.0
25606.196008340783 1.0 0.0 6.898666 0.0 0.0 0.0 1.0 180.0
25689.60381292821 1.0 0.0 6.88054 0.0 0.0 0.0 1.0 180.0
25773.01161751564 1.0 0.0 6.862381 0.0 0.0 0.0 1.0 180.0
25856.41942210307 1.0 0.0 6.844189 0.0 0.0 0.0 1.0 180.0
25939.827226690497 1.0 0.0 6.825964 0.0 0.0 0.0 1.0 180.0
26023.235031277927 1.0 0.0 6.807708 0.0 0.0 0.0 1.0 180.0
26106.642835865357 1.0 0.0 6.789419 0.0 0.0 0.0 1.0 180.0
26190.050640452784 1.0 0.0 6.771099 0.0 0.0 0.0 1.0 180.0
26273.458445040214 1.0 0.0 6.752748 0.0 0.0 0.0 1.0 180.0
26356.866249627645 1.0 0.0 6.734365 0.0 0.0 0.0 1.0 180.0
26440.27405421507 1.0 0.0 6.715951 0.0 0.0 0.0 1.0 180.0
26523.6818588025 1.0 0.0 6.697507 0.0 0.0 0.0 1.0 180.0
26607.089663389932 1.0 0.0 6.679031 0.0 0.0 0.0 1.0 180.0
26690.497467977362 1.0 0.0 6.660526 0.0 0.0 0.0 1.0 180.0
26773.905272564793 1.0 0.0 6.641991 0.0 0.0 0.0 1.0 180.0
26857.313077152223 1.0 0.0 6.623425 0.0 0.0 0.0 1.0 180.0
26940.72088173965 1.0 0.0 6.60483 0.0 0.0 0.0 1.0 180.0
27024.12868632708 1.0 0.0 6.586206 0.0 0.0 0.0 1.0 180.0
27107.53649091451 1.0 0.0 6.567552 0.0 0.0 0.0 1.0 180.0
27190.944295501937 1.0 0.0 6.54887 0.0 0.0 0.0 1.0 180.0
27274.352100089367 1.0 0.0 6.530159 0.0 0.0 0.0 1.0 180.0
27357.759904676797 1.0 0.0 6.511419 0.0 0.0 0.0 1.0 180.0
27441.167709264224 1.0 0.0 6.492652 0.0 0.0 0.0 1.0 180.0
27524.575513851654 1.0 0.0 6.473856 0.0 0.0 0.0 1.0 180.0
27607.983318439085 1.0 0.0 6.455033 0.0 0.0 0.0 1.0 180.0
27691.39112302651 1.0 0.0 6.436182 0.0 0.0 0.0 1.0 180.0
27774.79892761394 1.0 0.0 6.417303 0.0 0.0 0.0 1.0 180.0
27858.20673220137 1.0 0.0 6.398398 0.0 0.0 0.0 1.0 180.0
27941.6145367888 1.0 0.0 6.379466 0.0 0.0 0.0 1.0 180.0
28025.02234137623 1.0 0.0 6.360507 0.0 0.0 0.0 1.0 180.0
28108.43014596366 1.0 0.0 6.341522 0.0 0.0 0.0 1.0 180.0
28191.837950551086 1.0 0.0 6.322511 0.0 0.0 0.0 1.0 180.0
28275.24575513852 1.0 0.0 6.303474 0.0 0.0 0.0 1.0 180.0
28358.65355972595 1.0 0.0 6.284412 0.0 0.0 0.0 1.0 180.0
28442.061364313377 1.0 0.0 6.265324 0.0 0.0 0.0 1.0 180.0
28525.469168900807 1.0 0.0 6.246211 0.0 0.0 0.0 1.0 180.0
28608.876973488237 1.0 0.0 6.227073 0.0 0.0 0.0 1.0 180.0
28692.284778075664 1.0 0.0 6.20791 0.0 0.0 0.0 1.0 180.0
28775.692582663094 1.0 0.0 6.188723 0.0 0.0 0.0 1.0 180.0
