! File created by SignalIntegrity v1.4.3: Signal and Power Integrity Tools
! https://github.com/Nubis-Communications/SignalIntegrity
# MHz S MA R 50.0
0.0 1.0 0.0 20.0 0.0 0.0 0.0 1.0 180.0
83.40780458742925 1.0 0.0 19.999927 0.0 0.0 0.0 1.0 180.0
166.8156091748585 1.0 0.0 19.999708 0.0 0.0 0.0 1.0 180.0
250.22341376228778 1.0 0.0 19.999343 0.0 0.0 0.0 1.0 180.0
333.631218349717 1.0 0.0 19.998832 0.0 0.0 0.0 1.0 180.0
417.0390229371463 1.0 0.0 19.998175 0.0 0.0 0.0 1.0 180.0
500.44682752457555 1.0 0.0 19.997373 0.0 0.0 0.0 1.0 180.0
583.8546321120048 1.0 0.0 19.996424 0.0 0.0 0.0 1.0 180.0
667.262436699434 1.0 0.0 19.995329 0.0 0.0 0.0 1.0 180.0
750.6702412868633 1.0 0.0 19.994089 0.0 0.0 0.0 1.0 180.0
834.0780458742926 1.0 0.0 19.992703 0.0 0.0 0.0 1.0 180.0
917.4858504617217 1.0 0.0 19.99117 0.0 0.0 0.0 1.0 180.0
1000.8936550491511 1.0 0.0 19.989492 0.0 0.0 0.0 1.0 180.0
1084.3014596365801 1.0 0.0 19.987668 0.0 0.0 0.0 1.0 180.0
1167.7092642240095 1.0 0.0 19.985699 0.0 0.0 0.0 1.0 180.0
1251.117068811439 1.0 0.0 19.983583 0.0 0.0 0.0 1.0 180.0
1334.524873398868 1.0 0.0 19.981322 0.0 0.0 0.0 1.0 180.0
1417.9326779862974 1.0 0.0 19.978915 0.0 0.0 0.0 1.0 180.0
1501.3404825737266 1.0 0.0 19.976362 0.0 0.0 0.0 1.0 180.0
1584.748287161156 1.0 0.0 19.973664 0.0 0.0 0.0 1.0 180.0
1668.1560917485851 1.0 0.0 19.97082 0.0 0.0 0.0 1.0 180.0
1751.5638963360143 1.0 0.0 19.96783 0.0 0.0 0.0 1.0 180.0
1834.9717009234434 1.0 0.0 19.964695 0.0 0.0 0.0 1.0 180.0
1918.3795055108728 1.0 0.0 19.961415 0.0 0.0 0.0 1.0 180.0
2001.7873100983022 1.0 0.0 19.957989 0.0 0.0 0.0 1.0 180.0
2085.1951146857314 1.0 0.0 19.954417 0.0 0.0 0.0 1.0 180.0
2168.6029192731603 1.0 0.0 19.950701 0.0 0.0 0.0 1.0 180.0
2252.01072386059 1.0 0.0 19.946839 0.0 0.0 0.0 1.0 180.0
2335.418528448019 1.0 0.0 19.942831 0.0 0.0 0.0 1.0 180.0
2418.8263330354484 1.0 0.0 19.938679 0.0 0.0 0.0 1.0 180.0
2502.234137622878 1.0 0.0 19.934381 0.0 0.0 0.0 1.0 180.0
2585.641942210307 1.0 0.0 19.929938 0.0 0.0 0.0 1.0 180.0
2669.049746797736 1.0 0.0 19.92535 0.0 0.0 0.0 1.0 180.0
2752.457551385165 1.0 0.0 19.920617 0.0 0.0 0.0 1.0 180.0
2835.865355972595 1.0 0.0 19.91574 0.0 0.0 0.0 1.0 180.0
2919.273160560024 1.0 0.0 19.910717 0.0 0.0 0.0 1.0 180.0
3002.680965147453 1.0 0.0 19.905549 0.0 0.0 0.0 1.0 180.0
3086.088769734882 1.0 0.0 19.900237 0.0 0.0 0.0 1.0 180.0
3169.496574322312 1.0 0.0 19.89478 0.0 0.0 0.0 1.0 180.0
3252.904378909741 1.0 0.0 19.889179 0.0 0.0 0.0 1.0 180.0
3336.3121834971703 1.0 0.0 19.883433 0.0 0.0 0.0 1.0 180.0
3419.7199880845997 1.0 0.0 19.877543 0.0 0.0 0.0 1.0 180.0
3503.1277926720286 1.0 0.0 19.871508 0.0 0.0 0.0 1.0 180.0
3586.535597259458 1.0 0.0 19.865329 0.0 0.0 0.0 1.0 180.0
3669.943401846887 1.0 0.0 19.859006 0.0 0.0 0.0 1.0 180.0
3753.3512064343167 1.0 0.0 19.852539 0.0 0.0 0.0 1.0 180.0
3836.7590110217457 1.0 0.0 19.845927 0.0 0.0 0.0 1.0 180.0
3920.166815609175 1.0 0.0 19.839172 0.0 0.0 0.0 1.0 180.0
4003.5746201966044 1.0 0.0 19.832273 0.0 0.0 0.0 1.0 180.0
4086.9824247840334 1.0 0.0 19.82523 0.0 0.0 0.0 1.0 180.0
4170.390229371463 1.0 0.0 19.818044 0.0 0.0 0.0 1.0 180.0
4253.798033958892 1.0 0.0 19.810714 0.0 0.0 0.0 1.0 180.0
4337.205838546321 1.0 0.0 19.80324 0.0 0.0 0.0 1.0 180.0
4420.613643133751 1.0 0.0 19.795623 0.0 0.0 0.0 1.0 180.0
4504.02144772118 1.0 0.0 19.787863 0.0 0.0 0.0 1.0 180.0
4587.429252308609 1.0 0.0 19.779959 0.0 0.0 0.0 1.0 180.0
4670.837056896038 1.0 0.0 19.771913 0.0 0.0 0.0 1.0 180.0
4754.2448614834675 1.0 0.0 19.763723 0.0 0.0 0.0 1.0 180.0
4837.652666070897 1.0 0.0 19.755391 0.0 0.0 0.0 1.0 180.0
4921.060470658326 1.0 0.0 19.746916 0.0 0.0 0.0 1.0 180.0
5004.468275245756 1.0 0.0 19.738298 0.0 0.0 0.0 1.0 180.0
5087.876079833184 1.0 0.0 19.729538 0.0 0.0 0.0 1.0 180.0
5171.283884420614 1.0 0.0 19.720635 0.0 0.0 0.0 1.0 180.0
5254.691689008043 1.0 0.0 19.71159 0.0 0.0 0.0 1.0 180.0
5338.099493595472 1.0 0.0 19.702403 0.0 0.0 0.0 1.0 180.0
5421.507298182902 1.0 0.0 19.693074 0.0 0.0 0.0 1.0 180.0
5504.91510277033 1.0 0.0 19.683603 0.0 0.0 0.0 1.0 180.0
5588.32290735776 1.0 0.0 19.67399 0.0 0.0 0.0 1.0 180.0
5671.73071194519 1.0 0.0 19.664235 0.0 0.0 0.0 1.0 180.0
5755.138516532618 1.0 0.0 19.654339 0.0 0.0 0.0 1.0 180.0
5838.546321120048 1.0 0.0 19.644302 0.0 0.0 0.0 1.0 180.0
5921.954125707478 1.0 0.0 19.634123 0.0 0.0 0.0 1.0 180.0
6005.361930294906 1.0 0.0 19.623803 0.0 0.0 0.0 1.0 180.0
6088.769734882336 1.0 0.0 19.613341 0.0 0.0 0.0 1.0 180.0
6172.177539469764 1.0 0.0 19.602739 0.0 0.0 0.0 1.0 180.0
6255.585344057194 1.0 0.0 19.591997 0.0 0.0 0.0 1.0 180.0
6338.993148644624 1.0 0.0 19.581113 0.0 0.0 0.0 1.0 180.0
6422.400953232052 1.0 0.0 19.57009 0.0 0.0 0.0 1.0 180.0
6505.808757819482 1.0 0.0 19.558925 0.0 0.0 0.0 1.0 180.0
6589.216562406911 1.0 0.0 19.547621 0.0 0.0 0.0 1.0 180.0
6672.624366994341 1.0 0.0 19.536177 0.0 0.0 0.0 1.0 180.0
6756.03217158177 1.0 0.0 19.524593 0.0 0.0 0.0 1.0 180.0
6839.439976169199 1.0 0.0 19.512869 0.0 0.0 0.0 1.0 180.0
6922.847780756628 1.0 0.0 19.501005 0.0 0.0 0.0 1.0 180.0
7006.255585344057 1.0 0.0 19.489002 0.0 0.0 0.0 1.0 180.0
7089.6633899314875 1.0 0.0 19.47686 0.0 0.0 0.0 1.0 180.0
7173.071194518916 1.0 0.0 19.464579 0.0 0.0 0.0 1.0 180.0
7256.478999106345 1.0 0.0 19.452158 0.0 0.0 0.0 1.0 180.0
7339.886803693774 1.0 0.0 19.439599 0.0 0.0 0.0 1.0 180.0
7423.294608281203 1.0 0.0 19.426902 0.0 0.0 0.0 1.0 180.0
7506.7024128686335 1.0 0.0 19.414066 0.0 0.0 0.0 1.0 180.0
7590.110217456062 1.0 0.0 19.401091 0.0 0.0 0.0 1.0 180.0
7673.518022043491 1.0 0.0 19.387979 0.0 0.0 0.0 1.0 180.0
7756.925826630921 1.0 0.0 19.374728 0.0 0.0 0.0 1.0 180.0
7840.33363121835 1.0 0.0 19.36134 0.0 0.0 0.0 1.0 180.0
7923.7414358057795 1.0 0.0 19.347814 0.0 0.0 0.0 1.0 180.0
8007.149240393209 1.0 0.0 19.334151 0.0 0.0 0.0 1.0 180.0
8090.557044980637 1.0 0.0 19.320351 0.0 0.0 0.0 1.0 180.0
8173.964849568067 1.0 0.0 19.306413 0.0 0.0 0.0 1.0 180.0
8257.372654155497 1.0 0.0 19.292339 0.0 0.0 0.0 1.0 180.0
8340.780458742925 1.0 0.0 19.278128 0.0 0.0 0.0 1.0 180.0
8424.188263330354 1.0 0.0 19.26378 0.0 0.0 0.0 1.0 180.0
8507.596067917784 1.0 0.0 19.249297 0.0 0.0 0.0 1.0 180.0
8591.003872505213 1.0 0.0 19.234677 0.0 0.0 0.0 1.0 180.0
8674.411677092641 1.0 0.0 19.219921 0.0 0.0 0.0 1.0 180.0
8757.819481680071 1.0 0.0 19.205029 0.0 0.0 0.0 1.0 180.0
8841.227286267502 1.0 0.0 19.190002 0.0 0.0 0.0 1.0 180.0
8924.63509085493 1.0 0.0 19.174839 0.0 0.0 0.0 1.0 180.0
9008.04289544236 1.0 0.0 19.159542 0.0 0.0 0.0 1.0 180.0
9091.450700029789 1.0 0.0 19.144109 0.0 0.0 0.0 1.0 180.0
9174.858504617217 1.0 0.0 19.128542 0.0 0.0 0.0 1.0 180.0
9258.266309204648 1.0 0.0 19.11284 0.0 0.0 0.0 1.0 180.0
9341.674113792076 1.0 0.0 19.097004 0.0 0.0 0.0 1.0 180.0
9425.081918379505 1.0 0.0 19.081033 0.0 0.0 0.0 1.0 180.0
9508.489722966935 1.0 0.0 19.064929 0.0 0.0 0.0 1.0 180.0
9591.897527554365 1.0 0.0 19.048691 0.0 0.0 0.0 1.0 180.0
9675.305332141794 1.0 0.0 19.032319 0.0 0.0 0.0 1.0 180.0
9758.713136729224 1.0 0.0 19.015814 0.0 0.0 0.0 1.0 180.0
9842.120941316653 1.0 0.0 18.999177 0.0 0.0 0.0 1.0 180.0
9925.528745904081 1.0 0.0 18.982406 0.0 0.0 0.0 1.0 180.0
10008.936550491511 1.0 0.0 18.965502 0.0 0.0 0.0 1.0 180.0
10092.34435507894 1.0 0.0 18.948467 0.0 0.0 0.0 1.0 180.0
10175.752159666368 1.0 0.0 18.931299 0.0 0.0 0.0 1.0 180.0
10259.159964253797 1.0 0.0 18.913999 0.0 0.0 0.0 1.0 180.0
10342.567768841229 1.0 0.0 18.896567 0.0 0.0 0.0 1.0 180.0
10425.975573428657 1.0 0.0 18.879004 0.0 0.0 0.0 1.0 180.0
10509.383378016086 1.0 0.0 18.861309 0.0 0.0 0.0 1.0 180.0
10592.791182603516 1.0 0.0 18.843484 0.0 0.0 0.0 1.0 180.0
10676.198987190945 1.0 0.0 18.825527 0.0 0.0 0.0 1.0 180.0
10759.606791778373 1.0 0.0 18.80744 0.0 0.0 0.0 1.0 180.0
10843.014596365803 1.0 0.0 18.789223 0.0 0.0 0.0 1.0 180.0
10926.422400953232 1.0 0.0 18.770876 0.0 0.0 0.0 1.0 180.0
11009.83020554066 1.0 0.0 18.752398 0.0 0.0 0.0 1.0 180.0
11093.238010128092 1.0 0.0 18.733791 0.0 0.0 0.0 1.0 180.0
11176.64581471552 1.0 0.0 18.715055 0.0 0.0 0.0 1.0 180.0
11260.05361930295 1.0 0.0 18.69619 0.0 0.0 0.0 1.0 180.0
11343.46142389038 1.0 0.0 18.677195 0.0 0.0 0.0 1.0 180.0
11426.869228477808 1.0 0.0 18.658072 0.0 0.0 0.0 1.0 180.0
11510.277033065237 1.0 0.0 18.638821 0.0 0.0 0.0 1.0 180.0
11593.684837652667 1.0 0.0 18.619441 0.0 0.0 0.0 1.0 180.0
11677.092642240095 1.0 0.0 18.599934 0.0 0.0 0.0 1.0 180.0
11760.500446827524 1.0 0.0 18.580298 0.0 0.0 0.0 1.0 180.0
11843.908251414956 1.0 0.0 18.560536 0.0 0.0 0.0 1.0 180.0
11927.316056002384 1.0 0.0 18.540646 0.0 0.0 0.0 1.0 180.0
12010.723860589813 1.0 0.0 18.52063 0.0 0.0 0.0 1.0 180.0
12094.131665177243 1.0 0.0 18.500487 0.0 0.0 0.0 1.0 180.0
12177.539469764672 1.0 0.0 18.480217 0.0 0.0 0.0 1.0 180.0
12260.9472743521 1.0 0.0 18.459821 0.0 0.0 0.0 1.0 180.0
12344.355078939529 1.0 0.0 18.4393 0.0 0.0 0.0 1.0 180.0
12427.762883526959 1.0 0.0 18.418653 0.0 0.0 0.0 1.0 180.0
12511.170688114387 1.0 0.0 18.397881 0.0 0.0 0.0 1.0 180.0
12594.578492701818 1.0 0.0 18.376983 0.0 0.0 0.0 1.0 180.0
12677.986297289248 1.0 0.0 18.355961 0.0 0.0 0.0 1.0 180.0
12761.394101876676 1.0 0.0 18.334815 0.0 0.0 0.0 1.0 180.0
12844.801906464105 1.0 0.0 18.313544 0.0 0.0 0.0 1.0 180.0
12928.209711051535 1.0 0.0 18.29215 0.0 0.0 0.0 1.0 180.0
13011.617515638964 1.0 0.0 18.270631 0.0 0.0 0.0 1.0 180.0
13095.025320226392 1.0 0.0 18.24899 0.0 0.0 0.0 1.0 180.0
13178.433124813822 1.0 0.0 18.227225 0.0 0.0 0.0 1.0 180.0
13261.84092940125 1.0 0.0 18.205338 0.0 0.0 0.0 1.0 180.0
13345.248733988681 1.0 0.0 18.183328 0.0 0.0 0.0 1.0 180.0
13428.656538576111 1.0 0.0 18.161195 0.0 0.0 0.0 1.0 180.0
13512.06434316354 1.0 0.0 18.138941 0.0 0.0 0.0 1.0 180.0
13595.472147750968 1.0 0.0 18.116565 0.0 0.0 0.0 1.0 180.0
13678.879952338399 1.0 0.0 18.094068 0.0 0.0 0.0 1.0 180.0
13762.287756925827 1.0 0.0 18.07145 0.0 0.0 0.0 1.0 180.0
13845.695561513256 1.0 0.0 18.048711 0.0 0.0 0.0 1.0 180.0
13929.103366100686 1.0 0.0 18.025851 0.0 0.0 0.0 1.0 180.0
14012.511170688114 1.0 0.0 18.002872 0.0 0.0 0.0 1.0 180.0
14095.918975275543 1.0 0.0 17.979772 0.0 0.0 0.0 1.0 180.0
14179.326779862975 1.0 0.0 17.956553 0.0 0.0 0.0 1.0 180.0
14262.734584450403 1.0 0.0 17.933215 0.0 0.0 0.0 1.0 180.0
14346.142389037832 1.0 0.0 17.909757 0.0 0.0 0.0 1.0 180.0
14429.550193625262 1.0 0.0 17.886181 0.0 0.0 0.0 1.0 180.0
14512.95799821269 1.0 0.0 17.862487 0.0 0.0 0.0 1.0 180.0
14596.36580280012 1.0 0.0 17.838674 0.0 0.0 0.0 1.0 180.0
14679.773607387548 1.0 0.0 17.814744 0.0 0.0 0.0 1.0 180.0
14763.181411974978 1.0 0.0 17.790696 0.0 0.0 0.0 1.0 180.0
14846.589216562406 1.0 0.0 17.766531 0.0 0.0 0.0 1.0 180.0
14929.997021149837 1.0 0.0 17.74225 0.0 0.0 0.0 1.0 180.0
15013.404825737267 1.0 0.0 17.717851 0.0 0.0 0.0 1.0 180.0
15096.812630324695 1.0 0.0 17.693337 0.0 0.0 0.0 1.0 180.0
15180.220434912124 1.0 0.0 17.668707 0.0 0.0 0.0 1.0 180.0
15263.628239499554 1.0 0.0 17.643961 0.0 0.0 0.0 1.0 180.0
15347.036044086983 1.0 0.0 17.6191 0.0 0.0 0.0 1.0 180.0
15430.443848674411 1.0 0.0 17.594124 0.0 0.0 0.0 1.0 180.0
15513.851653261841 1.0 0.0 17.569034 0.0 0.0 0.0 1.0 180.0
15597.25945784927 1.0 0.0 17.543829 0.0 0.0 0.0 1.0 180.0
15680.6672624367 1.0 0.0 17.51851 0.0 0.0 0.0 1.0 180.0
15764.07506702413 1.0 0.0 17.493078 0.0 0.0 0.0 1.0 180.0
15847.482871611559 1.0 0.0 17.467532 0.0 0.0 0.0 1.0 180.0
15930.890676198987 1.0 0.0 17.441874 0.0 0.0 0.0 1.0 180.0
16014.298480786418 1.0 0.0 17.416102 0.0 0.0 0.0 1.0 180.0
16097.706285373846 1.0 0.0 17.390219 0.0 0.0 0.0 1.0 180.0
16181.114089961275 1.0 0.0 17.364224 0.0 0.0 0.0 1.0 180.0
16264.521894548705 1.0 0.0 17.338117 0.0 0.0 0.0 1.0 180.0
16347.929699136133 1.0 0.0 17.311898 0.0 0.0 0.0 1.0 180.0
16431.337503723564 1.0 0.0 17.285569 0.0 0.0 0.0 1.0 180.0
16514.745308310994 1.0 0.0 17.259129 0.0 0.0 0.0 1.0 180.0
16598.15311289842 1.0 0.0 17.232579 0.0 0.0 0.0 1.0 180.0
16681.56091748585 1.0 0.0 17.205919 0.0 0.0 0.0 1.0 180.0
16764.96872207328 1.0 0.0 17.17915 0.0 0.0 0.0 1.0 180.0
16848.376526660708 1.0 0.0 17.152271 0.0 0.0 0.0 1.0 180.0
16931.78433124814 1.0 0.0 17.125283 0.0 0.0 0.0 1.0 180.0
17015.19213583557 1.0 0.0 17.098187 0.0 0.0 0.0 1.0 180.0
17098.599940422995 1.0 0.0 17.070983 0.0 0.0 0.0 1.0 180.0
17182.007745010425 1.0 0.0 17.04367 0.0 0.0 0.0 1.0 180.0
17265.415549597856 1.0 0.0 17.016251 0.0 0.0 0.0 1.0 180.0
17348.823354185282 1.0 0.0 16.988724 0.0 0.0 0.0 1.0 180.0
17432.231158772713 1.0 0.0 16.96109 0.0 0.0 0.0 1.0 180.0
17515.638963360143 1.0 0.0 16.933351 0.0 0.0 0.0 1.0 180.0
17599.046767947573 1.0 0.0 16.905505 0.0 0.0 0.0 1.0 180.0
17682.454572535004 1.0 0.0 16.877553 0.0 0.0 0.0 1.0 180.0
17765.862377122434 1.0 0.0 16.849496 0.0 0.0 0.0 1.0 180.0
17849.27018170986 1.0 0.0 16.821334 0.0 0.0 0.0 1.0 180.0
17932.67798629729 1.0 0.0 16.793067 0.0 0.0 0.0 1.0 180.0
18016.08579088472 1.0 0.0 16.764696 0.0 0.0 0.0 1.0 180.0
18099.493595472148 1.0 0.0 16.736221 0.0 0.0 0.0 1.0 180.0
18182.901400059578 1.0 0.0 16.707643 0.0 0.0 0.0 1.0 180.0
18266.30920464701 1.0 0.0 16.678962 0.0 0.0 0.0 1.0 180.0
18349.717009234435 1.0 0.0 16.650178 0.0 0.0 0.0 1.0 180.0
18433.124813821865 1.0 0.0 16.621291 0.0 0.0 0.0 1.0 180.0
18516.532618409296 1.0 0.0 16.592302 0.0 0.0 0.0 1.0 180.0
18599.940422996722 1.0 0.0 16.563212 0.0 0.0 0.0 1.0 180.0
18683.348227584152 1.0 0.0 16.53402 0.0 0.0 0.0 1.0 180.0
18766.756032171583 1.0 0.0 16.504728 0.0 0.0 0.0 1.0 180.0
18850.16383675901 1.0 0.0 16.475335 0.0 0.0 0.0 1.0 180.0
18933.57164134644 1.0 0.0 16.445842 0.0 0.0 0.0 1.0 180.0
19016.97944593387 1.0 0.0 16.416249 0.0 0.0 0.0 1.0 180.0
19100.3872505213 1.0 0.0 16.386556 0.0 0.0 0.0 1.0 180.0
19183.79505510873 1.0 0.0 16.356765 0.0 0.0 0.0 1.0 180.0
19267.20285969616 1.0 0.0 16.326875 0.0 0.0 0.0 1.0 180.0
19350.610664283588 1.0 0.0 16.296887 0.0 0.0 0.0 1.0 180.0
19434.018468871018 1.0 0.0 16.2668 0.0 0.0 0.0 1.0 180.0
19517.426273458448 1.0 0.0 16.236617 0.0 0.0 0.0 1.0 180.0
19600.834078045875 1.0 0.0 16.206336 0.0 0.0 0.0 1.0 180.0
19684.241882633305 1.0 0.0 16.175958 0.0 0.0 0.0 1.0 180.0
19767.649687220735 1.0 0.0 16.145485 0.0 0.0 0.0 1.0 180.0
19851.057491808162 1.0 0.0 16.114915 0.0 0.0 0.0 1.0 180.0
19934.465296395592 1.0 0.0 16.08425 0.0 0.0 0.0 1.0 180.0
20017.873100983023 1.0 0.0 16.053489 0.0 0.0 0.0 1.0 180.0
20101.28090557045 1.0 0.0 16.022634 0.0 0.0 0.0 1.0 180.0
20184.68871015788 1.0 0.0 15.991684 0.0 0.0 0.0 1.0 180.0
20268.096514745306 1.0 0.0 15.960641 0.0 0.0 0.0 1.0 180.0
20351.504319332736 1.0 0.0 15.929504 0.0 0.0 0.0 1.0 180.0
20434.912123920167 1.0 0.0 15.898274 0.0 0.0 0.0 1.0 180.0
20518.319928507593 1.0 0.0 15.866951 0.0 0.0 0.0 1.0 180.0
20601.727733095027 1.0 0.0 15.835535 0.0 0.0 0.0 1.0 180.0
20685.135537682458 1.0 0.0 15.804028 0.0 0.0 0.0 1.0 180.0
20768.543342269884 1.0 0.0 15.772429 0.0 0.0 0.0 1.0 180.0
20851.951146857315 1.0 0.0 15.740739 0.0 0.0 0.0 1.0 180.0
20935.358951444745 1.0 0.0 15.708958 0.0 0.0 0.0 1.0 180.0
21018.76675603217 1.0 0.0 15.677087 0.0 0.0 0.0 1.0 180.0
21102.174560619602 1.0 0.0 15.645126 0.0 0.0 0.0 1.0 180.0
21185.582365207032 1.0 0.0 15.613076 0.0 0.0 0.0 1.0 180.0
21268.99016979446 1.0 0.0 15.580936 0.0 0.0 0.0 1.0 180.0
21352.39797438189 1.0 0.0 15.548707 0.0 0.0 0.0 1.0 180.0
21435.80577896932 1.0 0.0 15.516391 0.0 0.0 0.0 1.0 180.0
21519.213583556746 1.0 0.0 15.483986 0.0 0.0 0.0 1.0 180.0
21602.621388144176 1.0 0.0 15.451494 0.0 0.0 0.0 1.0 180.0
21686.029192731607 1.0 0.0 15.418915 0.0 0.0 0.0 1.0 180.0
21769.436997319033 1.0 0.0 15.386249 0.0 0.0 0.0 1.0 180.0
21852.844801906464 1.0 0.0 15.353497 0.0 0.0 0.0 1.0 180.0
21936.252606493894 1.0 0.0 15.320659 0.0 0.0 0.0 1.0 180.0
22019.66041108132 1.0 0.0 15.287736 0.0 0.0 0.0 1.0 180.0
22103.06821566875 1.0 0.0 15.254727 0.0 0.0 0.0 1.0 180.0
22186.476020256185 1.0 0.0 15.221635 0.0 0.0 0.0 1.0 180.0
22269.88382484361 1.0 0.0 15.188458 0.0 0.0 0.0 1.0 180.0
22353.29162943104 1.0 0.0 15.155197 0.0 0.0 0.0 1.0 180.0
22436.699434018472 1.0 0.0 15.121853 0.0 0.0 0.0 1.0 180.0
22520.1072386059 1.0 0.0 15.088426 0.0 0.0 0.0 1.0 180.0
22603.51504319333 1.0 0.0 15.054917 0.0 0.0 0.0 1.0 180.0
22686.92284778076 1.0 0.0 15.021326 0.0 0.0 0.0 1.0 180.0
22770.330652368186 1.0 0.0 14.987653 0.0 0.0 0.0 1.0 180.0
22853.738456955616 1.0 0.0 14.953899 0.0 0.0 0.0 1.0 180.0
22937.146261543046 1.0 0.0 14.920064 0.0 0.0 0.0 1.0 180.0
23020.554066130473 1.0 0.0 14.886149 0.0 0.0 0.0 1.0 180.0
23103.961870717903 1.0 0.0 14.852154 0.0 0.0 0.0 1.0 180.0
23187.369675305334 1.0 0.0 14.81808 0.0 0.0 0.0 1.0 180.0
23270.77747989276 1.0 0.0 14.783926 0.0 0.0 0.0 1.0 180.0
23354.18528448019 1.0 0.0 14.749694 0.0 0.0 0.0 1.0 180.0
23437.59308906762 1.0 0.0 14.715384 0.0 0.0 0.0 1.0 180.0
23521.000893655048 1.0 0.0 14.680996 0.0 0.0 0.0 1.0 180.0
23604.408698242478 1.0 0.0 14.646531 0.0 0.0 0.0 1.0 180.0
23687.81650282991 1.0 0.0 14.611989 0.0 0.0 0.0 1.0 180.0
23771.22430741734 1.0 0.0 14.577371 0.0 0.0 0.0 1.0 180.0
23854.63211200477 1.0 0.0 14.542676 0.0 0.0 0.0 1.0 180.0
23938.0399165922 1.0 0.0 14.507907 0.0 0.0 0.0 1.0 180.0
24021.447721179626 1.0 0.0 14.473062 0.0 0.0 0.0 1.0 180.0
24104.855525767056 1.0 0.0 14.438142 0.0 0.0 0.0 1.0 180.0
24188.263330354486 1.0 0.0 14.403148 0.0 0.0 0.0 1.0 180.0
24271.671134941913 1.0 0.0 14.368081 0.0 0.0 0.0 1.0 180.0
24355.078939529343 1.0 0.0 14.33294 0.0 0.0 0.0 1.0 180.0
24438.486744116773 1.0 0.0 14.297726 0.0 0.0 0.0 1.0 180.0
24521.8945487042 1.0 0.0 14.26244 0.0 0.0 0.0 1.0 180.0
24605.30235329163 1.0 0.0 14.227082 0.0 0.0 0.0 1.0 180.0
24688.710157879057 1.0 0.0 14.191652 0.0 0.0 0.0 1.0 180.0
24772.117962466487 1.0 0.0 14.156152 0.0 0.0 0.0 1.0 180.0
24855.525767053918 1.0 0.0 14.12058 0.0 0.0 0.0 1.0 180.0
24938.933571641344 1.0 0.0 14.084939 0.0 0.0 0.0 1.0 180.0
25022.341376228775 1.0 0.0 14.049227 0.0 0.0 0.0 1.0 180.0
25105.749180816205 1.0 0.0 14.013447 0.0 0.0 0.0 1.0 180.0
25189.156985403635 1.0 0.0 13.977597 0.0 0.0 0.0 1.0 180.0
25272.564789991065 1.0 0.0 13.941679 0.0 0.0 0.0 1.0 180.0
25355.972594578496 1.0 0.0 13.905693 0.0 0.0 0.0 1.0 180.0
25439.380399165922 1.0 0.0 13.86964 0.0 0.0 0.0 1.0 180.0
25522.788203753353 1.0 0.0 13.83352 0.0 0.0 0.0 1.0 180.0
25606.196008340783 1.0 0.0 13.797333 0.0 0.0 0.0 1.0 180.0
25689.60381292821 1.0 0.0 13.76108 0.0 0.0 0.0 1.0 180.0
25773.01161751564 1.0 0.0 13.724761 0.0 0.0 0.0 1.0 180.0
25856.41942210307 1.0 0.0 13.688377 0.0 0.0 0.0 1.0 180.0
25939.827226690497 1.0 0.0 13.651929 0.0 0.0 0.0 1.0 180.0
26023.235031277927 1.0 0.0 13.615416 0.0 0.0 0.0 1.0 180.0
26106.642835865357 1.0 0.0 13.578839 0.0 0.0 0.0 1.0 180.0
26190.050640452784 1.0 0.0 13.542199 0.0 0.0 0.0 1.0 180.0
26273.458445040214 1.0 0.0 13.505495 0.0 0.0 0.0 1.0 180.0
26356.866249627645 1.0 0.0 13.46873 0.0 0.0 0.0 1.0 180.0
26440.27405421507 1.0 0.0 13.431902 0.0 0.0 0.0 1.0 180.0
26523.6818588025 1.0 0.0 13.395013 0.0 0.0 0.0 1.0 180.0
26607.089663389932 1.0 0.0 13.358063 0.0 0.0 0.0 1.0 180.0
26690.497467977362 1.0 0.0 13.321052 0.0 0.0 0.0 1.0 180.0
26773.905272564793 1.0 0.0 13.283981 0.0 0.0 0.0 1.0 180.0
26857.313077152223 1.0 0.0 13.24685 0.0 0.0 0.0 1.0 180.0
26940.72088173965 1.0 0.0 13.209661 0.0 0.0 0.0 1.0 180.0
27024.12868632708 1.0 0.0 13.172412 0.0 0.0 0.0 1.0 180.0
27107.53649091451 1.0 0.0 13.135105 0.0 0.0 0.0 1.0 180.0
27190.944295501937 1.0 0.0 13.09774 0.0 0.0 0.0 1.0 180.0
27274.352100089367 1.0 0.0 13.060318 0.0 0.0 0.0 1.0 180.0
27357.759904676797 1.0 0.0 13.022839 0.0 0.0 0.0 1.0 180.0
27441.167709264224 1.0 0.0 12.985303 0.0 0.0 0.0 1.0 180.0
27524.575513851654 1.0 0.0 12.947712 0.0 0.0 0.0 1.0 180.0
27607.983318439085 1.0 0.0 12.910065 0.0 0.0 0.0 1.0 180.0
27691.39112302651 1.0 0.0 12.872363 0.0 0.0 0.0 1.0 180.0
27774.79892761394 1.0 0.0 12.834607 0.0 0.0 0.0 1.0 180.0
27858.20673220137 1.0 0.0 12.796796 0.0 0.0 0.0 1.0 180.0
27941.6145367888 1.0 0.0 12.758932 0.0 0.0 0.0 1.0 180.0
28025.02234137623 1.0 0.0 12.721015 0.0 0.0 0.0 1.0 180.0
28108.43014596366 1.0 0.0 12.683045 0.0 0.0 0.0 1.0 180.0
28191.837950551086 1.0 0.0 12.645023 0.0 0.0 0.0 1.0 180.0
28275.24575513852 1.0 0.0 12.606949 0.0 0.0 0.0 1.0 180.0
