! File created by SignalIntegrity v1.4.3: Signal and Power Integrity Tools
! https://github.com/Nubis-Communications/SignalIntegrity
# MHz S MA R 50.0
0.0 1.49258 0.0 0.0 0.0 0.0 0.0 1.505882 0.0
0.0 0.0 0.0 0.0 0.013302 180.0 0.0 0.0
0.0 0.0
100.0 1.485343 -0.896468 0.0 0.0 0.0 0.0 1.505869 -0.242944
0.0 0.0 0.0 0.0 0.026689 -140.839519 0.0 0.0
0.0 0.0
200.0 1.480066 -1.376038 0.0 0.0 0.0 0.0 1.505831 -0.485888
0.0 0.0 0.0 0.0 0.034666 -138.935686 0.0 0.0
0.0 0.0
300.0 1.478455 -1.93719 0.0 0.0 0.0 0.0 1.505768 -0.728833
0.0 0.0 0.0 0.0 0.041667 -132.28851 0.0 0.0
0.0 0.0
400.0 1.476318 -2.478207 0.0 0.0 0.0 0.0 1.505679 -0.97178
0.0 0.0 0.0 0.0 0.048976 -128.556095 0.0 0.0
0.0 0.0
500.0 1.474638 -3.053279 0.0 0.0 0.0 0.0 1.505565 -1.214729
0.0 0.0 0.0 0.0 0.056942 -125.02679 0.0 0.0
0.0 0.0
600.0 1.472316 -3.613334 0.0 0.0 0.0 0.0 1.505425 -1.45768
0.0 0.0 0.0 0.0 0.065063 -123.11818 0.0 0.0
0.0 0.0
700.0 1.47001 -4.189918 0.0 0.0 0.0 0.0 1.505261 -1.700635
0.0 0.0 0.0 0.0 0.073612 -121.549826 0.0 0.0
0.0 0.0
800.0 1.467125 -4.752353 0.0 0.0 0.0 0.0 1.50507 -1.943593
0.0 0.0 0.0 0.0 0.08213 -120.856643 0.0 0.0
0.0 0.0
900.0 1.464146 -5.32404 0.0 0.0 0.0 0.0 1.504855 -2.186556
0.0 0.0 0.0 0.0 0.090898 -120.350327 0.0 0.0
0.0 0.0
1000.0 1.460634 -5.882245 0.0 0.0 0.0 0.0 1.504614 -2.429523
0.0 0.0 0.0 0.0 0.099562 -120.357728 0.0 0.0
0.0 0.0
1100.0 1.456996 -6.44547 0.0 0.0 0.0 0.0 1.504348 -2.672496
0.0 0.0 0.0 0.0 0.108366 -120.453788 0.0 0.0
0.0 0.0
1200.0 1.452859 -6.995597 0.0 0.0 0.0 0.0 1.504056 -2.915474
0.0 0.0 0.0 0.0 0.117037 -120.878868 0.0 0.0
0.0 0.0
1300.0 1.44859 -7.547792 0.0 0.0 0.0 0.0 1.50374 -3.158459
0.0 0.0 0.0 0.0 0.125775 -121.339412 0.0 0.0
0.0 0.0
1400.0 1.443851 -8.087029 0.0 0.0 0.0 0.0 1.503398 -3.401451
0.0 0.0 0.0 0.0 0.134368 -122.026418 0.0 0.0
0.0 0.0
1500.0 1.438986 -8.626058 0.0 0.0 0.0 0.0 1.50303 -3.64445
0.0 0.0 0.0 0.0 0.142973 -122.720071 0.0 0.0
0.0 0.0
1600.0 1.433679 -9.152089 0.0 0.0 0.0 0.0 1.502638 -3.887458
0.0 0.0 0.0 0.0 0.15143 -123.57867 0.0 0.0
0.0 0.0
1700.0 1.428259 -9.676051 0.0 0.0 0.0 0.0 1.50222 -4.130473
0.0 0.0 0.0 0.0 0.159857 -124.427956 0.0 0.0
0.0 0.0
1800.0 1.422424 -10.186862 0.0 0.0 0.0 0.0 1.501777 -4.373498
0.0 0.0 0.0 0.0 0.168134 -125.402783 0.0 0.0
0.0 0.0
1900.0 1.416493 -10.694024 0.0 0.0 0.0 0.0 1.501309 -4.616532
0.0 0.0 0.0 0.0 0.176347 -126.359314 0.0 0.0
0.0 0.0
2000.0 1.410175 -11.187812 0.0 0.0 0.0 0.0 1.500816 -4.859577
0.0 0.0 0.0 0.0 0.184411 -127.414718 0.0 0.0
0.0 0.0
2100.0 1.403782 -11.676585 0.0 0.0 0.0 0.0 1.500298 -5.102632
0.0 0.0 0.0 0.0 0.192382 -128.446766 0.0 0.0
0.0 0.0
2200.0 1.39703 -12.151727 0.0 0.0 0.0 0.0 1.499754 -5.345698
0.0 0.0 0.0 0.0 0.200205 -129.558793 0.0 0.0
0.0 0.0
2300.0 1.390225 -12.62066 0.0 0.0 0.0 0.0 1.499186 -5.588776
0.0 0.0 0.0 0.0 0.20791 -130.644685 0.0 0.0
0.0 0.0
2400.0 1.383089 -13.075696 0.0 0.0 0.0 0.0 1.498593 -5.831866
0.0 0.0 0.0 0.0 0.21547 -131.796649 0.0 0.0
0.0 0.0
2500.0 1.375924 -13.523474 0.0 0.0 0.0 0.0 1.497974 -6.074968
0.0 0.0 0.0 0.0 0.222891 -132.921065 0.0 0.0
0.0 0.0
2600.0 1.368458 -13.957098 0.0 0.0 0.0 0.0 1.497331 -6.318084
0.0 0.0 0.0 0.0 0.230168 -134.10098 0.0 0.0
0.0 0.0
2700.0 1.360987 -14.382548 0.0 0.0 0.0 0.0 1.496662 -6.561214
0.0 0.0 0.0 0.0 0.237289 -135.252773 0.0 0.0
0.0 0.0
2800.0 1.353244 -14.793613 0.0 0.0 0.0 0.0 1.495969 -6.804359
0.0 0.0 0.0 0.0 0.244269 -136.451805 0.0 0.0
0.0 0.0
2900.0 1.345522 -15.195711 0.0 0.0 0.0 0.0 1.495251 -7.047518
0.0 0.0 0.0 0.0 0.251077 -137.622666 0.0 0.0
0.0 0.0
3000.0 1.337557 -15.583228 0.0 0.0 0.0 0.0 1.494508 -7.290692
0.0 0.0 0.0 0.0 0.257748 -138.834166 0.0 0.0
0.0 0.0
3100.0 1.329638 -15.961099 0.0 0.0 0.0 0.0 1.49374 -7.533883
0.0 0.0 0.0 0.0 0.264232 -140.017777 0.0 0.0
0.0 0.0
3200.0 1.321505 -16.324241 0.0 0.0 0.0 0.0 1.492947 -7.77709
0.0 0.0 0.0 0.0 0.270584 -141.236648 0.0 0.0
0.0 0.0
3300.0 1.313443 -16.677171 0.0 0.0 0.0 0.0 1.49213 -8.020314
0.0 0.0 0.0 0.0 0.276737 -142.428129 0.0 0.0
0.0 0.0
3400.0 1.305195 -17.015276 0.0 0.0 0.0 0.0 1.491288 -8.263556
0.0 0.0 0.0 0.0 0.282763 -143.650411 0.0 0.0
0.0 0.0
3500.0 1.297044 -17.342713 0.0 0.0 0.0 0.0 1.490421 -8.506816
0.0 0.0 0.0 0.0 0.28858 -144.845941 0.0 0.0
0.0 0.0
3600.0 1.288733 -17.655291 0.0 0.0 0.0 0.0 1.48953 -8.750094
0.0 0.0 0.0 0.0 0.294275 -146.068528 0.0 0.0
0.0 0.0
3700.0 1.280544 -17.956851 0.0 0.0 0.0 0.0 1.488614 -8.993392
0.0 0.0 0.0 0.0 0.299752 -147.265088 0.0 0.0
0.0 0.0
3800.0 1.272222 -18.243583 0.0 0.0 0.0 0.0 1.487674 -9.236709
0.0 0.0 0.0 0.0 0.305113 -148.48552 0.0 0.0
0.0 0.0
3900.0 1.264045 -18.519055 0.0 0.0 0.0 0.0 1.486709 -9.480047
0.0 0.0 0.0 0.0 0.310248 -149.680711 0.0 0.0
0.0 0.0
4000.0 1.25576 -18.779797 0.0 0.0 0.0 0.0 1.48572 -9.723406
0.0 0.0 0.0 0.0 0.315274 -150.897036 0.0 0.0
0.0 0.0
4100.0 1.247643 -19.029143 0.0 0.0 0.0 0.0 1.484706 -9.966786
0.0 0.0 0.0 0.0 0.320068 -152.088942 0.0 0.0
0.0 0.0
4200.0 1.239442 -19.263932 0.0 0.0 0.0 0.0 1.483668 -10.210187
0.0 0.0 0.0 0.0 0.324759 -153.299609 0.0 0.0
0.0 0.0
4300.0 1.231429 -19.487291 0.0 0.0 0.0 0.0 1.482606 -10.453612
0.0 0.0 0.0 0.0 0.329213 -154.486703 0.0 0.0
0.0 0.0
4400.0 1.223355 -19.69634 0.0 0.0 0.0 0.0 1.48152 -10.697059
0.0 0.0 0.0 0.0 0.333571 -155.690483 0.0 0.0
0.0 0.0
4500.0 1.21549 -19.894029 0.0 0.0 0.0 0.0 1.480409 -10.94053
0.0 0.0 0.0 0.0 0.337689 -156.871549 0.0 0.0
0.0 0.0
4600.0 1.207585 -20.077729 0.0 0.0 0.0 0.0 1.479274 -11.184025
0.0 0.0 0.0 0.0 0.341717 -158.067477 0.0 0.0
0.0 0.0
4700.0 1.199907 -20.250242 0.0 0.0 0.0 0.0 1.478116 -11.427545
0.0 0.0 0.0 0.0 0.345502 -159.241557 0.0 0.0
0.0 0.0
4800.0 1.192207 -20.409161 0.0 0.0 0.0 0.0 1.476933 -11.67109
0.0 0.0 0.0 0.0 0.349204 -160.428881 0.0 0.0
0.0 0.0
4900.0 1.184752 -20.557163 0.0 0.0 0.0 0.0 1.475726 -11.91466
0.0 0.0 0.0 0.0 0.352663 -161.595228 0.0 0.0
0.0 0.0
5000.0 1.177293 -20.692043 0.0 0.0 0.0 0.0 1.474496 -12.158257
0.0 0.0 0.0 0.0 0.356044 -162.77338 0.0 0.0
0.0 0.0
5100.0 1.170094 -20.816371 0.0 0.0 0.0 0.0 1.473241 -12.401881
0.0 0.0 0.0 0.0 0.359181 -163.931423 0.0 0.0
0.0 0.0
5200.0 1.162908 -20.928119 0.0 0.0 0.0 0.0 1.471963 -12.645532
0.0 0.0 0.0 0.0 0.362249 -165.099984 0.0 0.0
0.0 0.0
5300.0 1.155994 -21.029772 0.0 0.0 0.0 0.0 1.470662 -12.889211
0.0 0.0 0.0 0.0 0.365071 -166.249301 0.0 0.0
0.0 0.0
5400.0 1.149107 -21.119457 0.0 0.0 0.0 0.0 1.469336 -13.132919
0.0 0.0 0.0 0.0 0.367831 -167.407979 0.0 0.0
0.0 0.0
5500.0 1.142505 -21.199588 0.0 0.0 0.0 0.0 1.467987 -13.376656
0.0 0.0 0.0 0.0 0.370346 -168.548275 0.0 0.0
0.0 0.0
5600.0 1.135943 -21.268428 0.0 0.0 0.0 0.0 1.466615 -13.620422
0.0 0.0 0.0 0.0 0.372806 -169.696884 0.0 0.0
0.0 0.0
5700.0 1.129675 -21.328337 0.0 0.0 0.0 0.0 1.465219 -13.864219
0.0 0.0 0.0 0.0 0.375021 -170.827968 0.0 0.0
0.0 0.0
5800.0 1.123458 -21.37769 0.0 0.0 0.0 0.0 1.4638 -14.108046
0.0 0.0 0.0 0.0 0.377188 -171.966416 0.0 0.0
0.0 0.0
5900.0 1.117544 -21.418806 0.0 0.0 0.0 0.0 1.462357 -14.351905
0.0 0.0 0.0 0.0 0.379113 -173.08819 0.0 0.0
0.0 0.0
6000.0 1.111689 -21.450154 0.0 0.0 0.0 0.0 1.460891 -14.595795
0.0 0.0 0.0 0.0 0.380996 -174.216461 0.0 0.0
0.0 0.0
6100.0 1.106144 -21.474025 0.0 0.0 0.0 0.0 1.459402 -14.839718
0.0 0.0 0.0 0.0 0.382637 -175.328903 0.0 0.0
0.0 0.0
6200.0 1.100665 -21.488962 0.0 0.0 0.0 0.0 1.457891 -15.083674
0.0 0.0 0.0 0.0 0.384244 -176.447048 0.0 0.0
0.0 0.0
6300.0 1.095502 -21.497235 0.0 0.0 0.0 0.0 1.456356 -15.327663
0.0 0.0 0.0 0.0 0.385611 -177.550201 0.0 0.0
0.0 0.0
6400.0 1.090411 -21.497446 0.0 0.0 0.0 0.0 1.454798 -15.571687
0.0 0.0 0.0 0.0 0.386951 -178.658328 0.0 0.0
0.0 0.0
6500.0 1.085638 -21.491853 0.0 0.0 0.0 0.0 1.453217 -15.815745
0.0 0.0 0.0 0.0 0.388053 -179.752293 0.0 0.0
0.0 0.0
6600.0 1.080942 -21.479097 0.0 0.0 0.0 0.0 1.451613 -16.059839
0.0 0.0 0.0 0.0 0.389133 179.149445 0.0 0.0
0.0 0.0
6700.0 1.076566 -21.461432 0.0 0.0 0.0 0.0 1.449987 -16.303968
0.0 0.0 0.0 0.0 0.389979 178.064519 0.0 0.0
0.0 0.0
6800.0 1.072268 -21.437523 0.0 0.0 0.0 0.0 1.448338 -16.548133
0.0 0.0 0.0 0.0 0.390809 176.975925 0.0 0.0
0.0 0.0
6900.0 1.068292 -21.409624 0.0 0.0 0.0 0.0 1.446667 -16.792336
0.0 0.0 0.0 0.0 0.391406 175.899851 0.0 0.0
0.0 0.0
7000.0 1.064395 -21.376409 0.0 0.0 0.0 0.0 1.444973 -17.036576
0.0 0.0 0.0 0.0 0.391995 174.820693 0.0 0.0
0.0 0.0
7100.0 1.060818 -21.340136 0.0 0.0 0.0 0.0 1.443257 -17.280854
0.0 0.0 0.0 0.0 0.392354 173.753247 0.0 0.0
0.0 0.0
7200.0 1.05732 -21.299475 0.0 0.0 0.0 0.0 1.441519 -17.525171
0.0 0.0 0.0 0.0 0.392708 172.683268 0.0 0.0
0.0 0.0
7300.0 1.054141 -21.256692 0.0 0.0 0.0 0.0 1.439758 -17.769527
0.0 0.0 0.0 0.0 0.392837 171.624197 0.0 0.0
0.0 0.0
7400.0 1.051038 -21.210439 0.0 0.0 0.0 0.0 1.437975 -18.013923
0.0 0.0 0.0 0.0 0.392967 170.563112 0.0 0.0
0.0 0.0
7500.0 1.048251 -21.16299 0.0 0.0 0.0 0.0 1.436171 -18.25836
0.0 0.0 0.0 0.0 0.392874 169.51214 0.0 0.0
0.0 0.0
7600.0 1.045538 -21.11297 0.0 0.0 0.0 0.0 1.434344 -18.502837
0.0 0.0 0.0 0.0 0.392787 168.459645 0.0 0.0
0.0 0.0
7700.0 1.043135 -21.062664 0.0 0.0 0.0 0.0 1.432495 -18.747356
0.0 0.0 0.0 0.0 0.392481 167.416475 0.0 0.0
0.0 0.0
7800.0 1.040803 -21.010658 0.0 0.0 0.0 0.0 1.430625 -18.991917
0.0 0.0 0.0 0.0 0.392185 166.37225 0.0 0.0
0.0 0.0
7900.0 1.038776 -20.959247 0.0 0.0 0.0 0.0 1.428733 -19.236521
0.0 0.0 0.0 0.0 0.391674 165.336565 0.0 0.0
0.0 0.0
8000.0 1.036814 -20.906974 0.0 0.0 0.0 0.0 1.426819 -19.481168
0.0 0.0 0.0 0.0 0.391178 164.300275 0.0 0.0
0.0 0.0
8100.0 1.035151 -20.856142 0.0 0.0 0.0 0.0 1.424884 -19.725859
0.0 0.0 0.0 0.0 0.390469 163.271748 0.0 0.0
0.0 0.0
8200.0 1.033548 -20.805243 0.0 0.0 0.0 0.0 1.422928 -19.970595
0.0 0.0 0.0 0.0 0.38978 162.243048 0.0 0.0
0.0 0.0
8300.0 1.032237 -20.756588 0.0 0.0 0.0 0.0 1.42095 -20.215376
0.0 0.0 0.0 0.0 0.388881 161.221337 0.0 0.0
0.0 0.0
8400.0 1.03098 -20.708615 0.0 0.0 0.0 0.0 1.418951 -20.460202
0.0 0.0 0.0 0.0 0.388006 160.199872 0.0 0.0
0.0 0.0
8500.0 1.030006 -20.663641 0.0 0.0 0.0 0.0 1.416931 -20.705075
0.0 0.0 0.0 0.0 0.386926 159.184627 0.0 0.0
0.0 0.0
8600.0 1.029079 -20.620044 0.0 0.0 0.0 0.0 1.414889 -20.949994
0.0 0.0 0.0 0.0 0.385873 158.170036 0.0 0.0
0.0 0.0
8700.0 1.028427 -20.580148 0.0 0.0 0.0 0.0 1.412827 -21.194961
0.0 0.0 0.0 0.0 0.384617 157.160898 0.0 0.0
0.0 0.0
8800.0 1.027815 -20.542271 0.0 0.0 0.0 0.0 1.410745 -21.439976
0.0 0.0 0.0 0.0 0.383394 156.152812 0.0 0.0
0.0 0.0
8900.0 1.02747 -20.508739 0.0 0.0 0.0 0.0 1.408641 -21.68504
0.0 0.0 0.0 0.0 0.38197 155.149416 0.0 0.0
0.0 0.0
9000.0 1.027156 -20.47781 0.0 0.0 0.0 0.0 1.406517 -21.930153
0.0 0.0 0.0 0.0 0.380582 154.147463 0.0 0.0
0.0 0.0
9100.0 1.0271 -20.451813 0.0 0.0 0.0 0.0 1.404372 -22.175316
0.0 0.0 0.0 0.0 0.378998 153.149438 0.0 0.0
0.0 0.0
9200.0 1.027067 -20.428944 0.0 0.0 0.0 0.0 1.402207 -22.420529
0.0 0.0 0.0 0.0 0.377452 152.153241 0.0 0.0
0.0 0.0
9300.0 1.027282 -20.411532 0.0 0.0 0.0 0.0 1.400021 -22.665794
0.0 0.0 0.0 0.0 0.375713 151.160212 0.0 0.0
0.0 0.0
9400.0 1.027513 -20.397716 0.0 0.0 0.0 0.0 1.397816 -22.91111
0.0 0.0 0.0 0.0 0.374016 150.169392 0.0 0.0
0.0 0.0
9500.0 1.027981 -20.389821 0.0 0.0 0.0 0.0 1.39559 -23.156479
0.0 0.0 0.0 0.0 0.37213 149.180979 0.0 0.0
0.0 0.0
9600.0 1.028457 -20.385935 0.0 0.0 0.0 0.0 1.393344 -23.4019
0.0 0.0 0.0 0.0 0.370287 148.195153 0.0 0.0
0.0 0.0
9700.0 1.029161 -20.388373 0.0 0.0 0.0 0.0 1.391078 -23.647375
0.0 0.0 0.0 0.0 0.368259 147.210971 0.0 0.0
0.0 0.0
9800.0 1.029864 -20.395175 0.0 0.0 0.0 0.0 1.388793 -23.892905
0.0 0.0 0.0 0.0 0.366277 146.229755 0.0 0.0
0.0 0.0
9900.0 1.030786 -20.408648 0.0 0.0 0.0 0.0 1.386488 -24.138489
0.0 0.0 0.0 0.0 0.364113 145.249416 0.0 0.0
0.0 0.0
10000.0 1.031697 -20.426787 0.0 0.0 0.0 0.0 1.384163 -24.384128
0.0 0.0 0.0 0.0 0.361998 144.27242 0.0 0.0
0.0 0.0
10100.0 1.032818 -20.451887 0.0 0.0 0.0 0.0 1.381819 -24.629824
0.0 0.0 0.0 0.0 0.359704 143.295532 0.0 0.0
0.0 0.0
10200.0 1.033919 -20.481906 0.0 0.0 0.0 0.0 1.379456 -24.875576
0.0 0.0 0.0 0.0 0.357461 142.322367 0.0 0.0
0.0 0.0
10300.0 1.035221 -20.519123 0.0 0.0 0.0 0.0 1.377073 -25.121385
0.0 0.0 0.0 0.0 0.355043 141.348532 0.0 0.0
0.0 0.0
10400.0 1.036496 -20.561462 0.0 0.0 0.0 0.0 1.374671 -25.367253
0.0 0.0 0.0 0.0 0.352677 140.378802 0.0 0.0
0.0 0.0
10500.0 1.037961 -20.611187 0.0 0.0 0.0 0.0 1.37225 -25.613179
0.0 0.0 0.0 0.0 0.35014 139.407619 0.0 0.0
0.0 0.0
10600.0 1.03939 -20.666195 0.0 0.0 0.0 0.0 1.36981 -25.859164
0.0 0.0 0.0 0.0 0.347657 138.440924 0.0 0.0
0.0 0.0
10700.0 1.041001 -20.728729 0.0 0.0 0.0 0.0 1.367352 -26.105209
0.0 0.0 0.0 0.0 0.345007 137.471983 0.0 0.0
0.0 0.0
10800.0 1.042568 -20.796667 0.0 0.0 0.0 0.0 1.364875 -26.351314
0.0 0.0 0.0 0.0 0.342411 136.507919 0.0 0.0
0.0 0.0
10900.0 1.044307 -20.872228 0.0 0.0 0.0 0.0 1.362379 -26.597481
0.0 0.0 0.0 0.0 0.339652 135.540804 0.0 0.0
0.0 0.0
11000.0 1.045995 -20.953278 0.0 0.0 0.0 0.0 1.359865 -26.84371
0.0 0.0 0.0 0.0 0.336949 134.578959 0.0 0.0
0.0 0.0
11100.0 1.047847 -21.042008 0.0 0.0 0.0 0.0 1.357332 -27.09
0.0 0.0 0.0 0.0 0.334087 133.613245 0.0 0.0
0.0 0.0
11200.0 1.049639 -21.136279 0.0 0.0 0.0 0.0 1.354782 -27.336354
0.0 0.0 0.0 0.0 0.331282 132.653199 0.0 0.0
0.0 0.0
11300.0 1.051586 -21.238253 0.0 0.0 0.0 0.0 1.352213 -27.582772
0.0 0.0 0.0 0.0 0.32832 131.688451 0.0 0.0
0.0 0.0
11400.0 1.053467 -21.345789 0.0 0.0 0.0 0.0 1.349626 -27.829254
0.0 0.0 0.0 0.0 0.325417 130.729774 0.0 0.0
0.0 0.0
11500.0 1.055495 -21.461018 0.0 0.0 0.0 0.0 1.347021 -28.075801
0.0 0.0 0.0 0.0 0.322362 129.765543 0.0 0.0
0.0 0.0
11600.0 1.057448 -21.581807 0.0 0.0 0.0 0.0 1.344399 -28.322414
0.0 0.0 0.0 0.0 0.319365 128.807794 0.0 0.0
0.0 0.0
11700.0 1.059541 -21.71025 0.0 0.0 0.0 0.0 1.341759 -28.569093
0.0 0.0 0.0 0.0 0.316221 127.843616 0.0 0.0
0.0 0.0
11800.0 1.061553 -21.844225 0.0 0.0 0.0 0.0 1.339102 -28.815839
0.0 0.0 0.0 0.0 0.313135 126.886338 0.0 0.0
0.0 0.0
11900.0 1.063697 -21.985793 0.0 0.0 0.0 0.0 1.336427 -29.062653
0.0 0.0 0.0 0.0 0.309905 125.921734 0.0 0.0
0.0 0.0
12000.0 1.065753 -22.132846 0.0 0.0 0.0 0.0 1.333735 -29.309536
0.0 0.0 0.0 0.0 0.306735 124.964452 0.0 0.0
0.0 0.0
12100.0 1.067933 -22.287406 0.0 0.0 0.0 0.0 1.331026 -29.556487
0.0 0.0 0.0 0.0 0.303425 123.998918 0.0 0.0
0.0 0.0
12200.0 1.07002 -22.44739 0.0 0.0 0.0 0.0 1.3283 -29.803508
0.0 0.0 0.0 0.0 0.300175 123.041139 0.0 0.0
0.0 0.0
12300.0 1.072223 -22.614775 0.0 0.0 0.0 0.0 1.325557 -30.0506
0.0 0.0 0.0 0.0 0.296788 122.074149 0.0 0.0
0.0 0.0
12400.0 1.074328 -22.787508 0.0 0.0 0.0 0.0 1.322797 -30.297762
0.0 0.0 0.0 0.0 0.293461 121.115352 0.0 0.0
0.0 0.0
12500.0 1.076542 -22.96752 0.0 0.0 0.0 0.0 1.320021 -30.544997
0.0 0.0 0.0 0.0 0.290002 120.146349 0.0 0.0
0.0 0.0
12600.0 1.078651 -23.152791 0.0 0.0 0.0 0.0 1.317228 -30.792303
0.0 0.0 0.0 0.0 0.286603 119.185986 0.0 0.0
0.0 0.0
12700.0 1.080864 -23.345206 0.0 0.0 0.0 0.0 1.314419 -31.039683
0.0 0.0 0.0 0.0 0.283076 118.214379 0.0 0.0
0.0 0.0
12800.0 1.082966 -23.542782 0.0 0.0 0.0 0.0 1.311594 -31.287137
0.0 0.0 0.0 0.0 0.27961 117.251867 0.0 0.0
0.0 0.0
12900.0 1.085166 -23.747355 0.0 0.0 0.0 0.0 1.308753 -31.534666
0.0 0.0 0.0 0.0 0.276018 116.277026 0.0 0.0
0.0 0.0
13000.0 1.08725 -23.956983 0.0 0.0 0.0 0.0 1.305895 -31.782269
0.0 0.0 0.0 0.0 0.272487 115.311738 0.0 0.0
0.0 0.0
13100.0 1.089425 -24.173451 0.0 0.0 0.0 0.0 1.303022 -32.029949
0.0 0.0 0.0 0.0 0.268836 114.332984 0.0 0.0
0.0 0.0
13200.0 1.09148 -24.394861 0.0 0.0 0.0 0.0 1.300133 -32.277705
0.0 0.0 0.0 0.0 0.265245 113.364249 0.0 0.0
0.0 0.0
13300.0 1.093621 -24.622946 0.0 0.0 0.0 0.0 1.297229 -32.525539
0.0 0.0 0.0 0.0 0.261537 112.380847 0.0 0.0
0.0 0.0
13400.0 1.095637 -24.855857 0.0 0.0 0.0 0.0 1.294309 -32.77345
0.0 0.0 0.0 0.0 0.25789 111.407935 0.0 0.0
0.0 0.0
13500.0 1.097734 -25.09527 0.0 0.0 0.0 0.0 1.291373 -33.021441
0.0 0.0 0.0 0.0 0.25413 110.419083 0.0 0.0
0.0 0.0
13600.0 1.099701 -25.33939 0.0 0.0 0.0 0.0 1.288423 -33.269511
0.0 0.0 0.0 0.0 0.25043 109.441196 0.0 0.0
0.0 0.0
13700.0 1.101743 -25.589835 0.0 0.0 0.0 0.0 1.285458 -33.517661
0.0 0.0 0.0 0.0 0.246622 108.446018 0.0 0.0
0.0 0.0
13800.0 1.103652 -25.844865 0.0 0.0 0.0 0.0 1.282477 -33.765893
0.0 0.0 0.0 0.0 0.242873 107.462277 0.0 0.0
0.0 0.0
13900.0 1.105632 -26.106038 0.0 0.0 0.0 0.0 1.279482 -34.014206
0.0 0.0 0.0 0.0 0.23902 106.459803 0.0 0.0
0.0 0.0
14000.0 1.107474 -26.371675 0.0 0.0 0.0 0.0 1.276472 -34.262601
0.0 0.0 0.0 0.0 0.235227 105.469236 0.0 0.0
0.0 0.0
14100.0 1.109382 -26.643269 0.0 0.0 0.0 0.0 1.273448 -34.51108
0.0 0.0 0.0 0.0 0.231333 104.458386 0.0 0.0
0.0 0.0
14200.0 1.11115 -26.919204 0.0 0.0 0.0 0.0 1.270409 -34.759643
0.0 0.0 0.0 0.0 0.227499 103.459908 0.0 0.0
0.0 0.0
14300.0 1.112979 -27.20091 0.0 0.0 0.0 0.0 1.267356 -35.00829
0.0 0.0 0.0 0.0 0.223568 102.439473 0.0 0.0
0.0 0.0
14400.0 1.114664 -27.486834 0.0 0.0 0.0 0.0 1.264289 -35.257023
0.0 0.0 0.0 0.0 0.219696 101.431863 0.0 0.0
0.0 0.0
14500.0 1.116406 -27.778342 0.0 0.0 0.0 0.0 1.261208 -35.505842
0.0 0.0 0.0 0.0 0.215733 100.400483 0.0 0.0
0.0 0.0
14600.0 1.118001 -28.073946 0.0 0.0 0.0 0.0 1.258113 -35.754747
0.0 0.0 0.0 0.0 0.211827 99.382359 0.0 0.0
0.0 0.0
14700.0 1.11965 -28.374945 0.0 0.0 0.0 0.0 1.255004 -36.003741
0.0 0.0 0.0 0.0 0.207834 98.338485 0.0 0.0
0.0 0.0
14800.0 1.121148 -28.679921 0.0 0.0 0.0 0.0 1.251882 -36.252823
0.0 0.0 0.0 0.0 0.203899 97.30827 0.0 0.0
0.0 0.0
14900.0 1.122696 -28.990103 0.0 0.0 0.0 0.0 1.248746 -36.501994
0.0 0.0 0.0 0.0 0.199881 96.250132 0.0 0.0
0.0 0.0
15000.0 1.124092 -29.304144 0.0 0.0 0.0 0.0 1.245597 -36.751255
0.0 0.0 0.0 0.0 0.19592 95.206016 0.0 0.0
0.0 0.0
15100.0 1.125533 -29.623202 0.0 0.0 0.0 0.0 1.242435 -37.000607
0.0 0.0 0.0 0.0 0.191881 94.131574 0.0 0.0
0.0 0.0
15200.0 1.12682 -29.946003 0.0 0.0 0.0 0.0 1.23926 -37.250051
0.0 0.0 0.0 0.0 0.187898 93.071458 0.0 0.0
0.0 0.0
15300.0 1.128149 -30.273635 0.0 0.0 0.0 0.0 1.236072 -37.499587
0.0 0.0 0.0 0.0 0.183841 91.978345 0.0 0.0
0.0 0.0
15400.0 1.129321 -30.604896 0.0 0.0 0.0 0.0 1.232871 -37.749216
0.0 0.0 0.0 0.0 0.17984 90.899781 0.0 0.0
0.0 0.0
15500.0 1.130532 -30.9408 0.0 0.0 0.0 0.0 1.229658 -37.998939
0.0 0.0 0.0 0.0 0.175771 89.785227 0.0 0.0
0.0 0.0
15600.0 1.131584 -31.280224 0.0 0.0 0.0 0.0 1.226432 -38.248756
0.0 0.0 0.0 0.0 0.171755 88.685336 0.0 0.0
0.0 0.0
15700.0 1.132673 -31.624105 0.0 0.0 0.0 0.0 1.223194 -38.49867
0.0 0.0 0.0 0.0 0.167677 87.546074 0.0 0.0
0.0 0.0
15800.0 1.1336 -31.971397 0.0 0.0 0.0 0.0 1.219944 -38.748679
0.0 0.0 0.0 0.0 0.163652 86.421442 0.0 0.0
0.0 0.0
15900.0 1.134562 -32.322965 0.0 0.0 0.0 0.0 1.216681 -38.998786
0.0 0.0 0.0 0.0 0.159569 85.253588 0.0 0.0
0.0 0.0
16000.0 1.13536 -32.677836 0.0 0.0 0.0 0.0 1.213407 -39.24899
0.0 0.0 0.0 0.0 0.155539 84.10013 0.0 0.0
0.0 0.0
16100.0 1.13619 -33.036802 0.0 0.0 0.0 0.0 1.210121 -39.499294
0.0 0.0 0.0 0.0 0.151456 82.899028 0.0 0.0
0.0 0.0
16200.0 1.136855 -33.398969 0.0 0.0 0.0 0.0 1.206823 -39.749697
0.0 0.0 0.0 0.0 0.147425 81.711814 0.0 0.0
0.0 0.0
16300.0 1.137549 -33.76505 0.0 0.0 0.0 0.0 1.203514 -40.0002
0.0 0.0 0.0 0.0 0.143348 80.471825 0.0 0.0
0.0 0.0
16400.0 1.138077 -34.134232 0.0 0.0 0.0 0.0 1.200194 -40.250805
0.0 0.0 0.0 0.0 0.139321 79.24485 0.0 0.0
0.0 0.0
16500.0 1.138632 -34.507151 0.0 0.0 0.0 0.0 1.196862 -40.501511
0.0 0.0 0.0 0.0 0.135254 77.959087 0.0 0.0
0.0 0.0
16600.0 1.139019 -34.883073 0.0 0.0 0.0 0.0 1.193519 -40.752321
0.0 0.0 0.0 0.0 0.131237 76.684959 0.0 0.0
0.0 0.0
16700.0 1.139432 -35.262556 0.0 0.0 0.0 0.0 1.190165 -41.003234
0.0 0.0 0.0 0.0 0.127186 75.344917 0.0 0.0
0.0 0.0
16800.0 1.139675 -35.644948 0.0 0.0 0.0 0.0 1.186801 -41.254252
0.0 0.0 0.0 0.0 0.123184 74.014444 0.0 0.0
0.0 0.0
16900.0 1.139942 -36.030726 0.0 0.0 0.0 0.0 1.183426 -41.505375
0.0 0.0 0.0 0.0 0.119156 72.609512 0.0 0.0
0.0 0.0
17000.0 1.14004 -36.419322 0.0 0.0 0.0 0.0 1.18004 -41.756605
0.0 0.0 0.0 0.0 0.115175 71.211132 0.0 0.0
0.0 0.0
17100.0 1.140159 -36.811132 0.0 0.0 0.0 0.0 1.176644 -42.007942
0.0 0.0 0.0 0.0 0.111177 69.727914 0.0 0.0
0.0 0.0
17200.0 1.140108 -37.205671 0.0 0.0 0.0 0.0 1.173238 -42.259387
0.0 0.0 0.0 0.0 0.107226 68.246914 0.0 0.0
0.0 0.0
