! File created by SignalIntegrity v1.4.2: Signal and Power Integrity Tools
! https://github.com/Nubis-Communications/SignalIntegrity
# MHz S MA R 50.0
0.0 0.016581 0.0
2656.25 0.062824 -118.320382
5312.5 0.097636 -163.494925
7968.75 0.107411 161.101362
10625.0 0.101064 129.72634
13281.25 0.084121 99.706946
15937.5 0.061675 68.421812
18593.75 0.037397 29.248548
21250.0 0.020712 -40.297668
23906.25 0.028577 -120.636725
26562.5 0.044453 -162.015214
29218.75 0.056516 169.9129
31875.0 0.063239 146.710947
34531.25 0.064406 126.562636
37187.5 0.061339 109.070721
39843.75 0.054943 94.232198
42500.0 0.046988 83.1156
45156.25 0.03903 76.389483
47812.5 0.032744 75.470092
50468.75 0.029306 79.226631
53125.0 0.029306 85.473369
