! File created by SignalIntegrity v1.4.2: Signal and Power Integrity Tools
! https://github.com/Nubis-Communications/SignalIntegrity
# MHz S MA R 50.0
0.0 2.477916 -0.0 0.0 0.0 0.0 0.0 2.499999 -0.0
0.0 0.0 0.0 0.0 0.022083 -180.0 0.0 0.0
0.0 0.0
100.00941265060241 2.4659 -0.896525 0.0 0.0 0.0 0.0 2.499978 -0.242967
0.0 0.0 0.0 0.0 0.04431 -140.839354 0.0 0.0
0.0 0.0
200.01882530120483 2.457141 -1.376131 0.0 0.0 0.0 0.0 2.499915 -0.485933
0.0 0.0 0.0 0.0 0.057553 -138.934506 0.0 0.0
0.0 0.0
300.0282379518073 2.454465 -1.93735 0.0 0.0 0.0 0.0 2.49981 -0.728901
0.0 0.0 0.0 0.0 0.069178 -132.287223 0.0 0.0
0.0 0.0
400.03765060240966 2.450917 -2.478413 0.0 0.0 0.0 0.0 2.499662 -0.971871
0.0 0.0 0.0 0.0 0.081312 -128.554579 0.0 0.0
0.0 0.0
500.0470632530121 2.448127 -3.053551 0.0 0.0 0.0 0.0 2.499473 -1.214843
0.0 0.0 0.0 0.0 0.094539 -125.025664 0.0 0.0
0.0 0.0
600.0564759036146 2.444273 -3.613651 0.0 0.0 0.0 0.0 2.499241 -1.457817
0.0 0.0 0.0 0.0 0.108023 -123.117105 0.0 0.0
0.0 0.0
700.0658885542168 2.440443 -4.190298 0.0 0.0 0.0 0.0 2.498967 -1.700795
0.0 0.0 0.0 0.0 0.122217 -121.549199 0.0 0.0
0.0 0.0
800.0753012048193 2.435653 -4.752775 0.0 0.0 0.0 0.0 2.498652 -1.943776
0.0 0.0 0.0 0.0 0.136359 -120.856119 0.0 0.0
0.0 0.0
900.0847138554218 2.430707 -5.324524 0.0 0.0 0.0 0.0 2.498294 -2.186762
0.0 0.0 0.0 0.0 0.150917 -120.350206 0.0 0.0
0.0 0.0
1000.0941265060242 2.424875 -5.882768 0.0 0.0 0.0 0.0 2.497894 -2.429752
0.0 0.0 0.0 0.0 0.165302 -120.357718 0.0 0.0
0.0 0.0
1100.1035391566265 2.418835 -6.446051 0.0 0.0 0.0 0.0 2.497452 -2.672748
0.0 0.0 0.0 0.0 0.17992 -120.454127 0.0 0.0
0.0 0.0
1200.1129518072291 2.411965 -6.996214 0.0 0.0 0.0 0.0 2.496968 -2.915749
0.0 0.0 0.0 0.0 0.194316 -120.879321 0.0 0.0
0.0 0.0
1300.1223644578313 2.404877 -7.548466 0.0 0.0 0.0 0.0 2.496442 -3.158757
0.0 0.0 0.0 0.0 0.208824 -121.340167 0.0 0.0
0.0 0.0
1400.1317771084337 2.397008 -8.087733 0.0 0.0 0.0 0.0 2.495874 -3.401771
0.0 0.0 0.0 0.0 0.22309 -122.027291 0.0 0.0
0.0 0.0
1500.1411897590363 2.38893 -8.626817 0.0 0.0 0.0 0.0 2.495264 -3.644794
0.0 0.0 0.0 0.0 0.237378 -122.721208 0.0 0.0
0.0 0.0
1600.1506024096386 2.380117 -9.152873 0.0 0.0 0.0 0.0 2.494613 -3.887824
0.0 0.0 0.0 0.0 0.251418 -123.579927 0.0 0.0
0.0 0.0
1700.160015060241 2.371117 -9.676887 0.0 0.0 0.0 0.0 2.493919 -4.130862
0.0 0.0 0.0 0.0 0.26541 -124.429446 0.0 0.0
0.0 0.0
1800.1694277108436 2.361429 -10.187716 0.0 0.0 0.0 0.0 2.493184 -4.37391
0.0 0.0 0.0 0.0 0.279152 -125.404397 0.0 0.0
0.0 0.0
1900.178840361446 2.351581 -10.694927 0.0 0.0 0.0 0.0 2.492407 -4.616967
0.0 0.0 0.0 0.0 0.292789 -126.361135 0.0 0.0
0.0 0.0
2000.1882530120483 2.341091 -11.188728 0.0 0.0 0.0 0.0 2.491588 -4.860034
0.0 0.0 0.0 0.0 0.306176 -127.416668 0.0 0.0
0.0 0.0
2100.1976656626507 2.330476 -11.677547 0.0 0.0 0.0 0.0 2.490727 -5.103112
0.0 0.0 0.0 0.0 0.31941 -128.448899 0.0 0.0
0.0 0.0
2200.207078313253 2.319264 -12.152696 0.0 0.0 0.0 0.0 2.489825 -5.346201
0.0 0.0 0.0 0.0 0.332398 -129.56106 0.0 0.0
0.0 0.0
2300.216490963856 2.307965 -12.62167 0.0 0.0 0.0 0.0 2.488881 -5.589302
0.0 0.0 0.0 0.0 0.345191 -130.647116 0.0 0.0
0.0 0.0
2400.2259036144583 2.296117 -13.076705 0.0 0.0 0.0 0.0 2.487896 -5.832415
0.0 0.0 0.0 0.0 0.357741 -131.799217 0.0 0.0
0.0 0.0
2500.2353162650606 2.28422 -13.524521 0.0 0.0 0.0 0.0 2.486869 -6.07554
0.0 0.0 0.0 0.0 0.370062 -132.923779 0.0 0.0
0.0 0.0
2600.2447289156626 2.271824 -13.958138 0.0 0.0 0.0 0.0 2.4858 -6.318679
0.0 0.0 0.0 0.0 0.382144 -134.103835 0.0 0.0
0.0 0.0
2700.254141566265 2.259419 -14.383623 0.0 0.0 0.0 0.0 2.48469 -6.561832
0.0 0.0 0.0 0.0 0.393967 -135.255757 0.0 0.0
0.0 0.0
2800.2635542168673 2.246563 -14.794673 0.0 0.0 0.0 0.0 2.483539 -6.804999
0.0 0.0 0.0 0.0 0.405555 -136.454935 0.0 0.0
0.0 0.0
2900.27296686747 2.233742 -15.196801 0.0 0.0 0.0 0.0 2.482346 -7.048181
0.0 0.0 0.0 0.0 0.416858 -137.625909 0.0 0.0
0.0 0.0
3000.2823795180725 2.220516 -15.584295 0.0 0.0 0.0 0.0 2.481113 -7.291379
0.0 0.0 0.0 0.0 0.427932 -138.837559 0.0 0.0
0.0 0.0
3100.291792168675 2.207368 -15.962193 0.0 0.0 0.0 0.0 2.479838 -7.534592
0.0 0.0 0.0 0.0 0.438698 -140.021269 0.0 0.0
0.0 0.0
3200.3012048192772 2.193864 -16.325305 0.0 0.0 0.0 0.0 2.478521 -7.777822
0.0 0.0 0.0 0.0 0.449243 -141.240294 0.0 0.0
0.0 0.0
3300.3106174698796 2.180479 -16.678258 0.0 0.0 0.0 0.0 2.477164 -8.02107
0.0 0.0 0.0 0.0 0.459459 -142.43186 0.0 0.0
0.0 0.0
3400.320030120482 2.166784 -17.016327 0.0 0.0 0.0 0.0 2.475766 -8.264334
0.0 0.0 0.0 0.0 0.469462 -143.6543 0.0 0.0
0.0 0.0
3500.3294427710844 2.15325 -17.343783 0.0 0.0 0.0 0.0 2.474327 -8.507617
0.0 0.0 0.0 0.0 0.47912 -144.849903 0.0 0.0
0.0 0.0
3600.338855421687 2.139452 -17.656316 0.0 0.0 0.0 0.0 2.472847 -8.750918
0.0 0.0 0.0 0.0 0.488573 -146.072651 0.0 0.0
0.0 0.0
3700.3482680722896 2.125856 -17.957892 0.0 0.0 0.0 0.0 2.471326 -8.994239
0.0 0.0 0.0 0.0 0.497667 -147.269272 0.0 0.0
0.0 0.0
3800.357680722892 2.112039 -18.244572 0.0 0.0 0.0 0.0 2.469765 -9.23758
0.0 0.0 0.0 0.0 0.506565 -148.489868 0.0 0.0
0.0 0.0
3900.3670933734943 2.098462 -18.520056 0.0 0.0 0.0 0.0 2.468163 -9.48094
0.0 0.0 0.0 0.0 0.515092 -149.685108 0.0 0.0
0.0 0.0
4000.3765060240967 2.084707 -18.78074 0.0 0.0 0.0 0.0 2.46652 -9.724322
0.0 0.0 0.0 0.0 0.523434 -150.901601 0.0 0.0
0.0 0.0
4100.385918674699 2.07123 -19.030095 0.0 0.0 0.0 0.0 2.464837 -9.967725
0.0 0.0 0.0 0.0 0.531394 -152.093545 0.0 0.0
0.0 0.0
4200.395331325301 2.057614 -19.264819 0.0 0.0 0.0 0.0 2.463114 -10.21115
0.0 0.0 0.0 0.0 0.539179 -153.304384 0.0 0.0
0.0 0.0
4300.404743975903 2.044311 -19.488185 0.0 0.0 0.0 0.0 2.46135 -10.454597
0.0 0.0 0.0 0.0 0.546576 -154.491505 0.0 0.0
0.0 0.0
4400.414156626506 2.030906 -19.697162 0.0 0.0 0.0 0.0 2.459546 -10.698067
0.0 0.0 0.0 0.0 0.553808 -155.695461 0.0 0.0
0.0 0.0
4500.423569277109 2.017848 -19.894857 0.0 0.0 0.0 0.0 2.457702 -10.941561
0.0 0.0 0.0 0.0 0.560646 -156.876543 0.0 0.0
0.0 0.0
4600.432981927712 2.004723 -20.078479 0.0 0.0 0.0 0.0 2.455818 -11.185079
0.0 0.0 0.0 0.0 0.56733 -158.07265 0.0 0.0
0.0 0.0
4700.442394578314 1.991976 -20.250996 0.0 0.0 0.0 0.0 2.453894 -11.428622
0.0 0.0 0.0 0.0 0.573616 -159.246736 0.0 0.0
0.0 0.0
4800.451807228917 1.979193 -20.409832 0.0 0.0 0.0 0.0 2.45193 -11.67219
0.0 0.0 0.0 0.0 0.57976 -160.434244 0.0 0.0
0.0 0.0
4900.4612198795185 1.966816 -20.557838 0.0 0.0 0.0 0.0 2.449927 -11.915784
0.0 0.0 0.0 0.0 0.585502 -161.600587 0.0 0.0
0.0 0.0
5000.470632530121 1.954434 -20.69263 0.0 0.0 0.0 0.0 2.447884 -12.159404
0.0 0.0 0.0 0.0 0.591114 -162.778927 0.0 0.0
0.0 0.0
5100.480045180723 1.942482 -20.816961 0.0 0.0 0.0 0.0 2.445801 -12.403051
0.0 0.0 0.0 0.0 0.596322 -163.936956 0.0 0.0
0.0 0.0
5200.489457831325 1.930551 -20.928617 0.0 0.0 0.0 0.0 2.443679 -12.646725
0.0 0.0 0.0 0.0 0.601413 -165.105709 0.0 0.0
0.0 0.0
5300.498870481928 1.919073 -21.030273 0.0 0.0 0.0 0.0 2.441517 -12.890427
0.0 0.0 0.0 0.0 0.606098 -166.255004 0.0 0.0
0.0 0.0
5400.50828313253 1.907641 -21.119863 0.0 0.0 0.0 0.0 2.439316 -13.134158
0.0 0.0 0.0 0.0 0.610678 -167.413878 0.0 0.0
0.0 0.0
5500.517695783133 1.896681 -21.199999 0.0 0.0 0.0 0.0 2.437076 -13.377918
0.0 0.0 0.0 0.0 0.614854 -168.554141 0.0 0.0
0.0 0.0
5600.527108433735 1.885787 -21.268741 0.0 0.0 0.0 0.0 2.434798 -13.621707
0.0 0.0 0.0 0.0 0.618935 -169.702952 0.0 0.0
0.0 0.0
5700.536521084337 1.875382 -21.328656 0.0 0.0 0.0 0.0 2.43248 -13.865527
0.0 0.0 0.0 0.0 0.622614 -170.833995 0.0 0.0
0.0 0.0
5800.54593373494 1.865061 -21.377909 0.0 0.0 0.0 0.0 2.430123 -14.109377
0.0 0.0 0.0 0.0 0.62621 -171.972649 0.0 0.0
0.0 0.0
5900.555346385543 1.855243 -21.419034 0.0 0.0 0.0 0.0 2.427728 -14.353259
0.0 0.0 0.0 0.0 0.629404 -173.094373 0.0 0.0
0.0 0.0
6000.564759036145 1.845524 -21.450281 0.0 0.0 0.0 0.0 2.425294 -14.597173
0.0 0.0 0.0 0.0 0.632528 -174.222855 0.0 0.0
0.0 0.0
6100.574171686748 1.836319 -21.474164 0.0 0.0 0.0 0.0 2.422822 -14.841119
0.0 0.0 0.0 0.0 0.635253 -175.335239 0.0 0.0
0.0 0.0
6200.58358433735 1.827225 -21.488999 0.0 0.0 0.0 0.0 2.420311 -15.085098
0.0 0.0 0.0 0.0 0.637919 -176.453599 0.0 0.0
0.0 0.0
6300.592996987953 1.818654 -21.497289 0.0 0.0 0.0 0.0 2.417763 -15.32911
0.0 0.0 0.0 0.0 0.640189 -177.556686 0.0 0.0
0.0 0.0
6400.6024096385545 1.810203 -21.497398 0.0 0.0 0.0 0.0 2.415176 -15.573157
0.0 0.0 0.0 0.0 0.64241 -178.665033 0.0 0.0
0.0 0.0
6500.611822289157 1.802281 -21.491827 0.0 0.0 0.0 0.0 2.412551 -15.817238
0.0 0.0 0.0 0.0 0.64424 -179.758924 0.0 0.0
0.0 0.0
6600.621234939759 1.794486 -21.47897 0.0 0.0 0.0 0.0 2.409889 -16.061355
0.0 0.0 0.0 0.0 0.646031 179.142587 0.0 0.0
0.0 0.0
6700.630647590361 1.787222 -21.461332 0.0 0.0 0.0 0.0 2.407188 -16.305508
0.0 0.0 0.0 0.0 0.647435 178.057744 0.0 0.0
0.0 0.0
6800.640060240964 1.780089 -21.437324 0.0 0.0 0.0 0.0 2.404451 -16.549696
0.0 0.0 0.0 0.0 0.64881 176.968918 0.0 0.0
0.0 0.0
6900.649472891566 1.773489 -21.409458 0.0 0.0 0.0 0.0 2.401675 -16.793922
0.0 0.0 0.0 0.0 0.649803 175.892933 0.0 0.0
0.0 0.0
7000.658885542169 1.767021 -21.376146 0.0 0.0 0.0 0.0 2.398863 -17.038186
0.0 0.0 0.0 0.0 0.650777 174.813539 0.0 0.0
0.0 0.0
7100.6682981927715 1.761084 -21.339913 0.0 0.0 0.0 0.0 2.396013 -17.282487
0.0 0.0 0.0 0.0 0.651373 173.746189 0.0 0.0
0.0 0.0
7200.677710843374 1.75528 -21.299158 0.0 0.0 0.0 0.0 2.393127 -17.526827
0.0 0.0 0.0 0.0 0.65196 172.675968 0.0 0.0
0.0 0.0
7300.687123493976 1.750002 -21.256421 0.0 0.0 0.0 0.0 2.390203 -17.771207
0.0 0.0 0.0 0.0 0.652173 171.617001 0.0 0.0
0.0 0.0
7400.696536144579 1.744854 -21.210076 0.0 0.0 0.0 0.0 2.387243 -18.015626
0.0 0.0 0.0 0.0 0.652387 170.555668 0.0 0.0
0.0 0.0
7500.705948795181 1.740228 -21.162682 0.0 0.0 0.0 0.0 2.384246 -18.260086
0.0 0.0 0.0 0.0 0.652231 169.504806 0.0 0.0
0.0 0.0
7600.715361445784 1.735726 -21.112574 0.0 0.0 0.0 0.0 2.381213 -18.504586
0.0 0.0 0.0 0.0 0.652085 168.452058 0.0 0.0
0.0 0.0
7700.724774096386 1.731738 -21.062329 0.0 0.0 0.0 0.0 2.378143 -18.749129
0.0 0.0 0.0 0.0 0.651576 167.409004 0.0 0.0
0.0 0.0
7800.734186746989 1.727869 -21.01024 0.0 0.0 0.0 0.0 2.375038 -18.993713
0.0 0.0 0.0 0.0 0.651084 166.364519 0.0 0.0
0.0 0.0
7900.7435993975905 1.724505 -20.958899 0.0 0.0 0.0 0.0 2.371896 -19.23834
0.0 0.0 0.0 0.0 0.650234 165.328959 0.0 0.0
0.0 0.0
8000.753012048193 1.721251 -20.906547 0.0 0.0 0.0 0.0 2.368719 -19.483011
0.0 0.0 0.0 0.0 0.649408 164.292403 0.0 0.0
0.0 0.0
8100.762424698795 1.718492 -20.855793 0.0 0.0 0.0 0.0 2.365506 -19.727725
0.0 0.0 0.0 0.0 0.64823 163.264006 0.0 0.0
0.0 0.0
8200.771837349397 1.715834 -20.804819 0.0 0.0 0.0 0.0 2.362257 -19.972484
0.0 0.0 0.0 0.0 0.647085 162.235033 0.0 0.0
0.0 0.0
8300.78125 1.713658 -20.75625 0.0 0.0 0.0 0.0 2.358973 -20.217288
0.0 0.0 0.0 0.0 0.645592 161.21346 0.0 0.0
0.0 0.0
8400.790662650603 1.711573 -20.708207 0.0 0.0 0.0 0.0 2.355654 -20.462138
0.0 0.0 0.0 0.0 0.644138 160.191716 0.0 0.0
0.0 0.0
8500.800075301206 1.709958 -20.663327 0.0 0.0 0.0 0.0 2.352299 -20.707034
0.0 0.0 0.0 0.0 0.642343 159.176614 0.0 0.0
0.0 0.0
8600.809487951807 1.708422 -20.619664 0.0 0.0 0.0 0.0 2.34891 -20.951977
0.0 0.0 0.0 0.0 0.640594 158.161737 0.0 0.0
0.0 0.0
8700.81890060241 1.707342 -20.579871 0.0 0.0 0.0 0.0 2.345486 -21.196967
0.0 0.0 0.0 0.0 0.638508 157.152749 0.0 0.0
0.0 0.0
8800.828313253012 1.706328 -20.541933 0.0 0.0 0.0 0.0 2.342028 -21.442006
0.0 0.0 0.0 0.0 0.636475 156.14437 0.0 0.0
0.0 0.0
8900.837725903613 1.705756 -20.508511 0.0 0.0 0.0 0.0 2.338535 -21.687093
0.0 0.0 0.0 0.0 0.634111 155.14113 0.0 0.0
0.0 0.0
9000.847138554218 1.705237 -20.477527 0.0 0.0 0.0 0.0 2.335007 -21.93223
0.0 0.0 0.0 0.0 0.631805 154.138877 0.0 0.0
0.0 0.0
9100.85655120482 1.705145 -20.451646 0.0 0.0 0.0 0.0 2.331446 -22.177416
0.0 0.0 0.0 0.0 0.629174 153.141014 0.0 0.0
0.0 0.0
9200.865963855424 1.705093 -20.428726 0.0 0.0 0.0 0.0 2.327851 -22.422653
0.0 0.0 0.0 0.0 0.626605 152.14451 0.0 0.0
0.0 0.0
9300.875376506025 1.705452 -20.411439 0.0 0.0 0.0 0.0 2.324222 -22.667941
0.0 0.0 0.0 0.0 0.623718 151.151649 0.0 0.0
0.0 0.0
9400.884789156627 1.705837 -20.397576 0.0 0.0 0.0 0.0 2.32056 -22.913281
0.0 0.0 0.0 0.0 0.620898 150.160515 0.0 0.0
0.0 0.0
9500.89420180723 1.706616 -20.389813 0.0 0.0 0.0 0.0 2.316864 -23.158673
0.0 0.0 0.0 0.0 0.617766 149.172275 0.0 0.0
0.0 0.0
9600.903614457833 1.707408 -20.385884 0.0 0.0 0.0 0.0 2.313135 -23.404118
0.0 0.0 0.0 0.0 0.614705 148.186128 0.0 0.0
0.0 0.0
9700.913027108434 1.708579 -20.38846 0.0 0.0 0.0 0.0 2.309373 -23.649617
0.0 0.0 0.0 0.0 0.611337 147.202125 0.0 0.0
0.0 0.0
9800.922439759037 1.709748 -20.395223 0.0 0.0 0.0 0.0 2.305578 -23.89517
0.0 0.0 0.0 0.0 0.608045 146.22058 0.0 0.0
0.0 0.0
9900.93185240964 1.711279 -20.408841 0.0 0.0 0.0 0.0 2.301751 -24.140777
0.0 0.0 0.0 0.0 0.604452 145.240426 0.0 0.0
0.0 0.0
10000.941265060243 1.712794 -20.426945 0.0 0.0 0.0 0.0 2.297891 -24.38644
0.0 0.0 0.0 0.0 0.600938 144.263094 0.0 0.0
0.0 0.0
10100.950677710844 1.714656 -20.452196 0.0 0.0 0.0 0.0 2.293998 -24.63216
0.0 0.0 0.0 0.0 0.597129 143.286396 0.0 0.0
0.0 0.0
10200.960090361446 1.716487 -20.482182 0.0 0.0 0.0 0.0 2.290074 -24.877936
0.0 0.0 0.0 0.0 0.593404 142.312886 0.0 0.0
0.0 0.0
10300.96950301205 1.718649 -20.519555 0.0 0.0 0.0 0.0 2.286118 -25.123769
0.0 0.0 0.0 0.0 0.589388 141.339248 0.0 0.0
0.0 0.0
10400.97891566265 1.720767 -20.561866 0.0 0.0 0.0 0.0 2.28213 -25.36966
0.0 0.0 0.0 0.0 0.585459 140.369164 0.0 0.0
0.0 0.0
10500.988328313253 1.7232 -20.611752 0.0 0.0 0.0 0.0 2.27811 -25.61561
0.0 0.0 0.0 0.0 0.581246 139.398182 0.0 0.0
0.0 0.0
10600.997740963856 1.725575 -20.666734 0.0 0.0 0.0 0.0 2.274059 -25.861619
0.0 0.0 0.0 0.0 0.577122 138.431126 0.0 0.0
0.0 0.0
10701.007153614459 1.728251 -20.729434 0.0 0.0 0.0 0.0 2.269977 -26.107687
0.0 0.0 0.0 0.0 0.572721 137.462392 0.0 0.0
0.0 0.0
10801.01656626506 1.730854 -20.797349 0.0 0.0 0.0 0.0 2.265863 -26.353817
0.0 0.0 0.0 0.0 0.568411 136.497958 0.0 0.0
0.0 0.0
10901.025978915663 1.733743 -20.87308 0.0 0.0 0.0 0.0 2.261719 -26.600007
0.0 0.0 0.0 0.0 0.563829 135.531055 0.0 0.0
0.0 0.0
11001.035391566265 1.736546 -20.954109 0.0 0.0 0.0 0.0 2.257545 -26.846259
0.0 0.0 0.0 0.0 0.559341 134.568832 0.0 0.0
0.0 0.0
11101.044804216868 1.739621 -21.043014 0.0 0.0 0.0 0.0 2.25334 -27.092574
0.0 0.0 0.0 0.0 0.554587 133.603335 0.0 0.0
0.0 0.0
11201.05421686747 1.742598 -21.137265 0.0 0.0 0.0 0.0 2.249104 -27.338952
0.0 0.0 0.0 0.0 0.549929 132.642902 0.0 0.0
0.0 0.0
11301.063629518072 1.745831 -21.239417 0.0 0.0 0.0 0.0 2.244839 -27.585393
0.0 0.0 0.0 0.0 0.545011 131.678375 0.0 0.0
0.0 0.0
11401.073042168675 1.748955 -21.346935 0.0 0.0 0.0 0.0 2.240544 -27.831899
0.0 0.0 0.0 0.0 0.540191 130.719302 0.0 0.0
0.0 0.0
11501.082454819278 1.752321 -21.462346 0.0 0.0 0.0 0.0 2.236219 -28.07847
0.0 0.0 0.0 0.0 0.535116 129.755298 0.0 0.0
0.0 0.0
11601.09186746988 1.755567 -21.583118 0.0 0.0 0.0 0.0 2.231865 -28.325107
0.0 0.0 0.0 0.0 0.530141 128.797143 0.0 0.0
0.0 0.0
11701.101280120483 1.759041 -21.711746 0.0 0.0 0.0 0.0 2.227482 -28.57181
0.0 0.0 0.0 0.0 0.524918 127.833197 0.0 0.0
0.0 0.0
11801.110692771086 1.762383 -21.845706 0.0 0.0 0.0 0.0 2.223069 -28.81858
0.0 0.0 0.0 0.0 0.519796 126.875503 0.0 0.0
0.0 0.0
11901.120105421687 1.765941 -21.98746 0.0 0.0 0.0 0.0 2.218628 -29.065418
0.0 0.0 0.0 0.0 0.514431 125.911134 0.0 0.0
0.0 0.0
12001.12951807229 1.769356 -22.134499 0.0 0.0 0.0 0.0 2.214158 -29.312325
0.0 0.0 0.0 0.0 0.509169 124.953428 0.0 0.0
0.0 0.0
12101.138930722893 1.772976 -22.289249 0.0 0.0 0.0 0.0 2.20966 -29.5593
0.0 0.0 0.0 0.0 0.50367 123.988133 0.0 0.0
0.0 0.0
12201.148343373496 1.776441 -22.449219 0.0 0.0 0.0 0.0 2.205133 -29.806345
0.0 0.0 0.0 0.0 0.498274 123.029919 0.0 0.0
0.0 0.0
12301.157756024097 1.7801 -22.616796 0.0 0.0 0.0 0.0 2.200579 -30.053461
0.0 0.0 0.0 0.0 0.492649 122.063172 0.0 0.0
0.0 0.0
12401.1671686747 1.783594 -22.789515 0.0 0.0 0.0 0.0 2.195997 -30.300647
0.0 0.0 0.0 0.0 0.487126 121.103929 0.0 0.0
0.0 0.0
12501.176581325302 1.78727 -22.969721 0.0 0.0 0.0 0.0 2.191387 -30.547906
0.0 0.0 0.0 0.0 0.481381 120.135173 0.0 0.0
0.0 0.0
12601.185993975905 1.790772 -23.154979 0.0 0.0 0.0 0.0 2.18675 -30.795237
0.0 0.0 0.0 0.0 0.475739 119.174354 0.0 0.0
0.0 0.0
12701.195406626506 1.794445 -23.34759 0.0 0.0 0.0 0.0 2.182086 -31.042641
0.0 0.0 0.0 0.0 0.46988 118.202997 0.0 0.0
0.0 0.0
12801.204819277109 1.797936 -23.545153 0.0 0.0 0.0 0.0 2.177394 -31.290119
0.0 0.0 0.0 0.0 0.464126 117.240016 0.0 0.0
0.0 0.0
12901.214231927712 1.801587 -23.749923 0.0 0.0 0.0 0.0 2.172677 -31.537672
0.0 0.0 0.0 0.0 0.45816 116.265429 0.0 0.0
0.0 0.0
13001.223644578315 1.805048 -23.959538 0.0 0.0 0.0 0.0 2.167932 -31.785299
0.0 0.0 0.0 0.0 0.452299 115.299661 0.0 0.0
0.0 0.0
13101.233057228916 1.808659 -24.176204 0.0 0.0 0.0 0.0 2.163161 -32.033003
0.0 0.0 0.0 0.0 0.446234 114.321163 0.0 0.0
0.0 0.0
13201.242469879518 1.812071 -24.397601 0.0 0.0 0.0 0.0 2.158364 -32.280784
0.0 0.0 0.0 0.0 0.440273 113.351935 0.0 0.0
0.0 0.0
13301.251882530121 1.815625 -24.625885 0.0 0.0 0.0 0.0 2.153542 -32.528642
0.0 0.0 0.0 0.0 0.434115 112.36879 0.0 0.0
0.0 0.0
13401.261295180722 1.818972 -24.858783 0.0 0.0 0.0 0.0 2.148693 -32.776578
0.0 0.0 0.0 0.0 0.428061 111.395372 0.0 0.0
0.0 0.0
13501.270707831325 1.822452 -25.098396 0.0 0.0 0.0 0.0 2.14382 -33.024593
0.0 0.0 0.0 0.0 0.421815 110.40678 0.0 0.0
0.0 0.0
13601.280120481928 1.825718 -25.342503 0.0 0.0 0.0 0.0 2.138921 -33.272687
0.0 0.0 0.0 0.0 0.415674 109.428373 0.0 0.0
0.0 0.0
13701.28953313253 1.829108 -25.593149 0.0 0.0 0.0 0.0 2.133997 -33.520862
0.0 0.0 0.0 0.0 0.409348 108.433455 0.0 0.0
0.0 0.0
13801.298945783132 1.832277 -25.848164 0.0 0.0 0.0 0.0 2.129048 -33.769118
0.0 0.0 0.0 0.0 0.403126 107.44918 0.0 0.0
0.0 0.0
13901.308358433735 1.835563 -26.10954 0.0 0.0 0.0 0.0 2.124075 -34.017455
0.0 0.0 0.0 0.0 0.396727 106.446964 0.0 0.0
0.0 0.0
14001.317771084337 1.838621 -26.37516 0.0 0.0 0.0 0.0 2.119077 -34.265875
0.0 0.0 0.0 0.0 0.39043 105.455848 0.0 0.0
0.0 0.0
14101.327183734942 1.841788 -26.646958 0.0 0.0 0.0 0.0 2.114055 -34.514378
0.0 0.0 0.0 0.0 0.383963 104.445255 0.0 0.0
0.0 0.0
14201.336596385543 1.844722 -26.922876 0.0 0.0 0.0 0.0 2.10901 -34.762966
0.0 0.0 0.0 0.0 0.377598 103.446211 0.0 0.0
0.0 0.0
14301.346009036146 1.847758 -27.204786 0.0 0.0 0.0 0.0 2.10394 -35.011637
0.0 0.0 0.0 0.0 0.37107 102.426031 0.0 0.0
0.0 0.0
14401.355421686749 1.850555 -27.490693 0.0 0.0 0.0 0.0 2.098848 -35.260395
0.0 0.0 0.0 0.0 0.364643 101.417837 0.0 0.0
0.0 0.0
14501.364834337352 1.853446 -27.782404 0.0 0.0 0.0 0.0 2.093732 -35.509238
0.0 0.0 0.0 0.0 0.358059 100.386706 0.0 0.0
0.0 0.0
14601.374246987953 1.856094 -28.07799 0.0 0.0 0.0 0.0 2.088593 -35.758169
0.0 0.0 0.0 0.0 0.351577 99.36798 0.0 0.0
0.0 0.0
14701.383659638555 1.858829 -28.379194 0.0 0.0 0.0 0.0 2.083431 -36.007187
0.0 0.0 0.0 0.0 0.344945 98.324348 0.0 0.0
0.0 0.0
14801.393072289158 1.861316 -28.68415 0.0 0.0 0.0 0.0 2.078247 -36.256293
0.0 0.0 0.0 0.0 0.338414 97.293511 0.0 0.0
0.0 0.0
14901.402484939761 1.863886 -28.994537 0.0 0.0 0.0 0.0 2.073041 -36.505489
0.0 0.0 0.0 0.0 0.33174 96.235606 0.0 0.0
0.0 0.0
15001.411897590362 1.866201 -29.308557 0.0 0.0 0.0 0.0 2.067812 -36.754775
0.0 0.0 0.0 0.0 0.325165 95.190844 0.0 0.0
0.0 0.0
15101.421310240965 1.868593 -29.627821 0.0 0.0 0.0 0.0 2.062562 -37.004152
0.0 0.0 0.0 0.0 0.318456 94.116624 0.0 0.0
0.0 0.0
15201.430722891568 1.870728 -29.9506 0.0 0.0 0.0 0.0 2.05729 -37.25362
0.0 0.0 0.0 0.0 0.311845 93.055836 0.0 0.0
0.0 0.0
15301.440135542169 1.872933 -30.278437 0.0 0.0 0.0 0.0 2.051996 -37.503181
0.0 0.0 0.0 0.0 0.305108 91.962929 0.0 0.0
0.0 0.0
15401.449548192772 1.874878 -30.609675 0.0 0.0 0.0 0.0 2.046682 -37.752835
0.0 0.0 0.0 0.0 0.298467 90.883665 0.0 0.0
0.0 0.0
15501.458960843374 1.876888 -30.945785 0.0 0.0 0.0 0.0 2.041346 -38.002583
0.0 0.0 0.0 0.0 0.291707 89.769297 0.0 0.0
0.0 0.0
15601.468373493977 1.878633 -31.285183 0.0 0.0 0.0 0.0 2.03599 -38.252425
0.0 0.0 0.0 0.0 0.285043 88.668674 0.0 0.0
0.0 0.0
15701.477786144578 1.880439 -31.629271 0.0 0.0 0.0 0.0 2.030613 -38.502364
0.0 0.0 0.0 0.0 0.278269 87.529572 0.0 0.0
0.0 0.0
