! File created by SignalIntegrity v1.4.2: Signal and Power Integrity Tools
! https://github.com/Nubis-Communications/SignalIntegrity
# MHz S MA R 50.0
0.0 0.008833 -180.0 0.0 -0.0 0.0 -0.0 0.0 0.0
1.005401 -0.0 0.031789 180.0 0.000368 180.0 5e-06 -180.0
1.3e-05 -0.0 0.0 0.0 1.025355 -0.0 2e-06 -180.0
2.4e-05 0.0 2.1e-05 -0.0 1e-05 180.0 0.162937 180.0
100.00941265060241 0.017724 -140.596388 0.0 166.439768 3.8e-05 100.898925 0.0 86.483995
1.006643 1.170983 0.063293 -162.528536 0.000745 76.345553 2e-06 -36.560716
3e-05 89.660166 0.0 -43.116035 0.797932 -43.798506 2e-06 150.9193
3.5e-05 -51.850752 4.1e-05 -133.878908 0.00013 -63.854633 0.083923 118.124435
200.01882530120483 0.023022 -138.448574 0.0 115.124753 8.5e-05 74.258415 0.0 56.157417
1.008199 2.250287 0.061046 179.982663 0.000923 42.77867 1.6e-05 -52.887963
8.1e-05 71.061723 0.0 -54.565448 0.485199 -61.745088 2e-06 117.743791
6e-05 -62.44054 2.2e-05 168.775057 0.00036 -89.117918 0.044563 -161.31999
300.0282379518073 0.027673 -131.558322 0.0 178.815968 0.000102 60.067935 0.0 51.981268
1.009457 3.364925 0.058819 -173.214015 0.001028 29.672419 3e-05 -62.965468
9.9e-05 57.687177 0.0 -59.034054 0.382695 -71.138162 1e-06 131.942154
9.3e-05 -69.041622 2e-05 -132.026387 0.000532 -106.234573 0.056859 165.445481
400.03765060240966 0.032529 -127.582709 0.0 6.859115 0.000118 55.662426 0.0 79.690259
1.011994 4.488639 0.059969 -177.139481 0.001059 18.924956 4.6e-05 -71.229529
0.000115 54.08516 0.0 -43.170183 0.281107 -75.277566 2e-06 133.488612
0.000124 -72.818143 2e-05 -140.412228 0.000689 -118.58797 0.050652 -171.994875
500.0470632530121 0.037824 -123.810822 0.0 -165.013858 0.000128 52.590626 0.0 94.881653
1.014996 5.600977 0.059579 -173.901786 0.001081 13.9005 6e-05 -77.623197
0.000125 51.162057 0.0 -50.018022 0.257378 -79.026275 3e-06 133.548645
0.000156 -75.182162 2.8e-05 -123.820005 0.000803 -129.573413 0.054083 174.603883
600.0564759036146 0.043222 -121.659289 0.0 25.581578 0.000141 52.064025 0.0 102.402195
1.018963 6.716204 0.059981 -175.845662 0.00109 8.240068 7.4e-05 -82.878936
0.000138 50.963118 0.0 -48.455222 0.209871 -81.164501 3e-06 129.388531
0.000187 -76.359335 2.9e-05 -128.724724 0.000897 -138.504037 0.052664 -172.054077
700.0658885542168 0.048907 -119.848406 0.0 124.249028 0.000151 51.167547 0.0 106.291289
1.02355 7.815113 0.060001 -173.477173 0.001098 5.41441 8.6e-05 -87.058035
0.000148 50.082578 0.0 -53.749472 0.205417 -83.396356 4e-06 126.919656
0.000219 -76.956031 3.5e-05 -122.500064 0.000962 -146.813767 0.053602 179.14037
800.0753012048193 0.054573 -118.912345 0.0 118.5244 0.000163 51.207434 0.0 107.457541
1.02899 8.910632 0.060181 -174.695837 0.001105 1.635914 9.8e-05 -90.728781
0.000161 50.287497 0.0 -54.984606 0.178254 -85.136204 5e-06 123.293886
0.000251 -77.105289 3.5e-05 -124.658502 0.00101 -153.749849 0.053428 -171.042147
900.0847138554218 0.060408 -118.163446 0.0 116.089605 0.000174 50.696202 0.0 108.292446
1.035095 9.988305 0.060321 -172.750225 0.001111 -0.337724 0.00011 -93.784163
0.000172 49.746709 0.0 -58.875014 0.180485 -86.816106 5e-06 120.791746
0.000285 -77.072244 4e-05 -120.245698 0.001041 -160.329165 0.05358 -177.548983
1000.0941265060242 0.066177 -117.927969 0.0 112.845574 0.000187 50.610924 0.0 108.069833
1.042009 11.058038 0.060421 -173.569816 0.001118 -3.222266 0.00012 -96.560426
0.000185 49.751433 0.0 -60.521866 0.16316 -88.539232 6e-06 117.987433
0.00032 -76.892488 4.1e-05 -120.649171 0.001061 -165.937781 0.053928 -169.701466
1100.1035391566265 0.072041 -117.781382 0.0 107.613788 0.000199 50.046521 0.0 107.932009
1.049609 12.108429 0.060615 -171.885669 0.001124 -4.803651 0.00013 -98.908923
0.000196 49.139411 0.0 -63.368601 0.168164 -89.964616 7e-06 115.917558
0.000356 -76.690517 4.5e-05 -117.040882 0.00107 -171.370765 0.053775 -174.776498
1200.1129518072291 0.077821 -117.963575 0.0 106.451221 0.000212 49.717051 0.0 107.470394
1.058001 13.147207 0.060683 -172.447478 0.001134 -7.192585 0.000139 -101.074042
0.00021 48.859944 0.0 -64.858424 0.156394 -91.766354 8e-06 113.793883
0.000394 -76.462541 4.6e-05 -116.597105 0.001072 -176.106586 0.054412 -168.237614
1300.1223644578313 0.083649 -118.181413 0.0 104.189424 0.000224 49.005859 0.0 107.161379
1.067092 14.165008 0.060913 -170.942511 0.001141 -8.571331 0.000147 -102.905503
0.000222 48.094181 0.0 -66.974907 0.162631 -93.045113 8e-06 112.157981
0.000433 -76.273536 5.1e-05 -113.711448 0.001068 179.212763 0.05412 -172.34007
1400.1317771084337 0.089384 -118.625523 0.0 100.918057 0.000237 48.4489 0.0 106.669542
1.076966 15.168048 0.060973 -171.32388 0.001152 -10.653445 0.000155 -104.602442
0.000235 47.564004 0.0 -68.213437 0.154336 -94.930803 9e-06 110.537591
0.000473 -76.106722 5.2e-05 -113.002547 0.001059 175.047089 0.054932 -166.75027
1500.1411897590363 0.095132 -119.076418 0.0 98.866335 0.000249 47.591442 0.0 106.319709
1.087549 16.148448 0.061232 -169.950984 0.001161 -11.918826 0.000162 -106.022528
0.000247 46.649479 0.0 -69.81804 0.161104 -96.108753 1e-05 109.247839
0.000515 -75.999698 5.7e-05 -110.796927 0.001046 170.863492 0.054568 -170.151828
1600.1506024096386 0.100785 -119.692107 0.0 96.087994 0.000262 46.849859 0.0 105.888625
1.098911 17.111336 0.061296 -170.2002 0.001174 -13.795901 0.000169 -107.337236
0.00026 45.920615 0.0 -70.831134 0.15514 -98.056646 1.1e-05 107.988545
0.000558 -75.932853 5.9e-05 -110.123936 0.001028 167.074322 0.055486 -165.283491
1700.160015060241 0.106423 -120.298588 0.0 94.220601 0.000274 45.869174 0.0 105.537008
1.110989 18.049988 0.061583 -168.930732 0.001184 -14.995389 0.000175 -108.411405
0.000273 44.883016 0.0 -72.071971 0.162083 -99.157457 1.1e-05 106.958206
0.000603 -75.929361 6.4e-05 -108.505321 0.001008 163.225362 0.055082 -168.154863
1800.1694277108436 0.111966 -121.030492 0.0 91.850101 0.000287 44.984256 0.0 105.134838
1.123844 18.968735 0.061659 -169.080594 0.001199 -16.728589 0.000181 -109.399521
0.000286 44.001549 0.0 -72.909735 0.157763 -101.141448 1.2e-05 105.957097
0.000649 -75.970421 6.7e-05 -107.987689 0.000984 159.689324 0.056064 -163.85033
1900.178840361446 0.117472 -121.744173 0.0 90.176998 0.000299 43.905879 0.0 104.793239
1.13742 19.861786 0.061974 -167.896278 0.001212 -17.890266 0.000186 -110.17279
0.000298 42.867687 0.0 -73.896865 0.164687 -102.180085 1.3e-05 105.117686
0.000697 -76.07078 7.2e-05 -106.844347 0.000958 156.069987 0.055635 -166.304112
2000.1882530120483 0.122884 -122.556638 0.0 92.028367 0.000312 42.911543 0.0 104.415264
1.151772 20.732875 0.062066 -167.97033 0.001229 -19.519558 0.000191 -110.874388
0.000311 41.870537 0.0 -74.593228 0.161568 -104.1774 1.3e-05 104.302233
0.000745 -76.213666 7.4e-05 -106.50799 0.000929 152.705589 0.056654 -162.44871
2100.1976656626507 0.12824 -123.345792 0.0 90.684585 0.000323 41.757619 0.0 104.081439
1.166848 21.576995 0.062406 -166.858934 0.001243 -20.661404 0.000195 -111.381727
0.000322 40.663288 0.0 -75.398813 0.168361 -105.164772 1.4e-05 103.602994
0.000795 -76.408644 8e-05 -105.730841 0.000899 149.243989 0.056211 -164.562604
2200.207078313253 0.133503 -124.214864 0.0 89.129811 0.000336 40.68038 0.0 103.719142
1.1827 22.397423 0.062517 -166.874689 0.001262 -22.214466 0.000199 -111.8295
0.000335 39.578954 0.0 -75.996793 0.166142 -107.157794 1.5e-05 102.922286
0.000846 -76.641258 8.2e-05 -105.560283 0.000865 145.99285 0.057254 -161.070826
2300.216490963856 0.138693 -125.057819 0.0 87.935142 0.000347 39.469117 0.0 103.387303
1.199278 23.189826 0.062882 -165.827594 0.001277 -23.348483 0.000203 -112.100293
0.000346 38.316769 0.0 -76.665585 0.172738 -108.102428 1.5e-05 102.326421
0.000898 -76.917892 8.8e-05 -105.058623 0.000832 142.634126 0.056804 -162.900898
2400.2259036144583 0.143793 -125.966808 0.0 86.551352 0.000359 38.329361 0.0 103.029713
1.216628 23.957129 0.063013 -165.798368 0.001298 -24.845119 0.000207 -112.323327
0.000359 37.167065 0.0 -77.183934 0.171204 -110.078393 1.6e-05 101.744634
0.000951 -77.226164 9.1e-05 -105.025017 0.000795 139.447574 0.057865 -159.708243
2500.2353162650606 0.148807 -126.848243 0.0 85.482603 0.00037 37.075273 0.0 102.698107
1.234706 24.695582 0.063401 -164.809154 0.001316 -25.979477 0.000211 -112.384927
0.00037 35.864672 0.0 -77.758962 0.177562 -110.987111 1.7e-05 101.225716
0.001006 -77.570432 9.6e-05 -104.728341 0.000758 136.142264 0.057416 -161.296784
2600.2447289156626 0.153731 -127.785161 0.0 87.418574 0.000381 35.888796 0.0 102.34822
1.253554 25.40784 0.063552 -164.745211 0.001338 -27.434149 0.000214 -112.410453
0.000382 34.666426 0.0 -78.215014 0.176557 -112.937185 1.8e-05 100.717582
0.00106 -77.940355 9.9e-05 -104.802644 0.000719 132.971199 0.058491 -158.354355
2700.254141566265 0.158558 -128.69393 0.0 83.288592 0.000391 34.603246 0.0 102.01325
1.273127 26.090665 0.063962 -163.808829 0.001357 -28.574203 0.000217 -112.289393
0.000393 33.335543 0.0 -78.714975 0.182651 -113.815459 1.8e-05 100.256732
0.001116 -78.338817 0.000104 -104.657283 0.00068 129.664802 0.058049 -159.734643
2800.2635542168673 0.163297 -129.649941 0.0 85.585283 0.000402 33.382528 0.0 101.666353
1.293467 26.746497 0.064132 -163.718145 0.001382 -29.99746 0.000221 -112.144218
0.000404 32.101673 0.0 -79.124633 0.182055 -115.733777 1.9e-05 99.804408
0.001173 -78.75731 0.000107 -104.813122 0.000638 126.448443 0.059141 -157.005291
2900.27296686747 0.167929 -130.577733 0.0 84.770754 0.000412 32.07472 0.0 101.327121
1.31453 27.372548 0.064562 -162.830429 0.001403 -31.146591 0.000224 -111.866677
0.000414 30.751442 0.0 -79.570263 0.18787 -116.585976 2e-05 99.388205
0.00123 -79.197803 0.000112 -104.778558 0.000598 123.069069 0.058712 -158.204512
3000.2823795180725 0.172476 -131.546185 0.0 83.916855 0.000423 30.829296 0.0 100.978973
1.336354 27.97109 0.064751 -162.719243 0.001428 -32.546131 0.000227 -111.577107
0.000425 29.492407 0.0 -79.945022 0.187592 -118.468841 2.1e-05 98.979079
0.001288 -79.653241 0.000115 -104.995147 0.000555 119.719227 0.05982 -155.659946
3100.291792168675 0.176906 -132.486683 0.0 83.195119 0.000432 29.50653 0.0 100.638694
1.358898 28.539731 0.0652 -161.876629 0.001451 -33.706104 0.00023 -111.169056
0.000435 28.130247 0.0 -80.346602 0.19312 -119.298429 2.1e-05 98.597998
0.001346 -80.125065 0.00012 -105.04261 0.000514 116.156592 0.05941 -156.700994
3200.3012048192772 0.181255 -133.462477 0.0 84.969901 0.000442 28.244077 0.0 100.288903
1.382197 29.080606 0.065406 -161.749851 0.001478 -35.087456 0.000234 -110.760601
0.000446 26.854112 0.0 -80.690623 0.193086 -121.143689 2.2e-05 98.223137
0.001405 -80.607485 0.000124 -105.303478 0.00047 112.52813 0.060537 -154.319556
3300.3106174698796 0.185478 -134.410796 0.0 84.341126 0.000451 26.912253 0.0 99.947951
1.40621 29.591672 0.065872 -160.949213 0.001502 -36.258968 0.000237 -110.247209
0.000456 25.485952 0.0 -81.059804 0.198322 -121.953402 2.3e-05 97.870419
0.001465 -81.101558 0.000129 -105.411115 0.000428 108.59183 0.06015 -155.222145
3400.320030120482 0.189623 -135.389972 0.0 81.114495 0.00046 25.63897 0.0 99.599607
1.43097 30.074949 0.066096 -160.810733 0.001531 -37.625959 0.000241 -109.744982
0.000466 24.199362 0.0 -81.379557 0.198475 -123.759984 2.4e-05 97.523461
0.001525 -81.602538 0.000132 -105.703382 0.000385 104.417715 0.061298 -152.987093
3500.3294427710844 0.193637 -136.342292 0.0 83.203766 0.000469 24.30293 0.0 99.260822
1.456439 30.528701 0.066578 -160.049293 0.001556 -38.808884 0.000244 -109.150389
0.000475 22.829992 0.0 -81.718388 0.203419 -124.551975 2.4e-05 97.194275
0.001585 -82.111261 0.000137 -105.855416 0.000344 99.739592 0.060938 -153.768452
3600.338855421687 0.197575 -137.321738 0.0 84.598401 0.000477 23.023874 0.0 98.90896
1.482646 30.954851 0.066818 -159.902222 0.001586 -40.164172 0.000248 -108.577841
0.000484 21.538131 0.0 -82.020378 0.203712 -126.319562 2.5e-05 96.870638
0.001646 -82.623848 0.00014 -106.170157 0.000302 94.468991 0.062108 -151.666637
3700.3482680722896 0.201377 -138.275038 0.0 82.143218 0.000485 21.687415 0.0 98.565742
1.509554 31.351929 0.067315 -159.177491 0.001613 -41.357742 0.000252 -107.924676
0.000493 20.171459 0.0 -82.334645 0.208365 -127.095525 2.6e-05 96.561482
0.001707 -83.140991 0.000144 -106.354837 0.000262 88.247468 0.061779 -152.341949
3800.357680722892 0.205107 -139.252294 0.0 81.690477 0.000494 20.406596 0.0 98.218585
1.537191 31.721772 0.067571 -159.024344 0.001644 -42.703026 0.000256 -107.303291
0.000502 18.878745 0.0 -82.617492 0.20876 -128.824316 2.7e-05 96.257786
0.001769 -83.659609 0.000148 -106.684935 0.000223 80.606442 0.062972 -150.362815
3900.3670933734943 0.208695 -140.204173 0.0 83.281706 0.000501 19.072832 0.0 97.876551
1.565521 32.063142 0.068081 -158.334089 0.001672 -43.906123 0.00026 -106.612267
0.000511 17.518116 0.0 -82.910858 0.213125 -129.585588 2.7e-05 95.96604
0.001831 -84.180199 0.000152 -106.893878 0.000189 70.919798 0.062675 -150.945512
4000.3765060240967 0.212216 -141.177285 0.0 80.84562 0.000509 17.793673 0.0 97.529875
1.59457 32.377798 0.068352 -158.176925 0.001705 -45.242454 0.000264 -105.96161
0.000519 16.227956 0.0 -83.179169 0.213591 -131.276133 2.8e-05 95.679718
0.001893 -84.700363 0.000155 -107.234168 0.000158 57.89486 0.063892 -149.080347
4100.385918674699 0.21559 -142.125826 0.0 82.548602 0.000515 16.465289 0.0 97.189556
1.624303 32.664702 0.068875 -157.519141 0.001734 -46.453693 0.000268 -105.250968
0.000527 14.875868 0.0 -83.45425 0.217673 -132.023777 2.9e-05 95.403341
0.001956 -85.220532 0.00016 -107.460791 0.000136 40.987233 0.063629 -149.582327
4200.395331325301 0.218902 -143.09324 0.0 82.209336 0.000523 15.190428 1e-06 96.847539
1.654744 32.925541 0.069161 -157.359662 0.001767 -47.7816 0.000273 -104.587801
0.000535 13.591341 1e-06 -83.707328 0.218185 -133.676862 3e-05 95.132345
0.002019 -85.738772 0.000163 -107.807615 0.000126 19.826802 0.06487 -147.823729
4300.404743975903 0.222064 -144.036913 0.0 81.915515 0.000529 13.869584 1e-06 96.507608
1.685858 33.159446 0.069696 -156.732549 0.001797 -48.999497 0.000278 -103.873358
0.000543 12.25 1e-06 -83.967451 0.221989 -134.411731 3e-05 94.869663
0.002083 -86.255484 0.000167 -108.047503 0.000132 -1.2166 0.064642 -148.255519
4400.414156626506 0.225167 -144.997399 0.0 81.639394 0.000535 12.601267 1e-06 96.168467
1.717669 33.368038 0.069996 -156.572189 0.001832 -50.319265 0.000283 -103.211831
0.000551 10.973385 1e-06 -84.210142 0.222525 -136.028298 3.1e-05 94.612277
0.002146 -86.769221 0.000171 -108.39799 0.00015 -19.500048 0.065906 -146.597009
4500.423569277109 0.228118 -145.934987 0.0 81.39445 0.000541 11.289675 1e-06 95.831058
1.750143 33.550592 0.070543 -155.974129 0.001863 -51.542221 0.000288 -102.506667
0.000558 9.644637 1e-06 -84.453743 0.226058 -136.751089 3.2e-05 94.361831
0.00221 -87.280317 0.000175 -108.647765 0.000177 -32.911962 0.065714 -146.967911
4600.432981927712 0.231015 -146.887576 0.0 79.118895 0.000547 10.02977 1e-06 95.493716
1.783302 33.708661 0.070856 -155.814103 0.001899 -52.853851 0.000294 -101.858423
0.000565 8.37786 1e-06 -84.686087 0.226602 -138.332177 3.3e-05 94.116541
0.002275 -87.787649 0.000178 -109.000046 0.00021 -43.187148 0.067 -145.403674
4700.442394578314 0.233757 -147.818119 0.0 82.55825 0.000553 8.728883 1e-06 95.156834
1.817114 33.841645 0.071414 -155.243644 0.001931 -54.080365 0.000299 -101.172812
0.000572 7.063094 1e-06 -84.919266 0.229869 -139.043472 3.3e-05 93.877
0.00234 -88.291525 0.000182 -109.256889 0.000245 -50.778078 0.066844 -145.721893
4800.451807228917 0.236451 -148.76206 0.0 82.375931 0.000558 7.478887 1e-06 94.823974
1.851598 33.951032 0.071741 -155.084994 0.001967 -55.383677 0.000305 -100.547129
0.000579 5.80789 1e-06 -85.13822 0.230407 -140.590182 3.4e-05 93.642408
0.002405 -88.791184 0.000185 -109.609753 0.000282 -56.947858 0.068151 -144.246603
4900.4612198795185 0.238988 -149.684808 0.0 82.227469 0.000563 6.189919 1e-06 94.490388
1.886724 34.036325 0.072308 -154.540827 0.002 -56.612324 0.000311 -99.889237
0.000585 4.508254 1e-06 -85.360318 0.233418 -141.290478 3.5e-05 93.412504
0.00247 -89.286874 0.000189 -109.871744 0.00032 -61.876298 0.068031 -144.519364
5000.470632530121 0.24148 -150.619528 0.0 80.560362 0.000568 4.951093 1e-06 94.159858
1.922511 34.098946 0.072648 -154.384455 0.002037 -57.90714 0.000317 -99.292905
0.000591 3.265798 1e-06 -85.573346 0.233938 -142.803943 3.6e-05 93.187286
0.002536 -89.778039 0.000192 -110.224105 0.000358 -66.140192 0.069359 -143.128071
5100.480045180723 0.243815 -151.53391 0.0 82.007924 0.000572 3.674958 1e-06 93.830234
1.958928 34.138487 0.073226 -153.865396 0.002071 -59.136536 0.000323 -98.668536
0.000598 1.982284 1e-06 -85.784691 0.236699 -143.493678 3.7e-05 92.965789
0.002602 -90.264943 0.000196 -110.490032 0.000396 -69.768137 0.069275 -143.36173
5200.489457831325 0.24611 -152.458989 0.0 81.907317 0.000577 2.448256 1e-06 93.502168
1.995993 34.156307 0.073578 -153.712085 0.002108 -60.422594 0.00033 -98.106444
0.000604 0.753756 1e-06 -85.99087 0.237192 -144.975045 3.7e-05 92.748659
0.002669 -90.747234 0.000199 -110.841237 0.000435 -73.039883 0.070621 -142.049789
5300.498870481928 0.248247 -153.364581 0.0 81.851382 0.000581 1.185684 1e-06 93.174948
2.033678 34.152066 0.074165 -153.217063 0.002143 -61.651496 0.000337 -97.51958
0.000609 -0.512944 1e-06 -86.194871 0.239711 -145.654617 3.8e-05 92.534362
0.002736 -91.225125 0.000203 -111.109916 0.000473 -75.948315 0.070573 -142.24993
5400.50828313253 0.250348 -154.279724 0.0 80.345545 0.000585 -0.027993 1e-06 92.85044
2.071999 34.127064 0.074529 -153.067496 0.002181 -62.928561 0.000344 -96.994847
0.000615 -1.726775 1e-06 -86.39331 0.24017 -147.105036 3.9e-05 92.32407
0.002803 -91.698468 0.000206 -111.459379 0.000512 -78.639656 0.071937 -141.01296
5500.517695783133 0.252292 -155.176228 0.0 81.803743 0.000588 -1.27639 1e-06 92.52567
2.110927 34.08102 0.075125 -152.595532 0.002216 -64.155828 0.000351 -96.44798
0.00062 -2.976106 1e-06 -86.591274 0.242456 -147.774816 4e-05 92.115784
0.002871 -92.167435 0.00021 -111.72985 0.00055 -81.105211 0.071923 -141.184484
5600.527108433735 0.254204 -156.081249 0.0 81.781325 0.000592 -2.476483 1e-06 92.203566
2.15048 34.015173 0.075502 -152.450306 0.002255 -65.423718 0.000358 -95.962446
0.000625 -4.174526 1e-06 -86.78505 0.242875 -149.19543 4.1e-05 91.911109
0.00294 -92.631999 0.000213 -112.077311 0.000588 -83.423417 0.073304 -140.018341
5700.536521084337 0.255959 -156.968473 0.0 81.825312 0.000595 -3.71019 1e-06 91.881666
2.19063 33.929289 0.076106 -152.000502 0.002291 -66.648338 0.000365 -95.456628
0.00063 -5.40606 1e-06 -86.976281 0.244935 -149.855775 4.2e-05 91.707671
0.003009 -93.092322 0.000217 -112.349335 0.000625 -85.592556 0.073325 -140.165555
5800.54593373494 0.257687 -157.863275 0.0 82.902331 0.000598 -4.896174 1e-06 91.561871
2.231393 33.824547 0.076494 -151.860137 0.00233 -67.906781 0.000373 -95.010959
0.000635 -6.588581 1e-06 -87.164633 0.245309 -151.247712 4.2e-05 91.507432
0.003078 -93.548495 0.00022 -112.69464 0.000662 -87.652563 0.07472 -139.066312
5900.555346385543 0.259257 -158.741118 0.0 81.905315 0.000601 -6.114873 1e-06 91.242155
2.272741 33.700752 0.077107 -151.431665 0.002366 -69.127903 0.000381 -94.546505
0.00064 -7.801995 1e-06 -87.352278 0.247153 -151.898971 4.3e-05 91.307713
0.003148 -94.000647 0.000224 -112.967518 0.000699 -89.60969 0.074775 -139.192995
6000.564759036145 0.260805 -159.625686 0.0 81.980896 0.000603 -7.286329 1e-06 90.924457
2.314691 33.559027 0.077505 -151.296615 0.002406 -70.376793 0.000389 -94.140458
0.000644 -8.968221 1e-06 -87.538181 0.247479 -153.263345 4.4e-05 91.110774
0.003219 -94.448935 0.000226 -113.310668 0.000735 -91.480575 0.076185 -138.156936
6100.574171686748 0.262196 -160.494124 0.0 82.086311 0.000605 -8.489717 1e-06 90.606335
2.357216 33.399206 0.078126 -150.888708 0.002443 -71.593646 0.000397 -93.716774
0.000649 -10.16341 1e-06 -87.723295 0.249113 -153.905863 4.5e-05 90.913691
0.00329 -94.893513 0.00023 -113.584165 0.000771 -93.277978 0.076273 -138.266404
6200.58358433735 0.263569 -161.368505 0.0 83.8799 0.000608 -9.646359 1e-06 90.290516
2.400331 33.222357 0.078535 -150.759362 0.002483 -72.832855 0.000405 -93.349504
