! File created by SignalIntegrity v1.4.2: Signal and Power Integrity Tools
! https://github.com/Nubis-Communications/SignalIntegrity
# MHz S MA R 50.0
0.0 0.392952986 0.0 0.366861182 0.0 0.0 0.0 0.0 0.0
0.366828062 0.0 0.392989173 0.0 0.0 0.0 0.0 0.0
2.906444214 180.0 2.883283451 0.0 1.0 180.0 0.0 0.0
3.029665893 0.0 2.992455139 180.0 0.0 0.0 1.0 180.0
83.39874411302982 0.350409083 -41.305282059 0.329590034 -43.031318781 0.0 0.0 0.0 0.0
0.329493965 -43.030184173 0.350589159 -41.329650265 0.0 0.0 0.0 0.0
2.970688414 178.119666411 2.959958432 -2.264806121 1.0 180.0 0.0 0.0
3.010600334 -3.602877896 2.996003374 176.012571951 0.0 0.0 1.0 180.0
166.79748822605964 0.247302452 -67.125101058 0.234049424 -70.545999245 0.0 0.0 0.0 0.0
0.233966372 -70.544668788 0.247594825 -67.167507679 0.0 0.0 0.0 0.0
3.010457326 174.259582563 3.009724314 -5.695677483 1.0 180.0 0.0 0.0
2.989659111 -5.093137601 2.991342125 174.943548341 0.0 0.0 1.0 180.0
250.19623233908945 0.156758124 -74.671787889 0.146152871 -80.396406583 0.0 0.0 0.0 0.0
0.146118188 -80.373581327 0.156971559 -74.733962677 0.0 0.0 0.0 0.0
3.005524732 171.02840989 3.003119958 -9.01727938 1.0 180.0 0.0 0.0
3.013482372 -9.224381461 3.011331145 170.715755801 0.0 0.0 1.0 180.0
333.5949764521193 0.117887787 -81.823914839 0.108294111 -89.34999694 0.0 0.0 0.0 0.0
0.108295981 -89.325971839 0.118010805 -81.858736639 0.0 0.0 0.0 0.0
3.005689523 167.598848313 3.004526788 -12.391449761 1.0 180.0 0.0 0.0
3.00516928 -12.43348461 3.005402428 167.550881365 0.0 0.0 1.0 180.0
416.99372056514915 0.087795163 -85.823438804 0.078043361 -95.634636692 0.0 0.0 0.0 0.0
0.078065594 -95.608883786 0.087758704 -85.819897109 0.0 0.0 0.0 0.0
3.001561463 164.218414679 3.000494731 -15.760299697 1.0 180.0 0.0 0.0
3.002001916 -15.895776101 3.002575659 164.086113974 0.0 0.0 1.0 180.0
500.3924646781789 0.067196075 -88.967375246 0.056726796 -101.414268041 0.0 0.0 0.0 0.0
0.056759952 -101.390756225 0.066970338 -88.910699328 0.0 0.0 0.0 0.0
2.999117247 160.820740302 2.99820562 -19.137239669 1.0 180.0 0.0 0.0
2.998251104 -19.316066176 2.999313293 160.669349961 0.0 0.0 1.0 180.0
583.7912087912088 0.051723914 -91.475682723 0.040278681 -107.432495918 0.0 0.0 0.0 0.0
0.040317363 -107.412192622 0.051318102 -91.356178393 0.0 0.0 0.0 0.0
2.999349109 157.423502061 2.998565771 -22.513460533 1.0 180.0 0.0 0.0
2.996888504 -22.731849728 2.998299713 157.254866761 0.0 0.0 1.0 180.0
667.1899529042386 0.03939159 -93.55560498 0.026985297 -115.017397341 0.0 0.0 0.0 0.0
0.027026705 -114.997464069 0.038855744 -93.359169315 0.0 0.0 0.0 0.0
3.002865256 154.037577843 3.00221993 -25.881277576 1.0 180.0 0.0 0.0
2.99894347 -26.141802466 3.000545641 153.841509998 0.0 0.0 1.0 180.0
750.5886970172684 0.029323377 -95.629496399 0.01635261 -127.705075644 0.0 0.0 0.0 0.0
0.016395159 -127.668085831 0.028736344 -95.325785362 0.0 0.0 0.0 0.0
3.009714632 150.667315493 3.009299309 -29.236247342 1.0 180.0 0.0 0.0
3.004084218 -29.530447375 3.005818052 150.445593105 0.0 0.0 1.0 180.0
833.9874411302983 0.020716415 -97.976733024 0.008646392 -158.642898786 0.0 0.0 0.0 0.0
0.008683055 -158.467114739 0.020165144 -97.484057026 0.0 0.0 0.0 0.0
3.019119712 147.314636802 3.01904529 -32.577944975 1.0 180.0 0.0 0.0
3.011785096 -32.901459165 3.01358654 147.062678437 0.0 0.0 1.0 180.0
917.3861852433281 0.013162733 -101.367042705 0.007780616 136.899510512 0.0 0.0 0.0 0.0
0.007777972 137.243755823 0.012717734 -100.452702188 0.0 0.0 0.0 0.0
3.029977481 143.974045407 3.030370202 -35.91121483 1.0 180.0 0.0 0.0
3.020906322 -36.258527437 3.022732381 143.690409965 0.0 0.0 1.0 180.0
1000.7849293563578 0.006408287 -108.878454334 0.013091133 102.7234539 0.0 0.0 0.0 0.0
0.013065683 102.903995619 0.006092624 -106.638378726 0.0 0.0 0.0 0.0
3.041043539 140.635639517 3.042012221 -39.24476371 1.0 180.0 0.0 0.0
3.030259842 -39.612067233 3.032056064 140.320181875 0.0 0.0 1.0 180.0
1084.1836734693877 0.001333086 173.070353809 0.019420309 88.926582155 0.0 0.0 0.0 0.0
0.019387649 89.038990275 0.0009686 167.560480118 0.0 0.0 0.0 0.0
3.051242329 137.287232054 3.05285706 -42.589039518 1.0 180.0 0.0 0.0
3.038803068 -42.97421537 3.040490489 136.942127271 0.0 0.0 1.0 180.0
1167.5824175824175 0.005856059 93.431019589 0.025714579 80.891224472 0.0 0.0 0.0 0.0
0.025678214 80.974058118 0.005749127 89.164225649 0.0 0.0 0.0 0.0
3.05985297 133.91768883 3.062132104 -45.953524867 1.0 180.0 0.0 0.0
3.045847237 -46.356121334 3.047314698 133.547182831 0.0 0.0 1.0 180.0
1250.9811616954476 0.011057803 85.716435198 0.031842306 75.050125541 0.0 0.0 0.0 0.0
0.031803288 75.117134043 0.010927242 83.033812446 0.0 0.0 0.0 0.0
3.066627054 130.519778996 3.069538365 -49.344371721 1.0 180.0 0.0 0.0
3.051170456 -49.765072213 3.052279388 130.129469203 0.0 0.0 1.0 180.0
1334.3799058084771 0.015878996 82.150205325 0.037780537 70.306335183 0.0 0.0 0.0 0.0
0.037739287 70.363748122 0.015776828 80.001677313 0.0 0.0 0.0 0.0
3.071763002 127.092034427 3.075239329 -52.762847773 1.0 180.0 0.0 0.0
3.054989053 -53.202582103 3.055590597 126.687891799 0.0 0.0 1.0 180.0
1417.778649921507 0.020317303 79.713379252 0.043499858 66.235874545 0.0 0.0 0.0 0.0
0.043456587 66.287096284 0.020298103 77.850311019 0.0 0.0 0.0 0.0
3.075780571 123.639140778 3.079745955 -56.205007268 1.0 180.0 0.0 0.0
3.057832835 -56.664028276 3.057793063 123.226445949 0.0 0.0 1.0 180.0
1501.1773940345367 0.024412373 77.817380637 0.048952904 62.636651861 0.0 0.0 0.0 0.0
0.048907736 62.683807001 0.024501959 76.145730131 0.0 0.0 0.0 0.0
3.079345494 120.170735297 3.083744539 -59.662680604 1.0 180.0 0.0 0.0
3.060368686 -60.139841684 3.059595375 119.753250806 0.0 0.0 1.0 180.0
1584.5761381475666 0.028221848 76.276579018 0.054087385 59.386021134 0.0 0.0 0.0 0.0
0.054040386 59.430555205 0.028406397 74.742008113 0.0 0.0 0.0 0.0
3.083069021 116.698911224 3.087890242 -63.125553731 1.0 180.0 0.0 0.0
3.063202738 -63.617998907 3.061665376 116.278492252 0.0 0.0 1.0 180.0
1667.9748822605966 0.03181024 75.004389271 0.058863538 56.391687002 0.0 0.0 0.0 0.0
0.058814735 56.434633201 0.032038444 73.561579736 0.0 0.0 0.0 0.0
3.087367828 113.235077744 3.092652861 -66.583807783 1.0 180.0 0.0 0.0
3.066741315 -67.087167147 3.06447722 112.811801664 0.0 0.0 1.0 180.0
1751.3736263736262 0.035236175 73.936932385 0.063267397 53.576262734 0.0 0.0 0.0 0.0
0.063216784 53.618375363 0.035432253 72.543295598 0.0 0.0 0.0 0.0
3.092385767 109.787034347 3.098220174 -70.030608535 1.0 180.0 0.0 0.0
3.071114251 -70.539622625 3.06821728 109.359797033 0.0 0.0 1.0 180.0
1834.7723704866562 0.03854007 73.012278573 0.067315719 50.87484234 0.0 0.0 0.0 0.0
0.067263275 50.916672576 0.038623711 71.630507594 0.0 0.0 0.0 0.0
3.098002257 106.357078605 3.104489637 -73.463751253 1.0 180.0 0.0 0.0
3.076184609 -73.973142684 3.072778359 105.924456932 0.0 0.0 1.0 180.0
1918.171114599686 0.041735877 72.169229903 0.071051842 48.236969006 0.0 0.0 0.0 0.0
0.07099755 48.278914968 0.041643647 70.772035373 0.0 0.0 0.0 0.0
3.103909019 102.941665804 3.111135775 -76.886005035 1.0 180.0 0.0 0.0
3.081625895 -77.391344093 3.077828433 102.502789938 0.0 0.0 1.0 180.0
2001.5698587127156 0.044809707 71.353294112 0.074534361 45.62878573 0.0 0.0 0.0 0.0
0.074478231 45.671131557 0.044512091 69.926975921 0.0 0.0 0.0 0.0
3.109724485 99.532640173 3.117726019 -80.304122077 1.0 180.0 0.0 0.0
3.087036558 -80.802445932 3.082926797 99.087835276 0.0 0.0 1.0 180.0
2084.9686028257456 0.047726126 70.523438182 0.077822304 43.033125598 0.0 0.0 0.0 0.0
0.077764392 43.076075869 0.047235493 69.068965481 0.0 0.0 0.0 0.0
3.115112644 96.119640532 3.123851734 -83.726828812 1.0 180.0 0.0 0.0
3.092059543 -84.216863603 3.0876553 95.670669879 0.0 0.0 1.0 180.0
2168.3673469387754 0.050440566 69.656207061 0.080961227 40.44667245 0.0 0.0 0.0 0.0
0.080901646 40.490383171 0.049807718 68.187625154 0.0 0.0 0.0 0.0
3.119855209 92.693090499 3.129219756 -87.162272004 1.0 180.0 0.0 0.0
3.096455374 -87.644216248 3.091709861 92.242959455 0.0 0.0 1.0 180.0
2251.7660910518052 0.052914391 68.746210596 0.083974192 37.874665512 0.0 0.0 0.0 0.0
0.083913106 37.919269911 0.052214527 67.286655709 0.0 0.0 0.0 0.0
3.123903642 89.246680549 3.133725459 -90.61589155 1.0 180.0 0.0 0.0
3.100155436 -91.090828941 3.094973623 88.799096258 0.0 0.0 1.0 180.0
2335.164835164835 0.055128388 67.803513455 0.086859968 35.324695676 0.0 0.0 0.0 0.0
0.086797584 35.370322303 0.054440283 66.379365789 0.0 0.0 0.0 0.0
3.127365881 85.778970911 3.137456109 -94.088997375 1.0 180.0 0.0 0.0
3.103249266 -94.558143597 3.097520037 85.337605797 0.0 0.0 1.0 180.0
2418.563579277865 0.057090941 66.848999914 0.089598536 32.801520883 0.0 0.0 0.0 0.0
0.089535073 32.848302785 0.056475072 65.483104103 0.0 0.0 0.0 0.0
3.130447037 82.29364254 3.140638684 -97.578480463 1.0 180.0 0.0 0.0
3.105926653 -98.042477674 3.09956187 81.861427828 0.0 0.0 1.0 180.0
2501.962323390895 0.058838658 65.908733035 0.09216158 30.304371177 0.0 0.0 0.0 0.0
0.092097253 30.352447042 0.058320272 64.614131354 0.0 0.0 0.0 0.0
3.13337511 78.798324599 3.143560655 -101.077750235 1.0 180.0 0.0 0.0
3.108404953 -101.536191618 3.101374075 78.376989826 0.0 0.0 1.0 180.0
2585.3610675039245 0.060429271 65.008170271 0.094524257 27.827210106 0.0 0.0 0.0 0.0
0.094459248 27.876719984 0.059990962 63.784088907 0.0 0.0 0.0 0.0
3.136330912 75.302404159 3.146483829 -104.578571185 1.0 180.0 0.0 0.0
3.110858766 -105.029888638 3.103208482 74.892369643 0.0 0.0 1.0 180.0
2668.7598116169543 0.061928639 64.167117318 0.096674293 25.361387748 0.0 0.0 0.0 0.0
0.096608748 25.412466609 0.061514335 62.998658284 0.0 0.0 0.0 0.0
3.139405235 71.814421163 3.149578416 -108.073306342 1.0 180.0 0.0 0.0
3.11337761 -108.51503281 3.10522974 71.415048575 0.0 0.0 1.0 180.0
2752.158555729984 0.063395262 63.396421935 0.098615656 22.899442677 0.0 0.0 0.0 0.0
0.098549695 22.952214888 0.06292444 62.258431925 0.0 0.0 0.0 0.0
3.142591434 68.339780079 3.152892112 -111.556941344 1.0 180.0 0.0 0.0
3.115958469 -111.986240764 3.107485671 67.949891768 0.0 0.0 1.0 180.0
2835.557299843014 0.064866342 62.697272746 0.100365946 20.438582761 0.0 0.0 0.0 0.0
0.100299683 20.493159784 0.064254609 61.561472061 0.0 0.0 0.0 0.0
3.145811477 64.87939611 3.156359369 -115.028338804 1.0 180.0 0.0 0.0
3.118529911 -115.442637633 3.109915483 64.497895727 0.0 0.0 1.0 180.0
2918.9560439560437 0.066349141 62.063329129 0.101948785 17.982558607 0.0 0.0 0.0 0.0
0.101882363 18.039041085 0.065529671 60.906587963 0.0 0.0 0.0 0.0
3.148958601 61.429626951 3.159839271 -118.490385384 1.0 180.0 0.0 0.0
3.120993688 -118.887928038 3.112386862 61.056037383 0.0 0.0 1.0 180.0
3002.3547880690735 0.067820021 61.484936499 0.103384135 15.541183744 0.0 0.0 0.0 0.0
0.103317755 15.599667665 0.06676015 60.296155317 0.0 0.0 0.0 0.0
3.15194406 57.983418725 3.163171213 -121.949066237 1.0 180.0 0.0 0.0
3.123271371 -122.329245381 3.11475116 57.618198615 0.0 0.0 1.0 180.0
3085.7535321821038 0.06923158 60.953900136 0.104680095 13.127545644 0.0 0.0 0.0 0.0
0.10461404 13.188130732 0.067940116 59.737458692 0.0 0.0 0.0 0.0
3.154733502 54.532308628 3.16623146 -125.41175371 1.0 180.0 0.0 0.0
3.125339378 -125.775136343 3.116897697 54.176881497 0.0 0.0 1.0 180.0
3169.152276295133 0.070526067 60.467176198 0.105829181 10.753768494 0.0 0.0 0.0 0.0
0.105763819 10.816565951 0.069049368 59.242059227 0.0 0.0 0.0 0.0
3.157333809 51.068889808 3.168945585 -128.885021566 1.0 180.0 0.0 0.0
3.127215301 -129.23309434 3.118764734 50.725386309 0.0 0.0 1.0 180.0
3252.551020408163 0.071651534 60.028403756 0.106810441 8.426717411 0.0 0.0 0.0 0.0
0.106746205 8.491854176 0.07005944 58.823385482 0.0 0.0 0.0 0.0
3.159796533 47.588651674 3.171315753 -132.372995431 1.0 180.0 0.0 0.0
3.128961063 -132.707712755 3.120365376 47.259460282 0.0 0.0 1.0 180.0
3335.949764521193 0.072576366 59.647036601 0.107596645 6.14503754 0.0 0.0 0.0 0.0
0.107533999 6.212655499 0.07094183 58.493326349 0.0 0.0 0.0 0.0
3.162185184 44.091106813 3.173403042 -135.87627947 1.0 180.0 0.0 0.0
3.130650171 -136.19954921 3.121769267 43.778376076 0.0 0.0 1.0 180.0
3419.3485086342225 0.073298199 59.335530287 0.108164009 3.898423021 0.0 0.0 0.0 0.0
0.108103403 3.968673363 0.071676147 58.258882758 0.0 0.0 0.0 0.0
3.16453571 40.579813791 3.175289745 -139.39184319 1.0 180.0 0.0 0.0
3.132327833 -139.705100799 3.123064527 40.285047924 0.0 0.0 1.0 180.0
3502.7472527472523 0.073844732 59.105476348 0.108501022 1.66927412 0.0 0.0 0.0 0.0
0.108442842 1.742308518 0.072255849 58.119906846 0.0 0.0 0.0 0.0
3.166835214 37.061280775 3.177045983 -142.913921343 1.0 180.0 0.0 0.0
3.133989537 -143.217902426 3.124324748 36.785134444 0.0 0.0 1.0 180.0
3586.1459968602826 0.074266042 58.96383149 0.108613256 -0.563774828 0.0 0.0 0.0 0.0
0.108557804 -0.48781367 0.072689889 58.068716567 0.0 0.0 0.0 0.0
3.169016761 33.543165665 3.17870169 -146.43558079 1.0 180.0 0.0 0.0
3.135576177 -146.730323843 3.125582241 33.285481644 0.0 0.0 1.0 180.0
3669.5447409733124 0.074620431 58.910507026 0.108522402 -2.821421036 0.0 0.0 0.0 0.0
0.108469878 -2.742406702 0.07299988 58.09198911 0.0 0.0 0.0 0.0
3.170980721 30.032272585 3.180240817 -149.950528291 1.0 180.0 0.0 0.0
3.136993084 -150.235583191 3.126820995 29.792312068 0.0 0.0 1.0 180.0
3752.9434850863418 0.074957675 58.938422633 0.10825957 -5.119507473 0.0 0.0 0.0 0.0
0.108210096 -5.037332379 0.07321376 58.174809955 0.0 0.0 0.0 0.0
3.172628096 26.532894398 3.181611093 -153.454663176 1.0 180.0 0.0 0.0
3.138144384 -153.729400615 3.127988384 26.309680708 0.0 0.0 1.0 180.0
3836.342229199372 0.07530458 59.036483274 0.107854844 -7.46618364 0.0 0.0 0.0 0.0
0.107808498 -7.380754854 0.073358085 58.306104311 0.0 0.0 0.0 0.0
3.173899966 23.045935909 3.182750445 -156.946958162 1.0 180.0 0.0 0.0
3.138971368 -157.210877723 3.129021024 22.838592257 0.0 0.0 1.0 180.0
3919.740973312402 0.075657282 59.194852358 0.107326348 -9.861181201 0.0 0.0 0.0 0.0
0.107283211 -9.772408805 0.073451455 58.48405984 0.0 0.0 0.0 0.0
3.174805918 19.569005828 3.183616801 -160.429463076 1.0 180.0 0.0 0.0
3.139480046 -160.682409606 3.129873676 19.376989592 0.0 0.0 1.0 180.0
4003.139717425431 0.075983008 59.410833782 0.106672497 -12.297366072 0.0 0.0 0.0 0.0
0.106632697 -12.205145309 0.073501223 58.7198532 0.0 0.0 0.0 0.0
3.175431684 16.097342996 3.184211106 -163.906527029 1.0 180.0 0.0 0.0
3.139749723 -164.148755825 3.13054264 15.920527018 0.0 0.0 1.0 180.0
4086.5384615384614 0.076231321 59.693254095 0.105870306 -14.763983416 0.0 0.0 0.0 0.0
0.105834041 -14.668174073 0.073504649 59.038254991 0.0 0.0 0.0 0.0
3.175921359 12.625292878 3.184584388 -167.383477142 1.0 180.0 0.0 0.0
3.139916507 -167.615559332 3.131073237 12.463887326 0.0 0.0 1.0 180.0
4169.937205651491 0.076352111 60.063683346 0.104880793 -17.250425312 0.0 0.0 0.0 0.0
0.104848337 -17.150833276 0.073454398 59.474481347 0.0 0.0 0.0 0.0
3.176421323 9.148120328 3.184808811 -170.864926263 1.0 180.0 0.0 0.0
3.140117685 -171.087537097 3.131530365 9.002463279 0.0 0.0 1.0 180.0
4253.3359497645215 0.076315504 60.553792525 0.103660254 -19.74921779 0.0 0.0 0.0 0.0
0.103631931 -19.645583675 0.073346899 60.067671934 0.0 0.0 0.0 0.0
3.177049638 5.663146151 3.184968616 -174.353691063 1.0 180.0 0.0 0.0
3.140463047 -174.567342159 3.131990433 5.533436988 0.0 0.0 1.0 180.0
4336.734693877551 0.07612804 61.199072811 0.102174133 -22.257321387 0.0 0.0 0.0 0.0
0.102150277 -22.14931952 0.073191015 60.852233146 0.0 0.0 0.0 0.0
3.177856224 2.170405657 3.185130023 -177.850111826 1.0 180.0 0.0 0.0
3.140996165 -178.054908868 3.132511871 2.05645733 0.0 0.0 1.0 180.0
4420.13343799058 0.075840021 62.029853406 0.100409224 -24.77556758 0.0 0.0 0.0 0.0
0.100390137 -24.662816246 0.07301388 61.848836705 0.0 0.0 0.0 0.0
3.178798266 -1.327456093 3.185311762 178.647930086 1.0 180.0 0.0 0.0
3.141669933 178.452435216 3.133105848 -1.426378829 0.0 0.0 1.0 180.0
4503.5321821036105 0.07554084 63.061316624 0.098380304 -27.306789752 0.0 0.0 0.0 0.0
0.098366222 -27.188871008 0.072861235 63.057192288 0.0 0.0 0.0 0.0
3.179748919 -4.826051791 3.185475763 175.144270027 1.0 180.0 0.0 0.0
3.142355398 174.95909637 3.133727595 -4.911265435 0.0 0.0 1.0 180.0
4586.930926216641 0.075342079 64.285262021 0.096128909 -29.85370475 0.0 0.0 0.0 0.0
0.096119988 -29.730189673 0.072791135 64.45286158 0.0 0.0 0.0 0.0
3.180532495 -8.320522509 3.185536406 171.643318394 1.0 180.0 0.0 0.0
3.142877151 171.469940941 3.134286757 -8.393822586 0.0 0.0 1.0 180.0
4670.32967032967 0.07535187 65.667271508 0.093714339 -32.417744947 0.0 0.0 0.0 0.0
0.093710664 -32.288218051 0.072862373 65.990053877 0.0 0.0 0.0 0.0
3.180977218 -11.806856313 3.185387012 168.148845896 1.0 180.0 0.0 0.0
3.143064124 167.988966941 3.134672957 -11.870313937 0.0 0.0 1.0 180.0
4753.728414442699 0.075647435 67.152387775 0.09119943 -34.999784311 0.0 0.0 0.0 0.0
0.091201037 -34.863859063 0.073121322 67.611016096 0.0 0.0 0.0 0.0
3.180969955 -15.282892308 3.184935544 164.663046407 1.0 180.0 0.0 0.0
3.142803744 164.518302901 3.134791865 -15.338578419 0.0 0.0 1.0 180.0
4837.12715855573 0.076254438 68.679372167 0.088635238 -37.603034699 0.0 0.0 0.0 0.0
0.088642144 -37.460351942 0.073591907 69.260218804 0.0 0.0 0.0 0.0
3.180495368 -18.748796852 3.184137459 161.186088593 1.0 180.0 0.0 0.0
3.14208024 161.05773289 3.134597806 -18.798480689 0.0 0.0 1.0 180.0
4920.525902668759 0.077140472 70.19903412 0.086049187 -40.23742406 0.0 0.0 0.0 0.0
0.086061402 -40.087627636 0.0742725 70.899030217 0.0 0.0 0.0 0.0
3.179647486 -22.206898773 3.183015391 157.716271933 1.0 180.0 0.0 0.0
3.140985738 157.604868599 3.134113071 -22.25175624 0.0 0.0 1.0 180.0
5003.92464678179 0.078225659 71.689225959 0.083440149 -42.923846759 0.0 0.0 0.0 0.0
0.083457665 -42.766535793 0.07514095 72.515608506 0.0 0.0 0.0 0.0
3.178613262 -25.661037519 3.18166278 154.250631933 1.0 180.0 0.0 0.0
3.139703974 154.155809563 3.13343125 -25.701409257 0.0 0.0 1.0 180.0
5087.32339089482 0.079407893 73.160372367 0.080781787 -45.696276379 0.0 0.0 0.0 0.0
0.080804537 -45.530940197 0.076166257 74.126204023 0.0 0.0 0.0 0.0
3.177629125 -29.115626124 3.180226621 150.785786682 1.0 180.0 0.0 0.0
3.138467425 150.706081762 3.132699609 -29.150875695 0.0 0.0 1.0 180.0
5170.722135007849 0.080595952 74.649775224 0.078033029 -48.600148294 0.0 0.0 0.0 0.0
0.078060832 -48.426095089 0.077323543 75.767148403 0.0 0.0 0.0 0.0
3.176899713 -32.574383739 3.178851029 147.319065897 1.0 180.0 0.0 0.0
3.137477774 147.251926316 3.132063214 -32.60288019 0.0 0.0 1.0 180.0
5254.120879120879 0.081741774 76.20701977 0.075152327 -51.686504411 0.0 0.0 0.0 0.0
0.075184827 -51.502796944 0.078608266 77.479828333 0.0 0.0 0.0 0.0
3.176559357 -36.03974208 3.177655397 143.848925021 1.0 180.0 0.0 0.0
3.13686737 143.790883784 3.131641763 -36.059032663 0.0 0.0 1.0 180.0
5337.5196232339085 0.082863141 77.874636328 0.072111055 -55.002687902 0.0 0.0 0.0 0.0
0.072147677 -54.808097158 0.080045563 79.292822907 0.0 0.0 0.0 0.0
3.176632968 -39.512413903 3.176699343 140.375180045 1.0 180.0 0.0 0.0
3.136661934 140.322232732 3.131495376 -39.519580966 0.0 0.0 1.0 180.0
5420.918367346938 0.084049674 79.668555001 0.068901344 -58.581536154 0.0 0.0 0.0 0.0
0.068941295 -58.374517708 0.081691279 81.206160478 0.0 0.0 0.0 0.0
3.177025038 -42.991386383 3.17596238 136.898837986 1.0 180.0 0.0 0.0
3.136769109 136.846994999 3.13160339 -42.983570899 0.0 0.0 1.0 180.0
5504.317111459968 0.085448508 81.563517873 0.065535335 -62.432037646 0.0 0.0 0.0 0.0
0.065577645 -62.210724189 0.083623097 83.182669901 0.0 0.0 0.0 0.0
3.177548268 -46.474379873 3.175352837 133.421533176 1.0 180.0 0.0 0.0
3.137006125 133.367466071 3.131872545 -46.449407836 0.0 0.0 1.0 180.0
5587.715855572998 0.087231691 83.489504826 0.062036039 -66.535322772 0.0 0.0 0.0 0.0
0.062079653 -66.297510308 0.085923552 85.150351498 0.0 0.0 0.0 0.0
3.177974349 -49.95852179 3.174734156 129.944870165 1.0 180.0 0.0 0.0
3.137151868 129.886545195 3.132165468 -49.915498509 0.0 0.0 1.0 180.0
5671.114599686028 0.089554107 85.343983209 0.058423999 -70.85019159 0.0 0.0 0.0 0.0
0.058467874 -70.593280868 0.088660342 87.01676585 0.0 0.0 0.0 0.0
3.178101102 -53.441072813 3.173969477 126.469866925 1.0 180.0 0.0 0.0
