! File created by SignalIntegrity v1.4.2: Signal and Power Integrity Tools
! https://github.com/Nubis-Communications/SignalIntegrity
# MHz S MA R 50.0
0.0 0.508267385 0.0 0.517087875 0.0 8.91e-07 180.0 9.54e-07 180.0
0.517100334 0.0 0.508254355 0.0 8.92e-07 180.0 9.54e-07 180.0
0.502523046 0.0 0.502901981 180.0 0.097355533 180.0 0.065586832 180.0
0.502509695 180.0 0.502867712 0.0 0.065561231 180.0 0.097371386 180.0
100.0 0.398005248 -45.058932788 0.400124918 -42.535128229 1.026e-06 150.937712851 1.073e-06 150.294560642
0.400134901 -42.535139048 0.398057719 -45.06505702 1.02e-06 151.574965048 1.068e-06 150.916995741
0.503454877 1.203545451 0.503209703 -178.865028131 0.057046725 151.18757763 0.047678215 77.383296742
0.503378949 -178.779857036 0.503243175 1.124821737 0.047644112 77.411114594 0.05703819 151.147626229
200.0 0.24545727 -64.346146264 0.240226467 -59.071379165 8.59e-07 116.905474752 8.94e-07 117.252701382
0.240232947 -59.071453736 0.245578678 -64.372504404 8.47e-07 118.271737804 8.84e-07 118.562020873
0.504459046 2.260595415 0.503765901 -177.766653365 0.052121517 -172.136863105 0.011843156 -37.155178657
0.504442045 -177.692277365 0.503731681 2.198574457 0.011808247 -37.180910685 0.052108522 -172.144132926
300.0 0.198487447 -74.587902923 0.184923201 -67.403539806 6.89e-07 131.484107443 7.2e-07 131.019078721
0.18492867 -67.403662074 0.198625762 -74.629948692 6.86e-07 132.892114695 7.17e-07 132.376608848
0.505113704 3.356993578 0.504370385 -176.637842781 0.056841482 176.320345298 0.010746858 80.931562827
0.505264348 -176.576100816 0.504163982 3.315250606 0.010754622 81.085247541 0.056844577 176.2781135
400.0 0.15097416 -80.134854158 0.13124885 -69.65193672 1.016e-06 132.966340188 1.053e-06 133.103460119
0.131253167 -69.652203369 0.151139213 -80.197345682 1.004e-06 133.897267258 1.041e-06 134.000337011
0.506334551 4.463644978 0.505685325 -175.500886506 0.05525415 -174.755683456 0.005298923 -22.695608294
0.506683367 -175.457368753 0.505282261 4.447393225 0.005259321 -22.518037034 0.055248159 -174.813523271
500.0 0.142651116 -84.34213732 0.116043294 -72.429214828 1.284e-06 133.260427349 1.333e-06 133.138326417
0.116047482 -72.429485612 0.142833665 -84.412253523 1.264e-06 133.979965303 1.313e-06 133.832177419
0.507759935 5.568623697 0.507259531 -174.38510641 0.056551445 -179.328533121 0.006301387 64.546038449
0.508304417 -174.350164989 0.506665191 5.568332492 0.006320706 64.916758469 0.056547558 -179.41175372
600.0 0.122078326 -87.719405484 0.089611411 -72.158043622 1.666e-06 129.07278572 1.724e-06 129.157424863
0.089615089 -72.158488919 0.122289324 -87.804565425 1.634e-06 129.639556937 1.692e-06 129.703449659
0.509668281 6.678006365 0.509315066 -173.267699893 0.056297655 -174.025592059 0.004130659 -21.172602891
0.510382701 -173.243633759 0.508555579 6.695565324 0.004087222 -20.651092826 0.056278857 -174.121417963
700.0 0.123124626 -90.118015185 0.084308023 -73.466932682 1.99e-06 126.702204044 2.061e-06 126.687250073
0.084311815 -73.467314403 0.123355828 -90.205707798 1.947e-06 127.168974176 2.019e-06 127.135834981
0.511898011 7.776537936 0.511669237 -172.172188041 0.056698192 -176.902591629 0.004836114 51.440852003
0.512746776 -172.152961218 0.510780477 7.806093789 0.004866039 52.070375166 0.056677598 -177.018746368
800.0 0.112704571 -92.816045104 0.068158267 -72.281636594 2.387e-06 123.079085391 2.468e-06 123.145294744
0.068161814 -72.282209948 0.112965492 -92.91366714 2.331e-06 123.45943274 2.414e-06 123.510301566
0.514567573 8.871299015 0.514435634 -171.079580646 0.056790207 -172.915521881 0.003856018 -21.480989684
0.515514479 -171.067283543 0.513453714 8.914804068 0.003813547 -20.614555383 0.056753491 -173.040484864
900.0 0.116955278 -94.473565352 0.066340789 -73.108010465 2.726e-06 120.630467271 2.821e-06 120.649028069
0.06634455 -73.108445375 0.117237687 -94.571234827 2.658e-06 120.948305843 2.755e-06 120.952819357
0.517585332 9.950915274 0.517518468 -170.007665366 0.056924431 -174.937215697 0.00410289 39.741583482
0.51859647 -169.998188623 0.516477997 10.004519206 0.004140971 40.649970859 0.056884444 -175.079436574
1000.0 0.111442233 -96.855547557 0.055193353 -71.437338395 3.118e-06 117.835903475 3.223e-06 117.89252821
0.055197008 -71.437974133 0.111754666 -96.959350021 3.037e-06 118.09661237 3.145e-06 118.140941999
0.521019152 11.021244039 0.520994565 -168.942301947 0.05716633 -171.671815711 0.003799314 -22.908785496
0.522066886 -168.937497257 0.519923921 11.086778102 0.003760759 -21.765100861 0.057110099 -171.820002084
1100.0 0.116982477 -98.156893796 0.05486664 -72.115990258 3.457e-06 115.799736947 3.576e-06 115.830057745
0.054870563 -72.116405844 0.117316876 -98.259869246 3.365e-06 116.016365748 3.486e-06 116.035233248
0.524808042 12.073594484 0.52480046 -167.897786213 0.057210126 -173.164170277 0.003684989 28.991478698
0.525868532 -167.89459671 0.523725066 12.148256107 0.003727946 30.177213541 0.05714983 -173.327269375
1200.0 0.114224872 -100.349983608 0.04656727 -70.129328117 3.84e-06 113.68660246 3.969e-06 113.73722187
0.046571176 -70.129947135 0.114589062 -100.456583644 3.735e-06 113.862459192 3.867e-06 113.902786567
0.5289994 13.112733233 0.528994751 -166.863261345 0.05754321 -170.374332396 0.003801784 -24.975109859
0.530054966 -166.863287622 0.527933941 13.198129807 0.003768111 -23.624286537 0.057467036 -170.541127824
1300.0 0.120298412 -101.465322395 0.0469478 -70.799480945 4.177e-06 112.073750215 4.32e-06 112.108426267
0.04695201 -70.799790885 0.120684585 -101.571039319 4.06e-06 112.216786271 4.206e-06 112.241787853
0.533548622 14.131657098 0.533528583 -165.850592048 0.057555615 -171.511479134 0.003440594 19.336280957
0.534583955 -165.851424528 0.532500087 14.225588415 0.003485534 20.773490299 0.057474993 -171.691258409
1400.0 0.119241067 -103.525778346 0.040448614 -68.581600905 4.552e-06 110.462901595 4.705e-06 110.509466914
0.040452873 -68.582111475 0.119656487 -103.633566991 4.423e-06 110.575651148 4.579e-06 110.613360406
0.538492654 15.134265002 0.538449863 -164.851098788 0.057950341 -169.065955237 0.003821536 -27.200630691
0.539497365 -164.854119066 0.537466522 15.238100955 0.003792799 -25.700154043 0.057854517 -169.247637937
1500.0 0.125499789 -104.539293853 0.041180947 -69.308173086 4.888e-06 109.189642829 5.055e-06 109.22590808
0.041185541 -69.308277982 0.12593691 -104.64648842 4.747e-06 109.277346386 4.917e-06 109.305237461
0.543796489 16.114708572 0.543717741 -163.874805553 0.05795344 -169.950661739 0.003305911 10.886176153
0.544761256 -163.878049652 0.54279202 16.226628768 0.00335068 12.528588933 0.057853078 -170.143748617
1600.0 0.125556669 -106.497158415 0.035906508 -66.909735194 5.259e-06 107.938449625 5.436e-06 107.982196023
0.035911205 -66.910033907 0.126022298 -106.605503083 5.105e-06 108.003209139 5.285e-06 108.039186845
0.549490681 17.076225951 0.549373325 -162.914553462 0.058391225 -167.767906956 0.003850583 -29.290252534
0.550410197 -162.919227135 0.54851365 17.197380117 0.003826482 -27.688212602 0.05827651 -167.961540989
1700.0 0.131822025 -107.453188376 0.036813308 -67.724094137 5.596e-06 106.920193921 5.786e-06 106.956981631
0.036818367 -67.723882326 0.132308859 -107.561333883 5.43e-06 106.965662828 5.623e-06 106.995071764
0.555546201 18.013840623 0.555380788 -161.978915248 0.058394075 -168.46431974 0.003247832 3.637206148
0.556415422 -161.98338865 0.554595932 18.142665332 0.003290948 5.426912995 0.058274924 -168.668096681
1800.0 0.132636745 -109.326999309 0.032418595 -65.179966458 5.964e-06 105.925724737 6.165e-06 105.967496614
0.032423808 -65.17993933 0.133151211 -109.435767942 5.785e-06 105.953684854 5.989e-06 105.988543381
0.561989223 18.930299783 0.561776577 -161.061847707 0.058862887 -166.488712894 0.003891075 -31.10668512
0.562806574 -161.067189166 0.561071755 19.067748849 0.00387111 -29.44546203 0.058730302 -166.692068596
1900.0 0.138809346 -110.249750127 0.0334055 -66.096359077 6.303e-06 105.095249576 6.517e-06 105.132170514
0.033411101 -66.095707654 0.139344361 -110.358713105 6.112e-06 105.108350194 6.329e-06 105.138680948
0.568794655 19.821332494 0.568528277 -160.170745012 0.058869873 -167.038841365 0.003247613 -2.501626554
0.56955834 -160.17558911 0.567909446 19.966025631 0.003288048 -0.624870854 0.058733054 -167.251361994
2000.0 0.140149779 -112.052144945 0.02966945 -63.433242574 6.671e-06 104.285111553 6.895e-06 104.325513357
0.029675256 -63.432766401 0.140711453 -112.161444021 6.467e-06 104.284865835 6.695e-06 104.319046257
0.575985451 20.689324555 0.575668886 -159.300410283 0.05936223 -165.230310769 0.003947518 -32.615097739
0.576696778 -159.305717226 0.575138738 20.842043832 0.003930994 -30.93267914 0.059212884 -165.441767835
2100.0 0.146170654 -112.955070442 0.030684086 -64.456422194 7.013e-06 103.592471608 7.25e-06 103.629419779
0.030690306 -64.455198303 0.146752093 -113.064914285 6.796e-06 103.580853787 7.037e-06 103.611853091
0.583539246 21.530600036 0.583168422 -158.457255824 0.059376166 -165.662994662 0.003293941 -7.671875095
0.584198974 -158.46187543 0.582730627 21.690101612 0.003330906 -5.763472478 0.059222821 -165.882878617
2200.0 0.147877353 -114.695240274 0.027457519 -61.69634865 7.381e-06 102.915924109 7.63e-06 102.95540237
0.027463997 -61.695292675 0.148484406 -114.805276631 7.151e-06 102.894214581 7.404e-06 102.92804343
0.591476501 22.347278831 0.591057148 -157.636740083 0.059887781 -163.9917767 0.004024072 -33.841375603
0.592088198 -157.641544887 0.590712332 22.514195858 0.004010092 -32.171046091 0.059722746 -164.210213683
2300.0 0.153709745 -115.585823144 0.028470127 -62.82552905 7.727e-06 102.324876694 7.988e-06 102.361865355
0.028477047 -62.823591542 0.154335679 -115.69670008 7.484e-06 102.294575404 7.749e-06 102.326147527
0.599776829 23.136198348 0.599306872 -156.844439872 0.059911039 -164.327791102 0.003379518 -12.035124529
0.600343246 -156.848456725 0.599056821 23.309393399 0.0034123 -10.141345726 0.059742225 -164.554109743
2400.0 0.155668528 -117.27074114 0.02564809 -59.987593321 8.097e-06 101.746269526 8.37e-06 101.785161987
0.025655324 -59.985821266 0.156318975 -117.381751412 7.84e-06 101.708456267 8.117e-06 101.742180198
0.608458684 23.89928197 0.607945571 -156.076327678 0.060439794 -162.771423634 0.00412364 -34.84301604
0.608985105 -156.080354785 0.607789228 24.079260837 0.00411111 -33.212459557 0.060260022 -162.996106133
2500.0 0.161288709 -118.153055042 0.02664169 -61.218687201 8.446e-06 101.230782417 8.732e-06 101.267872382
0.026649396 -61.215888696 0.161957076 -118.265148347 8.176e-06 101.186613927 8.466e-06 101.218736497
0.617503159 24.63381537 0.61694641 -155.337257908 0.060474647 -163.026473872 0.0034992 -15.750583098
0.617993815 -155.340467635 0.616884036 24.819527953 0.00352707 -13.906878987 0.060291268 -163.258639905
2600.0 0.163415095 -119.788168706 0.02414777 -58.319963002 8.819e-06 100.725004151 9.116e-06 100.763571085
0.02415585 -58.317335506 0.164106833 -119.900384711 8.535e-06 100.675390128 8.837e-06 100.709198439
0.626927039 25.341575536 0.626335378 -154.623610143 0.061019813 -161.567874508 0.004247677 -35.688445321
0.627388429 -154.626734606 0.626364595 25.533420684 0.004235339 -34.119036522 0.060826086 -161.798352518
2700.0 0.168807454 -120.664305451 0.025112867 -59.646939907 9.172e-06 100.266493372 9.482e-06 100.30376083
0.02512145 -59.643129291 0.169516091 -120.777799556 8.875e-06 100.212337614 9.189e-06 100.245021727
0.636712564 26.02024191 0.636086704 -153.939607394 0.061068463 -161.754383084 0.003648982 -18.960735001
0.637149916 -153.941937742 0.636206598 26.217245093 0.00367116 -17.191959586 0.060871237 -161.992053064
2800.0 0.171037337 -122.25396572 0.022889808 -56.702993423 9.547e-06 99.815831803 9.868e-06 99.854276872
0.022898832 -56.699370869 0.171768174 -122.367598688 9.236e-06 99.757902168 9.562e-06 99.791942037
0.646875084 26.671481093 0.646224604 -153.281954687 0.06163012 -160.38051132 0.004396319 -36.442898829
0.647295646 -153.284161891 0.646431823 26.873953401 0.00438281 -34.949590804 0.061423032 -160.616531912
2900.0 0.176191614 -123.124855711 0.023821408 -58.118747023 9.904e-06 99.401091607 1.0238e-05 99.438613724
0.02383097 -58.113772377 0.176938285 -123.239921572 9.579e-06 99.340103384 9.918e-06 99.37337422
0.657397747 27.293319201 0.656724177 -152.654319827 0.061694628 -160.508690935 0.003825462 -21.784166303
0.657807311 -152.655791039 0.657016963 27.500354725 0.003841125 -20.105960364 0.061484081 -160.751684901
3000.0 0.178475407 -124.672602212 0.021825242 -55.143940279 1.0281e-05 98.993043208 1.0627e-05 99.031527839
0.021835315 -55.13918599 0.179243089 -124.787836758 9.942e-06 98.929647466 1.0293e-05 98.964034592
0.668294649 27.88733811 0.667608035 -152.053670998 0.062273247 -159.209560305 0.004568678 -37.160148388
0.668700796 -152.055019146 0.667982385 28.099177872 0.004552592 -35.75200869 0.062053205 -159.450997776
3100.0 0.183385067 -125.538498384 0.022721107 -56.640861779 1.0642e-05 98.612716934 1.1001e-05 98.65056571
0.022731756 -56.634573697 0.184167489 -125.655287141 1.0289e-05 98.547487376 1.0653e-05 98.581374727
0.679549672 28.451869075 0.678852016 -151.483186728 0.062355451 -159.288058611 0.004025607 -24.313998939
0.679958381 -151.483875765 0.67930563 28.66767182 0.004033908 -22.734681433 0.06213192 -159.536297517
3200.0 0.185683877 -127.047258722 0.020917335 -53.648538531 1.1022e-05 98.238437972 1.1392e-05 98.277091526
0.020928571 -53.642522255 0.18648611 -127.164251744 1.0654e-05 98.171930154 1.103e-05 98.206756356
0.691175789 28.988427282 0.690477272 -150.940051177 0.062951617 -158.055982768 0.004763184 -37.879205001
0.69159463 -150.940638298 0.691005781 29.20837986 0.004743126 -36.560410165 0.062718852 -158.302785597
3300.0 0.19034511 -127.908027949 0.021776924 -55.218902778 1.1386e-05 97.885893565 1.177e-05 97.924133584
0.021788778 -55.211157996 0.191160972 -128.02666899 1.1004e-05 97.818574035 1.1394e-05 97.853107749
0.703157495 29.495612025 0.702460299 -150.427012024 0.063053067 -158.092270624 0.004246666 -26.620006857
0.703592327 -150.427022097 0.703061121 29.718935497 0.00424676 -25.142500692 0.062816722 -158.345729962
3400.0 0.192628145 -129.380261789 0.02013796 -52.221503365 1.1768e-05 97.539094892 1.2164e-05 97.578022034
0.020150482 -52.214104942 0.19346262 -129.49914376 1.1372e-05 97.471441086 1.1773e-05 97.50677984
0.715506749 29.97488415 0.714820915 -149.941434014 0.063667306 -156.921280818 0.004977896 -38.624638638
0.71596486 -149.941370717 0.715489551 30.201725074 0.004952529 -37.395654175 0.063421894 -157.17343328
3500.0 0.197039222 -130.235563074 0.020961773 -53.857729357 1.2135e-05 97.209601534 1.2544e-05 97.248289548
0.02097496 -53.848394571 0.19788621 -130.356164401 1.1725e-05 97.141998093 1.214e-05 97.177205999
0.728208565 30.425077589 0.727536225 -149.485686506 0.063789239 -156.921889442 0.00448616 -28.752587181
0.728695463 -149.485122792 0.728270021 30.654717707 0.004477228 -27.37610378 0.063540102 -157.18056649
3600.0 0.19928198 -131.673368843 0.019465178 -50.866858832 1.252e-05 96.885757364 1.2941e-05 96.925043488
0.019479121 -50.857971909 0.20014639 -131.794246161 1.2094e-05 96.818617368 1.2522e-05 96.854527912
0.741273982 30.847606968 0.740624825 -149.057288565 0.064421928 -155.807285449 0.005210763 -39.408974548
0.741796475 -149.056677107 0.74141934 31.080164276 0.005178832 -38.267688958 0.06416381 -156.064781157
3700.0 0.203442817 -132.522763337 0.020254341 -52.561682728 1.289e-05 96.575886892 1.3325e-05 96.615072216
0.020269 -52.550638457 0.204318626 -132.64541306 1.245e-05 96.509531472 1.2891e-05 96.545438576
0.754688469 31.241510653 0.754064407 -148.658278745 0.064565264 -155.777957057 0.004741893 -30.747200904
0.755251558 -148.657230496 0.754917071 31.476326023 0.004723154 -29.468573056 0.064303231 -156.041848909
3800.0 0.20562578 -133.927958584 0.018881576 -49.588146177 1.3277e-05 96.271669765 1.3724e-05 96.31138507
0.018897083 -49.577681816 0.206517836 -134.0509163 1.2822e-05 96.206458249 1.3275e-05 96.242988654
0.768462223 31.608162027 0.767872444 -148.286311111 0.065216589 -154.715964948 0.005459801 -40.235852119
0.769072111 -148.28523071 0.768779013 31.845334488 0.005420148 -39.178528509 0.064945596 -154.97878961
3900.0 0.209537624 -134.7709777 0.01963757 -51.334731747 1.3651e-05 95.978866159 1.4111e-05 96.018591398
0.019653847 -51.321876074 0.210439979 -134.895746014 1.3181e-05 95.915069458 1.3648e-05 95.951697767
0.782581128 31.946776545 0.782027206 -147.943136411 0.065381957 -154.661755674 0.005011959 -32.628443418
0.78324221 -147.941665097 0.782985308 32.18570428 0.004982678 -31.443104454 0.065106821 -154.930845423
4000.0 0.211645286 -136.145160348 0.018373096 -48.388546027 1.404e-05 95.691746568 1.4513e-05 95.731949152
0.01839032 -48.376436031 0.212562734 -136.270264909 1.3555e-05 95.629678266 1.4034e-05 95.666867776
0.79705461 32.258689034 0.796545138 -147.626529565 0.066051913 -153.64927135 0.005723205 -41.103073504
0.797772417 -147.625027365 0.797550816 32.499459675 0.005674773 -40.125072425 0.065767783 -153.917392388
4100.0 0.215310485 -136.981347628 0.01909758 -50.180549726 1.4417e-05 95.414020981 1.4903e-05 95.45432285
0.019115635 -50.165801745 0.216237151 -137.108288946 1.3917e-05 95.353911282 1.441e-05 95.391279928
0.81186894 32.543267312 0.811405087 -147.337992273 0.06623968 -153.574628852 0.005294739 -34.413368354
0.812647223 -147.33612499 0.812456239 32.785334109 0.005254231 -33.316030341 0.065951151 -153.848877729
4200.0 0.217330616 -138.325943063 0.017928203 -47.270938941 1.4809e-05 95.14198744 1.5307e-05 95.182725684
0.017947306 -47.257138761 0.21827125 -138.453244909 1.4294e-05 95.08411015 1.4799e-05 95.121990976
0.827032844 32.80180872 0.826622554 -147.075409931 0.066928092 -152.609029584 0.0059994 -42.00510546
0.827876437 -147.073496763 0.827715566 33.045253651 0.005941228 -41.101391731 0.066630492 -152.882390674
4300.0 0.220752432 -139.154879384 0.018622903 -49.102542004 1.5189e-05 94.877706548 1.5701e-05 94.918616664
0.018642903 -49.085844794 0.221701231 -139.284034427 1.4659e-05 94.82225793 1.5178e-05 94.860383425
0.842532961 33.033811165 0.842176971 -146.840069924 0.067138407 -152.51785744 0.005588883 -36.11399501
0.84344497 -146.83779711 0.843310047 33.278139845 0.005536509 -35.099095348 0.066836128 -152.797201162
4400.0 0.222675503 -140.47117686 0.01753728 -46.237923249 1.5583e-05 94.619073668 1.6108e-05 94.660388086
0.017558434 -46.222414324 0.223637175 -140.600712805 1.5038e-05 94.566292189 1.557e-05 94.604890896
0.85837738 33.240534489 0.858082971 -146.629960408 0.067844955 -151.596866249 0.006287061 -42.934912682
0.85936196 -146.627610311 0.859252868 33.485827401 0.006218276 -42.100386367 0.067533495 -151.875385289
4500.0 0.225857962 -141.292494908 0.018203911 -48.103839996 1.5967e-05 94.366816864 1.6505e-05 94.408362475
0.018226032 -48.085163008 0.226826779 -141.423892679 1.5407e-05 94.316869661 1.5952e-05 94.355766199
0.874553104 33.421586722 0.874320575 -146.446185353 0.068077788 -151.492581184 0.005893287 -37.739090296
0.875612744 -146.443461757 0.875525819 33.667398752 0.005828451 -36.801071935 0.067761352 -151.776929181
4600.0 0.227676687 -142.581675811 0.017192185 -45.291805477 1.6364e-05 94.120097456 1.6916e-05 94.162022154
0.01721557 -45.274596911 0.228657318 -142.713471177 1.5789e-05 94.073191009 1.6347e-05 94.1125296
0.891067643 33.578189542 0.890903626 -146.286829781 0.068802042 -150.614171208 0.006585098 -43.88517755
0.892205858 -146.283982266 0.892141344 33.824602514 0.006504905 -43.114874996 0.068476288 -150.897740591
4700.0 0.230624448 -143.395067607 0.017832402 -47.187274832 1.6752e-05 93.878564303 1.7317e-05 93.920768925
0.01785683 -47.166615553 0.23161124 -143.528727189 1.616e-05 93.834840086 1.6733e-05 93.874519839
0.907908364 33.710043326 0.907812741 -146.152841528 0.069057218 -150.499755692 0.006207063 -39.295375102
0.909127073 -146.149589455 0.909081774 33.956658002 0.006129207 -38.428853118 0.068726182 -150.788992225
4800.0 0.23233341 -144.65822743 0.016885923 -44.434575872 1.7153e-05 93.642387637 1.773e-05 93.684951463
