! File created by SignalIntegrity v1.1.10: Signal and Power Integrity Tools
! https://github.com/TeledyneLeCroy/SignalIntegrity
# MHz S MA R 50.0
0.0 0.003577 143.398806 0.999994 -0.28581 0.999994 -0.347998 0.003577 35.967387
100.0 0.020233 1.898794 0.993556 -81.228653 0.992651 -81.207377 0.019638 -7.162796
200.0 0.008689 -74.890049 0.991938 -162.160347 0.991729 -162.199376 0.010642 -115.448276
300.0 0.021962 10.774535 0.991354 116.585305 0.990991 116.613229 0.020731 33.910443
400.0 0.011383 -117.753688 0.987186 35.463829 0.987224 35.439115 0.006096 -92.750184
500.0 0.021139 39.880044 0.982142 -45.532247 0.982745 -45.5256 0.02128 27.166047
600.0 0.007967 -71.665572 0.980449 -126.467245 0.980214 -126.508356 0.010867 -92.839262
700.0 0.018157 50.04942 0.979433 152.595564 0.978948 152.573672 0.019156 63.535536
800.0 0.017001 -67.048071 0.978125 71.659343 0.978196 71.681687 0.012607 -39.424729
900.0 0.018022 89.595591 0.976639 -9.288341 0.976452 -9.267102 0.018302 68.21946
1000.0 0.022279 -19.068638 0.974851 -90.184909 0.97515 -90.148212 0.022846 -26.983514
1100.0 0.011547 109.566071 0.974103 -171.166897 0.973962 -171.137947 0.011632 102.681453
1200.0 0.025308 2.4678 0.972615 107.973218 0.972382 107.973863 0.025651 -0.694246
1300.0 0.007765 162.957431 0.971863 27.021088 0.971428 27.028449 0.006316 158.28652
1400.0 0.030215 28.056146 0.970018 -53.9015 0.969905 -53.848304 0.030979 18.294699
1500.0 0.007738 -78.832673 0.969122 -134.844773 0.969149 -134.808939 0.010712 -101.869128
1600.0 0.031928 41.357897 0.967424 144.225179 0.967828 144.285478 0.031299 52.041722
1700.0 0.023475 -52.013276 0.967589 63.35128 0.967124 63.380063 0.021319 -38.546649
1800.0 0.021374 79.888136 0.966169 -17.593416 0.965983 -17.581316 0.021495 58.248312
1900.0 0.027239 -16.86983 0.965388 -98.465808 0.964782 -98.467991 0.030044 -30.700307
2000.0 0.011579 92.205432 0.964874 -179.437784 0.964714 -179.390484 0.012691 100.046451
2100.0 0.035035 -2.350882 0.963057 99.69642 0.962545 99.721924 0.035067 -3.395062
2200.0 0.002585 -151.247666 0.962923 18.751124 0.962791 18.806048 0.00333 -154.029017
2300.0 0.036485 19.656137 0.961042 -62.134046 0.961235 -62.119789 0.035205 15.913137
2400.0 0.014656 -67.556265 0.961757 -143.062197 0.960794 -142.981732 0.01498 -78.074288
2500.0 0.031617 41.179106 0.959707 136.010018 0.959803 136.008616 0.032136 36.460856
2600.0 0.027137 -47.973475 0.959538 55.130794 0.959142 55.134613 0.026723 -48.296306
2700.0 0.022522 65.554277 0.957722 -25.809962 0.958312 -25.794607 0.022398 53.704245
2800.0 0.037055 -25.255654 0.957236 -106.669824 0.957643 -106.660532 0.037693 -28.537174
2900.0 0.008618 107.047497 0.957273 172.409862 0.957226 172.391734 0.008414 56.900909
3000.0 0.041698 3.736429 0.955237 91.513459 0.955365 91.539282 0.043799 -15.751241
3100.0 0.009926 -68.28531 0.955318 10.61318 0.955838 10.582665 0.011366 -104.875629
3200.0 0.039245 17.608015 0.954224 -70.334322 0.953498 -70.34152 0.039896 7.570187
3300.0 0.028326 -57.716012 0.954113 -151.164648 0.953678 -151.182807 0.029225 -75.482083
3400.0 0.025922 29.155526 0.952699 127.850146 0.953026 127.843963 0.02509 29.489615
3500.0 0.038151 -45.444112 0.952474 47.030909 0.95154 47.018026 0.039184 -52.541583
3600.0 0.007895 45.527546 0.951774 -33.9155 0.95187 -33.936287 0.00807 29.454444
3700.0 0.039618 -22.508819 0.95017 -114.826782 0.950236 -114.80833 0.040315 -38.067266
3800.0 0.007574 -76.578031 0.950461 164.253625 0.950765 164.238753 0.006367 -112.318459
3900.0 0.039007 -5.958739 0.948623 83.431934 0.949478 83.324149 0.039061 -19.676183
4000.0 0.025744 -73.464705 0.949512 2.514108 0.948685 2.499277 0.025016 -100.49307
4100.0 0.027516 7.8191 0.947907 -78.465804 0.948549 -78.430917 0.02714 0.631652
4200.0 0.03548 -61.425099 0.9468 -159.311095 0.946931 -159.300871 0.034679 -79.257529
4300.0 0.013886 16.125522 0.94689 119.771628 0.947595 119.755063 0.012895 14.480037
4400.0 0.042483 -41.593611 0.945683 38.924622 0.945817 38.865247 0.041959 -61.932702
4500.0 0.010876 -81.532481 0.945678 -42.033385 0.945923 -42.004254 0.006514 -152.76069
4600.0 0.037942 -31.932328 0.945101 -122.929392 0.944549 -122.933694 0.037441 -37.018612
4700.0 0.022661 -100.868271 0.944418 156.21427 0.944609 156.204752 0.021499 -109.007266
4800.0 0.026995 -7.511906 0.943594 75.293909 0.944319 75.245452 0.028197 -30.36292
4900.0 0.034119 -73.355411 0.943244 -5.591465 0.943121 -5.622839 0.031888 -105.205873
5000.0 0.015006 -8.854206 0.9427 -86.508395 0.942645 -86.518215 0.015272 -0.31626
5100.0 0.03931 -61.308381 0.941771 -167.402739 0.942114 -167.439295 0.037404 -84.170868
5200.0 0.007963 -51.885851 0.940966 111.735961 0.941249 111.704152 0.003261 41.342923
5300.0 0.043717 -51.40831 0.940296 30.771313 0.940261 30.767595 0.042892 -61.390287
5400.0 0.025037 -117.681384 0.939946 -50.06828 0.940315 -50.084833 0.023151 -142.921521
5500.0 0.028853 -36.632872 0.939626 -131.027398 0.939868 -131.004549 0.028533 -43.173128
5600.0 0.036446 -109.032658 0.938362 148.100661 0.938568 148.132937 0.03526 -122.767533
5700.0 0.01028 -3.040148 0.938999 67.204818 0.939238 67.203902 0.01021 -45.921044
5800.0 0.035335 -81.275708 0.937702 -13.691521 0.937564 -13.720583 0.032861 -110.819093
5900.0 0.003553 -71.089739 0.938049 -94.594188 0.938141 -94.581809 0.000847 -102.727763
6000.0 0.041355 -66.844834 0.936805 -175.492503 0.936447 -175.522229 0.039244 -92.310613
6100.0 0.021875 -145.219205 0.935922 103.639258 0.936533 103.649352 0.020904 -174.939722
6200.0 0.02925 -46.625793 0.935659 22.705392 0.936283 22.723086 0.026545 -76.923425
6300.0 0.032896 -123.758759 0.935026 -58.122683 0.935157 -58.098885 0.030818 -163.056363
6400.0 0.014583 -50.809116 0.934927 -139.040007 0.935169 -139.060456 0.013747 -32.579716
6500.0 0.037683 -116.453672 0.933438 140.054605 0.934487 140.053589 0.036202 -131.078236
6600.0 0.004141 87.152794 0.933907 59.174962 0.934372 59.146864 0.002504 -176.25654
6700.0 0.040934 -86.647997 0.93338 -21.771859 0.93292 -21.708986 0.036745 -127.080181
6800.0 0.020073 -169.619762 0.932514 -102.605098 0.932852 -102.607174 0.020205 145.719492
6900.0 0.026412 -69.304157 0.93199 176.432175 0.932033 176.432615 0.022114 -104.168582
7000.0 0.026623 -146.183093 0.931833 95.580916 0.931762 95.596829 0.024141 161.246077
7100.0 0.020744 -64.116065 0.931444 14.670913 0.931312 14.669312 0.01968 -65.171971
7200.0 0.042258 -140.079175 0.929829 -66.227408 0.930427 -66.19768 0.039299 -167.269694
7300.0 0.00322 108.551988 0.930524 -147.087939 0.931179 -147.091462 0.005323 69.920425
7400.0 0.034722 -117.867597 0.929403 131.984742 0.928977 132.014018 0.03115 -150.211657
7500.0 0.016685 163.694837 0.929724 51.12585 0.92957 51.135185 0.017219 115.592816
7600.0 0.031179 -98.368052 0.92927 -29.809665 0.92886 -29.783124 0.027226 -128.603278
7700.0 0.037942 -179.982936 0.927774 -110.66645 0.927931 -110.628246 0.036694 135.544112
7800.0 0.006713 -83.528802 0.928435 168.433383 0.928913 168.431679 0.0079 -56.803138
7900.0 0.03052 -172.039522 0.927127 87.497718 0.927037 87.502883 0.027884 159.78948
8000.0 0.003882 85.335873 0.927399 6.659588 0.927412 6.620852 0.00569 65.185195
8100.0 0.028432 -144.829434 0.926212 -74.242229 0.925893 -74.235355 0.027065 176.58221
8200.0 0.020046 136.834005 0.925684 -155.139891 0.925989 -155.145962 0.020896 86.71936
8300.0 0.017744 -133.019778 0.92584 123.94126 0.926049 123.934821 0.016503 -152.653495
8400.0 0.022925 147.350924 0.924885 43.092492 0.924903 43.084761 0.022487 108.146811
8500.0 0.01033 -139.178162 0.92513 -37.848366 0.924951 -37.832873 0.008866 -127.418039
8600.0 0.0289 157.838319 0.924207 -118.670733 0.923896 -118.693963 0.028072 141.458162
8700.0 0.008755 54.387695 0.923718 160.403294 0.924253 160.36824 0.009376 85.899753
8800.0 0.026638 -165.939917 0.923495 79.513421 0.923949 79.49773 0.026542 141.295152
8900.0 0.022212 112.529841 0.922471 -1.353845 0.922881 -1.381481 0.022081 61.992519
9000.0 0.013059 170.508177 0.922687 -82.285561 0.922577 -82.278979 0.010559 168.382405
9100.0 0.025261 117.573454 0.922141 -163.150868 0.922082 -163.158015 0.0241 95.719417
9200.0 0.008076 71.94576 0.921852 115.941742 0.922092 115.896272 0.006752 30.088719
9300.0 0.014484 127.916027 0.921674 35.040178 0.921096 35.022845 0.014533 119.702533
9400.0 0.004006 26.424346 0.92049 -45.838611 0.920458 -45.813474 0.007104 99.371102
9500.0 0.018365 161.202471 0.920082 -126.718139 0.920435 -126.757246 0.018938 107.634333
9600.0 0.017718 100.760156 0.920144 152.373277 0.920261 152.364386 0.013966 52.719687
9700.0 0.014213 132.531917 0.919238 71.46633 0.919362 71.471895 0.010754 156.758036
9800.0 0.027606 84.311752 0.918567 -9.411404 0.918979 -9.441579 0.027957 91.828395
9900.0 0.00575 2.384078 0.918366 -90.302431 0.918372 -90.302161 0.011688 53.822695
10000.0 0.022134 116.275637 0.918317 -171.192543 0.918448 -171.213839 0.020489 84.262334
10100.0 0.021755 45.911089 0.918123 107.914943 0.918116 107.877963 0.021047 27.318534
10200.0 0.003584 142.210543 0.917465 27.000637 0.917125 26.971135 0.003028 135.68776
10300.0 0.016372 70.3918 0.917141 -53.894233 0.916731 -53.903088 0.015617 60.480869
10400.0 0.007822 122.390968 0.915768 -134.724932 0.915973 -134.763448 0.00767 123.906359
10500.0 0.025567 64.021153 0.915863 144.337871 0.916147 144.327389 0.027059 73.034782
10600.0 0.009167 -7.614255 0.916336 63.423118 0.915954 63.417946 0.015964 20.507737
10700.0 0.01958 100.600996 0.915475 -17.450568 0.915068 -17.471256 0.016829 75.111876
10800.0 0.021566 34.320612 0.9143 -98.329472 0.914111 -98.327429 0.017118 -4.824182
10900.0 0.017369 63.50945 0.914225 -179.247019 0.91437 -179.250942 0.020018 129.310613
11000.0 0.024623 0.744173 0.913548 99.900334 0.914086 99.908704 0.031112 48.809259
11100.0 0.008668 148.038757 0.913674 18.993695 0.913319 18.971653 0.010972 54.992582
11200.0 0.032486 43.553922 0.912747 -61.900933 0.9128 -61.907368 0.033102 41.783692
11300.0 0.01386 -36.845014 0.911861 -142.776916 0.912287 -142.819601 0.01596 -30.659728
11400.0 0.027518 55.981987 0.912007 136.301902 0.912372 136.284943 0.028836 64.37432
11500.0 0.029101 -32.395524 0.911951 55.454665 0.911221 55.485016 0.031238 -16.437112
11600.0 0.009845 107.361904 0.911701 -25.464905 0.911978 -25.449682 0.007 83.629619
11700.0 0.022007 -1.205772 0.911017 -106.381174 0.910891 -106.393362 0.024828 11.850721
11800.0 0.009028 120.388641 0.910671 172.757324 0.911026 172.761937 0.006056 75.230627
11900.0 0.03549 17.893382 0.909874 91.830384 0.909919 91.805806 0.037444 18.157492
12000.0 0.015216 -83.662802 0.909964 10.992303 0.910087 11.005621 0.016251 -69.745974
12100.0 0.025145 35.832655 0.909607 -69.918939 0.909564 -69.948662 0.026196 38.567784
12200.0 0.023008 -61.888783 0.909199 -150.826843 0.909082 -150.773738 0.025541 -41.0959
12300.0 0.017351 67.590463 0.90947 128.291344 0.90888 128.318754 0.014943 48.959578
12400.0 0.034 -36.687257 0.908205 47.426382 0.907635 47.394984 0.036198 -26.488389
12500.0 0.01308 166.357073 0.908111 -33.467781 0.908052 -33.491518 0.006831 -96.144365
12600.0 0.029031 2.020824 0.907284 -114.376085 0.907591 -114.376076 0.026666 -17.312187
12700.0 0.009843 -121.906783 0.907658 164.71486 0.907383 164.741195 0.010983 -112.78074
12800.0 0.027123 18.649781 0.907013 83.815089 0.907002 83.812491 0.025733 8.952925
12900.0 0.021188 -91.45796 0.906401 3.0156 0.90604 2.998862 0.02338 -79.569996
13000.0 0.023005 59.022831 0.905868 -77.960885 0.906351 -77.988995 0.016254 19.836197
13100.0 0.028267 -49.199169 0.905345 -158.827855 0.904695 -158.828992 0.027544 -74.634559
13200.0 0.009752 66.592027 0.905597 120.265277 0.905633 120.300799 0.010868 72.814865
13300.0 0.033766 -42.891489 0.904166 39.428342 0.904338 39.382534 0.034811 -37.765822
13400.0 0.018777 -173.352323 0.904093 -41.448753 0.904622 -41.448132 0.015616 -113.507739
13500.0 0.029228 21.199532 0.90376 -122.41644 0.904827 -122.399604 0.019267 -54.217326
13600.0 0.015691 -58.020821 0.903406 156.751957 0.903617 156.741292 0.017064 -167.334767
13700.0 0.028481 -8.570146 0.902904 75.816225 0.903213 75.817977 0.029569 5.713909
13800.0 0.035921 -89.372179 0.901764 -5.054815 0.902167 -4.990498 0.035854 -93.792528
13900.0 0.005214 118.132798 0.902427 -85.916889 0.902538 -85.900606 0.005143 116.268591
14000.0 0.0269 -77.992223 0.901876 -166.8261 0.901661 -166.810766 0.029043 -63.428068
14100.0 0.025783 141.01761 0.901512 112.311664 0.901681 112.272938 0.0201 -112.418401
14200.0 0.037543 4.437566 0.901482 31.401637 0.900783 31.364989 0.030238 -113.907022
14300.0 0.021797 -96.631581 0.900996 -49.487306 0.900716 -49.450348 0.027723 176.691989
14400.0 0.014972 35.231836 0.901295 -130.412785 0.901017 -130.392564 0.006075 -119.609648
14500.0 0.027255 -51.16169 0.900499 148.76973 0.900048 148.739208 0.026501 172.895603
14600.0 0.011953 -72.112738 0.900141 67.857255 0.900171 67.891297 0.018577 50.986403
14700.0 0.020621 -80.838696 0.899132 -13.031415 0.899656 -13.018625 0.019468 -115.195203
14800.0 0.005003 -89.733173 0.899973 -93.943224 0.899319 -93.922145 0.009288 94.027865
14900.0 0.024228 -67.257325 0.899129 -174.821689 0.898893 -174.792809 0.022638 -92.273918
15000.0 0.0203 -139.738695 0.898624 104.304357 0.898461 104.306099 0.022238 170.414459
15100.0 0.005634 -27.397376 0.89872 23.443911 0.898032 23.411743 0.003293 -53.18196
15200.0 0.013247 -118.981547 0.898095 -57.515898 0.897756 -57.45778 0.014544 -169.607384
15300.0 0.010753 3.689706 0.897936 -138.35704 0.898019 -138.373268 0.006066 -100.88353
15400.0 0.027553 -90.12955 0.896966 140.772809 0.897386 140.753461 0.027316 -166.45366
15500.0 0.014758 172.332469 0.897136 59.87506 0.896767 59.894603 0.018377 128.258478
15600.0 0.014004 -38.732329 0.896831 -21.016822 0.896653 -21.027964 0.011326 168.855156
15700.0 0.014661 -141.146713 0.896487 -101.865158 0.895995 -101.908159 0.016466 120.869528
15800.0 0.007897 -13.857468 0.896258 177.185714 0.89644 177.197452 0.005448 164.947993
15900.0 0.018868 -119.453913 0.896211 96.322232 0.89563 96.271956 0.016977 135.801405
16000.0 0.007684 83.104992 0.896063 15.450237 0.895333 15.43371 0.011446 118.260817
16100.0 0.023305 -67.970913 0.894826 -65.489566 0.894927 -65.498998 0.017195 114.608836
16200.0 0.010903 -146.920618 0.895116 -146.33865 0.89512 -146.368473 0.009465 55.442214
16300.0 0.020937 -77.741062 0.894154 132.751328 0.894111 132.748481 0.014064 168.186704
16400.0 0.025275 -168.205246 0.894069 51.87095 0.893737 51.877862 0.023248 103.311335
16500.0 0.014321 16.654486 0.894293 -29.020813 0.893755 -29.030087 0.014782 81.22705
16600.0 0.026666 -107.139325 0.893782 -109.943887 0.892901 -109.930972 0.018325 66.528848
16700.0 0.002345 -83.060471 0.893874 169.157991 0.89314 169.195976 0.002543 36.356087
16800.0 0.039706 -105.981885 0.892574 88.270178 0.89217 88.274341 0.028718 101.397891
16900.0 0.04598 164.331552 0.891628 7.427277 0.891588 7.420883 0.044915 31.377149
17000.0 0.031925 57.87203 0.890703 -73.459545 0.891444 -73.469444 0.041679 -35.113661
17100.0 0.037199 -40.321097 0.891404 -154.332355 0.891748 -154.349624 0.042064 -100.110382
17200.0 0.056806 -108.412591 0.890329 124.746832 0.890331 124.790916 0.051222 -175.418309
17300.0 0.057877 179.481849 0.889603 43.969572 0.889847 43.957892 0.048512 101.453472
17400.0 0.018236 117.336493 0.891037 -36.895329 0.890326 -36.89639 0.01866 -1.009326
17500.0 0.030491 178.048949 0.890512 -117.830334 0.89042 -117.863872 0.024618 148.834595
17600.0 0.031469 91.513907 0.889889 161.281513 0.889557 161.280625 0.030917 57.337182
17700.0 0.011835 -93.26966 0.890146 80.361182 0.88982 80.379203 0.003061 -27.611609
17800.0 0.026015 123.874238 0.889482 -0.488785 0.888751 -0.54291 0.023127 71.898322
17900.0 0.015269 -15.447322 0.889701 -81.36233 0.889251 -81.399612 0.016792 -12.52344
18000.0 0.013831 176.276007 0.888909 -162.288605 0.889464 -162.285226 0.005535 100.395579
18100.0 0.008017 -45.597305 0.88874 116.815647 0.888659 116.819194 0.004743 22.490243
18200.0 0.030209 -177.487272 0.888044 35.946601 0.888497 35.907819 0.017626 96.560383
18300.0 0.025085 75.422021 0.887868 -44.936614 0.887847 -44.949828 0.02664 12.775219
18400.0 0.007439 -108.916733 0.888226 -125.831597 0.887973 -125.814986 0.011579 -109.747891
18500.0 0.013886 60.381186 0.887321 153.285439 0.887902 153.246526 0.016143 82.237518
18600.0 0.025622 -96.638258 0.88723 72.367078 0.887152 72.391765 0.010027 33.45741
18700.0 0.028038 144.142981 0.886597 -8.552376 0.887124 -8.50763 0.01864 37.002807
18800.0 0.012793 -21.033687 0.886552 -89.330183 0.886716 -89.4019 0.018256 -34.812584
18900.0 0.02022 179.243108 0.886492 -170.298004 0.886809 -170.259309 0.002331 78.779269
19000.0 0.008356 15.222279 0.886197 108.821492 0.886154 108.825479 0.012815 -23.780992
19100.0 0.019388 -162.508595 0.886393 27.928847 0.886164 27.937684 0.006374 -169.195818
19200.0 0.008913 55.294323 0.885687 -52.926529 0.885505 -52.964304 0.010119 14.907744
19300.0 0.023084 -139.111664 0.885345 -133.815948 0.885517 -133.838752 0.00243 -147.530801
19400.0 0.020736 103.640658 0.885229 145.295176 0.885072 145.248225 0.016594 28.390883
19500.0 0.016862 -81.311603 0.885185 64.420217 0.884618 64.411379 0.013199 -60.144428
19600.0 0.017064 155.762152 0.884631 -16.497698 0.884771 -16.52575 0.004122 27.126381
19700.0 0.01553 -60.329252 0.884241 -97.373113 0.884162 -97.379034 0.011752 -24.432331
19800.0 0.034038 -163.990255 0.883835 -178.264828 0.883893 -178.264922 0.015832 -38.431876
19900.0 0.019762 124.247002 0.883714 100.847895 0.883834 100.851105 0.026126 -94.304158
20000.0 0.010155 167.923928 0.883241 19.993149 0.883875 20.002087 0.017371 -168.772294
