! File created by SignalIntegrity v1.1.10: Signal and Power Integrity Tools
! https://github.com/TeledyneLeCroy/SignalIntegrity
# MHz S MA R 50.0
0.0 0.02088 0.0 0.980677 0.0 0.980677 0.0 0.013432 180.0
10.0 0.021423 -5.553215 0.980515 -2.167543 0.980515 -2.167543 0.01336 179.915025
20.0 0.022894 -12.27305 0.980007 -4.330727 0.980007 -4.330727 0.01317 179.923051
30.0 0.024934 -20.468957 0.979142 -6.480985 0.979142 -6.480985 0.012861 179.810754
40.0 0.027184 -29.701235 0.978015 -8.607537 0.978015 -8.607537 0.012306 179.451534
50.0 0.029398 -39.306253 0.976832 -10.703633 0.976832 -10.703633 0.011344 179.542387
60.0 0.031469 -48.724115 0.975833 -12.769671 0.975833 -12.769671 0.009983 -178.084362
70.0 0.033408 -57.612619 0.975229 -14.811547 0.975229 -14.811547 0.008534 -170.586427
80.0 0.035307 -65.883647 0.975203 -16.840706 0.975203 -16.840706 0.007663 -155.357411
90.0 0.03725 -73.68536 0.975827 -18.876321 0.975827 -18.876321 0.008261 -136.176488
100.0 0.039207 -81.268399 0.976901 -20.938049 0.976901 -20.938049 0.01049 -123.627775
110.0 0.041007 -88.767981 0.978035 -23.028077 0.978035 -23.028077 0.013436 -119.849218
120.0 0.042457 -96.086607 0.979071 -25.127441 0.979071 -25.127441 0.016145 -120.379877
130.0 0.043501 -103.004969 0.980357 -27.225177 0.980357 -27.225177 0.018398 -121.287413
140.0 0.044252 -109.42016 0.982268 -29.349398 0.982268 -29.349398 0.02082 -121.450366
150.0 0.044823 -115.453351 0.984381 -31.547633 0.984381 -31.547633 0.023969 -122.657282
160.0 0.045166 -121.272677 0.985475 -33.824289 0.985475 -33.824289 0.027345 -126.385068
170.0 0.045155 -126.84611 0.984678 -36.113377 0.984678 -36.113377 0.029934 -131.625091
180.0 0.044817 -131.988875 0.982454 -38.331873 0.982454 -38.331873 0.031468 -136.357144
190.0 0.044353 -136.686917 0.980164 -40.456699 0.980164 -40.456699 0.032711 -139.709401
200.0 0.043856 -141.239185 0.978699 -42.534008 0.978699 -42.534008 0.034385 -142.785516
210.0 0.043106 -145.911142 0.977851 -44.614541 0.977851 -44.614541 0.036126 -146.895978
220.0 0.041802 -150.524609 0.97702 -46.702301 0.97702 -46.702301 0.037109 -151.695914
230.0 0.039952 -154.584007 0.976104 -48.773179 0.976104 -48.773179 0.037257 -155.975146
240.0 0.037875 -157.820458 0.975451 -50.819234 0.975451 -50.819234 0.037241 -159.38399
250.0 0.035779 -160.442842 0.975276 -52.854761 0.975276 -52.854761 0.037401 -162.76767
260.0 0.033522 -162.630036 0.975519 -54.891332 0.975519 -54.891332 0.037306 -166.715556
270.0 0.030952 -163.944452 0.976161 -56.930161 0.976161 -56.930161 0.036558 -170.752063
280.0 0.028295 -163.636758 0.977328 -58.978863 0.977328 -58.978863 0.035379 -174.331103
290.0 0.025934 -161.451708 0.978996 -61.057436 0.978996 -61.057436 0.03404 -177.796077
300.0 0.023954 -157.393553 0.980833 -63.181234 0.980833 -63.181234 0.032186 178.332092
310.0 0.022501 -150.528068 0.982423 -65.347567 0.982423 -65.347567 0.029257 174.753916
320.0 0.022626 -140.45092 0.983523 -67.542809 0.983523 -67.542809 0.025434 173.560661
330.0 0.025518 -131.24829 0.984032 -69.753934 0.984032 -69.753934 0.021863 176.964721
340.0 0.030566 -127.416692 0.983883 -71.968122 0.983883 -71.968122 0.019844 -175.314329
350.0 0.036024 -128.307435 0.983086 -74.168388 0.983086 -74.168388 0.019617 -166.966018
360.0 0.04081 -131.339705 0.981847 -76.338436 0.981847 -76.338436 0.020369 -160.722251
370.0 0.044904 -134.864417 0.98051 -78.47281 0.98051 -78.47281 0.021372 -156.254189
380.0 0.04874 -138.506527 0.97937 -80.580013 0.97937 -80.580013 0.022505 -152.382584
390.0 0.052521 -142.507205 0.978524 -82.675466 0.978524 -82.675466 0.024066 -148.811704
400.0 0.056086 -146.999821 0.977863 -84.770633 0.977863 -84.770633 0.02626 -146.308593
410.0 0.05924 -151.857134 0.977211 -86.866004 0.977211 -86.866004 0.028849 -145.486616
420.0 0.061939 -156.925183 0.976506 -88.953375 0.976506 -88.953375 0.031439 -145.995293
430.0 0.064202 -162.157008 0.975857 -91.026068 0.975857 -91.026068 0.033931 -147.192764
440.0 0.066008 -167.553235 0.975413 -93.086023 0.975413 -93.086023 0.036438 -148.941616
450.0 0.067308 -173.091854 0.975231 -95.139135 0.975231 -95.139135 0.038878 -151.399929
460.0 0.068074 -178.728959 0.975326 -97.187688 0.975326 -97.187688 0.040992 -154.393994
470.0 0.068323 175.585092 0.975811 -99.234641 0.975811 -99.234641 0.042748 -157.486253
480.0 0.068141 169.878492 0.976796 -101.29416 0.976796 -101.29416 0.044424 -160.577363
490.0 0.067654 164.085891 0.978119 -103.38727 0.978119 -103.38727 0.046174 -164.067879
500.0 0.066886 158.019088 0.979321 -105.521117 0.979321 -105.521117 0.047728 -168.317942
510.0 0.065625 151.504193 0.980007 -107.678179 0.980007 -107.678179 0.048657 -173.238198
520.0 0.063571 144.574832 0.980178 -109.831914 0.980178 -109.831914 0.048743 -178.485525
530.0 0.060624 137.464018 0.980139 -111.970311 0.980139 -111.970311 0.047997 176.211476
540.0 0.056984 130.369198 0.980128 -114.100136 0.980128 -114.100136 0.046493 171.000729
550.0 0.052897 123.26337 0.98013 -116.231973 0.98013 -116.231973 0.044314 166.00664
560.0 0.048418 116.009363 0.979999 -118.367285 0.979999 -118.367285 0.041569 161.35142
570.0 0.043519 108.63765 0.979645 -120.498222 0.979645 -120.498222 0.038371 157.154306
580.0 0.038366 101.349965 0.979126 -122.613791 0.979126 -122.613791 0.034839 153.621107
590.0 0.033305 94.111505 0.978658 -124.707037 0.978658 -124.707037 0.031198 151.017375
600.0 0.028515 86.273718 0.978541 -126.783089 0.978541 -126.783089 0.027709 149.336737
610.0 0.023807 76.779685 0.978941 -128.861507 0.978941 -128.861507 0.024381 148.17492
620.0 0.018918 64.596797 0.979692 -130.964318 0.979692 -130.964318 0.020925 147.479588
630.0 0.013921 48.213123 0.9804 -133.097725 0.9804 -133.097725 0.017193 148.51847
640.0 0.009407 23.174284 0.980775 -135.248355 0.980775 -135.248355 0.013568 153.916112
650.0 0.006821 -20.118992 0.98084 -137.39946 0.98084 -137.39946 0.010801 166.39714
660.0 0.007944 -69.122822 0.980772 -139.547227 0.980772 -139.547227 0.009564 -174.121937
670.0 0.011368 -99.315467 0.980605 -141.697927 0.980605 -141.697927 0.010174 -153.512981
680.0 0.015205 -118.349262 0.980201 -143.8524 0.980201 -143.8524 0.01234 -139.021426
690.0 0.018737 -132.711149 0.979472 -145.999866 0.979472 -145.999866 0.015305 -131.470556
700.0 0.021743 -144.758055 0.978547 -148.128512 0.978547 -148.128512 0.018516 -128.061229
710.0 0.024195 -155.598785 0.977659 -150.237726 0.977659 -150.237726 0.021861 -126.904269
720.0 0.026068 -165.925551 0.976918 -152.336145 0.976918 -152.336145 0.02529 -127.493416
730.0 0.027276 -176.078104 0.976273 -154.429449 0.976273 -154.429449 0.028519 -129.46104
740.0 0.027765 173.918405 0.975683 -156.514814 0.975683 -156.514814 0.031268 -132.037507
750.0 0.027607 164.168576 0.975253 -158.588608 0.975253 -158.588608 0.033576 -134.573305
760.0 0.027 154.6987 0.975152 -160.655914 0.975152 -160.655914 0.03565 -136.999052
770.0 0.026195 145.320934 0.975444 -162.729709 0.975444 -162.729709 0.037524 -139.53028
780.0 0.025411 135.576774 0.976033 -164.822908 0.976033 -164.822908 0.039076 -142.158324
790.0 0.024758 124.8045 0.976731 -166.943872 0.976731 -166.943872 0.040292 -144.716359
800.0 0.024225 112.391412 0.977277 -169.095789 0.977277 -169.095789 0.041238 -147.212296
810.0 0.023773 98.082344 0.977363 -171.272991 0.977363 -171.272991 0.041836 -149.736062
820.0 0.023455 82.112797 0.97676 -173.456998 0.97676 -173.456998 0.041926 -152.122273
830.0 0.023455 65.123708 0.975508 -175.623055 0.975508 -175.623055 0.041542 -154.005374
840.0 0.024011 47.948971 0.973912 -177.75546 0.973912 -177.75546 0.040928 -155.189266
850.0 0.02529 31.348573 0.9723 -179.854677 0.9723 -179.854677 0.040284 -155.731651
860.0 0.027315 15.799715 0.970838 178.071502 0.970838 178.071502 0.039698 -155.682753
870.0 0.029965 1.46622 0.969591 176.01837 0.969591 176.01837 0.039313 -155.059139
880.0 0.033017 -11.674955 0.968655 173.982583 0.968655 173.982583 0.03929 -154.098685
890.0 0.036198 -23.670915 0.968126 171.956288 0.968126 171.956288 0.03959 -153.166152
900.0 0.039273 -34.503251 0.968002 169.929913 0.968002 169.929913 0.040026 -152.370815
910.0 0.042141 -44.137019 0.96823 167.897774 0.96823 167.897774 0.040511 -151.584639
920.0 0.04485 -52.660608 0.968793 165.85498 0.968793 165.85498 0.041072 -150.743639
930.0 0.047455 -60.320677 0.969628 163.792873 0.969628 163.792873 0.041701 -149.860488
940.0 0.049887 -67.329899 0.970531 161.706217 0.970531 161.706217 0.042364 -148.855464
950.0 0.052076 -73.685667 0.971301 159.602414 0.971301 159.602414 0.043105 -147.577641
960.0 0.05418 -79.335025 0.971983 157.492591 0.971983 157.492591 0.044075 -145.896557
970.0 0.056522 -84.538119 0.972741 155.37288 0.972741 155.37288 0.045587 -143.784677
980.0 0.059127 -89.847153 0.973457 153.227887 0.973457 153.227887 0.048104 -141.604067
990.0 0.061514 -95.587694 0.97368 151.060118 0.97368 151.060118 0.051852 -140.181775
1000.0 0.063128 -101.576564 0.973197 148.903831 0.973197 148.903831 0.056445 -140.14327
1010.0 0.0638 -107.455703 0.972538 146.792236 0.972538 146.792236 0.061218 -141.419526
1020.0 0.063595 -113.098797 0.972589 144.709678 0.972589 144.709678 0.065728 -143.648091
1030.0 0.062349 -118.47248 0.973539 142.593327 0.973539 142.593327 0.069626 -146.601247
1040.0 0.059819 -123.120253 0.974411 140.397702 0.974411 140.397702 0.072364 -149.960752
1050.0 0.056462 -126.136566 0.973906 138.15342 0.973906 138.15342 0.073645 -153.000808
1060.0 0.053632 -127.149478 0.971786 135.947588 0.971786 135.947588 0.074218 -154.988555
1070.0 0.052285 -127.344055 0.969216 133.839584 0.969216 133.839584 0.075524 -156.107492
1080.0 0.051626 -128.292506 0.967619 131.802032 0.967619 131.802032 0.078047 -157.492368
1090.0 0.050046 -129.785114 0.967275 129.75425 0.967275 129.75425 0.080665 -159.838148
1100.0 0.047122 -129.956573 0.967232 127.648003 0.967232 127.648003 0.082119 -162.687522
1110.0 0.044191 -127.011447 0.966457 125.504808 0.966457 125.504808 0.082314 -165.230878
1120.0 0.04328 -121.04268 0.964699 123.378044 0.964699 123.378044 0.081888 -167.092939
1130.0 0.045629 -114.480071 0.962331 121.308563 0.962331 121.308563 0.081366 -168.200422
1140.0 0.051081 -110.140488 0.959968 119.321151 0.959968 119.321151 0.081383 -168.460369
1150.0 0.058292 -109.166094 0.958561 117.423838 0.958561 117.423838 0.083002 -168.227364
1160.0 0.065444 -110.769852 0.959272 115.5752 0.959272 115.5752 0.086617 -168.598657
1170.0 0.071534 -113.296404 0.962477 113.675177 0.962477 113.675177 0.091118 -170.361983
1180.0 0.077228 -115.638754 0.967038 111.635349 0.967038 111.635349 0.095136 -173.316662
1190.0 0.083862 -118.104487 0.97121 109.455233 0.97121 109.455233 0.098195 -177.091562
1200.0 0.091413 -121.652557 0.974173 107.195808 0.974173 107.195808 0.099753 178.2321
1210.0 0.098427 -126.385757 0.976038 104.8926 0.976038 104.8926 0.098129 172.832077
1220.0 0.104065 -131.57409 0.976545 102.547523 0.976545 102.547523 0.091982 168.128911
1230.0 0.108983 -136.871111 0.974956 100.207609 0.974956 100.207609 0.083175 166.608455
1240.0 0.113521 -142.856194 0.971721 97.976383 0.971721 97.976383 0.077149 169.44296
1250.0 0.115816 -150.054751 0.96912 95.891496 0.96912 95.891496 0.077563 173.18853
1260.0 0.113041 -157.762585 0.968999 93.834469 0.968999 93.834469 0.081144 173.757623
1270.0 0.10464 -164.007169 0.970261 91.643313 0.970261 91.643313 0.082708 171.877622
1280.0 0.094201 -166.494109 0.969881 89.305251 0.969881 89.305251 0.081174 170.338394
1290.0 0.087691 -164.873117 0.966314 86.968096 0.966314 86.968096 0.078969 170.59245
1300.0 0.08786 -162.454926 0.960828 84.768777 0.960828 84.768777 0.078234 171.985315
1310.0 0.091716 -162.342529 0.955474 82.71499 0.955474 82.71499 0.078967 173.43233
1320.0 0.0955 -164.310538 0.950987 80.747474 0.950987 80.747474 0.080677 174.731257
1330.0 0.098187 -167.130617 0.947246 78.846761 0.947246 78.846761 0.083555 175.756473
1340.0 0.100145 -170.37074 0.944685 77.020831 0.944685 77.020831 0.087475 176.021024
1350.0 0.10126 -174.060307 0.944099 75.232704 0.944099 75.232704 0.0916 175.418563
1360.0 0.101093 -177.975431 0.945501 73.409466 0.945501 73.409466 0.095429 174.358705
1370.0 0.09979 178.255851 0.948123 71.509225 0.948123 71.509225 0.099218 173.110028
1380.0 0.097886 174.690881 0.951332 69.52942 0.951332 69.52942 0.103215 171.563715
1390.0 0.095444 171.122476 0.954746 67.466028 0.954746 67.466028 0.107207 169.596051
1400.0 0.092022 167.559778 0.957697 65.316799 0.957697 65.316799 0.110891 167.261734
1410.0 0.087447 164.381824 0.959472 63.117551 0.959472 63.117551 0.114105 164.643803
1420.0 0.08215 162.019732 0.960124 60.925718 0.960124 60.925718 0.116659 161.813405
1430.0 0.076771 160.689497 0.960346 58.762459 0.960346 58.762459 0.118404 158.9322
1440.0 0.071805 160.443212 0.960478 56.608052 0.960478 56.608052 0.119552 156.17248
1450.0 0.067646 161.235769 0.960279 54.456732 0.960279 54.456732 0.120518 153.511703
1460.0 0.064555 162.831833 0.959777 52.33281 0.959777 52.33281 0.121393 150.762662
1470.0 0.062505 164.927837 0.959553 50.24119 0.959553 50.24119 0.12184 147.82521
1480.0 0.061442 167.416365 0.959884 48.146002 0.959884 48.146002 0.12151 144.783047
1490.0 0.061619 170.127109 0.960261 46.023003 0.960261 46.023003 0.120292 141.793022
1500.0 0.063204 172.436604 0.960226 43.897892 0.960226 43.897892 0.118256 139.024026
1510.0 0.065696 173.773395 0.960173 41.802259 0.960173 41.802259 0.115715 136.647385
1520.0 0.068366 174.302749 0.960772 39.717472 0.960772 39.717472 0.113237 134.690903
1530.0 0.071144 174.559957 0.961937 37.595978 0.961937 37.595978 0.111167 132.918879
1540.0 0.074575 174.637309 0.962913 35.423197 0.962913 35.423197 0.109174 131.091989
1550.0 0.078944 174.10694 0.963197 33.227279 0.963197 33.227279 0.106748 129.336043
1560.0 0.083879 172.651594 0.962872 31.03815 0.962872 31.03815 0.104062 127.997924
1570.0 0.088846 170.368762 0.962186 28.86607 0.962186 28.86607 0.10186 127.130696
1580.0 0.09362 167.493524 0.961301 26.714561 0.961301 26.714561 0.100496 126.388423
1590.0 0.0982 164.137183 0.960427 24.585298 0.960427 24.585298 0.09965 125.495869
1600.0 0.102552 160.298834 0.959762 22.467731 0.959762 22.467731 0.099023 124.466356
1610.0 0.10653 155.95175 0.959219 20.346674 0.959219 20.346674 0.098638 123.290317
1620.0 0.109861 151.081767 0.958541 18.224563 0.958541 18.224563 0.098337 121.821502
1630.0 0.112147 145.745354 0.95774 16.118556 0.95774 16.118556 0.097662 120.087419
1640.0 0.113038 140.130085 0.957138 14.032901 0.957138 14.032901 0.096454 118.368931
1650.0 0.112519 134.496399 0.956931 11.95086 0.956931 11.95086 0.09506 116.844051
1660.0 0.110939 129.015022 0.956976 9.856961 0.956976 9.856961 0.093757 115.409365
1670.0 0.108684 123.68543 0.957078 7.751086 0.957078 7.751086 0.092425 113.976562
1680.0 0.10592 118.441271 0.9572 5.63663 0.9572 5.63663 0.091015 112.667949
1690.0 0.102723 113.27737 0.957309 3.510637 0.957309 3.510637 0.089846 111.544723
1700.0 0.0993 108.193277 0.957252 1.372546 0.957252 1.372546 0.089159 110.39966
1710.0 0.095857 103.056567 0.956894 -0.768732 0.956894 -0.768732 0.088789 109.007073
1720.0 0.092311 97.650064 0.956241 -2.901761 0.956241 -2.901761 0.088496 107.336639
1730.0 0.088346 91.876776 0.955365 -5.017562 0.955365 -5.017562 0.088221 105.378248
1740.0 0.083761 85.821835 0.954401 -7.106371 0.954401 -7.106371 0.087812 103.037755
1750.0 0.07863 79.591099 0.953649 -9.162411 0.953649 -9.162411 0.086936 100.34883
1760.0 0.073097 73.170802 0.953467 -11.196602 0.953467 -11.196602 0.085489 97.53219
1770.0 0.067186 66.486459 0.953959 -13.233292 0.953959 -13.233292 0.083732 94.69688
1780.0 0.060869 59.529844 0.954931 -15.289602 0.954931 -15.289602 0.081808 91.689601
1790.0 0.054212 52.348777 0.956193 -17.367912 0.956193 -17.367912 0.079474 88.396187
1800.0 0.047341 44.946787 0.957701 -19.470561 0.957701 -19.470561 0.076533 84.974054
1810.0 0.040345 37.28423 0.959336 -21.607243 0.959336 -21.607243 0.073185 81.59183
1820.0 0.033302 29.384422 0.960785 -23.780862 0.960785 -23.780862 0.069653 78.135955
1830.0 0.026366 21.346273 0.961782 -25.978236 0.961782 -25.978236 0.065797 74.423621
1840.0 0.019729 13.189651 0.962318 -28.183064 0.962318 -28.183064 0.061404 70.552404
1850.0 0.013518 4.72171 0.962476 -30.388602 0.962476 -30.388602 0.056611 66.737084
1860.0 0.007784 -4.486374 0.962247 -32.5905 0.962247 -32.5905 0.05167 62.902294
1870.0 0.002607 -16.814234 0.961656 -34.777788 0.961656 -34.777788 0.046514 58.779073
1880.0 0.001954 167.533733 0.960909 -36.941312 0.960909 -36.941312 0.040926 54.391102
1890.0 0.005793 154.119569 0.960254 -39.08449 0.960254 -39.08449 0.034987 50.053691
1900.0 0.009024 144.536707 0.959779 -41.217036 0.959779 -41.217036 0.028976 45.812234
1910.0 0.011701 134.862685 0.959473 -43.34394 0.959473 -43.34394 0.022936 41.260198
1920.0 0.013814 124.628425 0.959378 -45.468043 0.959378 -45.468043 0.016718 36.157742
1930.0 0.015398 113.917732 0.959529 -47.596926 0.959529 -47.596926 0.010386 30.777485
1940.0 0.016631 102.694504 0.959857 -49.739257 0.959857 -49.739257 0.00422 24.396035
1950.0 0.017724 90.48005 0.960232 -51.899296 0.960232 -51.899296 0.001719 -147.187838
1960.0 0.018766 76.752837 0.960518 -54.079494 0.960518 -54.079494 0.007427 -158.404691
1970.0 0.019738 61.607554 0.960491 -56.279158 0.960491 -56.279158 0.012793 -164.301107
1980.0 0.020701 45.84613 0.959909 -58.483881 0.959909 -58.483881 0.017436 -169.254884
1990.0 0.021896 30.454132 0.958822 -60.667854 0.958822 -60.667854 0.021363 -172.627861
2000.0 0.023648 15.980331 0.957644 -62.818324 0.957644 -62.818324 0.025083 -174.791519
2010.0 0.026156 2.390465 0.956727 -64.949349 0.956727 -64.949349 0.028882 -177.065503
2020.0 0.029365 -10.489439 0.955998 -67.079622 0.955998 -67.079622 0.032396 -179.967577
2030.0 0.03306 -22.587779 0.955233 -69.20617 0.955233 -69.20617 0.035266 177.171262
2040.0 0.037068 -33.695845 0.954536 -71.31525 0.954536 -71.31525 0.037708 174.914828
2050.0 0.04136 -43.748282 0.954236 -73.411315 0.954236 -73.411315 0.040075 172.956548
2060.0 0.045977 -52.898407 0.95442 -75.516815 0.95442 -75.516815 0.042252 170.850081
2070.0 0.05094 -61.400745 0.954849 -77.646778 0.954849 -77.646778 0.043964 168.783706
2080.0 0.056214 -69.512735 0.955293 -79.801223 0.955293 -79.801223 0.045326 167.09912
2090.0 0.061667 -77.465557 0.955626 -81.979693 0.955626 -81.979693 0.046578 165.632701
2100.0 0.067009 -85.39546 0.955623 -84.182672 0.955623 -84.182672 0.047561 164.11224
2110.0 0.071841 -93.252575 0.954994 -86.396054 0.954994 -86.396054 0.04799 162.8069
2120.0 0.075868 -100.825661 0.953736 -88.5928 0.953736 -88.5928 0.048032 162.185051
2130.0 0.079072 -107.898541 0.952185 -90.756684 0.952185 -90.756684 0.048085 162.22531
2140.0 0.081644 -114.39201 0.950652 -92.891666 0.950652 -92.891666 0.048188 162.658277
2150.0 0.08378 -120.36257 0.949224 -95.00478 0.949224 -95.00478 0.048235 163.650124
2160.0 0.085585 -125.902487 0.947981 -97.095874 0.947981 -97.095874 0.048577 165.487076
2170.0 0.087117 -131.088892 0.947115 -99.170147 0.947115 -99.170147 0.049731 167.79627
2180.0 0.0884 -136.006389 0.946685 -101.243828 0.946685 -101.243828 0.051681 169.912726
2190.0 0.089369 -140.732807 0.946498 -103.326856 0.946498 -103.326856 0.054125 171.726549
2200.0 0.089887 -145.267461 0.94641 -105.412634 0.94641 -105.412634 0.057119 173.372209
2210.0 0.089895 -149.518354 0.946539 -107.49469 0.946539 -107.49469 0.060839 174.639065
2220.0 0.089507 -153.393564 0.94704 -109.581779 0.94704 -109.581779 0.065092 175.323304
2230.0 0.088915 -156.887517 0.947843 -111.686917 0.947843 -111.686917 0.069671 175.610661
2240.0 0.088234 -160.066653 0.948793 -113.813243 0.948793 -113.813243 0.074803 175.653435
2250.0 0.087476 -163.002946 0.949843 -115.961285 0.949843 -115.961285 0.080748 175.22865
2260.0 0.086574 -165.736431 0.950906 -118.138183 0.950906 -118.138183 0.087296 174.110878
2270.0 0.085417 -168.247318 0.951706 -120.346129 0.951706 -120.346129 0.094094 172.3751
2280.0 0.083916 -170.4125 0.952006 -122.570441 0.952006 -122.570441 0.10105 170.128101
2290.0 0.082166 -172.019854 0.951877 -124.792796 0.951877 -124.792796 0.108001 167.309773
2300.0 0.080509 -172.891784 0.951531 -127.010414 0.951531 -127.010414 0.114355 163.940864
