! File created by SignalIntegrity v1.3.3: Signal and Power Integrity Tools
! https://github.com/TeledyneLeCroy/SignalIntegrity
# MHz S MA R 50.0
0.0 0.034783 0.0 0.980591 0.0 0.980591 0.0 0.001307 180.0
20.0 0.036805 -7.485843 0.979791 -4.331937 0.979791 -4.331937 0.000971 175.703946
40.0 0.039837 -19.599599 0.977945 -8.606395 0.977945 -8.606395 0.000207 136.358073
60.0 0.042017 -33.917203 0.97562 -12.776235 0.97562 -12.776235 0.002162 -5.246986
80.0 0.042778 -48.442434 0.975091 -16.836256 0.975091 -16.836256 0.006101 -30.307688
100.0 0.043348 -62.492601 0.976774 -20.950211 0.976774 -20.950211 0.01062 -54.128622
120.0 0.042906 -77.225984 0.978797 -25.123197 0.978797 -25.123197 0.014208 -73.168866
140.0 0.041389 -90.91241 0.982283 -29.357521 0.982283 -29.357521 0.017781 -86.200966
160.0 0.039193 -104.004443 0.985104 -33.829903 0.985104 -33.829903 0.021814 -100.728887
180.0 0.03654 -115.70657 0.982476 -38.329014 0.982476 -38.329014 0.024181 -115.838726
200.0 0.033605 -127.301949 0.978448 -42.55197 0.978448 -42.55197 0.025398 -127.648911
220.0 0.029838 -137.827848 0.976835 -46.695277 0.976835 -46.695277 0.026673 -139.121688
240.0 0.025325 -147.591235 0.975421 -50.837022 0.975421 -50.837022 0.026416 -151.49808
260.0 0.019901 -152.558031 0.97515 -54.894636 0.97515 -54.894636 0.025075 -161.334028
280.0 0.015313 -151.380145 0.977343 -58.985268 0.977343 -58.985268 0.023702 -172.118196
300.0 0.011321 -134.542694 0.980523 -63.197307 0.980523 -63.197307 0.019994 174.858085
320.0 0.014184 -104.503267 0.983386 -67.543523 0.983386 -67.543523 0.013584 166.833204
340.0 0.02349 -101.500061 0.983776 -71.987673 0.983776 -71.987673 0.007942 -173.984915
360.0 0.03236 -113.543358 0.981593 -76.349825 0.981593 -76.349825 0.009349 -138.743822
380.0 0.038555 -126.450106 0.979314 -80.606563 0.979314 -80.606563 0.013001 -129.520875
400.0 0.043725 -139.133064 0.97717 -84.809602 0.97717 -84.809602 0.016984 -127.559125
420.0 0.048 -151.861361 0.975594 -88.950181 0.975594 -88.950181 0.021681 -130.974243
440.0 0.051554 -165.519105 0.974944 -93.070197 0.974944 -93.070197 0.025788 -138.189976
460.0 0.053515 -179.457755 0.975058 -97.173989 0.975058 -97.173989 0.029429 -145.642326
480.0 0.05479 166.105411 0.976704 -101.291055 0.976704 -101.291055 0.032998 -155.21662
500.0 0.05456 150.905386 0.979097 -105.523662 0.979097 -105.523662 0.035387 -166.368217
520.0 0.053624 134.82956 0.980034 -109.831149 0.980034 -109.831149 0.036587 -179.391922
540.0 0.050575 116.850991 0.979992 -114.105887 0.979992 -114.105887 0.03497 165.792234
560.0 0.045498 98.901728 0.979864 -118.37344 0.979864 -118.37344 0.030751 151.871745
580.0 0.039788 80.806987 0.978988 -122.623016 0.978988 -122.623016 0.025418 139.229721
600.0 0.034276 62.133121 0.978446 -126.794588 0.978446 -126.794588 0.0196 126.94164
620.0 0.029007 40.238815 0.979532 -130.982098 0.979532 -130.982098 0.013559 113.897766
640.0 0.023325 14.482121 0.980651 -135.264119 0.980651 -135.264119 0.007562 93.53445
660.0 0.017916 -17.747306 0.980653 -139.576165 0.980653 -139.576165 0.002727 11.647651
680.0 0.012915 -59.291492 0.979997 -143.881209 0.979997 -143.881209 0.006948 -70.974403
700.0 0.01043 -109.699099 0.978466 -148.181869 0.978466 -148.181869 0.012481 -88.829968
720.0 0.011122 -163.025194 0.976054 -152.41489 0.976054 -152.41489 0.017952 -101.959695
740.0 0.013093 154.223696 0.97415 -156.563565 0.97415 -156.563565 0.021919 -113.184845
760.0 0.015789 122.669664 0.973428 -160.679169 0.973428 -160.679169 0.025045 -121.369905
780.0 0.018928 96.966275 0.974017 -164.811712 0.974017 -164.811712 0.027543 -129.272648
800.0 0.023244 75.755079 0.975535 -169.027275 0.975535 -169.027275 0.028727 -135.750108
820.0 0.028996 54.337342 0.976101 -173.36967 0.976101 -173.36967 0.029776 -140.937987
840.0 0.035089 33.371697 0.973798 -177.704299 0.973798 -177.704299 0.029308 -146.627479
860.0 0.04115 12.785443 0.970666 178.106092 0.970666 178.106092 0.027624 -147.022881
880.0 0.045987 -6.222632 0.968506 174.007029 0.968506 174.007029 0.027932 -144.985476
900.0 0.050314 -23.524971 0.967785 169.952287 0.967785 169.952287 0.028468 -143.544301
920.0 0.05302 -39.63848 0.968676 165.870784 0.968676 165.870784 0.029806 -141.092756
940.0 0.054615 -53.167334 0.970254 161.717351 0.970254 161.717351 0.031441 -139.752267
960.0 0.056322 -64.985367 0.971831 157.50794 0.971831 157.50794 0.033085 -136.120026
980.0 0.058463 -76.542058 0.973229 153.227847 0.973229 153.227847 0.038094 -131.765649
1000.0 0.059267 -89.010054 0.972842 148.916726 0.972842 148.916726 0.04607 -132.158652
1020.0 0.057298 -101.425796 0.97249 144.710837 0.97249 144.710837 0.055051 -137.23855
1040.0 0.051106 -112.005608 0.97389 140.397142 0.97389 140.397142 0.060941 -145.792493
1060.0 0.044337 -115.016167 0.97167 135.962307 0.97167 135.962307 0.062258 -151.707525
1080.0 0.042003 -115.999945 0.967239 131.78247 0.967239 131.78247 0.065902 -154.965946
1100.0 0.037429 -116.697948 0.966776 127.669115 0.966776 127.669115 0.069955 -161.227063
1120.0 0.035063 -104.24394 0.964668 123.355635 0.964668 123.355635 0.069086 -166.702114
1140.0 0.045671 -95.277144 0.95909 119.325913 0.95909 119.325913 0.069125 -167.750303
1160.0 0.058395 -99.640516 0.959407 115.57416 0.959407 115.57416 0.073947 -168.9162
1180.0 0.070074 -106.265601 0.966087 111.610867 0.966087 111.610867 0.082383 -173.263785
1200.0 0.08196 -115.445574 0.97406 107.220823 0.97406 107.220823 0.088243 176.064329
1220.0 0.092836 -126.087931 0.976011 102.503155 0.976011 102.503155 0.079582 164.882129
1240.0 0.101824 -140.187878 0.971103 98.001612 0.971103 98.001612 0.066759 165.494279
1260.0 0.098246 -156.618732 0.968914 93.793511 0.968914 93.793511 0.068374 170.267573
1280.0 0.081369 -166.287042 0.968904 89.304504 0.968904 89.304504 0.070319 167.062195
1300.0 0.073378 -162.531104 0.960807 84.744718 0.960807 84.744718 0.066188 167.57282
1320.0 0.082012 -163.588328 0.949969 80.719036 0.949969 80.719036 0.068877 172.069005
1340.0 0.086699 -171.786244 0.944404 77.010645 0.944404 77.010645 0.075564 172.834031
1360.0 0.087372 -179.843426 0.944712 73.370629 0.944712 73.370629 0.083355 171.734606
1380.0 0.085822 171.343105 0.950868 69.513201 0.950868 69.513201 0.091811 168.485823
1400.0 0.080228 162.668729 0.957115 65.270128 0.957115 65.270128 0.099681 163.874521
1420.0 0.07152 156.023412 0.959636 60.883382 0.959636 60.883382 0.106214 158.009219
1440.0 0.062066 152.857911 0.959907 56.533728 0.959907 56.533728 0.110223 151.791302
1460.0 0.054588 154.747067 0.959058 52.231777 0.959058 52.231777 0.112812 145.623642
1480.0 0.052186 159.004923 0.958001 48.014026 0.958001 48.014026 0.113509 138.978509
1500.0 0.052516 163.347009 0.957868 43.818879 0.957868 43.818879 0.110727 132.718883
1520.0 0.057138 166.229849 0.958193 39.618048 0.958193 39.618048 0.106803 127.883562
1540.0 0.062685 165.830614 0.959362 35.363113 0.959362 35.363113 0.102968 123.571981
1560.0 0.070292 164.37111 0.959187 31.014199 0.959187 31.014199 0.09823 120.090335
1580.0 0.079711 159.607997 0.957233 26.741142 0.957233 26.741142 0.094459 118.067291
1600.0 0.088642 152.463826 0.955926 22.549677 0.955926 22.549677 0.093077 116.171229
1620.0 0.096506 143.624017 0.955071 18.370211 0.955071 18.370211 0.092068 113.493136
1640.0 0.102391 133.049105 0.955101 14.227045 0.955101 14.227045 0.090776 110.740365
1660.0 0.10387 121.626305 0.956409 10.016989 0.956409 10.016989 0.089451 107.90782
1680.0 0.102559 110.709547 0.956966 5.734736 0.956966 5.734736 0.088122 105.198016
1700.0 0.099359 99.699073 0.956969 1.447507 0.956969 1.447507 0.087339 102.547714
1720.0 0.094935 88.894052 0.955952 -2.85381 0.955952 -2.85381 0.087569 99.426332
1740.0 0.089644 77.132144 0.95395 -7.062625 0.95395 -7.062625 0.087928 95.022713
1760.0 0.081853 64.555001 0.953122 -11.167635 0.953122 -11.167635 0.08712 89.504356
1780.0 0.071892 51.58132 0.954409 -15.265042 0.954409 -15.265042 0.084639 83.342619
1800.0 0.060353 38.630955 0.957322 -19.453097 0.957322 -19.453097 0.08096 76.771534
1820.0 0.047496 25.461464 0.960293 -23.772781 0.960293 -23.772781 0.075646 69.427082
1840.0 0.033675 15.069682 0.961892 -28.181815 0.961892 -28.181815 0.068674 61.954069
1860.0 0.021843 10.32424 0.961712 -32.599023 0.961712 -32.599023 0.06063 53.863639
1880.0 0.012339 22.438348 0.960346 -36.956447 0.960346 -36.956447 0.050923 45.236533
1900.0 0.01175 58.741388 0.95908 -41.236416 0.95908 -41.236416 0.040179 36.333777
1920.0 0.016844 70.568034 0.958663 -45.491106 0.958663 -45.491106 0.028671 26.884424
1940.0 0.023115 65.464375 0.959041 -49.762508 0.959041 -49.762508 0.016717 16.58997
1960.0 0.029106 52.562436 0.959768 -54.107137 0.959768 -54.107137 0.005053 6.698466
1980.0 0.03393 35.320157 0.959067 -58.51328 0.959067 -58.51328 0.004867 -179.624772
2000.0 0.037649 17.813051 0.956919 -62.855145 0.956919 -62.855145 0.013207 174.861955
2020.0 0.042132 -0.553033 0.95509 -67.121467 0.95509 -67.121467 0.020357 170.088648
2040.0 0.046375 -19.554855 0.953767 -71.360871 0.953767 -71.360871 0.026546 165.051191
2060.0 0.051482 -37.590867 0.95342 -75.571822 0.95342 -75.571822 0.031207 160.512778
2080.0 0.057514 -55.626346 0.954428 -79.852639 0.954428 -79.852639 0.035014 156.93428
2100.0 0.063943 -73.479112 0.954614 -84.250146 0.954614 -84.250146 0.037585 153.417911
2120.0 0.069045 -91.243595 0.952766 -88.655613 0.952766 -88.655613 0.038625 151.212823
2140.0 0.071925 -107.030759 0.949629 -92.973048 0.949629 -92.973048 0.03859 151.473624
2160.0 0.07386 -120.66951 0.946871 -97.177188 0.946871 -97.177188 0.038852 154.939811
2180.0 0.075485 -132.544159 0.945504 -101.33937 0.945504 -101.33937 0.040972 160.76774
2200.0 0.076502 -143.762666 0.945154 -105.510068 0.945154 -105.510068 0.046231 166.029629
2220.0 0.075772 -153.395418 0.945698 -109.694573 0.945698 -109.694573 0.053688 169.064994
2240.0 0.07511 -161.429581 0.947503 -113.93055 0.947503 -113.93055 0.063655 170.3099
2260.0 0.074065 -168.573771 0.949584 -118.30584 0.949584 -118.30584 0.076483 168.857974
2280.0 0.072257 -174.928006 0.949764 -122.771514 0.949764 -122.771514 0.090666 164.310157
2300.0 0.068841 -179.035291 0.948288 -127.219263 0.948288 -127.219263 0.103442 157.679839
2320.0 0.067126 -179.73744 0.945787 -131.63459 0.945787 -131.63459 0.112857 150.23944
2340.0 0.069161 -178.818349 0.942452 -135.999506 0.942452 -135.999506 0.118229 143.474789
2360.0 0.075685 -179.187502 0.938597 -140.287297 0.938597 -140.287297 0.12198 137.933111
2380.0 0.084017 178.168603 0.935312 -144.478805 0.935312 -144.478805 0.12525 133.142065
2400.0 0.093578 173.668629 0.933424 -148.641228 0.933424 -148.641228 0.12908 128.638453
2420.0 0.102426 167.93944 0.932585 -152.829552 0.932585 -152.829552 0.132266 123.685327
2440.0 0.111624 161.623848 0.932186 -157.081515 0.932186 -157.081515 0.13348 118.772384
2460.0 0.119923 154.333343 0.931143 -161.389881 0.931143 -161.389881 0.132781 114.334864
2480.0 0.127225 146.731812 0.92899 -165.694597 0.92899 -165.694597 0.130827 110.810024
2500.0 0.133402 138.774807 0.92656 -169.943894 0.92656 -169.943894 0.128947 108.627741
2520.0 0.139387 130.293 0.924439 -174.215499 0.924439 -174.215499 0.130631 107.307641
2540.0 0.142514 120.38711 0.920207 -178.499402 0.920207 -178.499402 0.135025 104.641777
2560.0 0.139975 110.383102 0.914448 177.447058 0.914448 177.447058 0.137559 100.783956
2580.0 0.133251 101.369176 0.912051 173.627831 0.912051 173.627831 0.137136 97.295372
2600.0 0.125161 93.606891 0.914217 169.746281 0.914217 169.746281 0.137418 94.942122
2620.0 0.115601 86.284723 0.917621 165.696302 0.917621 165.696302 0.139713 92.143075
2640.0 0.104045 80.650008 0.921389 161.571058 0.921389 161.571058 0.14117 88.810295
2660.0 0.093022 77.083422 0.925849 157.352262 0.925849 157.352262 0.141923 85.607724
2680.0 0.083311 76.14567 0.930635 153.015297 0.930635 153.015297 0.143656 82.484268
2700.0 0.077099 77.420358 0.934512 148.50272 0.934512 148.50272 0.145951 78.219892
2720.0 0.073914 79.773449 0.935162 143.924474 0.935162 143.924474 0.144561 73.018127
2740.0 0.073603 83.097968 0.934096 139.420181 0.934096 139.420181 0.138927 68.502167
2760.0 0.078416 86.688234 0.932247 134.941763 0.932247 134.941763 0.132051 65.640007
2780.0 0.088602 87.269725 0.929364 130.507654 0.929364 130.507654 0.126582 64.165469
2800.0 0.102194 84.19465 0.925756 126.125757 0.925756 126.125757 0.123611 63.631472
2820.0 0.116257 77.344042 0.921456 121.826867 0.921456 121.826867 0.123825 63.147936
2840.0 0.127918 68.419565 0.917373 117.633112 0.917373 117.633112 0.12653 62.043421
2860.0 0.136451 58.003755 0.91419 113.50815 0.91419 113.50815 0.131266 59.748962
2880.0 0.140592 46.89992 0.91154 109.428203 0.91154 109.428203 0.136214 55.848863
2900.0 0.140693 35.492533 0.909986 105.45172 0.909986 105.45172 0.139299 50.862295
2920.0 0.137401 24.371828 0.911273 101.494622 0.911273 101.494622 0.14125 45.452972
2940.0 0.13258 13.085686 0.914291 97.455872 0.914291 97.455872 0.142165 39.050701
2960.0 0.125206 1.642397 0.918924 93.339203 0.918924 93.339203 0.140852 32.022794
2980.0 0.11727 -10.078095 0.924281 89.040211 0.924281 89.040211 0.13845 24.042486
3000.0 0.107083 -23.095874 0.927882 84.632969 0.927882 84.632969 0.132615 14.548986
3020.0 0.093939 -36.64407 0.930803 80.233909 0.930803 80.233909 0.122237 4.235885
3040.0 0.078758 -50.36316 0.933703 75.773539 0.933703 75.773539 0.10827 -6.543994
3060.0 0.06301 -64.048681 0.935361 71.261625 0.935361 71.261625 0.091639 -18.03338
3080.0 0.046613 -78.239902 0.935971 66.751457 0.935971 66.751457 0.072458 -30.421104
3100.0 0.030468 -91.006569 0.935539 62.253781 0.935539 62.253781 0.05204 -43.90742
3120.0 0.015428 -101.402401 0.93448 57.817558 0.93448 57.817558 0.031325 -60.567275
3140.0 0.003355 -50.609925 0.933748 53.425756 0.933748 53.425756 0.012269 -91.793026
3160.0 0.012355 17.44075 0.933408 49.053883 0.933408 49.053883 0.010145 147.611636
3180.0 0.023481 6.849259 0.933917 44.681693 0.933917 44.681693 0.024369 111.57746
3200.0 0.032847 -9.906228 0.934883 40.243788 0.934883 40.243788 0.036546 94.618064
3220.0 0.041284 -28.424866 0.935312 35.758406 0.935312 35.758406 0.045126 80.244699
3240.0 0.048502 -48.849523 0.935308 31.237324 0.935308 31.237324 0.049368 66.772189
3260.0 0.055247 -69.55899 0.934034 26.695655 0.934034 26.695655 0.049016 53.089467
3280.0 0.062476 -91.17621 0.932405 22.219766 0.932405 22.219766 0.04322 39.131687
3300.0 0.07 -113.647401 0.931823 17.69118 0.931823 17.69118 0.032461 25.738658
3320.0 0.075841 -136.849122 0.929329 13.01998 0.929329 13.01998 0.018485 14.507986
3340.0 0.078072 -157.574748 0.92286 8.413763 0.92286 8.413763 0.003076 3.836361
3360.0 0.08074 -174.419048 0.915196 4.043913 0.915196 4.043913 0.014723 175.457255
3380.0 0.085427 170.193899 0.908806 -0.179127 0.908806 -0.179127 0.034435 163.513405
3400.0 0.090472 155.17617 0.903121 -4.322462 0.903121 -4.322462 0.054734 151.785915
3420.0 0.09459 141.078929 0.898455 -8.337415 0.898455 -8.337415 0.074443 140.487197
3440.0 0.099226 127.658795 0.896316 -12.26727 0.896316 -12.26727 0.093476 129.610156
3460.0 0.102337 113.729023 0.89644 -16.206378 0.89644 -16.206378 0.111039 118.564316
3480.0 0.102864 100.583931 0.898803 -20.136654 0.898803 -20.136654 0.125914 107.68053
3500.0 0.102297 87.94561 0.905005 -24.181268 0.905005 -24.181268 0.138691 97.135472
3520.0 0.100468 75.111804 0.912004 -28.563474 0.912004 -28.563474 0.150152 85.85022
3540.0 0.095391 61.063283 0.914967 -33.078622 0.914967 -33.078622 0.155329 72.991917
3560.0 0.084398 47.202602 0.917232 -37.431398 0.917232 -37.431398 0.150685 60.452474
3580.0 0.069885 35.343264 0.922379 -41.87408 0.922379 -41.87408 0.139828 49.048492
3600.0 0.053931 25.955547 0.925894 -46.537669 0.925894 -46.537669 0.123044 38.374378
3620.0 0.036407 19.947925 0.927274 -51.184971 0.927274 -51.184971 0.100477 29.86809
3640.0 0.0183 34.423781 0.928491 -55.911835 0.928491 -55.911835 0.075525 25.954653
3660.0 0.019762 98.978636 0.925942 -60.708956 0.925942 -60.708956 0.050972 32.634025
3680.0 0.04364 110.967644 0.921756 -65.307379 0.921756 -65.307379 0.042431 65.751026
3700.0 0.070688 98.782139 0.918827 -69.974198 0.918827 -69.974198 0.064404 84.894304
3720.0 0.090479 82.560572 0.910249 -74.71898 0.910249 -74.71898 0.089318 83.009913
3740.0 0.101617 68.009845 0.897846 -78.970726 0.897846 -78.970726 0.108743 77.209044
3760.0 0.109156 56.168065 0.890895 -82.829506 0.890895 -82.829506 0.125594 71.145092
3780.0 0.116419 44.374258 0.888891 -86.744677 0.888891 -86.744677 0.14319 64.221853
3800.0 0.120072 31.919185 0.888045 -90.753529 0.888045 -90.753529 0.160114 55.292128
3820.0 0.11961 19.808762 0.887195 -94.732575 0.887195 -94.732575 0.171971 45.016621
3840.0 0.116538 8.931549 0.888991 -98.542865 0.888991 -98.542865 0.17958 34.843726
3860.0 0.115176 -1.500001 0.897082 -102.497473 0.897082 -102.497473 0.187038 23.812759
3880.0 0.11406 -14.124108 0.905158 -106.861013 0.905158 -106.861013 0.19049 10.257109
3900.0 0.108893 -29.383101 0.910847 -111.237159 0.910847 -111.237159 0.183632 -5.507862
3920.0 0.09694 -46.310723 0.919545 -115.719448 0.919545 -115.719448 0.164874 -22.424198
3940.0 0.080059 -63.107545 0.925936 -120.627576 0.925936 -120.627576 0.136925 -39.745909
3960.0 0.061625 -79.586745 0.924574 -125.535699 0.924574 -125.535699 0.104238 -57.169763
3980.0 0.043787 -96.007556 0.920608 -130.120668 0.920608 -130.120668 0.072113 -75.465775
4000.0 0.027913 -114.367789 0.918224 -134.454547 0.918224 -134.454547 0.044438 -100.267702
4020.0 0.015455 -141.210819 0.920566 -138.714492 0.920566 -138.714492 0.027213 -152.561522
4040.0 0.010509 151.974447 0.925897 -143.275396 0.925897 -143.275396 0.037488 138.315259
4060.0 0.018146 87.579999 0.927516 -148.087174 0.927516 -148.087174 0.063327 101.115466
4080.0 0.0283 54.324368 0.925332 -152.808328 0.925332 -152.808328 0.088447 76.09385
4100.0 0.036153 29.445325 0.922555 -157.416597 0.922555 -157.416597 0.107669 55.455929
4120.0 0.040899 7.092525 0.918974 -161.945894 0.918974 -161.945894 0.120672 37.160597
4140.0 0.043055 -16.389402 0.915946 -166.329438 0.915946 -166.329438 0.128084 19.508897
4160.0 0.041935 -42.868686 0.914903 -170.660924 0.914903 -170.660924 0.129304 1.819801
4180.0 0.039724 -73.023108 0.915792 -175.018303 0.915792 -175.018303 0.125318 -16.324405
4200.0 0.039071 -108.802246 0.917876 -179.491393 0.917876 -179.491393 0.11715 -35.707186
4220.0 0.042308 -145.880828 0.919668 175.911916 0.919668 175.911916 0.106169 -57.368082
4240.0 0.050614 -178.433901 0.919916 171.215035 0.919916 171.215035 0.094161 -82.392441
4260.0 0.062323 155.315396 0.91819 166.520337 0.91819 166.520337 0.085171 -111.971446
4280.0 0.075877 133.773567 0.914874 161.837926 0.914874 161.837926 0.082096 -146.290446
4300.0 0.089162 115.66813 0.909437 157.279094 0.909437 157.279094 0.086063 179.529958
4320.0 0.103244 100.130734 0.904644 152.9011 0.904644 152.9011 0.096558 149.647743
4340.0 0.117214 84.965749 0.901431 148.589476 0.901431 148.589476 0.109043 124.426199
4360.0 0.129024 70.144248 0.899056 144.282503 0.899056 144.282503 0.120367 103.61568
4380.0 0.137013 55.220017 0.896668 140.068544 0.896668 140.068544 0.130019 86.064959
4400.0 0.139365 40.94418 0.897283 135.986868 0.897283 135.986868 0.139053 70.747338
4420.0 0.136966 27.078441 0.901906 131.84036 0.901906 131.84036 0.14853 55.568408
4440.0 0.127813 13.773632 0.909923 127.484114 0.909923 127.484114 0.155366 38.975883
4460.0 0.112804 1.810188 0.918178 122.772381 0.918178 122.772381 0.155461 20.165865
4480.0 0.092127 -7.633032 0.923246 117.841448 0.923246 117.841448 0.143946 -0.985591
4500.0 0.06924 -11.01775 0.924686 112.817642 0.924686 112.817642 0.120199 -24.324006
4520.0 0.050005 -1.350289 0.921936 107.854536 0.921936 107.854536 0.087575 -51.316185
4540.0 0.047728 23.332756 0.918291 103.121733 0.918291 103.121733 0.053866 -89.303505
4560.0 0.064282 37.641472 0.917158 98.370608 0.917158 98.370608 0.037812 -159.687417
4580.0 0.085937 37.596809 0.913306 93.459964 0.913306 93.459964 0.05663 138.821366
4600.0 0.105779 33.718577 0.906684 88.720623 0.906684 88.720623 0.084887 108.579481
4620.0 0.127338 27.793663 0.899658 84.05397 0.899658 84.05397 0.11263 88.136107
