! File created by SignalIntegrity v1.1.10: Signal and Power Integrity Tools
! https://github.com/TeledyneLeCroy/SignalIntegrity
# MHz S MA R 50.0
0.0 0.034719 0.0 0.980589 0.0 0.980589 0.0 0.0013 180.0
20.0 0.036739 -7.499597 0.979793 -4.331884 0.979793 -4.331884 0.000976 175.733949
40.0 0.039776 -19.63115 0.977945 -8.606505 0.977945 -8.606505 0.000203 134.982063
60.0 0.041962 -33.968396 0.97562 -12.776129 0.97562 -12.776129 0.002157 -5.266107
80.0 0.042735 -48.507746 0.975093 -16.836362 0.975093 -16.836362 0.006107 -30.273674
100.0 0.043318 -62.571068 0.976773 -20.950168 0.976773 -20.950168 0.010618 -54.149438
120.0 0.042893 -77.310367 0.978799 -25.123208 0.978799 -25.123208 0.014209 -73.144226
140.0 0.041392 -91.004427 0.982282 -29.357562 0.982282 -29.357562 0.017781 -86.215838
160.0 0.03921 -104.09552 0.985105 -33.829845 0.985105 -33.829845 0.021812 -100.713264
180.0 0.03657 -115.799481 0.982477 -38.329068 0.982477 -38.329068 0.024183 -115.849188
200.0 0.033645 -127.387799 0.978448 -42.551933 0.978448 -42.551933 0.025394 -127.638801
220.0 0.029889 -137.910914 0.976836 -46.695281 0.976836 -46.695281 0.026677 -139.129363
240.0 0.02538 -147.66587 0.975421 -50.837039 0.975421 -50.837039 0.026411 -151.493372
260.0 0.01996 -152.640583 0.97515 -54.894602 0.97515 -54.894602 0.02508 -161.338886
280.0 0.01537 -151.4883 0.977344 -58.985288 0.977344 -58.985288 0.023696 -172.11894
300.0 0.011369 -134.772035 0.980523 -63.197284 0.980523 -63.197284 0.019999 174.857556
320.0 0.014203 -104.751932 0.983386 -67.543499 0.983386 -67.543499 0.013579 166.821909
340.0 0.023506 -101.656545 0.983776 -71.987671 0.983776 -71.987671 0.007947 -173.995584
360.0 0.032388 -113.645382 0.981593 -76.349776 0.981593 -76.349776 0.009343 -138.728629
380.0 0.038597 -126.525509 0.979315 -80.60653 0.979315 -80.60653 0.013003 -129.541786
400.0 0.043776 -139.183723 0.977171 -84.809547 0.977171 -84.809547 0.016978 -127.54496
420.0 0.048061 -151.89401 0.975595 -88.95015 0.975595 -88.95015 0.021684 -130.984184
440.0 0.051619 -165.53333 0.974945 -93.070266 0.974945 -93.070266 0.025784 -138.182452
460.0 0.053582 -179.455394 0.975057 -97.174033 0.975057 -97.174033 0.029434 -145.650964
480.0 0.054852 166.125202 0.976704 -101.291069 0.976704 -101.291069 0.032993 -155.216441
500.0 0.054616 150.942753 0.979097 -105.523678 0.979097 -105.523678 0.035392 -166.372832
520.0 0.053667 134.881398 0.980035 -109.831127 0.980035 -109.831127 0.036582 -179.395979
540.0 0.050601 116.920299 0.979992 -114.105902 0.979992 -114.105902 0.034976 165.791852
560.0 0.045504 98.982781 0.979864 -118.373413 0.979864 -118.373413 0.030748 151.862389
580.0 0.039773 80.900514 0.978988 -122.623014 0.978988 -122.623014 0.025424 139.23493
600.0 0.034242 62.224798 0.978446 -126.794584 0.978446 -126.794584 0.019599 126.923965
620.0 0.028953 40.316497 0.979532 -130.982082 0.979532 -130.982082 0.013563 113.916634
640.0 0.023262 14.509935 0.980651 -135.264126 0.980651 -135.264126 0.007565 93.493559
660.0 0.017854 -17.828016 0.980653 -139.576163 0.980653 -139.576163 0.002721 11.726207
680.0 0.012887 -59.54983 0.979997 -143.881207 0.979997 -143.881207 0.006946 -70.923593
700.0 0.010457 -110.032832 0.978466 -148.181906 0.978466 -148.181906 0.012478 -88.858236
720.0 0.011184 -163.094667 0.976053 -152.414891 0.976053 -152.414891 0.017946 -101.9451
740.0 0.01315 154.374265 0.974149 -156.56353 0.974149 -156.56353 0.021918 -113.199504
760.0 0.015818 122.879734 0.973427 -160.679112 0.973427 -160.679112 0.025039 -121.362775
780.0 0.01893 97.169986 0.974018 -164.811655 0.974018 -164.811655 0.027545 -129.284199
800.0 0.023222 75.907576 0.975536 -169.027253 0.975536 -169.027253 0.028721 -135.748033
820.0 0.028952 54.438001 0.976102 -173.369671 0.976102 -173.369671 0.02978 -140.949745
840.0 0.035032 33.420882 0.973798 -177.704328 0.973798 -177.704328 0.029301 -146.630126
860.0 0.041084 12.796679 0.970666 178.106092 0.970666 178.106092 0.027627 -147.035134
880.0 0.045924 -6.239644 0.968506 174.007027 0.968506 174.007027 0.027925 -144.987552
900.0 0.050256 -23.562614 0.967785 169.952275 0.967785 169.952275 0.02847 -143.556793
920.0 0.052975 -39.688718 0.968676 165.870786 0.968676 165.870786 0.029799 -141.09405
940.0 0.054582 -53.227721 0.970254 161.717347 0.970254 161.717347 0.031443 -139.764078
960.0 0.056302 -65.047836 0.971831 157.507934 0.971831 157.507934 0.033078 -136.120472
980.0 0.058455 -76.606972 0.973229 153.227861 0.973229 153.227861 0.038095 -131.775909
1000.0 0.059274 -89.072282 0.972842 148.916722 0.972842 148.916722 0.046063 -132.158594
1020.0 0.057319 -101.489062 0.97249 144.710853 0.97249 144.710853 0.055053 -137.245565
1040.0 0.051137 -112.068928 0.97389 140.397148 0.97389 140.397148 0.060934 -145.794192
1060.0 0.044372 -115.089056 0.97167 135.962307 0.97167 135.962307 0.062262 -151.713233
1080.0 0.042039 -116.073616 0.967239 131.782476 0.967239 131.782476 0.065895 -154.968616
1100.0 0.037467 -116.782423 0.966776 127.669106 0.966776 127.669106 0.06996 -161.231746
1120.0 0.035087 -104.342129 0.964668 123.355632 0.964668 123.355632 0.06908 -166.705905
1140.0 0.045687 -95.358692 0.95909 119.325917 0.95909 119.325917 0.06913 -167.754678
1160.0 0.058415 -99.701048 0.959407 115.574161 0.959407 115.574161 0.073941 -168.920094
1180.0 0.070101 -106.315228 0.966086 111.610896 0.966086 111.610896 0.082389 -173.2671
1200.0 0.081996 -115.483136 0.97406 107.220844 0.97406 107.220844 0.088239 176.060115
1220.0 0.092882 -126.117203 0.976011 102.503185 0.976011 102.503185 0.079589 164.88046
1240.0 0.101879 -140.206627 0.971103 98.00164 0.971103 98.00164 0.066757 165.487941
1260.0 0.09831 -156.628478 0.968914 93.793521 0.968914 93.793521 0.068382 170.264812
1280.0 0.081434 -166.290771 0.968904 89.304516 0.968904 89.304516 0.070316 167.056107
1300.0 0.073444 -162.538685 0.960807 84.744721 0.960807 84.744721 0.066196 167.570098
1320.0 0.082076 -163.593921 0.949969 80.719039 0.949969 80.719039 0.068874 172.062828
1340.0 0.086766 -171.785242 0.944404 77.010668 0.944404 77.010668 0.075572 172.831061
1360.0 0.087436 -179.836384 0.944712 73.370645 0.944712 73.370645 0.083352 171.729353
1380.0 0.085886 171.357276 0.950867 69.513238 0.950867 69.513238 0.091819 168.483728
1400.0 0.080286 162.690074 0.957116 65.270159 0.957116 65.270159 0.099679 163.86983
1420.0 0.071575 156.053481 0.959636 60.88341 0.959636 60.88341 0.106222 158.008189
1440.0 0.062118 152.894528 0.959908 56.533747 0.959908 56.533747 0.110224 151.786833
1460.0 0.054644 154.787733 0.959058 52.231782 0.959058 52.231782 0.112821 145.623362
1480.0 0.052242 159.041578 0.958001 48.014058 0.958001 48.014058 0.113511 138.974379
1500.0 0.052576 163.379835 0.957868 43.818917 0.957868 43.818917 0.110735 132.719851
1520.0 0.057197 166.256529 0.958193 39.618088 0.958193 39.618088 0.106807 127.879707
1540.0 0.062746 165.856552 0.959363 35.363158 0.959363 35.363158 0.102977 123.573969
1560.0 0.07035 164.395038 0.959188 31.014228 0.959188 31.014228 0.098235 120.086497
1580.0 0.079768 159.633397 0.957233 26.741163 0.957233 26.741163 0.094468 118.069931
1600.0 0.088694 152.490243 0.955926 22.549692 0.955926 22.549692 0.093084 116.167196
1620.0 0.096551 143.653512 0.955071 18.370222 0.955071 18.370222 0.092077 113.496044
1640.0 0.102426 133.080134 0.955101 14.227075 0.955101 14.227075 0.090783 110.736424
1660.0 0.103893 121.661225 0.956409 10.017047 0.956409 10.017047 0.089459 107.91115
1680.0 0.102569 110.746005 0.956966 5.734805 0.956966 5.734805 0.08813 105.194833
1700.0 0.099357 99.738295 0.95697 1.447558 0.95697 1.447558 0.087347 102.552038
1720.0 0.09492 88.932895 0.955952 -2.853771 0.955952 -2.853771 0.087577 99.423721
1740.0 0.089616 77.1717 0.95395 -7.06259 0.95395 -7.06259 0.087935 95.027722
1760.0 0.081813 64.591763 0.953123 -11.167609 0.953123 -11.167609 0.087129 89.5028
1780.0 0.07184 51.615918 0.954409 -15.265027 0.954409 -15.265027 0.084644 83.348791
1800.0 0.060294 38.659002 0.957322 -19.453069 0.957322 -19.453069 0.08097 76.771454
1820.0 0.047431 25.480398 0.960293 -23.772759 0.960293 -23.772759 0.075649 69.434924
1840.0 0.03361 15.075116 0.961891 -28.181765 0.961891 -28.181765 0.068684 61.956256
1860.0 0.021776 10.31772 0.961711 -32.598961 0.961711 -32.598961 0.060631 53.874045
1880.0 0.012275 22.489974 0.960346 -36.956372 0.960346 -36.956372 0.050932 45.242868
1900.0 0.011703 58.978924 0.95908 -41.23633 0.95908 -41.23633 0.040177 36.349259
1920.0 0.016809 70.756567 0.958664 -45.491036 0.958664 -45.491036 0.028678 26.901125
1940.0 0.023074 65.597433 0.959041 -49.762454 0.959041 -49.762454 0.016711 16.62234
1960.0 0.029055 52.644567 0.959769 -54.107101 0.959769 -54.107101 0.005057 6.814493
1980.0 0.033868 35.363322 0.959067 -58.513267 0.959067 -58.513267 0.004875 -179.712606
2000.0 0.037584 17.821059 0.956919 -62.855118 0.956919 -62.855118 0.013206 174.815013
2020.0 0.042066 -0.574971 0.955089 -67.121432 0.955089 -67.121432 0.020367 170.072114
2040.0 0.04632 -19.598757 0.953766 -71.3608 0.953766 -71.3608 0.026546 165.027638
2060.0 0.05144 -37.648974 0.953419 -75.57172 0.953419 -75.57172 0.031218 160.505193
2080.0 0.057491 -55.686818 0.954428 -79.852527 0.954428 -79.852527 0.035016 156.916476
2100.0 0.06394 -73.538745 0.954614 -84.250027 0.954614 -84.250027 0.037596 153.413542
2120.0 0.069063 -91.295126 0.952766 -88.655519 0.952766 -88.655519 0.038629 151.196911
2140.0 0.07196 -107.075882 0.94963 -92.97298 0.94963 -92.97298 0.038601 151.469879
2160.0 0.073907 -120.704507 0.946871 -97.177139 0.946871 -97.177139 0.038856 154.923578
2180.0 0.075542 -132.571222 0.945504 -101.339341 0.945504 -101.339341 0.040983 160.761497
2200.0 0.076563 -143.779871 0.945154 -105.510024 0.945154 -105.510024 0.046232 166.015395
2220.0 0.075839 -153.40507 0.945697 -109.694516 0.945697 -109.694516 0.053698 169.058528
2240.0 0.075176 -161.431956 0.947502 -113.930468 0.947502 -113.930468 0.063655 170.299466
2260.0 0.074132 -168.569714 0.949584 -118.305742 0.949584 -118.305742 0.076493 168.853427
2280.0 0.072321 -174.91823 0.949764 -122.771417 0.949764 -122.771417 0.090668 164.302731
2300.0 0.068907 -179.020681 0.948289 -127.219164 0.948289 -127.219164 0.103453 157.677783
2320.0 0.067189 -179.722112 0.945787 -131.634513 0.945787 -131.634513 0.112862 150.233998
2340.0 0.069227 -178.803896 0.942453 -135.999449 0.942453 -135.999449 0.118241 143.47455
2360.0 0.075748 -179.174211 0.938597 -140.287248 0.938597 -140.287248 0.121988 137.928733
2380.0 0.084081 178.183076 0.935312 -144.478762 0.935312 -144.478762 0.125263 133.142866
2400.0 0.093639 173.684411 0.933423 -148.641175 0.933423 -148.641175 0.129089 128.634969
2420.0 0.102485 167.957883 0.932585 -152.829484 0.932585 -152.829484 0.132278 123.68702
2440.0 0.111677 161.643638 0.932186 -157.08144 0.932186 -157.08144 0.133491 118.769828
2460.0 0.119972 154.35567 0.931143 -161.389792 0.931143 -161.389792 0.132793 114.337529
2480.0 0.127267 146.755105 0.928991 -165.694512 0.928991 -165.694512 0.130839 110.808176
2500.0 0.133437 138.800081 0.92656 -169.943815 0.92656 -169.943815 0.128959 108.631141
2520.0 0.139413 130.318426 0.924439 -174.215421 0.924439 -174.215421 0.130644 107.306171
2540.0 0.14253 120.41425 0.920208 -178.499337 0.920208 -178.499337 0.135037 104.645514
2560.0 0.139979 110.410554 0.914449 177.447107 0.914449 177.447107 0.137572 100.783288
2580.0 0.133244 101.398737 0.912052 173.627873 0.912052 173.627873 0.137147 97.299614
2600.0 0.125145 93.636637 0.914217 169.746308 0.914217 169.746308 0.137432 94.942065
2620.0 0.115576 86.316563 0.917621 165.696329 0.917621 165.696329 0.139723 92.147624
2640.0 0.104015 80.682745 0.921389 161.571069 0.921389 161.571069 0.141184 88.81088
2660.0 0.092987 77.119785 0.925849 157.352276 0.925849 157.352276 0.141932 85.612669
2680.0 0.083277 76.184582 0.930635 153.015304 0.930635 153.015304 0.14367 82.485472
2700.0 0.077064 77.464155 0.934512 148.502725 0.934512 148.502725 0.145959 78.22514
2720.0 0.073882 79.818673 0.935162 143.924483 0.935162 143.924483 0.144575 73.020184
2740.0 0.073574 83.145973 0.934096 139.420194 0.934096 139.420194 0.138932 68.508081
2760.0 0.078392 86.733032 0.932246 134.941787 0.932246 134.941787 0.132064 65.643021
2780.0 0.088577 87.310709 0.929364 130.507686 0.929364 130.507686 0.126587 64.172118
2800.0 0.102166 84.228372 0.925756 126.12579 0.925756 126.12579 0.123623 63.635029
2820.0 0.116221 77.372799 0.921456 121.826901 0.921456 121.826901 0.123829 63.154898
2840.0 0.127874 68.442289 0.917373 117.63314 0.917373 117.63314 0.126543 62.047304
2860.0 0.136398 58.022044 0.914191 113.508161 0.914191 113.508161 0.131269 59.755937
2880.0 0.140533 46.91264 0.91154 109.428193 0.91154 109.428193 0.136226 55.853154
2900.0 0.140627 35.500398 0.909986 105.451712 0.909986 105.451712 0.1393 50.868989
2920.0 0.137335 24.374277 0.911273 101.494626 0.911273 101.494626 0.14126 45.457954
2940.0 0.132512 13.082417 0.914291 97.455888 0.914291 97.455888 0.142162 39.05723
2960.0 0.125143 1.63301 0.918924 93.339224 0.918924 93.339224 0.140859 32.02868
2980.0 0.11721 -10.0947 0.924281 89.040237 0.924281 89.040237 0.138444 24.048734
3000.0 0.107035 -23.120113 0.927882 84.632982 0.927882 84.632982 0.132618 14.555919
3020.0 0.093902 -36.678952 0.930803 80.233915 0.930803 80.233915 0.122226 4.241487
3040.0 0.078737 -50.408682 0.933704 75.773536 0.933704 75.773536 0.108267 -6.535623
3060.0 0.063004 -64.110608 0.935361 71.261616 0.935361 71.261616 0.091624 -18.029155
3080.0 0.046624 -78.320389 0.935971 66.751457 0.935971 66.751457 0.072448 -30.410906
3100.0 0.030493 -91.125932 0.935539 62.253782 0.935539 62.253782 0.052024 -43.908027
3120.0 0.015464 -101.610077 0.934479 57.817569 0.934479 57.817569 0.03131 -60.556381
3140.0 0.003334 -51.731285 0.933748 53.425773 0.933748 53.425773 0.012258 -91.853423
3160.0 0.012289 17.419099 0.933408 49.053895 0.933408 49.053895 0.010156 147.541343
3180.0 0.023415 6.806707 0.933917 44.681706 0.933917 44.681706 0.024384 111.595697
3200.0 0.03279 -9.967291 0.934883 40.243793 0.934883 40.243793 0.036563 94.620184
3220.0 0.04124 -28.498225 0.935311 35.758411 0.935311 35.758411 0.045135 80.263432
3240.0 0.04848 -48.923984 0.935308 31.237335 0.935308 31.237335 0.049382 66.782922
3260.0 0.055249 -69.630368 0.934033 26.695661 0.934033 26.695661 0.049017 53.109789
3280.0 0.062503 -91.232418 0.932405 22.219781 0.932405 22.219781 0.043228 39.151706
3300.0 0.07005 -113.686657 0.931823 17.691186 0.931823 17.691186 0.032454 25.767195
3320.0 0.075903 -136.867058 0.929329 13.019982 0.929329 13.019982 0.018485 14.561951
3340.0 0.078141 -157.574766 0.92286 8.413758 0.92286 8.413758 0.003063 4.072015
3360.0 0.080804 -174.405263 0.915196 4.043896 0.915196 4.043896 0.014728 175.391211
3380.0 0.085485 170.218575 0.908806 -0.179146 0.908806 -0.179146 0.034452 163.500744
3400.0 0.090517 155.207296 0.90312 -4.322483 0.90312 -4.322483 0.054746 151.771478
3420.0 0.094623 141.115488 0.898455 -8.33744 0.898455 -8.33744 0.074461 140.486661
3440.0 0.099243 127.695897 0.896316 -12.267285 0.896316 -12.267285 0.093492 129.604831
3460.0 0.102337 113.767307 0.896439 -16.206399 0.896439 -16.206399 0.111057 118.567438
3480.0 0.102849 100.619874 0.898803 -20.136667 0.898803 -20.136667 0.125933 107.679532
3500.0 0.102267 87.980078 0.905004 -24.181282 0.905004 -24.181282 0.138705 97.140351
3520.0 0.100426 75.141168 0.912004 -28.563485 0.912004 -28.563485 0.150169 85.852046
3540.0 0.095336 61.087891 0.914967 -33.078624 0.914967 -33.078624 0.155337 72.997936
3560.0 0.084336 47.219978 0.917231 -37.431399 0.917231 -37.431399 0.150698 60.457019
3580.0 0.069817 35.353685 0.922378 -41.874079 0.922378 -41.874079 0.139828 49.0559
3600.0 0.053864 25.956963 0.925894 -46.537667 0.925894 -46.537667 0.123052 38.381982
3620.0 0.036338 19.938741 0.927274 -51.184984 0.927274 -51.184984 0.100471 29.877997
3640.0 0.018234 34.45907 0.928491 -55.911856 0.928491 -55.911856 0.075528 25.968375
3660.0 0.019743 99.171759 0.925941 -60.708998 0.925941 -60.708998 0.050966 32.654636
3680.0 0.043635 111.055116 0.921755 -65.30743 0.921755 -65.30743 0.042446 65.767559
3700.0 0.070669 98.835478 0.918826 -69.974245 0.918826 -69.974245 0.064415 84.908422
3720.0 0.090442 82.595759 0.910248 -74.719009 0.910248 -74.719009 0.089336 83.014352
3740.0 0.101566 68.035699 0.897845 -78.970721 0.897845 -78.970721 0.108752 77.217857
3760.0 0.109098 56.185397 0.890894 -82.829476 0.890894 -82.829476 0.12561 71.149724
3780.0 0.116354 44.384538 0.88889 -86.744633 0.88889 -86.744633 0.143195 64.22902
3800.0 0.120005 31.921897 0.888044 -90.753485 0.888044 -90.753485 0.160126 55.297062
3820.0 0.119541 19.804479 0.887194 -94.732549 0.887194 -94.732549 0.171968 45.022668
3840.0 0.116474 8.92095 0.888991 -98.542857 0.888991 -98.542857 0.179585 34.849108
3860.0 0.115115 -1.51693 0.897081 -102.497475 0.897081 -102.497475 0.187028 23.817575
3880.0 0.114009 -14.147093 0.905157 -106.861009 0.905157 -106.861009 0.190486 10.262299
3900.0 0.108854 -29.414412 0.910845 -111.237127 0.910845 -111.237127 0.183614 -5.505255
3920.0 0.09692 -46.349965 0.919544 -115.719395 0.919544 -115.719395 0.16486 -22.419844
3940.0 0.080059 -63.158581 0.925935 -120.627501 0.925935 -120.627501 0.136903 -39.747282
3960.0 0.061644 -79.648229 0.924574 -125.535617 0.924574 -125.535617 0.104218 -57.168418
3980.0 0.043824 -96.085543 0.920608 -130.120603 0.920608 -130.120603 0.072096 -75.477562
4000.0 0.027966 -114.455883 0.918225 -134.454512 0.918225 -134.454512 0.044421 -100.283343
4020.0 0.015523 -141.264828 0.920567 -138.714511 0.920567 -138.714511 0.027223 -152.604115
4040.0 0.010548 152.275761 0.925897 -143.275465 0.925897 -143.275465 0.037507 138.300029
4060.0 0.018112 87.771164 0.927516 -148.087266 0.927516 -148.087266 0.063343 101.127978
4080.0 0.02824 54.385578 0.92533 -152.808406 0.92533 -152.808406 0.088464 76.101248
4100.0 0.036083 29.447969 0.922553 -157.416612 0.922553 -157.416612 0.10767 55.466856
4120.0 0.040835 7.057749 0.918972 -161.945839 0.918972 -161.945839 0.120677 37.169622
4140.0 0.043005 -16.455737 0.915944 -166.329325 0.915944 -166.329325 0.128071 19.516236
4160.0 0.041913 -42.957809 0.914903 -170.660791 0.914903 -170.660791 0.129296 1.827836
4180.0 0.039738 -73.123736 0.915793 -175.018196 0.915793 -175.018196 0.125296 -16.32192
4200.0 0.03912 -108.871496 0.917878 -179.491339 0.917878 -179.491339 0.117131 -35.702737
4220.0 0.042378 -145.891687 0.91967 175.911905 0.91967 175.911905 0.106148 -57.373714
4240.0 0.050675 -178.400324 0.919918 171.214962 0.919918 171.214962 0.09414 -82.397583
4260.0 0.062365 155.365829 0.918191 166.520231 0.918191 166.520231 0.085165 -111.987852
4280.0 0.075895 133.822001 0.914873 161.837801 0.914873 161.837801 0.082093 -146.307408
4300.0 0.089158 115.711897 0.909436 157.278982 0.909436 157.278982 0.086082 179.519578
4320.0 0.103222 100.165222 0.904642 152.901012 0.904642 152.901012 0.096577 149.638691
4340.0 0.117174 84.992911 0.901429 148.589434 0.901429 148.589434 0.109066 124.429119
4360.0 0.128972 70.16278 0.899053 144.282513 0.899053 144.282513 0.120389 103.616637
4380.0 0.136949 55.23161 0.896666 140.068596 0.896666 140.068596 0.130031 86.072694
4400.0 0.139298 40.948477 0.897282 135.986949 0.897282 135.986949 0.139069 70.752947
4420.0 0.136895 27.075914 0.901906 131.840452 0.901906 131.840452 0.14853 55.57651
4440.0 0.127747 13.763979 0.909922 127.4842 0.909922 127.4842 0.15537 38.983229
4460.0 0.112742 1.792103 0.918178 122.772454 0.918178 122.772454 0.155447 20.171981
4480.0 0.092072 -7.660238 0.923247 117.841498 0.923247 117.841498 0.143935 -0.978454
4500.0 0.069187 -11.057412 0.924686 112.817655 0.924686 112.817655 0.120175 -24.323258
4520.0 0.049946 -1.392537 0.921936 107.854521 0.921936 107.854521 0.087551 -51.314659
4540.0 0.047658 23.321291 0.918291 103.121681 0.918291 103.121681 0.053852 -89.326547
4560.0 0.064214 37.647984 0.917158 98.370559 0.917158 98.370559 0.037816 -159.724632
4580.0 0.085866 37.601453 0.913304 93.459929 0.913304 93.459929 0.056655 138.82378
4600.0 0.10571 33.719667 0.906682 88.72067 0.906682 88.72067 0.084911 108.581757
4620.0 0.127268 27.79118 0.899657 84.054064 0.899657 84.054064 0.112644 88.146405
