! File created by SignalIntegrity v1.1.10: Signal and Power Integrity Tools
! https://github.com/TeledyneLeCroy/SignalIntegrity
# MHz S MA R 50.0
0.0 0.034695 0.0 0.980582 0.0 0.980582 0.0 0.001319 180.0
20.0 0.036758 -7.486337 0.979785 -4.33191 0.979785 -4.33191 0.000954 175.308699
40.0 0.039761 -19.656844 0.977937 -8.606488 0.977937 -8.606488 0.000206 140.135084
60.0 0.041963 -33.942379 0.975612 -12.776167 0.975612 -12.776167 0.00217 -4.857549
80.0 0.042742 -48.531437 0.975085 -16.836352 0.975085 -16.836352 0.00611 -30.429926
100.0 0.043304 -62.560878 0.976766 -20.950187 0.976766 -20.950187 0.010608 -54.083034
120.0 0.042906 -77.313163 0.978791 -25.123222 0.978791 -25.123222 0.014223 -73.147024
140.0 0.041382 -91.013185 0.982275 -29.357562 0.982275 -29.357562 0.017771 -86.223363
160.0 0.039215 -104.088004 0.985097 -33.829867 0.985097 -33.829867 0.021817 -100.691652
180.0 0.03657 -115.80918 0.982469 -38.329063 0.982469 -38.329063 0.024181 -115.860549
200.0 0.033645 -127.385915 0.97844 -42.551947 0.97844 -42.551947 0.025391 -127.627554
220.0 0.02989 -137.912054 0.976828 -46.695284 0.976828 -46.695284 0.026676 -139.129025
240.0 0.025383 -147.668623 0.975413 -50.837036 0.975413 -50.837036 0.026409 -151.491728
260.0 0.019958 -152.641562 0.975142 -54.894607 0.975142 -54.894607 0.025076 -161.337785
280.0 0.015376 -151.483977 0.977336 -58.985281 0.977336 -58.985281 0.023697 -172.113771
300.0 0.011366 -134.782044 0.980516 -63.197268 0.980516 -63.197268 0.019996 174.846401
320.0 0.014209 -104.754372 0.983378 -67.543497 0.983378 -67.543497 0.013577 166.839011
340.0 0.023503 -101.662825 0.983768 -71.98762 0.983768 -71.98762 0.007944 -174.031318
360.0 0.032392 -113.641575 0.981585 -76.349763 0.981585 -76.349763 0.009343 -138.695315
380.0 0.038597 -126.529164 0.979307 -80.606397 0.979307 -80.606397 0.012999 -129.551557
400.0 0.043779 -139.179051 0.977166 -84.809476 0.977166 -84.809476 0.016977 -127.518088
420.0 0.048066 -151.895302 0.97559 -88.950193 0.97559 -88.950193 0.021685 -130.983118
440.0 0.051622 -165.533752 0.97494 -93.070331 0.97494 -93.070331 0.025783 -138.173417
460.0 0.053584 -179.456469 0.97505 -97.174134 0.97505 -97.174134 0.029435 -145.649892
480.0 0.054854 166.126966 0.976697 -101.291079 0.976697 -101.291079 0.032992 -155.215356
500.0 0.054618 150.94154 0.97909 -105.523703 0.97909 -105.523703 0.03539 -166.372615
520.0 0.053667 134.885795 0.980027 -109.831128 0.980027 -109.831128 0.036581 -179.3936
540.0 0.050605 116.920608 0.979984 -114.105896 0.979984 -114.105896 0.034975 165.788049
560.0 0.045501 98.985125 0.979857 -118.373404 0.979857 -118.373404 0.030745 151.865692
580.0 0.039775 80.905561 0.978981 -122.622992 0.978981 -122.622992 0.025425 139.229789
600.0 0.03424 62.223527 0.978439 -126.794557 0.978439 -126.794557 0.019595 126.921201
620.0 0.028951 40.321571 0.979525 -130.982049 0.979525 -130.982049 0.013565 113.915568
640.0 0.023261 14.508748 0.980644 -135.264081 0.980644 -135.264081 0.007563 93.464696
660.0 0.017852 -17.832173 0.980646 -139.576109 0.980646 -139.576109 0.002721 11.728468
680.0 0.012886 -59.560019 0.97999 -143.88114 0.97999 -143.88114 0.006947 -70.897676
700.0 0.010458 -110.037043 0.978459 -148.1818 0.978459 -148.1818 0.012479 -88.849546
720.0 0.011189 -163.086972 0.976048 -152.414752 0.976048 -152.414752 0.017947 -101.936546
740.0 0.013153 154.375718 0.974145 -156.563434 0.974145 -156.563434 0.021919 -113.194749
760.0 0.015818 122.896095 0.973423 -160.679036 0.973423 -160.679036 0.025041 -121.35834
780.0 0.018933 97.181518 0.974014 -164.811619 0.974014 -164.811619 0.027545 -129.284366
800.0 0.023221 75.914015 0.975532 -169.027247 0.975532 -169.027247 0.028723 -135.743777
820.0 0.028954 54.448113 0.976097 -173.369739 0.976097 -173.369739 0.02978 -140.954529
840.0 0.035033 33.42119 0.973792 -177.704391 0.973792 -177.704391 0.0293 -146.627943
860.0 0.041082 12.798476 0.97066 178.106106 0.97066 178.106106 0.027626 -147.038531
880.0 0.045923 -6.238761 0.9685 174.007039 0.9685 174.007039 0.027923 -144.984453
900.0 0.050255 -23.562536 0.967779 169.952317 0.967779 169.952317 0.02847 -143.557478
920.0 0.052974 -39.689599 0.96867 165.870828 0.96867 165.870828 0.029797 -141.092003
940.0 0.054581 -53.227369 0.970248 161.717408 0.970248 161.717408 0.031442 -139.762712
960.0 0.056302 -65.04974 0.971825 157.508002 0.971825 157.508002 0.033077 -136.118435
980.0 0.058454 -76.60758 0.973223 153.227938 0.973223 153.227938 0.038094 -131.774475
1000.0 0.059275 -89.073236 0.972836 148.916806 0.972836 148.916806 0.046063 -132.156451
1020.0 0.057318 -101.491357 0.972485 144.710948 0.972485 144.710948 0.055051 -137.245667
1040.0 0.051139 -112.06881 0.973885 140.397245 0.973885 140.397245 0.060934 -145.792002
1060.0 0.044373 -115.09199 0.971665 135.962421 0.971665 135.962421 0.062261 -151.714102
1080.0 0.042039 -116.073897 0.967234 131.782591 0.967234 131.782591 0.065893 -154.966734
1100.0 0.037468 -116.784447 0.966771 127.669234 0.966771 127.669234 0.06996 -161.232087
1120.0 0.035088 -104.344172 0.964663 123.355769 0.964663 123.355769 0.069077 -166.704961
1140.0 0.045687 -95.360191 0.959085 119.32606 0.959085 119.32606 0.06913 -167.75425
1160.0 0.058416 -99.702966 0.959402 115.574319 0.959402 115.574319 0.073939 -168.919631
1180.0 0.070101 -106.316417 0.966082 111.611053 0.966082 111.611053 0.082388 -173.266728
1200.0 0.081998 -115.483877 0.974056 107.221015 0.974056 107.221015 0.088238 176.060382
1220.0 0.092883 -126.118532 0.976007 102.503364 0.976007 102.503364 0.079589 164.88006
1240.0 0.101881 -140.206375 0.9711 98.001825 0.9711 98.001825 0.066755 165.488406
1260.0 0.098312 -156.629347 0.968911 93.793718 0.968911 93.793718 0.068381 170.263811
1280.0 0.081435 -166.290333 0.968901 89.304718 0.968901 89.304718 0.070314 167.05665
1300.0 0.073446 -162.53922 0.960804 84.744934 0.960804 84.744934 0.066196 167.569334
1320.0 0.082077 -163.594076 0.949966 80.719266 0.949966 80.719266 0.068872 172.063119
1340.0 0.086768 -171.785374 0.944401 77.010897 0.944401 77.010897 0.075572 172.830758
1360.0 0.087438 -179.836318 0.94471 73.370893 0.94471 73.370893 0.08335 171.729035
1380.0 0.085887 171.357049 0.950865 69.513487 0.950865 69.513487 0.091819 168.483598
1400.0 0.080287 162.69088 0.957113 65.270427 0.957113 65.270427 0.099678 163.869263
1420.0 0.071577 156.053101 0.959634 60.883686 0.959634 60.883686 0.106222 158.007849
1440.0 0.062119 152.895734 0.959905 56.53404 0.959905 56.53404 0.110222 151.786498
1460.0 0.054645 154.787372 0.959056 52.232098 0.959056 52.232098 0.11282 145.622931
1480.0 0.052242 159.042546 0.958 48.014394 0.958 48.014394 0.113509 138.974441
1500.0 0.052577 163.38081 0.957867 43.819256 0.957867 43.819256 0.110736 132.719823
1520.0 0.057197 166.258478 0.958193 39.618391 0.958193 39.618391 0.106807 127.879484
1540.0 0.062748 165.858474 0.959363 35.363426 0.959363 35.363426 0.102979 123.573839
1560.0 0.070352 164.396563 0.959188 31.014471 0.959188 31.014471 0.098236 120.08524
1580.0 0.079771 159.634147 0.957233 26.741382 0.957233 26.741382 0.09447 118.069164
1600.0 0.088696 152.491032 0.955925 22.549937 0.955925 22.549937 0.093084 116.165049
1620.0 0.096553 143.653477 0.95507 18.370482 0.95507 18.370482 0.092078 113.49482
1640.0 0.102426 133.080798 0.9551 14.227369 0.9551 14.227369 0.090783 110.734408
1660.0 0.103894 121.661514 0.956409 10.017359 0.956409 10.017359 0.089459 107.909881
1680.0 0.102568 110.746428 0.956965 5.735117 0.956965 5.735117 0.088129 105.193215
1700.0 0.099357 99.739059 0.956969 1.447883 0.956969 1.447883 0.087347 102.550736
1720.0 0.094919 88.932981 0.955952 -2.853439 0.955952 -2.853439 0.087576 99.422143
1740.0 0.089615 77.172598 0.953951 -7.062254 0.953951 -7.062254 0.087936 95.026823
1760.0 0.081812 64.591929 0.953123 -11.167266 0.953123 -11.167266 0.087129 89.500874
1780.0 0.071839 51.616296 0.954409 -15.264682 0.954409 -15.264682 0.084645 83.34819
1800.0 0.060293 38.658956 0.957323 -19.452717 0.957323 -19.452717 0.080971 76.769174
1820.0 0.04743 25.479936 0.960294 -23.7724 0.960294 -23.7724 0.075649 69.434195
1840.0 0.033608 15.072665 0.961892 -28.1814 0.961892 -28.1814 0.068685 61.954074
1860.0 0.021775 10.315821 0.961713 -32.598586 0.961713 -32.598586 0.060631 53.872922
1880.0 0.012272 22.481032 0.960347 -36.955996 0.960347 -36.955996 0.050933 45.241044
1900.0 0.011701 58.984968 0.959082 -41.235952 0.959082 -41.235952 0.040177 36.348025
1920.0 0.016806 70.758631 0.958665 -45.490661 0.958665 -45.490661 0.028679 26.89873
1940.0 0.023072 65.602509 0.959043 -49.762077 0.959043 -49.762077 0.016712 16.621881
1960.0 0.029053 52.645147 0.959771 -54.106726 0.959771 -54.106726 0.005058 6.801195
1980.0 0.033865 35.364046 0.959069 -58.512888 0.959069 -58.512888 0.004875 -179.713301
2000.0 0.037581 17.820018 0.956921 -62.854737 0.956921 -62.854737 0.013204 174.819185
2020.0 0.042064 -0.576852 0.955091 -67.121042 0.955091 -67.121042 0.020367 170.073166
2040.0 0.046318 -19.601621 0.953768 -71.360408 0.953768 -71.360408 0.026545 165.02816
2060.0 0.051438 -37.651366 0.953422 -75.571324 0.953422 -75.571324 0.031219 160.506258
2080.0 0.057491 -55.689962 0.954431 -79.85214 0.954431 -79.85214 0.035016 156.915494
2100.0 0.063939 -73.541154 0.954617 -84.249643 0.954617 -84.249643 0.037597 153.413652
2120.0 0.069064 -91.296991 0.952769 -88.655145 0.952769 -88.655145 0.038629 151.195484
2140.0 0.071961 -107.078144 0.949633 -92.972607 0.949633 -92.972607 0.038602 151.4689
2160.0 0.073909 -120.705429 0.946875 -97.176772 0.946875 -97.176772 0.038856 154.922333
2180.0 0.075544 -132.572822 0.945507 -101.338973 0.945507 -101.338973 0.040984 160.759823
2200.0 0.076565 -143.78065 0.945157 -105.509659 0.945157 -105.509659 0.046232 166.014363
2220.0 0.075841 -153.406061 0.945701 -109.694153 0.945701 -109.694153 0.053699 169.056706
2240.0 0.075179 -161.43276 0.947506 -113.930111 0.947506 -113.930111 0.063654 170.298093
2260.0 0.074135 -168.570658 0.949588 -118.305402 0.949588 -118.305402 0.076495 168.851847
2280.0 0.072324 -174.918807 0.949768 -122.771091 0.949768 -122.771091 0.090667 164.300903
2300.0 0.068909 -179.021806 0.948292 -127.218847 0.948292 -127.218847 0.103454 157.676325
2320.0 0.067192 -179.72261 0.94579 -131.634211 0.94579 -131.634211 0.112861 150.231945
2340.0 0.069229 -178.805774 0.942455 -135.999139 0.942455 -135.999139 0.118241 143.473015
2360.0 0.07575 -179.175429 0.938599 -140.286914 0.938599 -140.286914 0.121986 137.926928
2380.0 0.084083 178.181437 0.935315 -144.478391 0.935315 -144.478391 0.125262 133.141648
2400.0 0.093638 173.683478 0.933426 -148.640782 0.933426 -148.640782 0.129087 128.633775
2420.0 0.102485 167.957265 0.932588 -152.829075 0.932588 -152.829075 0.132278 123.68625
2440.0 0.111676 161.643412 0.932189 -157.08104 0.932189 -157.08104 0.133489 118.768822
2460.0 0.119972 154.3557 0.931147 -161.389413 0.931147 -161.389413 0.132794 114.33685
2480.0 0.127266 146.755336 0.928994 -165.694148 0.928994 -165.694148 0.130838 110.806784
2500.0 0.133437 138.800107 0.926564 -169.943466 0.926564 -169.943466 0.128959 108.630303
2520.0 0.139412 130.318772 0.924443 -174.215043 0.924443 -174.215043 0.130643 107.304603
2540.0 0.142529 120.414645 0.920212 -178.498965 0.920212 -178.498965 0.135036 104.645052
2560.0 0.139978 110.41089 0.914453 177.447445 0.914453 177.447445 0.137572 100.782171
2580.0 0.133244 101.399149 0.912056 173.628202 0.912056 173.628202 0.137146 97.299054
2600.0 0.125144 93.636705 0.914221 169.746621 0.914221 169.746621 0.137432 94.941084
2620.0 0.115575 86.31702 0.917625 165.696631 0.917625 165.696631 0.139724 92.147025
2640.0 0.104014 80.682787 0.921393 161.571357 0.921393 161.571357 0.141184 88.809905
2660.0 0.092986 77.1202 0.925853 157.352548 0.925853 157.352548 0.141933 85.612105
2680.0 0.083275 76.18484 0.930639 153.015562 0.930639 153.015562 0.14367 82.484375
2700.0 0.077063 77.464546 0.934517 148.502952 0.934517 148.502952 0.14596 78.224604
2720.0 0.073881 79.818768 0.935165 143.924694 0.935165 143.924694 0.144576 73.01884
2740.0 0.073573 83.14584 0.934099 139.420403 0.934099 139.420403 0.138932 68.507456
2760.0 0.078389 86.732734 0.932249 134.942009 0.932249 134.942009 0.132064 65.641789
2780.0 0.088575 87.310883 0.929366 130.507924 0.929366 130.507924 0.126585 64.171666
2800.0 0.102163 84.228541 0.925759 126.126043 0.925759 126.126043 0.123623 63.634313
2820.0 0.116218 77.373465 0.921459 121.827142 0.921459 121.827142 0.123828 63.154717
2840.0 0.127871 68.442578 0.917377 117.633394 0.917377 117.633394 0.126542 62.046905
2860.0 0.136395 58.022747 0.914194 113.508397 0.914194 113.508397 0.131269 59.756155
2880.0 0.140531 46.912831 0.911544 109.428387 0.911544 109.428387 0.136227 55.852855
2900.0 0.140625 35.500521 0.90999 105.451896 0.90999 105.451896 0.1393 50.869208
2920.0 0.137333 24.374169 0.911276 101.494794 0.911276 101.494794 0.141261 45.457675
2940.0 0.13251 13.082252 0.914294 97.456042 0.914294 97.456042 0.142162 39.05753
2960.0 0.125141 1.632499 0.918927 93.339365 0.918927 93.339365 0.140861 32.028597
2980.0 0.117209 -10.095054 0.924284 89.040357 0.924284 89.040357 0.138444 24.049003
3000.0 0.107034 -23.120965 0.927885 84.633088 0.927885 84.633088 0.132619 14.556163
3020.0 0.0939 -36.679801 0.930806 80.234004 0.930806 80.234004 0.122226 4.241723
3040.0 0.078737 -50.409751 0.933706 75.773613 0.933706 75.773613 0.108268 -6.534998
3060.0 0.063004 -64.112374 0.935363 71.261682 0.935363 71.261682 0.091625 -18.028714
3080.0 0.046624 -78.321852 0.935973 66.751511 0.935973 66.751511 0.072449 -30.409713
3100.0 0.030494 -91.129066 0.935541 62.253827 0.935541 62.253827 0.052023 -43.906913
3120.0 0.015465 -101.613836 0.934481 57.817604 0.934481 57.817604 0.03131 -60.552886
3140.0 0.003334 -51.755654 0.93375 53.425794 0.93375 53.425794 0.012257 -91.850945
3160.0 0.012287 17.416948 0.93341 49.053906 0.93341 49.053906 0.010154 147.531412
3180.0 0.023414 6.805752 0.933918 44.681703 0.933918 44.681703 0.024385 111.593925
3200.0 0.032789 -9.969598 0.934884 40.243782 0.934884 40.243782 0.036563 94.616521
3220.0 0.04124 -28.499668 0.935313 35.758389 0.935313 35.758389 0.045136 80.262873
3240.0 0.048481 -48.925614 0.935309 31.237304 0.935309 31.237304 0.049384 66.781044
3260.0 0.05525 -69.631914 0.934034 26.695621 0.934034 26.695621 0.049018 53.109326
3280.0 0.062504 -91.232862 0.932406 22.219731 0.932406 22.219731 0.04323 39.150837
3300.0 0.070051 -113.687218 0.931824 17.691126 0.931824 17.691126 0.032455 25.766874
3320.0 0.075905 -136.866647 0.92933 13.019915 0.92933 13.019915 0.018487 14.561496
3340.0 0.078143 -157.574116 0.92286 8.41368 0.92286 8.41368 0.003064 4.073981
3360.0 0.080806 -174.404261 0.915196 4.043811 0.915196 4.043811 0.014726 175.390544
3380.0 0.085486 170.219637 0.908806 -0.17924 0.908806 -0.17924 0.034452 163.50031
3400.0 0.090518 155.20861 0.90312 -4.322586 0.90312 -4.322586 0.054744 151.770443
3420.0 0.094623 141.116608 0.898455 -8.33755 0.898455 -8.33755 0.074461 140.486482
3440.0 0.099242 127.697092 0.896315 -12.267405 0.896315 -12.267405 0.093492 129.603773
3460.0 0.102337 113.768454 0.896439 -16.206526 0.896439 -16.206526 0.111057 118.5673
3480.0 0.102848 100.620691 0.898802 -20.136802 0.898802 -20.136802 0.125933 107.678684
3500.0 0.102265 87.981133 0.905003 -24.181423 0.905003 -24.181423 0.138705 97.140181
3520.0 0.100424 75.141673 0.912002 -28.563634 0.912002 -28.563634 0.15017 85.851491
3540.0 0.095334 61.088513 0.914965 -33.078778 0.914965 -33.078778 0.155337 72.997845
3560.0 0.084334 47.220148 0.91723 -37.431565 0.91723 -37.431565 0.150699 60.456701
3580.0 0.069815 35.353754 0.922377 -41.874246 0.922377 -41.874246 0.139828 49.056043
3600.0 0.053861 25.956636 0.925892 -46.537846 0.925892 -46.537846 0.123053 38.381877
3620.0 0.036335 19.93876 0.927272 -51.185162 0.927272 -51.185162 0.100471 29.878504
3640.0 0.018231 34.460471 0.928488 -55.912043 0.928488 -55.912043 0.07553 25.968722
3660.0 0.019743 99.178462 0.925939 -60.709183 0.925939 -60.709183 0.050966 32.655994
3680.0 0.043635 111.057362 0.921753 -65.30762 0.921753 -65.30762 0.042448 65.766923
3700.0 0.070669 98.836976 0.918823 -69.974433 0.918823 -69.974433 0.064417 84.908587
3720.0 0.090442 82.596315 0.910245 -74.719203 0.910245 -74.719203 0.089338 83.013479
3740.0 0.101565 68.03639 0.897842 -78.970911 0.897842 -78.970911 0.108753 77.217715
3760.0 0.109097 56.185604 0.890891 -82.829673 0.890891 -82.829673 0.125613 71.149151
3780.0 0.116352 44.384773 0.888887 -86.744823 0.888887 -86.744823 0.143197 64.228857
3800.0 0.120004 31.921896 0.888041 -90.753681 0.888041 -90.753681 0.160129 55.296661
3820.0 0.11954 19.80445 0.887191 -94.732745 0.887191 -94.732745 0.17197 45.022633
3840.0 0.116473 8.920656 0.888988 -98.543061 0.888988 -98.543061 0.179588 34.848897
3860.0 0.115114 -1.517135 0.897078 -102.497682 0.897078 -102.497682 0.18703 23.817638
3880.0 0.114008 -14.147692 0.905153 -106.861216 0.905153 -106.861216 0.190489 10.262364
3900.0 0.108853 -29.414988 0.910841 -111.237329 0.910841 -111.237329 0.183615 -5.505162
3920.0 0.09692 -46.350673 0.91954 -115.719589 0.91954 -115.719589 0.164862 -22.419328
3940.0 0.080059 -63.159564 0.925931 -120.627685 0.925931 -120.627685 0.136904 -39.747044
3960.0 0.061645 -79.648744 0.92457 -125.535797 0.92457 -125.535797 0.104218 -57.167217
3980.0 0.043825 -96.08642 0.920603 -130.120773 0.920603 -130.120773 0.072096 -75.476759
4000.0 0.027967 -114.455446 0.91822 -134.454679 0.91822 -134.454679 0.044419 -100.280945
4020.0 0.015524 -141.262609 0.920562 -138.714672 0.920562 -138.714672 0.027221 -152.604955
4040.0 0.010547 152.280745 0.925893 -143.275622 0.925893 -143.275622 0.037506 138.295504
4060.0 0.01811 87.770116 0.927511 -148.08742 0.927511 -148.08742 0.063344 101.125896
4080.0 0.028238 54.38271 0.925326 -152.808552 0.925326 -152.808552 0.088465 76.098998
4100.0 0.036082 29.445592 0.922548 -157.416756 0.922548 -157.416756 0.10767 55.465876
4120.0 0.040835 7.054186 0.918967 -161.945971 0.918967 -161.945971 0.120679 37.168483
4140.0 0.043005 -16.45876 0.915939 -166.329452 0.915939 -166.329452 0.128072 19.515574
4160.0 0.041914 -42.960842 0.914898 -170.660904 0.914898 -170.660904 0.129298 1.827474
4180.0 0.039739 -73.12643 0.915788 -175.018311 0.915788 -175.018311 0.125297 -16.322406
4200.0 0.039123 -108.871839 0.917873 -179.491437 0.917873 -179.491437 0.117132 -35.702586
4220.0 0.04238 -145.890496 0.919665 175.911798 0.919665 175.911798 0.106148 -57.373987
4240.0 0.050677 -178.398062 0.919913 171.214887 0.919913 171.214887 0.09414 -82.397145
4260.0 0.062365 155.367638 0.918186 166.520138 0.918186 166.520138 0.085166 -111.98809
4280.0 0.075894 133.824364 0.914869 161.837799 0.914869 161.837799 0.082092 -146.306669
4300.0 0.089159 115.713136 0.909433 157.278907 0.909433 157.278907 0.086084 179.519304
4320.0 0.10322 100.165129 0.904637 152.900868 0.904637 152.900868 0.096577 149.637122
4340.0 0.117172 84.993341 0.901424 148.589378 0.901424 148.589378 0.109066 124.428813
4360.0 0.12897 70.162552 0.899049 144.282442 0.899049 144.282442 0.12039 103.615557
4380.0 0.136947 55.231554 0.896661 140.068558 0.896661 140.068558 0.130031 86.072427
4400.0 0.139296 40.947955 0.897278 135.986908 0.897278 135.986908 0.13907 70.752287
4420.0 0.136892 27.075326 0.901901 131.840431 0.901901 131.840431 0.148529 55.576247
4440.0 0.127745 13.76315 0.909918 127.484178 0.909918 127.484178 0.155371 38.983018
4460.0 0.112739 1.790986 0.918174 122.772447 0.918174 122.772447 0.155446 20.171824
4480.0 0.092071 -7.661583 0.923242 117.84149 0.923242 117.84149 0.143935 -0.978296
4500.0 0.069185 -11.05895 0.924682 112.81766 0.924682 112.81766 0.120174 -24.323314
4520.0 0.049944 -1.394043 0.921932 107.85453 0.921932 107.85453 0.08755 -51.314084
4540.0 0.047656 23.321577 0.918287 103.121702 0.918287 103.121702 0.053851 -89.32755
4560.0 0.064212 37.647929 0.917154 98.370589 0.917154 98.370589 0.037814 -159.727188
4580.0 0.085865 37.60167 0.9133 93.459969 0.9133 93.459969 0.056656 138.822615
4600.0 0.10571 33.719311 0.906678 88.720731 0.906678 88.720731 0.084913 108.580218
4620.0 0.127266 27.790961 0.899653 84.054136 0.899653 84.054136 0.112645 88.14626
