! File created by SignalIntegrity v1.1.10: Signal and Power Integrity Tools
! https://github.com/TeledyneLeCroy/SignalIntegrity
# MHz S MA R 50.0
0.0 0.010791 180.0
20.0 0.010886 137.363908
40.0 0.011144 95.26621
60.0 0.011494 54.049622
80.0 0.011844 13.79595
100.0 0.012105 -25.620585
120.0 0.012202 -64.449186
140.0 0.012086 -103.009524
160.0 0.011731 -141.682597
180.0 0.011146 179.061389
200.0 0.010378 138.611463
220.0 0.009533 96.188926
240.0 0.008791 51.007148
260.0 0.00841 2.95406
280.0 0.008632 -46.371743
300.0 0.009524 -94.117238
320.0 0.010927 -138.450883
340.0 0.012573 -179.335641
360.0 0.014206 142.449077
380.0 0.01561 106.07491
400.0 0.016616 70.869713
420.0 0.017103 36.292563
440.0 0.016999 1.858625
460.0 0.016297 -32.945781
480.0 0.01506 -68.763528
500.0 0.01344 -106.491041
520.0 0.011708 -147.363757
540.0 0.01027 167.384263
560.0 0.009603 118.136497
580.0 0.009947 68.524297
600.0 0.011047 22.447367
620.0 0.0124 -19.427681
640.0 0.013578 -58.375702
660.0 0.014325 -95.855014
680.0 0.014541 -133.091512
700.0 0.01427 -171.162312
720.0 0.013706 148.943713
740.0 0.01319 106.5646
760.0 0.013137 62.064534
780.0 0.013841 17.299584
800.0 0.015272 -25.504958
820.0 0.017116 -65.366693
840.0 0.018969 -102.565127
860.0 0.020474 -137.845881
880.0 0.021369 -171.960187
900.0 0.021493 154.427081
920.0 0.020792 120.678715
940.0 0.019328 86.070774
960.0 0.017293 49.641137
980.0 0.015043 10.058269
1000.0 0.013135 -34.095567
1020.0 0.01225 -82.588434
1040.0 0.012766 -131.481544
1060.0 0.014349 -176.393209
1080.0 0.016294 143.400523
1100.0 0.017998 106.537058
1120.0 0.019079 71.563092
1140.0 0.019334 37.343284
1160.0 0.018716 2.905691
1180.0 0.017329 -32.797998
1200.0 0.01546 -71.123004
1220.0 0.013626 -113.710552
1240.0 0.012582 -161.220311
1260.0 0.012984 149.439298
1280.0 0.014765 103.530628
1300.0 0.017237 62.875192
1320.0 0.019684 26.299122
1340.0 0.021592 -7.741937
1360.0 0.022633 -40.395206
1380.0 0.022625 -72.499617
1400.0 0.021519 -104.801175
1420.0 0.019402 -138.196241
1440.0 0.01653 -174.09959
1460.0 0.013417 144.950694
1480.0 0.01104 95.368553
1500.0 0.010765 38.658441
1520.0 0.012901 -13.476505
1540.0 0.016239 -56.330749
1560.0 0.019646 -93.140703
1580.0 0.022472 -126.846626
1600.0 0.024359 -159.103217
1620.0 0.025129 169.097843
1640.0 0.024756 137.00718
1660.0 0.023365 103.872652
1680.0 0.021243 68.770175
1700.0 0.018877 30.553816
1720.0 0.016952 -11.693645
1740.0 0.016197 -57.152268
1760.0 0.016904 -102.364247
1780.0 0.018638 -144.119351
1800.0 0.020623 178.073385
1820.0 0.022185 143.177833
1840.0 0.022874 110.006768
1860.0 0.022452 77.549203
1880.0 0.020865 44.834393
1900.0 0.018248 10.608488
1920.0 0.01498 -27.263541
1940.0 0.011861 -72.635403
1960.0 0.010369 -128.52362
1980.0 0.011724 174.687277
2000.0 0.015021 128.329778
2020.0 0.01872 90.296782
2040.0 0.021887 56.555082
2060.0 0.024009 24.849176
2080.0 0.024808 -6.064368
2100.0 0.024186 -37.067254
2120.0 0.02222 -69.079023
2140.0 0.019193 -103.468181
2160.0 0.015691 -142.677309
2180.0 0.012831 169.616472
2200.0 0.012258 114.00175
2220.0 0.014513 62.078742
2240.0 0.018211 19.670727
2260.0 0.021931 -16.329848
2280.0 0.024839 -49.023135
2300.0 0.026468 -80.16076
2320.0 0.026588 -110.804226
2340.0 0.025164 -141.820207
2360.0 0.02236 -174.266846
2380.0 0.018589 150.067902
2400.0 0.014681 107.785987
2420.0 0.012215 54.767336
2440.0 0.012965 -2.938316
2460.0 0.016407 -51.420292
2480.0 0.020624 -90.475167
2500.0 0.024348 -124.499347
2520.0 0.026902 -156.141797
2540.0 0.027929 173.178866
2560.0 0.027301 142.512492
2580.0 0.025095 110.919641
2600.0 0.021627 77.029447
2620.0 0.01755 38.351294
2640.0 0.014132 -9.137723
2660.0 0.013326 -65.474363
2680.0 0.015867 -118.159509
2700.0 0.020102 -160.642906
2720.0 0.024354 163.579456
2740.0 0.027673 131.174871
2760.0 0.029541 100.322861
2780.0 0.029713 69.939181
2800.0 0.028162 39.142041
2820.0 0.025095 6.856276
2840.0 0.021 -28.703617
2860.0 0.016837 -70.749478
2880.0 0.014341 -122.559755
2900.0 0.015277 -177.917146
2920.0 0.019029 135.225086
2940.0 0.023603 97.157391
2960.0 0.027625 64.066317
2980.0 0.030326 33.540564
3000.0 0.031282 4.294097
3020.0 0.0303 -24.470072
3040.0 0.027391 -53.453825
3060.0 0.022768 -83.667418
3080.0 0.016888 -117.408265
3100.0 0.010777 -162.134121
3120.0 0.007788 123.297947
3140.0 0.011759 53.702249
3160.0 0.018231 11.929938
3180.0 0.024371 -20.400447
3200.0 0.029227 -49.403915
3220.0 0.032301 -76.982236
3240.0 0.03331 -103.926205
3260.0 0.032148 -130.69547
3280.0 0.028884 -157.713834
3300.0 0.023756 174.353373
3320.0 0.017194 143.852149
3340.0 0.009991 104.27038
3360.0 0.005394 21.110934
3380.0 0.010089 -60.9242
3400.0 0.017245 -100.114092
3420.0 0.023705 -130.375348
3440.0 0.028685 -158.041878
3460.0 0.031759 175.266808
3480.0 0.032693 148.895898
3500.0 0.031428 122.421883
3520.0 0.028083 95.368619
3540.0 0.02296 66.869525
3560.0 0.016588 34.669286
3580.0 0.010051 -9.430238
3600.0 0.007099 -88.651508
3620.0 0.011559 -157.334053
3640.0 0.017969 163.440063
3660.0 0.023671 132.737222
3680.0 0.027828 104.914779
3700.0 0.030015 78.275751
3720.0 0.03002 52.093723
3740.0 0.027821 25.887212
3760.0 0.023576 -0.924813
3780.0 0.017633 -29.60855
3800.0 0.010622 -64.858462
3820.0 0.004823 -138.09693
3840.0 0.00861 125.052879
3860.0 0.016052 84.866125
3880.0 0.022972 55.375847
3900.0 0.028496 28.71102
3920.0 0.032133 3.153193
3940.0 0.033574 -21.894087
3960.0 0.032688 -46.721995
3980.0 0.029515 -71.54673
4000.0 0.024271 -96.653852
4020.0 0.017329 -122.724225
4040.0 0.009235 -152.833833
4060.0 0.002079 110.276645
4080.0 0.008959 5.65431
4100.0 0.01708 -24.662065
4120.0 0.024052 -50.614737
4140.0 0.029302 -75.474732
4160.0 0.032425 -99.928925
4180.0 0.033178 -124.237236
4200.0 0.031494 -148.565391
4220.0 0.027485 -173.110632
4240.0 0.021437 161.716863
4260.0 0.013806 134.537314
4280.0 0.005361 94.850906
4300.0 0.004983 -55.071001
4320.0 0.013624 -96.647391
4340.0 0.0217 -123.838991
4360.0 0.028361 -148.768954
4380.0 0.033084 -172.895026
4400.0 0.03551 163.40108
4420.0 0.035452 140.002702
4440.0 0.032905 116.911169
4460.0 0.028048 94.248284
4480.0 0.02123 72.421699
4500.0 0.01297 53.076667
4520.0 0.004205 52.545506
4540.0 0.006369 155.331803
4560.0 0.015155 144.418746
4580.0 0.023045 124.152235
4600.0 0.029314 102.142548
4620.0 0.033488 79.492662
4640.0 0.035265 56.506407
4660.0 0.03452 33.271464
4680.0 0.031317 9.763814
4700.0 0.025895 -14.181592
4720.0 0.018665 -39.120017
4740.0 0.010206 -67.671466
4760.0 0.002243 -149.18498
4780.0 0.008735 92.117116
4800.0 0.017156 62.146219
4820.0 0.024362 37.028997
4840.0 0.029753 13.144478
4860.0 0.032919 -10.18016
4880.0 0.033627 -33.122463
4900.0 0.031825 -55.684395
4920.0 0.027653 -77.713317
4940.0 0.021431 -98.718176
4960.0 0.013671 -116.85569
4980.0 0.005354 -117.952819
5000.0 0.005744 -27.056681
5020.0 0.014175 -30.210858
5040.0 0.022028 -48.343664
5060.0 0.028345 -69.010809
5080.0 0.032589 -90.451286
5100.0 0.034403 -112.113082
5120.0 0.033621 -133.691585
5140.0 0.03027 -154.864807
5160.0 0.024585 -175.02204
5180.0 0.017024 167.657372
5200.0 0.008549 162.787839
5220.0 0.005609 -131.603858
5240.0 0.013985 -115.952811
5260.0 0.023213 -130.376308
5280.0 0.031344 -149.70989
5300.0 0.037631 -170.572491
5320.0 0.04156 167.95212
5340.0 0.042814 146.243306
5360.0 0.041273 124.535911
5380.0 0.03702 103.072393
5400.0 0.030342 82.272634
5420.0 0.021732 63.253528
5440.0 0.011981 50.927709
5460.0 0.004554 93.577737
5480.0 0.011602 140.266614
5500.0 0.021254 128.340245
5520.0 0.029722 109.256031
5540.0 0.036196 88.241496
5560.0 0.040183 66.440187
5580.0 0.041399 44.24422
5600.0 0.039769 21.824846
5620.0 0.035427 -0.730522
5640.0 0.028698 -23.37014
5660.0 0.020083 -46.052781
5680.0 0.010215 -68.698133
5700.0 0.000184 75.049937
5720.0 0.010331 65.246225
5740.0 0.019488 42.56256
5760.0 0.02697 19.828781
5780.0 0.032219 -2.87303
5800.0 0.034839 -25.493428
5820.0 0.034631 -47.964531
5840.0 0.031604 -70.159436
5860.0 0.025981 -91.782191
5880.0 0.018189 -111.904173
5900.0 0.008927 -125.370378
5920.0 0.003386 -41.169291
5940.0 0.012854 -21.483471
5960.0 0.022713 -38.803818
5980.0 0.031297 -59.591717
6000.0 0.037891 -81.347033
6020.0 0.041974 -103.463597
6040.0 0.043216 -125.698952
6060.0 0.041497 -147.901252
6080.0 0.036919 -169.906669
6100.0 0.029795 168.585047
6120.0 0.020643 148.432694
6140.0 0.010227 134.117897
6160.0 0.003227 -147.747258
6180.0 0.012922 -120.242332
6200.0 0.022953 -137.089328
6220.0 0.031386 -157.539432
6240.0 0.03754 -178.891559
6260.0 0.040957 159.525135
6280.0 0.041393 138.035162
6300.0 0.038833 116.943498
6320.0 0.033503 96.748033
6340.0 0.025889 78.625232
6360.0 0.016864 66.493134
6380.0 0.008893 79.416889
6400.0 0.010784 125.783034
6420.0 0.019678 127.036415
6440.0 0.028541 112.27705
6460.0 0.0357 93.249845
6480.0 0.040406 72.580433
6500.0 0.042227 51.124693
6520.0 0.040984 29.240928
6540.0 0.036734 7.107761
6560.0 0.029762 -15.168568
6580.0 0.020553 -37.49638
6600.0 0.009764 -59.643503
6620.0 0.001838 93.67735
6640.0 0.013401 74.151218
6660.0 0.024098 51.838344
6680.0 0.033149 29.428057
6700.0 0.0399 7.053082
6720.0 0.043869 -15.220833
6740.0 0.044778 -37.319355
6760.0 0.042577 -59.123796
6780.0 0.03745 -80.401832
6800.0 0.02981 -100.600189
6820.0 0.020316 -117.99113
6840.0 0.010144 -123.612002
6860.0 0.006103 -60.20381
6880.0 0.014892 -41.523066
6900.0 0.024278 -55.211986
6920.0 0.031947 -73.982747
6940.0 0.037139 -94.194854
6960.0 0.039419 -114.816047
6980.0 0.038609 -135.312176
7000.0 0.034785 -155.1367
7020.0 0.028299 -173.269876
7040.0 0.019879 173.204298
7060.0 0.011367 176.559969
7080.0 0.01014 -140.203288
7100.0 0.018671 -128.655602
7120.0 0.028637 -140.238253
7140.0 0.037453 -157.806767
7160.0 0.044109 -177.492132
7180.0 0.047994 161.919971
7200.0 0.04877 140.959712
7220.0 0.046346 119.958192
7240.0 0.040883 99.251819
7260.0 0.032783 79.423659
7280.0 0.0227 62.082282
7300.0 0.011784 54.903024
7320.0 0.006224 112.123961
7340.0 0.015175 138.000004
7360.0 0.025436 125.398017
7380.0 0.034059 106.920146
7400.0 0.040195 86.75468
7420.0 0.043351 66.003339
7440.0 0.043289 45.156795
7460.0 0.040021 24.603854
7480.0 0.033812 4.919044
7500.0 0.025199 -12.508878
7520.0 0.015175 -22.399105
7540.0 0.007487 6.751495
7560.0 0.013272 50.725054
7580.0 0.023934 44.59426
7600.0 0.033927 28.141186
7620.0 0.042006 8.905812
7640.0 0.047496 -11.337969
7660.0 0.049998 -31.922927
7680.0 0.049357 -52.465559
7700.0 0.045664 -72.603176
7720.0 0.039258 -91.784976
7740.0 0.030742 -108.830845
7760.0 0.021119 -120.378572
7780.0 0.012668 -114.384852
7800.0 0.011904 -79.907752
7820.0 0.019159 -70.688957
7840.0 0.027339 -81.132078
7860.0 0.033984 -97.627822
7880.0 0.038218 -116.348587
7900.0 0.039637 -135.949672
7920.0 0.038135 -155.747752
7940.0 0.033858 -175.158468
7960.0 0.027197 166.749868
7980.0 0.018833 152.490808
8000.0 0.010234 153.200661
8020.0 0.007954 -157.735902
8040.0 0.015589 -141.978733
8060.0 0.024358 -153.077842
8080.0 0.031864 -170.166938
8100.0 0.037301 170.832766
8120.0 0.040225 151.171167
8140.0 0.040443 131.452173
8160.0 0.037992 112.165629
8180.0 0.033145 93.984076
8200.0 0.026436 78.261816
8220.0 0.018816 68.558003
8240.0 0.01243 75.155299
8260.0 0.012091 101.679613
8280.0 0.017862 109.715023
8300.0 0.024728 100.801663
8320.0 0.030492 85.719316
8340.0 0.034292 68.284417
8360.0 0.035729 50.002268
8380.0 0.034683 31.734027
8400.0 0.031291 14.313118
8420.0 0.025966 -0.904068
8440.0 0.019529 -10.812377
8460.0 0.013811 -7.639239
8480.0 0.012763 12.90653
8500.0 0.017642 22.610779
8520.0 0.024455 15.675245
8540.0 0.030745 1.452964
8560.0 0.035447 -15.856135
8580.0 0.038 -34.60383
8600.0 0.038125 -54.011284
8620.0 0.035762 -73.585768
8640.0 0.03106 -92.836651
8660.0 0.024364 -110.916641
8680.0 0.016251 -125.376886
8700.0 0.00797 -123.38078
8720.0 0.006677 -60.646952
8740.0 0.014543 -49.780066
8760.0 0.022794 -62.700145
8780.0 0.029802 -80.235959
8800.0 0.034965 -99.180647
8820.0 0.037938 -118.536231
8840.0 0.038567 -137.788471
8860.0 0.036894 -156.490264
8880.0 0.033158 -174.03258
8900.0 0.027829 170.684787
8920.0 0.021702 159.990405
8940.0 0.016231 158.733233
8960.0 0.014025 170.361497
8980.0 0.016597 -179.91594
9000.0 0.021574 176.774875
9020.0 0.026544 165.31955
9040.0 0.030352 150.051538
9060.0 0.032463 133.022714
9080.0 0.032661 115.281805
9100.0 0.030956 97.530041
9120.0 0.02755 80.4708
9140.0 0.02283 65.170983
9160.0 0.017412 53.816098
9180.0 0.012355 51.498644
9200.0 0.009718 65.024118
9220.0 0.011194 79.904956
9240.0 0.014734 79.04848
9260.0 0.018079 68.581086
9280.0 0.020262 54.043677
9300.0 0.020895 37.917933
9320.0 0.019873 21.590635
9340.0 0.017305 6.398361
9360.0 0.013542 -5.254518
9380.0 0.009411 -6.893648
9400.0 0.007259 14.360483
9420.0 0.009878 35.458023
9440.0 0.014912 33.60963
9460.0 0.020081 21.673486
9480.0 0.024487 6.01195
9500.0 0.027663 -11.136678
9520.0 0.029341 -28.762167
9540.0 0.029411 -46.213615
9560.0 0.027929 -62.858066
9580.0 0.02513 -77.825739
9600.0 0.021488 -89.680499
9620.0 0.017832 -96.098707
9640.0 0.015495 -95.074732
9660.0 0.015804 -90.49784
9680.0 0.018564 -91.130509
9700.0 0.022333 -99.155045
9720.0 0.025876 -112.205223
9740.0 0.028441 -128.17227
9760.0 0.029594 -145.821428
9780.0 0.029116 -164.43987
9800.0 0.026951 176.440292
9820.0 0.023192 157.231487
9840.0 0.018056 138.535779
9860.0 0.011888 121.974857
9880.0 0.005292 117.130451
9900.0 0.003591 -156.640688
9920.0 0.009931 -148.178537
9940.0 0.016215 -163.749029
9960.0 0.021549 177.126651
9980.0 0.025552 156.842089
10000.0 0.027972 136.047695
10020.0 0.028673 115.00995
10040.0 0.027641 93.881715
10060.0 0.02498 72.792818
10080.0 0.020903 51.919231
10100.0 0.015721 31.630751
10120.0 0.009827 13.138865
10140.0 0.003757 5.282798
10160.0 0.002972 113.777089
10180.0 0.008289 110.808233
10200.0 0.012856 93.12294
10220.0 0.016207 73.583885
10240.0 0.018118 53.78752
10260.0 0.018497 34.407373
10280.0 0.017395 16.140294
10300.0 0.015028 0.213491
10320.0 0.011864 -10.615997
10340.0 0.008924 -10.162541
10360.0 0.008253 4.697619
10380.0 0.010819 12.870256
10400.0 0.01479 6.131416
10420.0 0.018677 -8.357092
10440.0 0.021748 -26.453585
10460.0 0.023593 -46.448382
10480.0 0.023983 -67.599299
10500.0 0.022831 -89.580172
10520.0 0.020178 -112.308063
10540.0 0.016187 -135.972954
10560.0 0.011135 -161.495326
10580.0 0.005454 165.71979
10600.0 0.002098 42.29958
10620.0 0.007399 -26.342651
10640.0 0.012939 -55.422601
10660.0 0.017684 -80.548142
10680.0 0.021279 -104.471175
10700.0 0.023488 -127.775662
10720.0 0.024188 -150.579291
10740.0 0.023368 -172.786471
10760.0 0.02114 165.923514
10780.0 0.017747 146.302277
10800.0 0.013596 130.2003
10820.0 0.009416 122.69213
10840.0 0.006881 134.15743
10860.0 0.008083 150.98714
10880.0 0.011406 147.498416
10900.0 0.014716 132.181688
10920.0 0.017173 111.7549
10940.0 0.018427 88.505789
10960.0 0.018351 63.055118
10980.0 0.016994 35.138082
11000.0 0.014607 3.497253
11020.0 0.011771 -34.902778
11040.0 0.00973 -84.786368
11060.0 0.010245 -141.958326
11080.0 0.013355 169.613565
11100.0 0.017492 131.59058
11120.0 0.021511 99.142206
11140.0 0.024768 69.396641
11160.0 0.026873 40.968108
11180.0 0.027593 13.110855
11200.0 0.026829 -14.679144
11220.0 0.024612 -42.883078
11240.0 0.021104 -72.190855
11260.0 0.016614 -103.988518
11280.0 0.011699 -141.924043
11300.0 0.007672 163.373199
11320.0 0.007561 88.652161
11340.0 0.011308 33.27716
11360.0 0.015801 -5.382056
11380.0 0.019756 -38.134911
11400.0 0.022696 -68.744971
11420.0 0.024416 -98.691887
11440.0 0.024875 -128.774348
11460.0 0.024168 -159.605939
11480.0 0.022527 168.176698
11500.0 0.020315 133.819258
11520.0 0.018013 96.521326
11540.0 0.01617 55.917514
11560.0 0.015214 13.023973
11580.0 0.015187 -29.673647
11600.0 0.015687 -70.100403
11620.0 0.016155 -107.920743
11640.0 0.016151 -143.95859
11660.0 0.015441 -179.433793
11680.0 0.014001 144.165789
11700.0 0.012043 104.73191
11720.0 0.010115 59.135531
11740.0 0.009217 5.465953
11760.0 0.010254 -49.527116
11780.0 0.012894 -96.820908
11800.0 0.016179 -136.651108
11820.0 0.019403 -172.115243
11840.0 0.022142 154.717122
11860.0 0.02414 122.690318
11880.0 0.025253 91.1145
11900.0 0.025428 59.50885
11920.0 0.024698 27.456508
11940.0 0.023171 -5.494449
11960.0 0.021039 -39.92375
11980.0 0.018582 -76.632253
12000.0 0.016194 -116.6369
12020.0 0.014383 -160.689228
12040.0 0.013659 152.121647
12060.0 0.014198 105.074552
12080.0 0.015665 61.17367
12100.0 0.017497 20.947085
12120.0 0.019213 -16.514197
12140.0 0.020488 -52.284955
12160.0 0.021136 -87.250492
12180.0 0.021082 -122.153073
12200.0 0.020364 -157.709497
12220.0 0.019142 165.290094
12240.0 0.017719 125.981103
12260.0 0.01655 83.741483
12280.0 0.016154 39.044889
12300.0 0.016859 -5.965771
12320.0 0.018561 -48.827578
12340.0 0.02082 -88.571923
12360.0 0.023135 -125.593818
12380.0 0.025098 -160.714468
12400.0 0.026429 165.298153
12420.0 0.026969 131.80899
12440.0 0.026681 98.26845
12460.0 0.025637 64.151306
12480.0 0.024024 28.911367
12500.0 0.022127 -8.005578
12520.0 0.020311 -47.015954
12540.0 0.018949 -88.058659
12560.0 0.018289 -130.257622
12580.0 0.018314 -172.173859
12600.0 0.018747 147.306104
12620.0 0.01921 108.426738
12640.0 0.019382 70.752805
12660.0 0.019079 33.532798
12680.0 0.01828 -4.121261
12700.0 0.017129 -43.176315
12720.0 0.015944 -84.528816
12740.0 0.015171 -128.471352
12760.0 0.015223 -173.859765
12780.0 0.016217 141.661838
12800.0 0.017884 99.844572
12820.0 0.019772 60.895624
12840.0 0.021461 24.135795
12860.0 0.022647 -11.285963
12880.0 0.023163 -46.146261
12900.0 0.022974 -81.143024
12920.0 0.022179 -116.946291
12940.0 0.021012 -154.200923
12960.0 0.019829 166.621433
12980.0 0.019039 125.59781
13000.0 0.018951 83.723354
13020.0 0.019585 42.591964
13040.0 0.020649 3.391642
13060.0 0.021695 -33.626915
13080.0 0.022288 -68.875318
13100.0 0.022106 -103.035071
13120.0 0.020968 -136.921792
13140.0 0.018855 -171.603184
13160.0 0.01596 151.187159
13180.0 0.012824 108.207248
13200.0 0.01066 54.950549
13220.0 0.011178 -4.600418
13240.0 0.014414 -55.755831
13260.0 0.018822 -96.695525
13280.0 0.02324 -131.944493
13300.0 0.027015 -164.373142
13320.0 0.02976 164.556166
13340.0 0.031261 134.01166
13360.0 0.03146 103.407873
13380.0 0.030447 72.21882
13400.0 0.028467 39.881136
13420.0 0.025916 5.762811
13440.0 0.023318 -30.712548
13460.0 0.021239 -69.621795
13480.0 0.020076 -109.915811
13500.0 0.019791 -149.565139
13520.0 0.019894 173.10687
13540.0 0.019727 138.565594
13560.0 0.018729 106.451351
13580.0 0.016547 76.186292
13600.0 0.013037 47.241422
13620.0 0.008239 19.121356
13640.0 0.002348 -9.89519
13660.0 0.004323 147.675607
13680.0 0.011359 120.625027
13700.0 0.018308 94.566272
13720.0 0.024698 68.850113
13740.0 0.030081 43.333339
13760.0 0.034064 17.937121
13780.0 0.036344 -7.39899
13800.0 0.036727 -32.733893
13820.0 0.035147 -58.137808
13840.0 0.031665 -83.712072
13860.0 0.026473 -109.641175
13880.0 0.019875 -136.362705
13900.0 0.012288 -165.404995
13920.0 0.004403 150.591482
13940.0 0.004935 -1.327738
13960.0 0.012604 -42.650226
13980.0 0.01969 -72.137877
14000.0 0.025636 -99.951537
14020.0 0.03015 -127.533284
14040.0 0.033083 -155.407932
14060.0 0.034427 176.072189
14080.0 0.034329 146.56148
14100.0 0.033089 115.667187
14120.0 0.031156 82.967015
14140.0 0.029093 48.153754
14160.0 0.027481 11.357156
14180.0 0.02673 -26.530606
14200.0 0.026872 -64.059136
14220.0 0.027545 -100.032325
14240.0 0.02819 -134.045055
14260.0 0.028286 -166.331348
14280.0 0.027463 162.583497
14300.0 0.025544 132.052266
14320.0 0.022538 101.255639
14340.0 0.018652 68.901426
14360.0 0.01435 32.418158
14380.0 0.010597 -13.542456
14400.0 0.00923 -72.527397
14420.0 0.011199 -127.692807
14440.0 0.014702 -168.495184
14460.0 0.018099 159.36986
14480.0 0.020627 131.710529
14500.0 0.021934 106.807709
14520.0 0.021892 84.105975
14540.0 0.02056 63.718916
14560.0 0.018194 46.411978
14580.0 0.015298 33.881971
14600.0 0.012757 28.715714
14620.0 0.011813 30.965186
14640.0 0.013087 32.603393
14660.0 0.015716 26.910889
14680.0 0.018468 14.987433
14700.0 0.020519 -0.508066
14720.0 0.021394 -17.808139
14740.0 0.02085 -35.795887
