! File created by SignalIntegrity v1.3.3: Signal and Power Integrity Tools
! https://github.com/TeledyneLeCroy/SignalIntegrity
# MHz S MA R 50.0
0.0 0.005111 0.0
20.0 0.008696 29.656169
40.0 0.01441 20.535971
60.0 0.019451 1.735971
80.0 0.023045 -20.175171
100.0 0.024807 -43.564725
120.0 0.024571 -67.957978
140.0 0.022372 -93.362292
160.0 0.018439 -120.286162
180.0 0.013211 -150.527668
200.0 0.007517 168.085983
220.0 0.004574 80.820634
240.0 0.008594 7.479287
260.0 0.013823 -29.815705
280.0 0.01808 -59.218316
300.0 0.020746 -86.088195
320.0 0.021521 -111.806041
340.0 0.020313 -136.81482
360.0 0.01722 -161.167077
380.0 0.012519 175.561096
400.0 0.006653 155.996511
420.0 0.001291 -146.275314
440.0 0.006917 -95.485192
460.0 0.013087 -115.233823
480.0 0.01826 -138.535277
500.0 0.02195 -162.88605
520.0 0.023821 172.138626
540.0 0.023703 146.533303
560.0 0.02161 120.008783
580.0 0.017753 91.741893
600.0 0.012597 59.176793
620.0 0.007217 11.472857
640.0 0.005808 -77.887087
660.0 0.010602 -139.865813
680.0 0.016243 -175.92338
700.0 0.020938 154.585874
720.0 0.024026 127.402763
740.0 0.025143 101.258291
760.0 0.024131 75.644975
780.0 0.021021 50.301557
800.0 0.016026 25.024061
820.0 0.009527 -0.596375
840.0 0.002048 -32.105867
860.0 0.005876 134.699967
880.0 0.013518 108.322862
900.0 0.020292 83.197834
920.0 0.02563 58.294228
940.0 0.029084 33.414667
960.0 0.030349 8.449377
980.0 0.029301 -16.728855
1000.0 0.026001 -42.345981
1020.0 0.020705 -68.935441
1040.0 0.013872 -98.242708
1060.0 0.006373 -140.756422
1080.0 0.004589 94.291713
1100.0 0.011862 38.789247
1120.0 0.019052 7.83763
1140.0 0.024875 -19.269958
1160.0 0.028771 -45.181
1180.0 0.03039 -70.645369
1200.0 0.029577 -96.016601
1220.0 0.026371 -121.59804
1240.0 0.021012 -147.903966
1260.0 0.013944 -176.504155
1280.0 0.005984 142.269679
1300.0 0.004681 3.981046
1320.0 0.012862 -45.308109
1340.0 0.020749 -74.750491
1360.0 0.027253 -101.25225
1380.0 0.031799 -126.871003
1400.0 0.033999 -152.219777
1420.0 0.033655 -177.629018
1440.0 0.030774 156.562968
1460.0 0.025577 129.750047
1480.0 0.018524 100.293442
1500.0 0.010524 61.216055
1520.0 0.005706 -27.527483
1540.0 0.011804 -105.976361
1560.0 0.020172 -142.4854
1580.0 0.027612 -171.083537
1600.0 0.033244 162.748629
1620.0 0.036549 137.665295
1640.0 0.037234 113.210067
1660.0 0.035213 89.230019
1680.0 0.030614 65.756764
1700.0 0.023769 43.101894
1720.0 0.015206 22.576214
1740.0 0.005803 14.748576
1760.0 0.005526 118.332835
1780.0 0.014929 111.75941
1800.0 0.023535 91.45671
1820.0 0.030418 69.002274
1840.0 0.03502 45.788335
1860.0 0.036972 22.167192
1880.0 0.036112 -1.77528
1900.0 0.032494 -26.095224
1920.0 0.026386 -51.053591
1940.0 0.018263 -77.563416
1960.0 0.008866 -110.796581
1980.0 0.00334 118.587592
2000.0 0.012471 52.194702
2020.0 0.021738 22.828717
2040.0 0.029505 -3.034756
2060.0 0.035105 -27.89627
2080.0 0.038078 -52.348317
2100.0 0.038174 -76.609623
2120.0 0.035363 -100.791953
2140.0 0.029835 -124.984324
2160.0 0.021996 -149.331122
2180.0 0.012431 -174.369394
2200.0 0.001922 147.56028
2220.0 0.008956 -36.067286
2240.0 0.019105 -61.821895
2260.0 0.027854 -86.213897
2280.0 0.034518 -110.311173
2300.0 0.038571 -134.305004
2320.0 0.039682 -158.265061
2340.0 0.037742 177.764153
2360.0 0.032875 153.728783
2380.0 0.025432 129.513443
2400.0 0.015967 104.706092
2420.0 0.005218 75.363894
2440.0 0.006163 -113.188109
2460.0 0.017049 -141.388514
2480.0 0.026751 -166.024029
2500.0 0.034496 169.915015
2520.0 0.039672 146.076038
2540.0 0.041862 122.372085
2560.0 0.040871 98.789248
2580.0 0.036747 75.361713
2600.0 0.029779 52.207325
2620.0 0.020478 29.726488
2640.0 0.009563 10.298768
2660.0 0.002654 129.598044
2680.0 0.014099 130.089787
2700.0 0.024841 108.892939
2720.0 0.033819 86.268601
2740.0 0.040327 63.294462
2760.0 0.043853 40.245731
2780.0 0.044105 17.26382
2800.0 0.041044 -5.505108
2820.0 0.034882 -27.8
2840.0 0.026085 -48.941901
2860.0 0.015396 -66.184299
2880.0 0.004809 -49.354981
2900.0 0.010472 30.031397
2920.0 0.021909 18.384198
2940.0 0.032155 -1.662768
2960.0 0.040199 -23.572979
2980.0 0.045392 -46.180247
3000.0 0.04732 -69.11736
3020.0 0.045821 -92.230272
3040.0 0.040985 -115.439144
3060.0 0.033153 -138.689238
3080.0 0.022886 -161.91213
3100.0 0.01093 175.153542
3120.0 0.001858 -34.026255
3140.0 0.014524 -53.097407
3160.0 0.026168 -76.201891
3180.0 0.035942 -99.480199
3200.0 0.043139 -122.791354
3220.0 0.047245 -146.096373
3240.0 0.047967 -169.370663
3260.0 0.045264 167.415414
3280.0 0.039341 144.315734
3300.0 0.030639 121.459721
3320.0 0.019803 99.289036
3340.0 0.007662 81.126814
3360.0 0.005187 -142.903144
3380.0 0.017285 -157.434928
3400.0 0.028112 -179.19822
3420.0 0.036828 158.220695
3440.0 0.04281 135.441766
3460.0 0.045642 112.657982
3480.0 0.045144 89.994706
3500.0 0.041382 67.609455
3520.0 0.03467 45.808591
3540.0 0.025559 25.410241
3560.0 0.014879 9.751413
3580.0 0.005035 32.226659
3600.0 0.010678 101.061516
3620.0 0.021284 90.684708
3640.0 0.030591 71.410898
3660.0 0.037624 50.080019
3680.0 0.041812 28.005122
3700.0 0.042833 5.636938
3720.0 0.040613 -16.781791
3740.0 0.035321 -39.016594
3760.0 0.027362 -60.633754
3780.0 0.017365 -80.196719
3800.0 0.006381 -86.004543
3820.0 0.006879 19.122943
3840.0 0.018034 11.53945
3860.0 0.02828 -8.288914
3880.0 0.03659 -30.110729
3900.0 0.042319 -52.600722
3920.0 0.045037 -75.375483
3940.0 0.044541 -98.267371
3960.0 0.040867 -121.164661
3980.0 0.034286 -143.935661
4000.0 0.025282 -166.297001
4020.0 0.01453 172.869083
4040.0 0.003056 172.028513
4060.0 0.009302 -68.29161
4080.0 0.02038 -86.71445
4100.0 0.029945 -108.67467
4120.0 0.037264 -131.346891
4140.0 0.041795 -154.24936
4160.0 0.04321 -177.208947
4180.0 0.041407 159.887162
4200.0 0.036524 137.178019
4220.0 0.028926 114.951668
4240.0 0.019194 94.133049
4260.0 0.008178 80.855565
4280.0 0.004722 -170.783191
4300.0 0.015845 -171.918999
4320.0 0.026285 168.291919
4340.0 0.034908 146.314348
4360.0 0.041047 123.654636
4380.0 0.044247 100.697798
4400.0 0.04427 77.587537
4420.0 0.041118 54.389058
4440.0 0.035025 31.133851
4460.0 0.026443 7.829
4480.0 0.016008 -15.574706
4500.0 0.00449 -39.823511
4520.0 0.00727 119.241967
4540.0 0.018404 95.544335
4560.0 0.028103 72.311288
4580.0 0.035665 49.232013
4600.0 0.040551 26.301033
4620.0 0.04242 3.570988
4640.0 0.041165 -18.84565
4660.0 0.036914 -40.715543
4680.0 0.03004 -61.487991
4700.0 0.021172 -79.516466
4720.0 0.011441 -87.201251
4740.0 0.00626 -38.138318
4760.0 0.013957 -11.158561
4780.0 0.023382 -23.45618
4800.0 0.031418 -42.518076
4820.0 0.037197 -63.639258
4840.0 0.040226 -85.634669
4860.0 0.040267 -108.069763
4880.0 0.037316 -130.739181
4900.0 0.031602 -153.512252
4920.0 0.023559 -176.243408
4940.0 0.013794 161.47631
4960.0 0.003065 145.449204
4980.0 0.007935 -70.531138
5000.0 0.018241 -91.811933
5020.0 0.027153 -114.620219
5040.0 0.034001 -137.750934
5060.0 0.038272 -161.01759
5080.0 0.039642 175.634683
5100.0 0.037998 152.224348
5120.0 0.033447 128.750832
5140.0 0.026304 105.187624
5160.0 0.017071 81.419511
5180.0 0.006403 56.483474
5200.0 0.004964 -141.666865
5220.0 0.016195 -167.261624
5240.0 0.026519 168.859767
5260.0 0.035204 145.189579
5280.0 0.04164 121.582046
5300.0 0.045374 98.000858
5320.0 0.046144 74.435567
5340.0 0.043894 50.88717
5360.0 0.038781 27.367193
5380.0 0.03116 3.907889
5400.0 0.02156 -19.389353
5420.0 0.010649 -41.99206
5440.0 0.000908 88.760238
5460.0 0.012084 87.135583
5480.0 0.022335 64.362558
5500.0 0.030901 41.080236
5520.0 0.037216 17.691433
5540.0 0.040873 -5.703301
5560.0 0.041658 -29.045527
5580.0 0.039561 -52.267592
5600.0 0.034776 -75.249764
5620.0 0.027693 -97.716484
5640.0 0.018877 -118.815142
5660.0 0.0091 -133.905272
5680.0 0.003003 -51.900865
5700.0 0.011778 -29.886489
5720.0 0.020435 -48.13994
5740.0 0.027395 -69.872528
5760.0 0.032095 -92.599819
5780.0 0.034184 -115.749595
5800.0 0.033509 -139.118818
5820.0 0.030123 -162.614431
5840.0 0.024277 173.821259
5860.0 0.016405 150.257118
5880.0 0.007088 126.994836
5900.0 0.002989 -79.583043
5920.0 0.013079 -101.879302
5940.0 0.022446 -125.542501
5960.0 0.030401 -149.362057
5980.0 0.036364 -173.260627
6000.0 0.0399 162.772069
6020.0 0.040747 138.726742
6040.0 0.038842 114.578299
6060.0 0.034319 90.273869
6080.0 0.027503 65.688692
6100.0 0.018887 40.436786
6120.0 0.009112 12.408951
6140.0 0.001727 -141.33819
6160.0 0.011369 157.26582
6180.0 0.020426 130.233395
6200.0 0.027901 104.832622
6220.0 0.033268 79.756066
6240.0 0.036164 54.657656
6260.0 0.036416 29.326545
6280.0 0.034048 3.507047
6300.0 0.029291 -23.276039
6320.0 0.022597 -52.186752
6340.0 0.014747 -87.09723
6360.0 0.007856 -146.38007
6380.0 0.009272 121.165207
6400.0 0.016757 72.233007
6420.0 0.02425 39.681689
6440.0 0.030298 11.539896
6460.0 0.03428 -14.895062
6480.0 0.035848 -40.496188
6500.0 0.034868 -65.613459
6520.0 0.031402 -90.390518
6540.0 0.025695 -114.839804
6560.0 0.018158 -138.759491
6580.0 0.00934 -160.866472
6600.0 0.000879 -87.466114
6620.0 0.009738 -40.440034
6640.0 0.018549 -62.697955
6660.0 0.026093 -86.632366
6680.0 0.031846 -111.066061
6700.0 0.035425 -135.798558
6720.0 0.036605 -160.817234
6740.0 0.035337 173.795963
6760.0 0.031753 147.838603
6780.0 0.026164 120.838455
6800.0 0.019068 91.489638
6820.0 0.011262 54.710687
6840.0 0.00537 -20.169695
6860.0 0.009109 -112.646471
6880.0 0.016095 -154.162924
6900.0 0.022216 174.825362
6920.0 0.026627 146.484677
6940.0 0.028934 118.922982
6960.0 0.028964 91.307524
6980.0 0.026756 62.921262
7000.0 0.022575 32.610212
7020.0 0.017013 -2.405639
7040.0 0.011472 -50.425568
7060.0 0.00984 -122.47877
7080.0 0.014554 176.317133
7100.0 0.021466 136.087746
7120.0 0.028087 103.849818
7140.0 0.033415 74.698835
7160.0 0.036892 46.912448
7180.0 0.038196 19.732032
7200.0 0.037199 -7.285046
7220.0 0.033959 -34.522135
7240.0 0.028718 -62.514551
7260.0 0.021903 -92.410917
7280.0 0.014212 -127.836662
7300.0 0.007428 174.035201
7320.0 0.008171 78.80414
7340.0 0.014888 27.136367
7360.0 0.02162 -6.940425
7380.0 0.027008 -36.531422
7400.0 0.030516 -64.565984
7420.0 0.031865 -92.061498
7440.0 0.030964 -119.573647
7460.0 0.027901 -147.637009
7480.0 0.022946 -177.155841
7500.0 0.016607 149.526367
7520.0 0.009991 103.608574
7540.0 0.007292 20.366984
7560.0 0.012528 -48.076424
7580.0 0.019828 -87.511363
7600.0 0.026631 -119.012743
7620.0 0.03212 -147.853189
7640.0 0.03584 -175.611216
7660.0 0.037528 157.051061
7680.0 0.037088 129.74063
7700.0 0.034582 102.100773
7720.0 0.030237 73.634218
7740.0 0.02445 43.381723
7760.0 0.017846 8.973104
7780.0 0.011618 -36.681185
7800.0 0.00884 -106.462359
7820.0 0.012017 -171.768364
7840.0 0.017271 145.674312
7860.0 0.021982 112.362344
7880.0 0.025256 82.535257
7900.0 0.026706 54.190374
7920.0 0.026186 26.420875
7940.0 0.023737 -1.398494
7960.0 0.019563 -30.063113
7980.0 0.01405 -61.436568
8000.0 0.007942 -103.156138
8020.0 0.004607 165.906822
8040.0 0.009347 89.551429
8060.0 0.015703 51.782313
8080.0 0.021394 21.648964
8100.0 0.025781 -6.174549
8120.0 0.028502 -33.099871
8140.0 0.029355 -59.708242
8160.0 0.028293 -86.371625
8180.0 0.025422 -113.491456
8200.0 0.020997 -141.761531
8220.0 0.015445 -172.89334
8240.0 0.00952 147.12827
8260.0 0.005623 74.546071
8280.0 0.008376 -5.607017
8300.0 0.013688 -48.657347
8320.0 0.018518 -80.654683
8340.0 0.022071 -109.282981
8360.0 0.023989 -136.637466
8380.0 0.02411 -163.57967
8400.0 0.022435 169.305328
8420.0 0.01912 141.269957
8440.0 0.014493 110.666412
8460.0 0.009195 71.913211
8480.0 0.005378 1.682813
8500.0 0.007971 -80.552011
8520.0 0.013538 -123.76653
8540.0 0.018939 -155.047687
8560.0 0.02332 177.414223
8580.0 0.026251 151.541602
8600.0 0.027477 126.644687
8620.0 0.026887 102.49586
8640.0 0.024509 79.12234
8660.0 0.020504 56.861857
8680.0 0.015178 36.847664
8700.0 0.009061 23.75851
8720.0 0.004111 49.459534
8740.0 0.007407 97.431707
8760.0 0.013759 89.380183
8780.0 0.019704 70.870292
8800.0 0.024551 49.61362
8820.0 0.027921 27.280474
8840.0 0.029579 4.420708
8860.0 0.029419 -18.745879
8880.0 0.027462 -42.135923
8900.0 0.023852 -65.755319
8920.0 0.018838 -89.734574
8940.0 0.012765 -114.580153
8960.0 0.006067 -143.233185
8980.0 0.001467 71.136593
9000.0 0.007798 8.568116
9020.0 0.013831 -18.023227
9040.0 0.018847 -42.251383
9060.0 0.022539 -65.731871
9080.0 0.024708 -88.801156
9100.0 0.025265 -111.540825
9120.0 0.024239 -133.931976
9140.0 0.021767 -155.865156
9160.0 0.018085 -177.071583
9180.0 0.013519 163.142271
9200.0 0.008486 147.129279
9220.0 0.00371 149.126197
9240.0 0.003304 -140.170255
9260.0 0.007147 -134.445697
9280.0 0.010567 -148.896138
9300.0 0.012942 -166.747554
9320.0 0.014089 174.851349
9340.0 0.013986 157.130379
9360.0 0.012755 141.352978
9380.0 0.010722 129.735336
9400.0 0.008577 126.589217
9420.0 0.007666 135.367839
9440.0 0.009124 144.095176
9460.0 0.012157 140.854583
9480.0 0.015508 129.097968
9500.0 0.018435 113.065671
9520.0 0.020502 94.841648
9540.0 0.021441 75.408866
9560.0 0.021102 55.274373
9580.0 0.01944 34.734465
9600.0 0.016507 14.002001
9620.0 0.012449 -6.686733
9640.0 0.007489 -26.74046
9660.0 0.001933 -39.366464
9680.0 0.004006 102.05522
9700.0 0.009821 84.098866
9720.0 0.015248 63.709526
9740.0 0.019958 42.97387
9760.0 0.023667 22.244839
9780.0 0.026157 1.690611
9800.0 0.027281 -18.529921
9820.0 0.026985 -38.200437
9840.0 0.025318 -56.969892
9860.0 0.02245 -74.19996
9880.0 0.01871 -88.620735
9900.0 0.014691 -97.568061
9920.0 0.011544 -96.447967
9940.0 0.011048 -85.981172
9960.0 0.0136 -81.291023
9980.0 0.017516 -87.764197
10000.0 0.021402 -100.905113
10020.0 0.024525 -117.425161
10040.0 0.02648 -135.727963
10060.0 0.027046 -155.010399
10080.0 0.026142 -174.809027
10100.0 0.023805 165.211656
10120.0 0.020186 145.405393
10140.0 0.015533 126.380906
10160.0 0.010201 109.867462
10180.0 0.00477 105.19057
10200.0 0.002909 177.641896
10220.0 0.007331 -166.993932
10240.0 0.011622 179.023554
10260.0 0.014831 160.696505
10280.0 0.016641 141.240586
10300.0 0.016893 121.708081
10320.0 0.015565 102.907238
10340.0 0.012791 86.225072
10360.0 0.00896 75.72946
10380.0 0.005373 87.922298
10400.0 0.006366 127.829537
10420.0 0.011429 131.529783
10440.0 0.0171 118.644795
10460.0 0.022293 100.974243
10480.0 0.026453 81.49957
10500.0 0.029195 61.273158
10520.0 0.030268 40.819215
10540.0 0.02956 20.526233
10560.0 0.027113 0.843953
10580.0 0.023137 -17.466269
10600.0 0.018049 -32.72242
10620.0 0.012652 -40.39314
10640.0 0.008889 -29.60054
10660.0 0.009939 -8.126603
10680.0 0.014351 -7.19987
10700.0 0.019008 -19.555828
10720.0 0.022614 -37.210082
10740.0 0.02459 -57.344998
10760.0 0.024651 -78.945835
10780.0 0.022715 -101.719199
10800.0 0.01888 -125.92138
10820.0 0.013436 -153.01466
10840.0 0.00704 168.876096
10860.0 0.00406 62.172828
10880.0 0.010447 -4.469383
10900.0 0.01789 -35.819314
10920.0 0.024621 -61.656783
10940.0 0.029994 -85.664697
10960.0 0.033555 -108.69549
10980.0 0.035009 -130.946506
11000.0 0.034233 -152.32313
11020.0 0.031297 -172.439028
11040.0 0.026501 169.644296
11060.0 0.020477 156.271636
11080.0 0.014611 153.578612
11100.0 0.012179 169.288737
11120.0 0.015785 -177.954812
11140.0 0.02224 176.816267
11160.0 0.028655 162.558548
11180.0 0.033756 144.503982
11200.0 0.036876 124.6831
11220.0 0.037645 103.991954
11240.0 0.035916 82.927797
11260.0 0.031752 61.891375
11280.0 0.025409 41.452079
11300.0 0.017342 23.110755
11320.0 0.008371 14.868484
11340.0 0.004604 89.865113
11360.0 0.013171 105.850341
11380.0 0.022177 89.991566
11400.0 0.029927 69.818194
11420.0 0.035782 48.318401
11440.0 0.039319 26.263252
11460.0 0.0403 3.955244
11480.0 0.038673 -18.438107
11500.0 0.03458 -40.772742
11520.0 0.028342 -62.84126
11540.0 0.020442 -84.150692
11560.0 0.011512 -102.718913
11580.0 0.002757 -90.023715
11600.0 0.007435 6.457951
11620.0 0.015428 -8.301393
11640.0 0.021944 -28.751288
11660.0 0.026424 -50.301295
11680.0 0.028529 -72.073366
11700.0 0.028111 -93.643139
11720.0 0.025223 -114.526036
11740.0 0.020133 -133.686231
11760.0 0.013414 -147.705104
11780.0 0.006755 -137.959992
11800.0 0.008059 -84.032058
11820.0 0.016026 -82.716291
11840.0 0.024274 -98.437723
11860.0 0.031407 -118.276443
11880.0 0.036734 -139.645853
11900.0 0.039794 -161.733146
11920.0 0.040314 175.80186
11940.0 0.038213 153.140759
11960.0 0.033601 130.417988
11980.0 0.026776 107.804042
12000.0 0.0182 85.712308
12020.0 0.008487 66.356559
12040.0 0.002106 -174.798641
12060.0 0.011854 -172.658746
12080.0 0.02088 166.311233
12100.0 0.028337 143.842807
12120.0 0.033687 121.00714
12140.0 0.036549 98.077882
12160.0 0.036721 75.195651
12180.0 0.03419 52.505984
12200.0 0.029141 30.265836
12220.0 0.021951 9.128404
12240.0 0.013212 -8.358818
12260.0 0.004381 3.046446
12280.0 0.008103 86.11223
12300.0 0.017535 76.050333
12320.0 0.02614 56.36823
12340.0 0.03308 34.678507
12360.0 0.03783 12.292251
12380.0 0.040058 -10.359173
12400.0 0.039621 -33.055007
12420.0 0.036575 -55.605842
12440.0 0.031176 -77.7317
12460.0 0.023865 -98.80957
12480.0 0.015277 -116.7747
12500.0 0.00657 -118.411084
12520.0 0.005772 -41.36075
12540.0 0.013613 -38.732059
12560.0 0.020862 -56.252592
12580.0 0.026346 -77.36804
12600.0 0.029586 -99.741369
12620.0 0.030332 -122.73624
12640.0 0.028541 -146.136899
12660.0 0.024367 -169.912219
12680.0 0.018148 165.75248
12700.0 0.010387 139.801555
12720.0 0.001897 90.077437
12740.0 0.007434 -74.37065
12760.0 0.015944 -102.182087
12780.0 0.023385 -127.04007
12800.0 0.029164 -151.255611
12820.0 0.032835 -175.213894
12840.0 0.034116 160.981754
12860.0 0.032908 137.320042
12880.0 0.029299 113.862668
12900.0 0.023567 90.806847
12920.0 0.016158 68.814225
12940.0 0.007696 51.669665
12960.0 0.002311 146.4875
12980.0 0.010511 161.234511
13000.0 0.018401 141.191042
13020.0 0.024854 118.409205
13040.0 0.029357 94.73726
13060.0 0.031562 70.539959
13080.0 0.031305 45.84879
13100.0 0.028609 20.486672
13120.0 0.023698 -6.083041
13140.0 0.017018 -35.538742
13160.0 0.00946 -75.546141
13180.0 0.005405 -169.331655
13200.0 0.011735 116.45969
13220.0 0.019908 80.977731
13240.0 0.027272 52.606693
13260.0 0.033062 26.46564
13280.0 0.036819 1.341381
13300.0 0.03828 -23.16767
13320.0 0.037362 -47.172964
13340.0 0.034175 -70.606332
13360.0 0.029009 -93.169235
13380.0 0.022331 -114.025714
13400.0 0.014825 -130.487204
13420.0 0.007832 -130.294959
13440.0 0.006485 -85.788769
13460.0 0.011839 -76.524642
13480.0 0.017399 -91.54552
13500.0 0.021526 -112.828723
13520.0 0.02373 -136.85264
13540.0 0.023847 -162.923444
13560.0 0.021961 168.553151
13580.0 0.018477 135.903723
13600.0 0.014377 94.817079
13620.0 0.011977 38.836985
13640.0 0.014155 -21.196576
13660.0 0.019842 -66.791476
13680.0 0.026468 -102.028875
13700.0 0.032607 -132.504707
13720.0 0.037467 -160.70307
13740.0 0.040545 172.279128
13760.0 0.041541 145.889567
13780.0 0.040329 119.794026
13800.0 0.036958 93.724149
13820.0 0.031638 67.354336
13840.0 0.024735 40.064779
13860.0 0.016774 10.083758
13880.0 0.008658 -30.977014
13900.0 0.004973 -131.652561
13920.0 0.011116 158.474442
13940.0 0.018142 124.614789
13960.0 0.024016 97.285115
13980.0 0.028232 72.32347
14000.0 0.030559 48.803643
14020.0 0.030955 26.607007
14040.0 0.029565 6.030693
14060.0 0.026751 -12.187448
14080.0 0.023156 -26.691673
14100.0 0.019818 -35.581526
14120.0 0.01816 -38.420056
14140.0 0.019178 -40.167765
14160.0 0.022326 -47.12823
14180.0 0.02622 -60.131857
14200.0 0.029739 -77.327757
14220.0 0.032186 -97.123032
14240.0 0.033165 -118.554962
14260.0 0.03249 -141.07144
14280.0 0.030146 -164.352088
14300.0 0.026257 171.790128
14320.0 0.021064 147.45875
14340.0 0.014891 122.688236
14360.0 0.008124 97.369862
14380.0 0.001176 68.093605
14400.0 0.005555 -132.104
14420.0 0.011682 -158.750058
14440.0 0.016895 174.498275
14460.0 0.020957 147.264794
14480.0 0.023735 119.373042
14500.0 0.02521 90.626297
14520.0 0.02548 60.773254
14540.0 0.024765 29.493624
14560.0 0.023393 -3.581294
14580.0 0.02177 -38.754297
14600.0 0.020317 -76.0091
14620.0 0.019341 -114.709015
14640.0 0.018908 -153.649122
14660.0 0.018802 168.311057
14680.0 0.018656 131.636607
14700.0 0.018115 96.066853
14720.0 0.016953 60.828288
14740.0 0.015127 24.670235
14760.0 0.01283 -14.452848
