! File created by SignalIntegrity v1.3.3: Signal and Power Integrity Tools
! https://github.com/TeledyneLeCroy/SignalIntegrity
# MHz S MA R 50.0
0.0 0.00396 0.0
20.0 0.008805 41.823823
40.0 0.015574 32.429764
60.0 0.021353 15.209084
80.0 0.025436 -4.100842
100.0 0.027436 -24.112536
120.0 0.027178 -44.224766
140.0 0.024704 -63.941943
160.0 0.02027 -82.465593
180.0 0.014372 -97.661813
200.0 0.008011 -100.393156
220.0 0.005355 -54.888519
240.0 0.010411 -33.092684
260.0 0.01651 -43.50191
280.0 0.021502 -61.014068
300.0 0.024714 -80.952805
320.0 0.025806 -102.086048
340.0 0.024664 -124.038433
360.0 0.021388 -146.83102
380.0 0.016276 -171.011555
400.0 0.00984 160.847621
420.0 0.00331 102.92486
440.0 0.006082 -23.440519
460.0 0.012896 -59.212724
480.0 0.018836 -85.203295
500.0 0.023191 -109.086544
520.0 0.025539 -132.159753
540.0 0.025654 -154.788243
560.0 0.023507 -177.054479
580.0 0.01927 161.164191
600.0 0.0133 140.484795
620.0 0.006149 124.893592
640.0 0.002314 -126.492685
660.0 0.009796 -120.996971
680.0 0.016881 -140.258284
700.0 0.022676 -161.782938
720.0 0.026658 175.897832
740.0 0.028474 153.055323
760.0 0.027957 129.651514
780.0 0.025145 105.397004
800.0 0.020299 79.472403
820.0 0.013951 49.191876
840.0 0.007393 1.442247
860.0 0.006555 -95.382088
880.0 0.013027 -150.466242
900.0 0.020003 177.709308
920.0 0.025785 151.192437
940.0 0.029696 126.53112
960.0 0.03134 102.691824
980.0 0.030542 79.241837
1000.0 0.027332 55.924211
1020.0 0.021947 32.46942
1040.0 0.014807 8.259242
1060.0 0.006511 -20.336046
1080.0 0.002776 173.608642
1100.0 0.01129 131.494896
1120.0 0.019113 106.522231
1140.0 0.025439 83.160356
1160.0 0.029737 60.269522
1180.0 0.031642 37.545553
1200.0 0.030983 14.835598
1220.0 0.027791 -8.013384
1240.0 0.022301 -31.29092
1260.0 0.014946 -55.906978
1280.0 0.006394 -87.917022
1300.0 0.003747 117.080008
1320.0 0.012646 73.512912
1340.0 0.021024 48.088018
1360.0 0.027931 24.845495
1380.0 0.03278 2.33854
1400.0 0.035155 -19.782056
1420.0 0.034834 -41.611358
1440.0 0.031802 -63.123928
1460.0 0.026257 -84.13987
1480.0 0.018601 -104.01924
1500.0 0.009454 -119.309433
1520.0 0.002358 -40.208141
1540.0 0.011472 -6.866971
1560.0 0.021053 -23.681294
1580.0 0.029331 -43.765827
1600.0 0.035629 -64.747202
1620.0 0.039452 -86.118025
1640.0 0.040495 -107.723125
1660.0 0.038665 -129.529485
1680.0 0.034085 -151.591032
1700.0 0.02709 -174.114164
1720.0 0.018207 162.168386
1740.0 0.008178 132.670722
1760.0 0.003384 -18.389405
1780.0 0.013219 -67.598948
1800.0 0.022398 -92.751368
1820.0 0.029819 -115.559824
1840.0 0.034884 -137.60114
1860.0 0.037198 -159.220266
1880.0 0.036578 179.519968
1900.0 0.033068 158.714283
1920.0 0.026942 138.710263
1940.0 0.018702 120.689661
1960.0 0.009197 111.209802
1980.0 0.00423 -171.725183
2000.0 0.013347 -150.34696
2020.0 0.022909 -165.079929
2040.0 0.030975 176.012485
2060.0 0.036806 155.902065
2080.0 0.039904 135.326595
2100.0 0.039995 114.581094
2120.0 0.037039 93.853749
2140.0 0.031236 73.368971
2160.0 0.023012 53.631769
2180.0 0.013016 36.741833
2200.0 0.002823 59.359647
2220.0 0.009994 150.710773
2240.0 0.020598 136.211834
2260.0 0.029827 116.866482
2280.0 0.036886 96.442034
2300.0 0.041201 75.641727
2320.0 0.042419 54.716537
2340.0 0.040424 33.817762
2360.0 0.035346 13.117234
2380.0 0.02756 -7.034035
2400.0 0.017669 -25.450418
2420.0 0.006632 -32.721544
2440.0 0.006283 79.852409
2460.0 0.017456 73.774614
2480.0 0.027649 55.432658
2500.0 0.035832 35.251816
2520.0 0.041338 14.475994
2540.0 0.043722 -6.541236
2560.0 0.042782 -27.642968
2580.0 0.038567 -48.715364
2600.0 0.031382 -69.599085
2620.0 0.021759 -89.874357
2640.0 0.010445 -107.264221
2660.0 0.00236 6.490958
2680.0 0.014136 16.201693
2700.0 0.025302 -2.733022
2720.0 0.034651 -23.328767
2740.0 0.041451 -44.376691
2760.0 0.045172 -65.599667
2780.0 0.04552 -86.894785
2800.0 0.042452 -108.207481
2820.0 0.036183 -129.490824
2840.0 0.027169 -150.666699
2860.0 0.016076 -171.468518
2880.0 0.00374 171.816868
2900.0 0.00898 -38.049958
2920.0 0.021054 -57.868504
2940.0 0.031619 -78.691911
2960.0 0.039882 -99.616597
2980.0 0.045228 -120.467625
3000.0 0.047258 -141.135563
3020.0 0.045826 -161.479059
3040.0 0.041051 178.762255
3060.0 0.03332 160.189498
3080.0 0.023324 144.619038
3100.0 0.012401 140.70031
3120.0 0.007519 -164.319691
3140.0 0.016884 -140.335834
3160.0 0.027898 -151.061324
3180.0 0.0374 -167.898763
3200.0 0.044409 173.444363
3220.0 0.048345 154.132303
3240.0 0.048905 134.671443
3260.0 0.046059 115.428606
3280.0 0.040047 96.879147
3300.0 0.031392 80.015436
3320.0 0.02099 67.893859
3340.0 0.010997 75.152819
3360.0 0.010619 127.143767
3380.0 0.02032 136.295734
3400.0 0.030503 124.616903
3420.0 0.038902 107.951919
3440.0 0.044641 89.551619
3460.0 0.047232 70.450899
3480.0 0.046474 51.135827
3500.0 0.042431 31.972224
3520.0 0.035431 13.457068
3540.0 0.026061 -3.256843
3560.0 0.015274 -13.714299
3580.0 0.006324 16.258575
3600.0 0.012147 71.958701
3620.0 0.022743 66.095141
3640.0 0.032177 50.444959
3660.0 0.039332 32.372689
3680.0 0.043601 13.47871
3700.0 0.044655 -5.621716
3720.0 0.042424 -24.518052
3740.0 0.037106 -42.699424
3760.0 0.029177 -59.107229
3780.0 0.019497 -70.450749
3800.0 0.010278 -60.926958
3820.0 0.010664 -9.511351
3840.0 0.020222 -1.89178
3860.0 0.030209 -13.562573
3880.0 0.038539 -29.963176
3900.0 0.044349 -48.000538
3920.0 0.047136 -66.647755
3940.0 0.046676 -85.38308
3960.0 0.043012 -103.761494
3980.0 0.036458 -121.122544
4000.0 0.027636 -135.954951
4020.0 0.017689 -143.24767
4040.0 0.010117 -121.977806
4060.0 0.013717 -82.543041
4080.0 0.02326 -82.067276
4100.0 0.032483 -94.713381
4120.0 0.039734 -111.204633
4140.0 0.044255 -129.139963
4160.0 0.045641 -147.607711
4180.0 0.04377 -166.078127
4200.0 0.038793 175.986355
4220.0 0.031141 159.545192
4240.0 0.0216 147.281617
4260.0 0.011972 150.79687
4280.0 0.009852 -161.446885
4300.0 0.018594 -145.761116
4320.0 0.028688 -155.268455
4340.0 0.037379 -170.817566
4360.0 0.043687 171.626331
4380.0 0.047066 153.325159
4400.0 0.047254 134.88264
4420.0 0.044262 116.776295
4440.0 0.038373 99.657796
4460.0 0.030181 84.88201
4480.0 0.020764 76.323822
4500.0 0.012833 87.289259
4520.0 0.013421 121.892348
4540.0 0.02155 129.312386
4560.0 0.030455 119.591279
4580.0 0.037804 104.36975
4600.0 0.042658 87.01325
4620.0 0.044536 68.733796
4640.0 0.043257 50.13066
4660.0 0.038911 31.66414
4680.0 0.031843 13.971789
4700.0 0.022659 -1.388508
4720.0 0.012429 -7.706669
4740.0 0.006143 41.293134
4760.0 0.013913 76.95406
4780.0 0.023959 68.158485
4800.0 0.032671 52.269179
4820.0 0.039125 34.423399
4840.0 0.042796 15.934162
4860.0 0.04342 -2.617796
4880.0 0.040983 -20.774737
4900.0 0.035738 -37.896526
4920.0 0.028231 -52.628396
4940.0 0.01948 -61.065494
4960.0 0.012075 -49.761562
4980.0 0.012753 -14.935944
5000.0 0.020563 -7.535852
5020.0 0.029124 -17.095463
5040.0 0.036227 -32.02833
5060.0 0.040963 -48.965443
5080.0 0.042855 -66.644961
5100.0 0.041722 -84.361259
5120.0 0.037659 -101.435321
5140.0 0.031057 -116.732589
5160.0 0.022725 -127.415278
5180.0 0.014569 -124.22794
5200.0 0.01233 -93.218177
5220.0 0.019177 -77.156671
5240.0 0.028517 -83.548955
5260.0 0.037091 -97.567885
5280.0 0.043672 -114.455514
5300.0 0.047589 -132.613105
5320.0 0.04848 -151.337667
5340.0 0.046243 -170.200383
5360.0 0.041027 171.215068
5380.0 0.033228 153.594047
5400.0 0.023513 138.718648
5420.0 0.013111 134.081905
5440.0 0.007415 178.773883
5460.0 0.014904 -150.407773
5480.0 0.0248 -158.772937
5500.0 0.033385 -174.867925
5520.0 0.039682 166.636966
5540.0 0.043167 147.107149
5560.0 0.043582 127.046946
5580.0 0.040912 106.696579
5600.0 0.035371 86.207195
5620.0 0.027389 65.732438
5640.0 0.017573 45.612166
5660.0 0.006675 28.148791
5680.0 0.004601 173.391529
5700.0 0.015214 158.098287
5720.0 0.024512 138.058072
5740.0 0.031787 117.485817
5760.0 0.036502 96.816048
5780.0 0.038315 76.219302
5800.0 0.037099 55.857542
5820.0 0.032959 36.004355
5840.0 0.026236 17.304165
5860.0 0.017531 1.889601
5880.0 0.008131 2.564608
5900.0 0.006978 75.941484
5920.0 0.016583 83.636424
5940.0 0.026346 69.168075
5960.0 0.03461 50.691768
5980.0 0.040635 30.86854
6000.0 0.043936 10.451999
6020.0 0.044249 -10.251088
6040.0 0.041535 -31.069664
6060.0 0.035984 -51.855733
6080.0 0.027991 -72.376437
6100.0 0.018138 -91.949033
6120.0 0.007201 -105.781934
6140.0 0.004645 21.027456
6160.0 0.015428 13.351209
6180.0 0.025147 -5.766082
6200.0 0.032977 -26.22578
6220.0 0.038358 -47.063003
6240.0 0.040923 -67.991742
6260.0 0.040515 -88.846834
6280.0 0.037197 -109.442948
6300.0 0.031253 -129.440143
6320.0 0.023182 -147.956318
6340.0 0.013745 -161.516735
6360.0 0.005119 -140.112577
6380.0 0.009417 -72.756625
6400.0 0.018712 -79.700077
6420.0 0.026969 -97.080879
6440.0 0.033241 -116.994608
6460.0 0.037005 -137.971382
6480.0 0.037972 -159.593412
6500.0 0.036073 178.221752
6520.0 0.031458 155.321887
6540.0 0.024495 131.116898
6560.0 0.015794 103.360303
6580.0 0.006676 56.346624
6600.0 0.007125 -66.301645
6620.0 0.016531 -111.047582
6640.0 0.025602 -138.692938
6660.0 0.03309 -163.128689
6680.0 0.038373 173.528755
6700.0 0.041053 150.660322
6720.0 0.04094 128.009072
6740.0 0.038052 105.428135
6760.0 0.032613 82.784264
6780.0 0.025034 59.85446
6800.0 0.015889 35.943021
6820.0 0.005918 5.687291
6840.0 0.00465 -166.989353
6860.0 0.014158 159.795126
6880.0 0.022484 135.77378
6900.0 0.028932 113.013245
6920.0 0.03303 90.711058
6940.0 0.034486 68.681487
6960.0 0.033206 46.907013
6980.0 0.029293 25.493128
7000.0 0.02305 4.793918
7020.0 0.014968 -13.864244
7040.0 0.005878 -20.247008
7060.0 0.00537 84.087302
7080.0 0.014875 80.181764
7100.0 0.023873 61.654905
7120.0 0.031432 40.840147
7140.0 0.036982 19.193146
7160.0 0.040124 -2.919077
7180.0 0.040642 -25.402037
7200.0 0.038514 -48.290944
7220.0 0.033913 -71.762084
7240.0 0.027201 -96.29298
7260.0 0.018937 -123.359849
7280.0 0.010041 -159.923718
7300.0 0.004966 103.641069
7320.0 0.011704 28.125645
7340.0 0.019826 -4.947248
7360.0 0.026652 -31.522809
7380.0 0.031503 -56.250539
7400.0 0.034002 -80.29502
7420.0 0.033976 -104.126924
7440.0 0.031443 -128.056956
7460.0 0.026605 -152.46923
7480.0 0.019842 -178.221293
7500.0 0.01175 151.381615
7520.0 0.004105 84.774242
7540.0 0.008349 -31.005897
7560.0 0.017012 -67.335514
7580.0 0.024986 -94.293775
7600.0 0.031505 -119.118903
7620.0 0.036107 -143.1845
7640.0 0.038504 -166.952075
7660.0 0.03857 169.352119
7680.0 0.036348 145.561156
7700.0 0.032039 121.477674
7720.0 0.025989 96.746228
7740.0 0.018675 70.459873
7760.0 0.010736 39.062971
7780.0 0.003879 -28.470153
7800.0 0.00717 -140.119397
7820.0 0.013877 -178.092453
7840.0 0.019564 153.877072
7860.0 0.023632 128.026135
7880.0 0.025815 102.78049
7900.0 0.02602 77.498041
7920.0 0.024312 51.666368
7940.0 0.02092 24.526392
7960.0 0.016257 -5.604253
7980.0 0.011081 -43.648585
8000.0 0.007381 -103.929974
8020.0 0.008892 -176.710919
8040.0 0.013776 136.98622
8060.0 0.01887 104.024799
8080.0 0.023077 75.709795
8100.0 0.025915 49.319284
8120.0 0.027133 23.809017
8140.0 0.026642 -1.343667
8160.0 0.024488 -26.511549
8180.0 0.020847 -52.13125
8200.0 0.016015 -79.053286
8220.0 0.010424 -109.889646
8240.0 0.004979 -158.797501
8260.0 0.004489 93.824782
8280.0 0.009408 40.551814
8300.0 0.014303 9.071649
8320.0 0.018208 -17.910754
8340.0 0.020768 -43.378617
8360.0 0.021794 -68.240634
8380.0 0.021218 -92.920737
8400.0 0.019092 -117.74767
8420.0 0.015577 -143.203526
8440.0 0.010943 -170.542712
8460.0 0.005637 154.108066
8480.0 0.002395 43.659322
8500.0 0.007242 -31.700015
8520.0 0.012791 -63.408354
8540.0 0.017718 -90.099158
8560.0 0.021623 -115.454727
8580.0 0.024237 -140.404821
8600.0 0.025393 -165.37047
8620.0 0.025032 169.316862
8640.0 0.02321 143.231661
8660.0 0.020115 115.623725
8680.0 0.016102 84.877182
8700.0 0.011847 47.030863
8720.0 0.008862 -5.856478
8740.0 0.009479 -68.194235
8760.0 0.013101 -115.572918
8780.0 0.01741 -150.285188
8800.0 0.021233 -179.301062
8820.0 0.024022 154.403231
8840.0 0.02548 129.622581
8860.0 0.025459 105.837579
8880.0 0.023936 82.849095
8900.0 0.020998 60.684067
8920.0 0.016835 39.693599
8940.0 0.011743 21.161876
8960.0 0.00621 11.429331
8980.0 0.00282 64.502077
9000.0 0.007179 97.82658
9020.0 0.012518 85.630261
9040.0 0.017207 67.244376
9060.0 0.020851 47.180228
9080.0 0.023215 26.529722
9100.0 0.02417 5.716969
9120.0 0.023691 -15.006223
9140.0 0.02185 -35.396725
9160.0 0.018822 -55.089751
9180.0 0.014873 -73.325662
9200.0 0.010382 -88.023005
9220.0 0.006 -91.251192
9240.0 0.003897 -56.692773
9260.0 0.006357 -32.042311
9280.0 0.009738 -39.413437
9300.0 0.012456 -55.504873
9320.0 0.014099 -74.659891
9340.0 0.014501 -95.400103
9360.0 0.013633 -117.391695
9380.0 0.011581 -140.994743
9400.0 0.008558 -167.91417
9420.0 0.005038 154.197794
9440.0 0.003144 70.933558
9460.0 0.006097 0.451676
9480.0 0.010258 -33.451525
9500.0 0.014131 -59.178819
9520.0 0.017247 -82.129847
9540.0 0.019316 -103.631103
9560.0 0.020155 -124.029404
9580.0 0.019687 -143.246224
9600.0 0.017959 -160.798578
9620.0 0.015171 -175.463013
9640.0 0.011793 175.778662
9660.0 0.008931 179.544379
9680.0 0.008745 -163.478062
9700.0 0.011837 -155.940176
9720.0 0.016262 -162.406554
9740.0 0.020651 -175.720714
9760.0 0.02432 167.825045
9780.0 0.026855 149.777952
9800.0 0.027992 130.845437
9820.0 0.027585 111.392166
9840.0 0.0256 91.63345
9860.0 0.022114 71.724061
9880.0 0.017303 51.831606
9900.0 0.011436 32.320094
9920.0 0.004863 15.313933
9940.0 0.00214 155.144637
9960.0 0.008919 145.072268
9980.0 0.015234 125.91982
10000.0 0.020661 105.95157
10020.0 0.02487 85.785494
10040.0 0.027607 65.604192
10060.0 0.028716 45.514764
10080.0 0.028148 25.627265
10100.0 0.02597 6.105181
10120.0 0.02236 -12.748382
10140.0 0.01761 -30.253158
10160.0 0.012141 -44.45788
10180.0 0.006678 -47.15237
10200.0 0.004069 -3.352202
10220.0 0.007556 24.073155
10240.0 0.011905 16.750116
10260.0 0.015348 2.056219
10280.0 0.017433 -14.648723
10300.0 0.01797 -31.694244
10320.0 0.016938 -48.005233
10340.0 0.014499 -62.086865
10360.0 0.011104 -70.518718
10380.0 0.007948 -64.331584
10400.0 0.007872 -40.020285
10420.0 0.011666 -30.435165
10440.0 0.016729 -37.605964
10460.0 0.021572 -51.555964
10480.0 0.025478 -68.368211
10500.0 0.027999 -86.557801
10520.0 0.028849 -105.450765
10540.0 0.027884 -124.665254
10560.0 0.02511 -143.901487
10580.0 0.020672 -162.776576
10600.0 0.014859 179.572935
10620.0 0.008126 166.803092
10640.0 0.002296 -148.783385
10660.0 0.007462 -87.39086
10680.0 0.014284 -98.825309
10700.0 0.020247 -115.879622
10720.0 0.024841 -134.089966
10740.0 0.027739 -152.4056
10760.0 0.028764 -170.2693
10780.0 0.027924 172.891909
10800.0 0.025442 157.94989
10820.0 0.021834 146.463505
10840.0 0.018079 141.111406
10860.0 0.01583 144.163161
10880.0 0.01669 150.304109
10900.0 0.020214 149.63152
10920.0 0.024603 141.037099
10940.0 0.028449 127.484647
10960.0 0.030904 111.115353
10980.0 0.031475 93.070805
11000.0 0.029919 73.938869
11020.0 0.026208 53.997401
11040.0 0.020508 33.263374
11060.0 0.013158 11.16517
11080.0 0.004692 -18.341672
11100.0 0.004743 168.550349
11120.0 0.013786 138.720839
11140.0 0.022219 116.084778
11160.0 0.029364 94.488756
11180.0 0.03468 73.265821
11200.0 0.037753 52.276806
11220.0 0.038332 31.527087
11240.0 0.03634 11.117364
11260.0 0.031896 -8.698834
11280.0 0.025312 -27.278897
11300.0 0.01713 -42.538581
11320.0 0.008488 -43.316876
11340.0 0.00632 20.835841
11360.0 0.014478 34.641557
11380.0 0.023208 21.623981
11400.0 0.030669 3.65637
11420.0 0.036182 -15.964922
11440.0 0.039325 -36.337454
11460.0 0.039879 -57.121155
11480.0 0.037822 -78.166955
11500.0 0.033324 -99.410382
11520.0 0.026736 -120.850052
11540.0 0.01856 -142.59664
11560.0 0.009418 -165.330876
11580.0 0.000458 83.373738
11600.0 0.009033 -22.471364
11620.0 0.016923 -45.258708
11640.0 0.023119 -67.107039
11660.0 0.027149 -88.692287
11680.0 0.028709 -110.121081
11700.0 0.027679 -131.378576
11720.0 0.02413 -152.351339
11740.0 0.018328 -172.672323
11760.0 0.010724 169.285757
11780.0 0.002305 -177.893607
11800.0 0.007981 -73.554422
11820.0 0.017302 -89.01805
11840.0 0.025861 -108.879463
11860.0 0.03296 -129.702517
11880.0 0.038045 -150.884055
11900.0 0.040715 -172.229457
11920.0 0.040745 166.350835
11940.0 0.038102 144.919196
11960.0 0.032949 123.549514
11980.0 0.025635 102.392317
12000.0 0.016671 81.937095
12020.0 0.006721 65.630468
12040.0 0.003834 -161.600852
12060.0 0.013618 -171.771351
12080.0 0.022363 168.072206
12100.0 0.029358 146.757969
12120.0 0.034094 125.025572
12140.0 0.036228 103.040953
12160.0 0.03561 80.827163
12180.0 0.032286 58.32262
12200.0 0.026504 35.326215
12220.0 0.018696 11.186329
12240.0 0.009498 -17.508892
12260.0 0.002308 -138.702731
12280.0 0.011243 141.825812
12300.0 0.020644 114.327423
12320.0 0.028742 90.045432
12340.0 0.034906 66.512893
12360.0 0.038689 43.140709
12380.0 0.03983 19.649191
12400.0 0.038273 -4.2166
12420.0 0.034174 -28.841258
12440.0 0.027919 -55.024357
12460.0 0.020169 -84.93253
12480.0 0.012231 -126.462871
12500.0 0.008463 157.350488
12520.0 0.013527 89.795611
12540.0 0.020936 52.1891
12560.0 0.027407 23.373807
12580.0 0.031941 -2.456358
12600.0 0.034057 -27.010968
12620.0 0.033545 -50.972459
12640.0 0.030427 -74.716094
12660.0 0.024933 -98.586524
12680.0 0.017489 -123.256903
12700.0 0.008712 -151.910416
12720.0 0.002028 75.757874
12740.0 0.010755 3.337959
12760.0 0.019511 -23.631892
12780.0 0.026887 -47.878301
12800.0 0.032285 -71.459798
12820.0 0.035284 -94.887074
12840.0 0.03565 -118.426134
12860.0 0.033358 -142.351413
12880.0 0.028599 -167.141663
12900.0 0.021798 166.014235
12920.0 0.013726 132.871718
12940.0 0.00677 69.63269
12960.0 0.009663 -24.707118
12980.0 0.01791 -67.223294
13000.0 0.02577 -96.20703
13020.0 0.032007 -121.611599
13040.0 0.036009 -145.5915
13060.0 0.037422 -168.840548
13080.0 0.036112 168.373548
13100.0 0.032155 145.972128
13120.0 0.025834 124.048688
13140.0 0.017613 103.126712
13160.0 0.008142 86.618085
13180.0 0.002692 -162.948211
13200.0 0.012327 -157.024489
13220.0 0.021476 -176.539933
13240.0 0.029141 161.800071
13260.0 0.034762 139.355963
13280.0 0.037956 116.354226
13300.0 0.038533 92.734787
13320.0 0.036525 68.228748
13340.0 0.032202 42.224857
13360.0 0.026124 13.32223
13380.0 0.019325 -22.002279
13400.0 0.014029 -71.655746
13420.0 0.014084 -133.986303
13440.0 0.019241 177.374923
13460.0 0.025576 142.872795
13480.0 0.030979 114.810542
13500.0 0.034516 89.887071
13520.0 0.035737 66.89287
13540.0 0.034495 45.500794
13560.0 0.030906 25.983709
13580.0 0.025383 9.499219
13600.0 0.018805 -0.571687
13620.0 0.01329 4.687003
13640.0 0.013296 26.337996
13660.0 0.019205 32.641317
13680.0 0.026716 23.292149
13700.0 0.033601 7.50407
13720.0 0.038871 -11.110455
13740.0 0.041988 -31.198427
13760.0 0.042676 -52.197749
13780.0 0.040876 -73.877469
13800.0 0.036727 -96.196182
13820.0 0.030549 -119.307221
13840.0 0.022816 -143.768179
13860.0 0.014158 -171.671107
13880.0 0.005691 142.229408
13900.0 0.005641 14.73025
13920.0 0.013006 -31.149102
13940.0 0.01953 -60.280368
13960.0 0.024345 -86.903933
13980.0 0.027154 -113.337014
14000.0 0.02791 -140.618289
14020.0 0.026834 -169.75257
14040.0 0.024487 157.864596
14060.0 0.021915 120.42534
14080.0 0.020682 77.34714
14100.0 0.022139 32.749487
14120.0 0.026104 -7.36806
14140.0 0.031235 -41.662838
14160.0 0.036226 -71.710597
14180.0 0.040153 -99.081263
14200.0 0.042414 -124.780138
14220.0 0.042653 -149.409979
14240.0 0.040726 -173.349196
14260.0 0.036674 163.133097
14280.0 0.030708 139.786198
14300.0 0.023186 116.227108
14320.0 0.014589 91.352195
14340.0 0.005592 57.218319
14360.0 0.004354 -98.934181
14380.0 0.01267 -137.36425
14400.0 0.020123 -161.56503
14420.0 0.026085 176.525239
14440.0 0.030229 155.689612
14460.0 0.032386 135.715051
14480.0 0.03255 116.690463
14500.0 0.030886 98.922332
14520.0 0.027737 83.018913
14540.0 0.023653 70.094794
14560.0 0.019463 62.006936
14580.0 0.016345 60.683694
14600.0 0.015486 64.152157
14620.0 0.016888 64.940075
14640.0 0.019255 59.210729
14660.0 0.021312 48.429287
14680.0 0.022307 34.765061
14700.0 0.021882 19.765683
14720.0 0.019956 4.646259
14740.0 0.016673 -9.113069
