! File created by SignalIntegrity v1.3.3: Signal and Power Integrity Tools
! https://github.com/TeledyneLeCroy/SignalIntegrity
# MHz S MA R 50.0
0.0 1.015543 0.0
20.0 1.012979 -38.039179
40.0 1.006615 -76.244612
60.0 0.998387 -114.790117
80.0 0.990783 -153.725521
100.0 0.986324 166.971839
120.0 0.985524 127.456143
140.0 0.987947 87.980908
160.0 0.991529 48.777532
180.0 0.993945 10.052103
200.0 0.994258 -28.150328
220.0 0.992097 -65.932198
240.0 0.988799 -103.504711
260.0 0.985854 -141.195025
280.0 0.984242 -179.282222
300.0 0.984695 142.029495
320.0 0.986074 102.719953
340.0 0.986974 63.019634
360.0 0.985922 23.284315
380.0 0.982145 -16.070617
400.0 0.976968 -54.788835
420.0 0.971862 -92.868407
440.0 0.968651 -130.502446
460.0 0.968482 -168.076298
480.0 0.970868 154.026137
500.0 0.974842 115.508524
520.0 0.977815 76.265253
540.0 0.977423 36.51103
560.0 0.972848 -3.345684
580.0 0.964851 -42.809937
600.0 0.956567 -81.532089
620.0 0.950793 -119.47058
640.0 0.949409 -156.812157
660.0 0.95323 166.033061
680.0 0.960797 128.60677
700.0 0.969869 90.532376
720.0 0.976709 51.60079
740.0 0.977802 11.951173
760.0 0.972328 -28.018966
780.0 0.961978 -67.779878
800.0 0.95122 -106.889704
820.0 0.944114 -145.220029
840.0 0.942673 177.109093
860.0 0.947376 139.744409
880.0 0.956028 102.240215
900.0 0.965531 64.225099
920.0 0.972003 25.452532
940.0 0.971986 -14.02063
960.0 0.965275 -53.886375
980.0 0.954181 -93.70385
1000.0 0.943268 -133.039517
1020.0 0.936694 -171.698329
1040.0 0.936043 150.304938
1060.0 0.941381 112.751104
1080.0 0.950334 75.282002
1100.0 0.959635 37.573199
1120.0 0.965995 -0.651435
1140.0 0.966455 -39.472665
1160.0 0.961015 -78.773141
1180.0 0.951718 -118.317523
1200.0 0.942233 -157.775358
1220.0 0.93629 163.093006
1240.0 0.935133 124.418066
1260.0 0.938596 86.202974
1280.0 0.944569 48.291468
1300.0 0.950225 10.503587
1320.0 0.953649 -27.387945
1340.0 0.953299 -65.574884
1360.0 0.949748 -104.159666
1380.0 0.94456 -143.194048
1400.0 0.939567 177.426
1420.0 0.9368 137.890077
1440.0 0.936426 98.450455
1460.0 0.937941 59.385327
1480.0 0.940158 20.837907
1500.0 0.941579 -17.154669
1520.0 0.942059 -54.723027
1540.0 0.941455 -92.141446
1560.0 0.940475 -129.713764
1580.0 0.939998 -167.7825
1600.0 0.940038 153.443368
1620.0 0.940733 113.944006
1640.0 0.940987 73.925023
1660.0 0.939846 33.844656
1680.0 0.937257 -5.82394
1700.0 0.933485 -44.724371
1720.0 0.930198 -82.759614
1740.0 0.928612 -120.148848
1760.0 0.929467 -157.268784
1780.0 0.9331 165.376021
1800.0 0.938065 127.338364
1820.0 0.942648 88.375303
1840.0 0.94438 48.521157
1860.0 0.941626 8.207843
1880.0 0.935398 -31.947478
1900.0 0.927878 -71.378579
1920.0 0.922279 -109.779019
1940.0 0.92066 -147.249664
1960.0 0.923248 175.860291
1980.0 0.92955 139.019332
2000.0 0.937137 101.667068
2020.0 0.943261 63.40289
2040.0 0.945053 24.053706
2060.0 0.940677 -16.139526
2080.0 0.931799 -56.618328
2100.0 0.921818 -96.732252
2120.0 0.914784 -135.960449
2140.0 0.913254 -174.167813
2160.0 0.916989 148.466316
2180.0 0.924752 111.52394
2200.0 0.933548 74.459115
2220.0 0.940054 36.816087
2240.0 0.941643 -1.726214
2260.0 0.936778 -41.182148
2280.0 0.92746 -81.251126
2300.0 0.917492 -121.455251
2320.0 0.910908 -161.249339
2340.0 0.910291 159.704649
2360.0 0.914883 121.483454
2380.0 0.922677 83.929648
2400.0 0.930528 46.67613
2420.0 0.935337 9.345949
2440.0 0.935672 -28.426617
2460.0 0.931053 -66.882968
2480.0 0.923547 -106.053293
2500.0 0.916317 -145.801985
2520.0 0.912101 174.229077
2540.0 0.9127 134.452327
2560.0 0.916989 95.200817
2580.0 0.922724 56.666029
2600.0 0.927389 18.781542
2620.0 0.928775 -18.656417
2640.0 0.926814 -55.968773
2660.0 0.922136 -93.533597
2680.0 0.916718 -131.644214
2700.0 0.912986 -170.512601
2720.0 0.912149 149.890533
2740.0 0.914698 109.838099
2760.0 0.918868 69.756848
2780.0 0.922212 30.148242
2800.0 0.9232 -8.675398
2820.0 0.92108 -46.640836
2840.0 0.91726 -83.927199
2860.0 0.913419 -120.951822
2880.0 0.911142 -158.176517
2900.0 0.911825 163.928937
2920.0 0.914961 125.071654
2940.0 0.919398 85.273457
2960.0 0.922742 44.866964
2980.0 0.922776 4.491885
3000.0 0.919553 -35.22507
3020.0 0.914182 -73.908422
3040.0 0.909128 -111.519165
3060.0 0.906423 -148.392952
3080.0 0.906795 174.974799
3100.0 0.910587 138.002108
3120.0 0.91618 100.162759
3140.0 0.921344 61.185886
3160.0 0.92346 21.112996
3180.0 0.920605 -19.56963
3200.0 0.914101 -60.131362
3220.0 0.906719 -99.920227
3240.0 0.901738 -138.561949
3260.0 0.901323 -176.125937
3280.0 0.905201 147.031653
3300.0 0.912348 110.389039
3320.0 0.920036 73.362902
3340.0 0.925108 35.524145
3360.0 0.9252 -3.366745
3380.0 0.919151 -43.203143
3400.0 0.909431 -83.551276
3420.0 0.90015 -123.845959
3440.0 0.895131 -163.530331
3460.0 0.896491 157.67712
3480.0 0.902976 119.761474
3500.0 0.91219 82.484111
3520.0 0.920729 45.418475
3540.0 0.925192 8.158264
3560.0 0.924002 -29.659243
3580.0 0.916862 -68.24566
3600.0 0.906509 -107.572372
3620.0 0.897182 -147.434731
3640.0 0.892532 172.585842
3660.0 0.89473 132.932101
3680.0 0.902289 93.91647
3700.0 0.912002 55.675508
3720.0 0.92018 18.074083
3740.0 0.923481 -19.150252
3760.0 0.921156 -56.354745
3780.0 0.913844 -93.938204
3800.0 0.904268 -132.192474
3820.0 0.896279 -171.298088
3840.0 0.892696 148.847471
3860.0 0.895221 108.626289
3880.0 0.902303 68.556429
3900.0 0.910506 29.166708
3920.0 0.916637 -9.280021
3940.0 0.918219 -46.805443
3960.0 0.915463 -83.683978
3980.0 0.909656 -120.412294
4000.0 0.902814 -157.50356
4020.0 0.897637 164.555871
4040.0 0.895559 125.502782
4060.0 0.897498 85.446976
4080.0 0.902318 44.838816
4100.0 0.907325 4.411797
4120.0 0.910526 -35.187707
4140.0 0.910516 -73.640216
4160.0 0.907973 -110.995086
4180.0 0.904389 -147.677212
4200.0 0.900958 175.750151
4220.0 0.89926 138.674448
4240.0 0.899402 100.590101
4260.0 0.901075 61.316194
4280.0 0.903212 21.033785
4300.0 0.904087 -19.640114
4320.0 0.903509 -59.927612
4340.0 0.901771 -99.247216
4360.0 0.900051 -137.366694
4380.0 0.899654 -174.504864
4400.0 0.900555 148.874403
4420.0 0.902787 112.204106
4440.0 0.905164 74.917812
4460.0 0.906287 36.668099
4480.0 0.905335 -2.649487
4500.0 0.901709 -42.770191
4520.0 0.896944 -83.1374
4540.0 0.893008 -123.168308
4560.0 0.891516 -162.404702
4580.0 0.893482 159.269939
4600.0 0.89784 121.685409
4620.0 0.903259 84.5122
4640.0 0.907714 47.307689
4660.0 0.909055 9.723049
4680.0 0.906649 -28.488074
4700.0 0.900558 -67.388199
4720.0 0.89309 -106.807742
4740.0 0.887306 -146.474624
4760.0 0.885336 173.983195
4780.0 0.888336 134.862044
4800.0 0.894726 96.29858
4820.0 0.902008 58.307202
4840.0 0.907526 20.713832
4860.0 0.908814 -16.706542
4880.0 0.905661 -54.224747
4900.0 0.8988 -92.131623
4920.0 0.890607 -130.608669
4940.0 0.884274 -169.756277
4960.0 0.881825 150.546528
4980.0 0.884489 110.62195
5000.0 0.890842 70.869295
5020.0 0.898055 31.702847
5040.0 0.903576 -6.679144
5060.0 0.905141 -44.299516
5080.0 0.902753 -81.385962
5100.0 0.897287 -118.369248
5120.0 0.890364 -155.694416
5140.0 0.884507 166.203746
5160.0 0.881222 127.085874
5180.0 0.881817 87.057416
5200.0 0.885805 46.537451
5220.0 0.891045 6.223839
5240.0 0.895692 -33.259473
5260.0 0.897904 -71.595739
5280.0 0.897614 -108.819968
5300.0 0.895578 -145.344835
5320.0 0.892394 178.270042
5340.0 0.889371 141.401162
5360.0 0.886787 103.514312
5380.0 0.88514 64.389809
5400.0 0.88471 24.167988
5420.0 0.885008 -16.549886
5440.0 0.886207 -56.963353
5460.0 0.88778 -96.443174
5480.0 0.889472 -134.707504
5500.0 0.891296 -171.947911
5520.0 0.892458 151.377411
5540.0 0.892913 114.69383
5560.0 0.892046 77.41994
5580.0 0.889617 39.201146
5600.0 0.886321 -0.062727
5620.0 0.882748 -40.088581
5640.0 0.880602 -80.297003
5660.0 0.880754 -120.103276
5680.0 0.883058 -159.077706
5700.0 0.887037 162.83529
5720.0 0.890848 125.391764
5740.0 0.893239 88.19968
5760.0 0.893006 50.78087
5780.0 0.88946 12.799208
5800.0 0.88382 -25.922954
5820.0 0.877701 -65.326135
5840.0 0.873845 -105.091737
5860.0 0.874167 -144.838139
5880.0 0.878445 175.822177
5900.0 0.885468 137.094764
5920.0 0.892256 98.963711
5940.0 0.89632 61.300692
5960.0 0.896272 23.837497
5980.0 0.891606 -13.676952
6000.0 0.884198 -51.470606
6020.0 0.876304 -89.731468
6040.0 0.87074 -128.493018
6060.0 0.869805 -167.717081
6080.0 0.873427 152.779775
6100.0 0.880404 113.257603
6120.0 0.887605 73.944703
6140.0 0.891956 35.067584
6160.0 0.892153 -3.296558
6180.0 0.88796 -41.185493
6200.0 0.881475 -78.746014
6220.0 0.875068 -116.270105
6240.0 0.870842 -154.035877
6260.0 0.870626 167.671622
6280.0 0.874 128.692037
6300.0 0.879685 89.089712
6320.0 0.885026 49.104467
6340.0 0.887276 9.193907
6360.0 0.885971 -30.201616
6380.0 0.881734 -68.8163
6400.0 0.876833 -106.606204
6420.0 0.873416 -143.83386
6440.0 0.872287 179.118582
6460.0 0.873996 141.798347
6480.0 0.877243 103.797789
6500.0 0.880444 64.943311
6520.0 0.882008 25.289994
6540.0 0.880609 -14.770876
6560.0 0.877284 -54.684755
6580.0 0.873542 -93.985424
6600.0 0.871198 -132.402481
6620.0 0.871551 -170.028299
6640.0 0.874 152.817154
6660.0 0.877828 115.682903
6680.0 0.881084 78.066004
6700.0 0.881822 39.645905
6720.0 0.879342 0.304441
6740.0 0.873771 -39.74156
6760.0 0.867747 -79.994958
6780.0 0.864013 -119.930313
6800.0 0.864111 -159.113984
6820.0 0.868376 162.564127
6840.0 0.874649 124.925255
6860.0 0.880607 87.631755
6880.0 0.883709 50.224477
6900.0 0.881984 12.351362
6920.0 0.875967 -26.216967
6940.0 0.867411 -65.502479
6960.0 0.86007 -105.255714
6980.0 0.857374 -145.117633
7000.0 0.860263 175.345853
7020.0 0.867905 136.428729
7040.0 0.876811 98.18651
7060.0 0.883421 60.522412
7080.0 0.885268 23.148341
7100.0 0.880999 -14.241551
7120.0 0.872282 -51.9414
7140.0 0.861899 -90.204193
7160.0 0.85377 -129.092506
7180.0 0.851537 -168.547823
7200.0 0.855916 151.680869
7220.0 0.865523 111.938241
7240.0 0.876047 72.498167
7260.0 0.882738 33.583487
7280.0 0.883096 -4.773336
7300.0 0.876607 -42.674699
7320.0 0.866153 -80.320719
7340.0 0.85561 -118.035609
7360.0 0.848644 -156.07881
7380.0 0.848312 165.343378
7400.0 0.854485 126.18473
7420.0 0.865021 86.615163
7440.0 0.875496 46.894819
7460.0 0.881053 7.399172
7480.0 0.879894 -31.579826
7500.0 0.872583 -69.93222
7520.0 0.862533 -107.711499
7540.0 0.853771 -145.202544
7560.0 0.848937 177.270744
7580.0 0.849979 139.379894
7600.0 0.856033 100.862625
7620.0 0.864611 61.673243
7640.0 0.872071 21.91413
7660.0 0.874475 -18.083126
7680.0 0.871132 -57.900712
7700.0 0.863646 -97.22955
7720.0 0.855516 -135.88966
7740.0 0.850509 -173.961286
7760.0 0.850059 148.342388
7780.0 0.854527 110.748645
7800.0 0.861892 72.937253
7820.0 0.868845 34.726427
7840.0 0.872525 -3.977184
7860.0 0.870564 -43.098513
7880.0 0.86392 -82.417388
7900.0 0.855491 -121.729942
7920.0 0.848726 -160.814484
7940.0 0.84681 160.429115
7960.0 0.84996 121.997997
7980.0 0.85695 83.842102
8000.0 0.86495 45.789318
8020.0 0.870305 7.701383
8040.0 0.871099 -30.564917
8060.0 0.866438 -69.122252
8080.0 0.858224 -107.973362
8100.0 0.849971 -147.112026
8120.0 0.844739 173.589362
8140.0 0.845123 134.309055
8160.0 0.850635 95.209328
8180.0 0.858945 56.46448
8200.0 0.866873 18.100113
8220.0 0.870809 -19.923895
8240.0 0.869677 -57.731299
8260.0 0.863838 -95.553138
8280.0 0.855583 -133.583768
8300.0 0.848513 -172.034886
8320.0 0.844986 149.016989
8340.0 0.846723 109.676377
8360.0 0.852694 70.152136
8380.0 0.85991 30.792323
8400.0 0.865475 -8.141313
8420.0 0.866654 -46.520799
8440.0 0.863506 -84.375079
8460.0 0.857549 -121.964595
8480.0 0.850944 -159.590843
8500.0 0.846647 162.409958
8520.0 0.845864 123.806012
8540.0 0.849074 84.600704
8560.0 0.854879 44.951179
8580.0 0.860201 5.227093
8600.0 0.862937 -34.199512
8620.0 0.861537 -73.09767
8640.0 0.856835 -111.392058
8660.0 0.851086 -149.276184
8680.0 0.846205 172.970864
8700.0 0.844565 135.037767
8720.0 0.846595 96.657322
8740.0 0.851578 57.781881
8760.0 0.857725 18.493408
8780.0 0.861919 -20.935638
8800.0 0.862777 -60.176327
8820.0 0.859972 -99.02478
8840.0 0.854895 -137.379747
8860.0 0.850188 -175.364209
8880.0 0.847263 146.81139
8900.0 0.847476 108.940672
8920.0 0.85042 70.819613
8940.0 0.854458 32.413526
8960.0 0.858047 -6.252231
8980.0 0.858954 -45.07338
9000.0 0.856888 -83.903275
9020.0 0.852643 -122.704412
9040.0 0.847714 -161.445488
9060.0 0.844635 159.827094
9080.0 0.844363 121.065131
9100.0 0.84736 82.315595
9120.0 0.852676 43.616212
9140.0 0.857879 5.089968
9160.0 0.861353 -33.182164
9180.0 0.861329 -71.214568
9200.0 0.857857 -109.065836
9220.0 0.852373 -146.951968
9240.0 0.846399 174.917421
9260.0 0.842544 136.366006
9280.0 0.841909 97.311443
9300.0 0.844679 57.916638
9320.0 0.849919 18.438097
9340.0 0.85494 -20.782431
9360.0 0.858137 -59.48533
9380.0 0.858212 -97.652262
9400.0 0.855179 -135.409364
9420.0 0.850569 -173.090995
9440.0 0.845433 148.946546
9460.0 0.841832 110.457595
9480.0 0.840915 71.342154
9500.0 0.842875 31.827036
9520.0 0.847509 -7.707902
9540.0 0.852728 -46.842274
9560.0 0.85707 -85.2707
9580.0 0.859272 -123.014423
9600.0 0.858454 -160.28551
9620.0 0.855377 162.501468
9640.0 0.850379 124.875942
9660.0 0.844986 86.506969
9680.0 0.840845 47.22239
9700.0 0.838888 7.230085
9720.0 0.840259 -32.993635
9740.0 0.844062 -72.8918
9760.0 0.849032 -111.992204
9780.0 0.853862 -150.196617
9800.0 0.856752 172.328655
9820.0 0.857455 135.209261
9840.0 0.855427 97.963073
9860.0 0.851066 60.242504
9880.0 0.845874 21.812265
9900.0 0.841065 -17.279301
9920.0 0.83894 -56.739954
9940.0 0.840306 -96.205672
9960.0 0.844716 -135.288304
9980.0 0.851085 -173.837867
10000.0 0.856707 148.103734
10020.0 0.860008 110.368213
10040.0 0.859693 72.666247
10060.0 0.855507 34.807674
10080.0 0.849258 -3.357995
10100.0 0.842613 -41.861178
10120.0 0.838288 -80.59229
10140.0 0.837892 -119.457957
10160.0 0.841251 -158.30791
10180.0 0.847596 162.911845
10200.0 0.854044 124.180501
10220.0 0.858234 85.499264
10240.0 0.858494 46.812852
10260.0 0.854092 8.165661
10280.0 0.847037 -30.389523
10300.0 0.839461 -68.836061
10320.0 0.834113 -107.140953
10340.0 0.833037 -145.412086
10360.0 0.836033 176.236196
10380.0 0.842446 137.672577
10400.0 0.849527 98.781447
10420.0 0.854485 59.642451
10440.0 0.855772 20.411858
10460.0 0.85265 -18.630476
10480.0 0.847217 -57.218155
10500.0 0.841654 -95.278975
10520.0 0.837798 -132.85429
10540.0 0.837096 -170.214662
10560.0 0.838772 152.291439
10580.0 0.842179 114.344503
10600.0 0.845608 75.67616
10620.0 0.847303 36.319691
10640.0 0.847129 -3.469972
10660.0 0.845064 -43.233274
10680.0 0.842829 -82.45809
10700.0 0.841792 -120.897755
10720.0 0.842076 -158.533641
10740.0 0.843864 164.338566
10760.0 0.845503 127.228279
10780.0 0.845815 89.656527
10800.0 0.843846 51.173744
10820.0 0.839104 11.658305
10840.0 0.83376 -28.665004
10860.0 0.830036 -69.259862
10880.0 0.830275 -109.396752
10900.0 0.835246 -148.592658
10920.0 0.842844 173.319285
10940.0 0.850923 136.141474
10960.0 0.856248 99.387997
10980.0 0.856532 62.56529
11000.0 0.851409 25.158611
11020.0 0.841579 -13.139071
11040.0 0.83103 -52.35161
11060.0 0.82397 -92.238507
11080.0 0.823567 -132.228484
11100.0 0.830682 -171.775764
11120.0 0.841919 149.481085
11140.0 0.853222 111.614386
11160.0 0.860162 74.344554
11180.0 0.859621 37.308864
11200.0 0.851764 0.050768
11220.0 0.838248 -37.821637
11240.0 0.824016 -76.499125
11260.0 0.814564 -116.004652
11280.0 0.81365 -156.008037
11300.0 0.822559 163.960959
11320.0 0.837293 124.33835
11340.0 0.852001 85.433102
11360.0 0.860989 47.242101
11380.0 0.860428 9.641098
11400.0 0.851314 -27.635887
11420.0 0.836714 -64.954692
11440.0 0.822032 -102.60541
11460.0 0.812898 -140.868749
11480.0 0.812331 -179.794805
11500.0 0.821333 140.7583
11520.0 0.836051 101.028617
11540.0 0.850155 61.381731
11560.0 0.857799 22.067854
11580.0 0.855186 -16.735305
11600.0 0.844124 -54.995544
11620.0 0.828939 -92.911852
11640.0 0.815018 -130.705763
11660.0 0.807623 -168.676481
11680.0 0.808674 152.971936
11700.0 0.818273 114.189762
11720.0 0.83275 74.980945
11740.0 0.845932 35.560008
11760.0 0.852745 -3.815694
11780.0 0.84995 -42.868672
11800.0 0.839569 -81.367683
11820.0 0.826321 -119.34208
11840.0 0.814845 -156.918752
11860.0 0.809474 165.628161
11880.0 0.810978 127.972431
11900.0 0.818451 89.890288
11920.0 0.828729 51.166886
11940.0 0.836753 11.821469
11960.0 0.839422 -27.955873
11980.0 0.835285 -67.856034
12000.0 0.826819 -107.462062
12020.0 0.818586 -146.540869
12040.0 0.813592 175.022395
12060.0 0.814087 137.169781
12080.0 0.81907 99.642726
12100.0 0.826076 62.182437
12120.0 0.832347 24.429534
12140.0 0.834241 -13.868973
12160.0 0.83099 -52.80515
12180.0 0.823521 -92.346065
12200.0 0.815054 -132.182893
12220.0 0.810132 -171.959127
12240.0 0.810481 148.694781
12260.0 0.816285 110.049615
12280.0 0.824842 72.073906
12300.0 0.832009 34.617886
12320.0 0.83507 -2.659223
12340.0 0.831618 -40.148815
12360.0 0.822729 -78.155783
12380.0 0.811604 -116.960327
12400.0 0.802369 -156.55041
12420.0 0.799804 163.316875
12440.0 0.804743 123.09043
12460.0 0.815189 83.335065
12480.0 0.82664 44.351691
12500.0 0.833558 6.230001
12520.0 0.833679 -31.22471
12540.0 0.826379 -68.445527
12560.0 0.814156 -105.870237
12580.0 0.801628 -143.990855
12600.0 0.792979 176.953142
12620.0 0.792682 137.057755
12640.0 0.801118 96.714739
12660.0 0.814878 56.598373
12680.0 0.828484 17.216477
12700.0 0.835583 -21.17062
12720.0 0.834043 -58.610585
12740.0 0.824483 -95.513516
12760.0 0.810051 -132.368545
12780.0 0.796211 -169.772425
12800.0 0.787239 151.831387
12820.0 0.787358 112.356536
12840.0 0.797044 72.039267
12860.0 0.812141 31.540009
12880.0 0.826595 -8.470517
12900.0 0.833589 -47.538877
12920.0 0.830966 -85.51456
12940.0 0.820438 -122.713873
12960.0 0.805447 -159.626202
12980.0 0.791574 163.137438
13000.0 0.782722 125.039509
13020.0 0.782323 85.907628
13040.0 0.791159 45.85668
13060.0 0.805411 5.424894
13080.0 0.819827 -34.731126
13100.0 0.828157 -74.132983
13120.0 0.827718 -112.518233
13140.0 0.820054 -150.060013
13160.0 0.807884 172.868619
13180.0 0.79617 135.801852
13200.0 0.788402 98.246732
13220.0 0.786973 59.988087
13240.0 0.792783 20.969106
13260.0 0.802731 -18.580059
13280.0 0.813126 -58.255602
13300.0 0.819441 -97.746121
13320.0 0.81911 -136.783372
13340.0 0.81347 -175.379771
13360.0 0.804499 146.288134
13380.0 0.796121 108.024308
13400.0 0.791228 69.570528
13420.0 0.790861 30.885589
13440.0 0.795559 -8.000711
13460.0 0.802745 -46.9908
13480.0 0.810013 -85.905021
13500.0 0.815051 -124.719526
13520.0 0.815924 -163.38536
13540.0 0.81372 158.072857
13560.0 0.809385 119.594299
13580.0 0.805149 81.248428
13600.0 0.803092 43.038576
13620.0 0.803161 5.047303
13640.0 0.805652 -32.707419
13660.0 0.808676 -70.36917
13680.0 0.810608 -108.085952
13700.0 0.810756 -146.180499
13720.0 0.808094 175.098282
13740.0 0.804323 135.636683
13760.0 0.800884 95.483843
13780.0 0.799427 55.079233
13800.0 0.801439 14.949847
13820.0 0.805453 -24.391475
13840.0 0.810426 -62.648465
13860.0 0.814485 -99.969898
13880.0 0.81599 -136.686952
13900.0 0.815285 -173.379806
13920.0 0.81184 149.351872
13940.0 0.807266 111.106873
13960.0 0.803289 71.684188
13980.0 0.801253 31.415273
14000.0 0.803015 -9.065994
14020.0 0.807276 -49.061103
14040.0 0.812496 -88.046664
14060.0 0.816793 -126.049879
14080.0 0.817839 -163.392092
14100.0 0.815934 159.358657
14120.0 0.811036 121.563344
14140.0 0.805151 82.85898
14160.0 0.801414 43.125296
14180.0 0.801473 2.779702
14200.0 0.806908 -37.42678
14220.0 0.815633 -76.818937
14240.0 0.824453 -114.948333
14260.0 0.831025 -151.935473
14280.0 0.832498 171.775066
14300.0 0.829048 135.558273
14320.0 0.82105 98.663257
14340.0 0.810466 60.612288
14360.0 0.801609 21.183978
14380.0 0.797544 -19.286104
14400.0 0.801272 -59.95592
14420.0 0.811665 -99.986168
14440.0 0.824435 -138.747542
14460.0 0.835917 -176.210094
14480.0 0.841646 147.226749
14500.0 0.840319 111.011738
14520.0 0.832161 74.427607
14540.0 0.818874 36.977674
14560.0 0.805702 -1.649688
14580.0 0.796953 -41.39764
14600.0 0.79685 -81.711909
14620.0 0.805877 -121.954541
14640.0 0.819604 -161.507238
14660.0 0.833389 159.856656
14680.0 0.841544 121.951294
14700.0 0.841537 84.480649
14720.0 0.834123 46.955769
14740.0 0.821321 9.03714
