! File created by SignalIntegrity v1.1.10: Signal and Power Integrity Tools
! https://github.com/TeledyneLeCroy/SignalIntegrity
# MHz S MA R 50.0
0.0 0.957482 0.0
20.0 0.961466 -39.29838
40.0 0.971907 -78.968333
60.0 0.983448 -119.258097
80.0 0.989426 -160.103494
100.0 0.985642 158.807004
120.0 0.97249 117.924615
140.0 0.955909 77.597822
160.0 0.942861 37.868381
180.0 0.938142 -1.435297
200.0 0.943653 -40.657752
220.0 0.956866 -80.160642
240.0 0.972496 -120.160681
260.0 0.983418 -160.686458
280.0 0.983744 158.531206
300.0 0.973319 117.884419
320.0 0.956717 77.663188
340.0 0.941062 37.9551
360.0 0.932297 -1.432978
380.0 0.932626 -40.80642
400.0 0.941384 -80.4819
420.0 0.954066 -120.694277
440.0 0.964265 -161.416617
460.0 0.966803 157.592113
480.0 0.959879 116.726601
500.0 0.94715 76.331102
520.0 0.934333 36.486051
540.0 0.926131 -2.925322
560.0 0.92518 -42.192528
580.0 0.930342 -81.633063
600.0 0.938434 -121.439848
620.0 0.944962 -161.668624
640.0 0.946031 157.859641
660.0 0.941502 117.421144
680.0 0.933896 77.230521
700.0 0.927493 37.382311
720.0 0.925827 -2.245615
740.0 0.92942 -41.855094
760.0 0.936745 -81.64641
780.0 0.943679 -121.75073
800.0 0.945894 -162.092199
820.0 0.941605 157.510807
840.0 0.931946 117.279832
860.0 0.921522 77.348909
880.0 0.915103 37.642448
900.0 0.915548 -2.010173
920.0 0.923364 -41.856179
940.0 0.935075 -82.089057
960.0 0.94522 -122.70745
980.0 0.948204 -163.533972
1000.0 0.941321 155.798169
1020.0 0.927565 115.615496
1040.0 0.912676 76.01728
1060.0 0.902818 36.888542
1080.0 0.902182 -2.114797
1100.0 0.911107 -41.380549
1120.0 0.926981 -81.231413
1140.0 0.943211 -121.822805
1160.0 0.951871 -162.954389
1180.0 0.948368 155.825026
1200.0 0.933781 115.040189
1220.0 0.915109 75.020669
1240.0 0.900059 35.714977
1260.0 0.893703 -3.15912
1280.0 0.898199 -42.042375
1300.0 0.911334 -81.374697
1320.0 0.928004 -121.419638
1340.0 0.940876 -162.215599
1360.0 0.943323 156.556935
1380.0 0.934505 115.400474
1400.0 0.918851 74.729896
1420.0 0.903651 34.736346
1440.0 0.895048 -4.709537
1460.0 0.89525 -43.885646
1480.0 0.903687 -83.109658
1500.0 0.916327 -122.669943
1520.0 0.927414 -162.65373
1540.0 0.932166 157.011471
1560.0 0.92832 116.548074
1580.0 0.918523 76.198639
1600.0 0.907806 36.03979
1620.0 0.900782 -3.95961
1640.0 0.900378 -43.943002
1660.0 0.905686 -84.057815
1680.0 0.91353 -124.332572
1700.0 0.919504 -164.714532
1720.0 0.919909 154.984031
1740.0 0.914841 114.940434
1760.0 0.906863 75.189844
1780.0 0.900126 35.641487
1800.0 0.898266 -3.962065
1820.0 0.902064 -43.872231
1840.0 0.910169 -84.229088
1860.0 0.918321 -125.006469
1880.0 0.921708 -165.90839
1900.0 0.918229 153.450522
1920.0 0.908935 113.388114
1940.0 0.898343 74.002429
1960.0 0.891152 35.068551
1980.0 0.890263 -3.786988
2000.0 0.89673 -43.013346
2020.0 0.907983 -82.968861
2040.0 0.919226 -123.731238
2060.0 0.924686 -165.081768
2080.0 0.920585 153.51746
2100.0 0.908834 112.635281
2120.0 0.894643 72.572788
2140.0 0.883923 33.315471
2160.0 0.880852 -5.482398
2180.0 0.886094 -44.287856
2200.0 0.898068 -83.548017
2220.0 0.911948 -123.586659
2240.0 0.92129 -164.386649
2260.0 0.921503 154.369349
2280.0 0.911941 113.195674
2300.0 0.897522 72.551544
2320.0 0.884796 32.57599
2340.0 0.878447 -6.839644
2360.0 0.88073 -46.006319
2380.0 0.889982 -85.293605
2400.0 0.9023 -124.952642
2420.0 0.912381 -165.100477
2440.0 0.915298 154.398673
2460.0 0.910249 113.81752
2480.0 0.899911 73.387378
2500.0 0.889364 33.236881
2520.0 0.883396 -6.713635
2540.0 0.883702 -46.61671
2560.0 0.889732 -86.606243
2580.0 0.898061 -126.765694
2600.0 0.904219 -167.004194
2620.0 0.905405 152.830821
2640.0 0.900918 112.88944
2660.0 0.893469 73.228924
2680.0 0.886821 33.696402
2700.0 0.88381 -5.934209
2720.0 0.886065 -45.916557
2740.0 0.89207 -86.40021
2760.0 0.89863 -127.285821
2780.0 0.902029 -168.296483
2800.0 0.899756 150.990708
2820.0 0.893136 110.908358
2840.0 0.885282 71.50602
2860.0 0.879882 32.591118
2880.0 0.879755 -6.273489
2900.0 0.88497 -45.560474
2920.0 0.893887 -85.616386
2940.0 0.902284 -126.547589
2960.0 0.905386 -168.03673
2980.0 0.901306 150.495063
3000.0 0.891526 109.645902
3020.0 0.880912 69.764596
3040.0 0.874125 30.759713
3060.0 0.873497 -7.734669
3080.0 0.879579 -46.261392
3100.0 0.889781 -85.36425
3120.0 0.899913 -125.362862
3140.0 0.905123 -166.290907
3160.0 0.901979 152.229615
3180.0 0.892075 110.795322
3200.0 0.880142 69.906297
3220.0 0.871627 29.818547
3240.0 0.870152 -9.577085
3260.0 0.875625 -48.594903
3280.0 0.885975 -87.612483
3300.0 0.896837 -126.986585
3320.0 0.903221 -166.849212
3340.0 0.902272 152.858055
3360.0 0.893922 112.357055
3380.0 0.882248 71.913711
3400.0 0.872559 31.63713
3420.0 0.868597 -8.465966
3440.0 0.872014 -48.50366
3460.0 0.880684 -88.611896
3480.0 0.890542 -128.812332
3500.0 0.897061 -169.051865
3520.0 0.896905 150.850133
3540.0 0.890794 111.062225
3560.0 0.881764 71.591555
3580.0 0.873979 32.313437
3600.0 0.870999 -7.070534
3620.0 0.873535 -46.858606
3640.0 0.880458 -87.217649
3660.0 0.8881 -128.124743
3680.0 0.892177 -169.24438
3700.0 0.890832 149.884057
3720.0 0.884707 109.655704
3740.0 0.877364 70.231476
3760.0 0.872473 31.402691
3780.0 0.87194 -7.236818
3800.0 0.87634 -46.20337
3820.0 0.883404 -85.949874
3840.0 0.889625 -126.632739
3860.0 0.891445 -168.072041
3880.0 0.887008 150.297586
3900.0 0.878747 109.148136
3920.0 0.870748 68.909484
3940.0 0.866751 29.67363
3960.0 0.868792 -8.868133
3980.0 0.875805 -47.229358
4000.0 0.885354 -85.957536
4020.0 0.893152 -125.517189
4040.0 0.894796 -166.032822
4060.0 0.888845 152.714896
4080.0 0.877306 111.235902
4100.0 0.865893 70.116463
4120.0 0.860023 29.695386
4140.0 0.861892 -9.957442
4160.0 0.870968 -49.063795
4180.0 0.883251 -88.016686
4200.0 0.893607 -127.163597
4220.0 0.897368 -166.764742
4240.0 0.891933 153.155064
4260.0 0.87969 112.742303
4280.0 0.865933 72.183673
4300.0 0.856764 31.688334
4320.0 0.856381 -8.653675
4340.0 0.864467 -48.819915
4360.0 0.87774 -88.828821
4380.0 0.890311 -128.746956
4400.0 0.896363 -168.54447
4420.0 0.893568 151.821707
4440.0 0.883032 112.369692
4460.0 0.869679 73.051495
4480.0 0.859155 33.658372
4500.0 0.85533 -6.028046
4520.0 0.859966 -46.203704
4540.0 0.870638 -86.946291
4560.0 0.882318 -128.083564
4580.0 0.889343 -169.280423
4600.0 0.888027 149.926556
4620.0 0.879878 109.893201
4640.0 0.869108 70.665433
4660.0 0.86052 32.039236
4680.0 0.857798 -6.439503
4700.0 0.861453 -45.278148
4720.0 0.870035 -84.88289
4740.0 0.879294 -125.460149
4760.0 0.884008 -166.795905
4780.0 0.881627 151.640552
4800.0 0.873118 110.495055
4820.0 0.863314 70.24783
4840.0 0.857138 30.952407
4860.0 0.856936 -7.646197
4880.0 0.863034 -46.036033
4900.0 0.87252 -84.781582
4920.0 0.881073 -124.293945
4940.0 0.884194 -164.769139
4960.0 0.879053 153.989944
4980.0 0.867954 112.476018
5000.0 0.856236 71.228176
5020.0 0.849579 30.677589
5040.0 0.851272 -9.071847
5060.0 0.860179 -48.180012
5080.0 0.872889 -86.971273
5100.0 0.883946 -125.866821
5120.0 0.887911 -165.15614
5140.0 0.882481 155.003145
5160.0 0.868945 114.626667
5180.0 0.853253 73.887071
5200.0 0.842541 32.973845
5220.0 0.841401 -7.858595
5240.0 0.850813 -48.407846
5260.0 0.866518 -88.579619
5280.0 0.881774 -128.323358
5300.0 0.890131 -167.69166
5320.0 0.887654 153.258
5340.0 0.875879 114.403187
5360.0 0.859608 75.487311
5380.0 0.845319 36.235091
5400.0 0.838978 -3.64615
5420.0 0.842877 -44.278432
5440.0 0.855717 -85.528081
5460.0 0.871486 -127.063538
5480.0 0.882312 -168.346779
5500.0 0.883624 151.102859
5520.0 0.875419 111.527145
5540.0 0.862452 72.855389
5560.0 0.850535 34.662169
5580.0 0.843897 -3.591828
5600.0 0.845299 -42.45926
5620.0 0.853852 -82.350382
5640.0 0.865819 -123.320024
5660.0 0.875283 -165.067636
5680.0 0.876719 153.082023
5700.0 0.869899 111.857219
5720.0 0.858663 71.660768
5740.0 0.848442 32.508359
5760.0 0.84373 -5.982416
5780.0 0.845742 -44.361028
5800.0 0.853777 -83.16822
5820.0 0.864278 -122.848215
5840.0 0.871949 -163.499313
5860.0 0.872863 155.124339
5880.0 0.865986 113.560689
5900.0 0.855272 72.421353
5920.0 0.846467 32.048623
5940.0 0.843423 -7.489436
5960.0 0.847694 -46.403454
5980.0 0.85705 -85.076735
6000.0 0.867387 -123.866037
6020.0 0.874004 -163.093606
6040.0 0.872847 157.110363
6060.0 0.864066 116.782468
6080.0 0.851178 76.037845
6100.0 0.840046 35.097822
6120.0 0.83616 -5.842578
6140.0 0.840971 -46.580279
6160.0 0.852613 -86.934724
6180.0 0.865866 -126.850728
6200.0 0.874623 -166.30179
6220.0 0.875435 154.623946
6240.0 0.867644 115.73173
6260.0 0.854665 76.755107
6280.0 0.841831 37.310558
6300.0 0.834114 -2.885231
6320.0 0.835369 -43.926051
6340.0 0.845028 -85.61397
6360.0 0.858639 -127.410553
6380.0 0.86974 -168.71052
6400.0 0.872886 150.98957
6420.0 0.867736 111.863851
6440.0 0.857137 73.650413
6460.0 0.845498 35.836172
6480.0 0.837469 -2.28227
6500.0 0.835577 -41.35114
6520.0 0.840919 -81.744192
6540.0 0.851102 -123.433617
6560.0 0.860746 -165.801757
6580.0 0.865109 152.077655
6600.0 0.862125 111.024933
6620.0 0.854366 71.412694
6640.0 0.846066 32.994677
6660.0 0.840303 -4.817043
6680.0 0.839412 -42.776999
6700.0 0.843134 -81.610095
6720.0 0.849679 -121.738579
6740.0 0.855786 -163.20171
6760.0 0.857458 154.518067
6780.0 0.853901 112.282875
6800.0 0.847084 70.848818
6820.0 0.84062 30.613541
6840.0 0.837851 -8.545938
6860.0 0.839405 -47.068118
6880.0 0.844752 -85.491035
6900.0 0.851486 -124.35989
6920.0 0.85613 -163.979892
6940.0 0.856383 155.586052
6960.0 0.851264 114.546382
6980.0 0.843232 73.312549
7000.0 0.836346 32.236961
7020.0 0.83359 -8.412883
7040.0 0.836551 -48.547705
7060.0 0.843534 -88.238768
7080.0 0.851326 -127.571492
7100.0 0.856569 -166.698177
7120.0 0.856362 154.262796
7140.0 0.850946 115.179363
7160.0 0.842333 75.82625
7180.0 0.833982 35.996397
7200.0 0.829768 -4.52446
7220.0 0.831185 -45.774119
7240.0 0.837805 -87.503871
7260.0 0.84624 -129.263602
7280.0 0.851933 -170.449194
7300.0 0.852667 149.374896
7320.0 0.848253 110.299308
7340.0 0.841125 72.079924
7360.0 0.834353 34.124186
7380.0 0.830045 -4.250545
7400.0 0.830171 -43.68762
7420.0 0.834416 -84.579572
7440.0 0.840819 -126.755707
7460.0 0.846225 -169.506262
7480.0 0.847463 148.23712
7500.0 0.844752 107.358173
7520.0 0.840021 68.108252
7540.0 0.835532 30.19046
7560.0 0.833385 -7.129806
7580.0 0.83371 -44.742665
7600.0 0.836265 -83.462038
7620.0 0.839398 -123.87907
7640.0 0.840607 -165.978437
7660.0 0.838955 150.922295
7680.0 0.834873 107.959414
7700.0 0.831027 66.200556
7720.0 0.829932 26.066265
7740.0 0.831936 -12.626501
7760.0 0.836717 -50.479691
7780.0 0.842113 -88.278666
7800.0 0.845634 -126.680687
7820.0 0.845373 -166.161126
7840.0 0.840117 153.203319
7860.0 0.832033 111.74342
7880.0 0.824708 70.008003
7900.0 0.82155 28.615357
7920.0 0.824367 -12.08478
7940.0 0.831408 -52.046642
7960.0 0.839838 -91.431118
7980.0 0.846111 -130.562016
8000.0 0.84719 -169.687044
8020.0 0.842856 151.000996
8040.0 0.834429 111.377786
8060.0 0.825537 71.419859
8080.0 0.820091 31.072297
8100.0 0.820018 -9.638084
8120.0 0.825679 -50.632023
8140.0 0.83413 -91.775874
8160.0 0.841254 -132.780595
8180.0 0.843997 -173.362168
8200.0 0.841009 146.729624
8220.0 0.83453 107.581238
8240.0 0.827692 68.985246
8260.0 0.823305 30.583832
8280.0 0.823535 -8.146278
8300.0 0.82778 -47.703063
8320.0 0.834201 -88.355358
8340.0 0.839211 -130.050046
8360.0 0.839314 -172.218738
8380.0 0.834578 145.95699
8400.0 0.827365 105.168497
8420.0 0.821613 65.729052
8440.0 0.820218 27.399359
8460.0 0.823388 -10.372856
8480.0 0.830353 -48.313943
8500.0 0.837964 -87.164661
8520.0 0.842373 -127.371269
8540.0 0.840669 -168.980227
8560.0 0.832245 148.556342
8580.0 0.821433 106.175185
8600.0 0.813683 64.700917
8620.0 0.812377 24.581771
8640.0 0.81823 -14.305904
8660.0 0.8284 -52.478978
8680.0 0.839222 -90.593817
8700.0 0.84625 -129.338566
8720.0 0.845473 -169.121723
8740.0 0.836657 149.990567
8760.0 0.823046 108.320735
8780.0 0.811363 66.516408
8800.0 0.807553 25.182222
8820.0 0.812938 -15.271397
8840.0 0.825511 -54.793611
8860.0 0.839855 -93.677578
8880.0 0.85002 -132.290452
8900.0 0.851872 -171.033018
8920.0 0.843672 149.833091
8940.0 0.828779 110.19616
8960.0 0.813204 70.005848
8980.0 0.803349 29.38076
9000.0 0.803775 -11.514787
9020.0 0.813747 -52.471193
9040.0 0.828942 -93.262775
9060.0 0.842519 -133.775092
9080.0 0.848154 -173.872617
9100.0 0.844304 146.506721
9120.0 0.833119 107.300534
9140.0 0.820027 68.368387
9160.0 0.810755 29.404322
9180.0 0.808453 -9.873628
9200.0 0.814246 -49.68495
9220.0 0.825124 -90.147678
9240.0 0.835669 -131.112368
9260.0 0.840674 -172.274178
9280.0 0.837159 146.810212
9300.0 0.827646 106.521185
9320.0 0.817093 66.935602
9340.0 0.810194 27.922195
9360.0 0.81026 -10.887994
9380.0 0.816762 -49.942883
9400.0 0.827052 -89.600894
9420.0 0.836078 -130.096495
9440.0 0.838298 -171.288611
9460.0 0.832278 147.254405
9480.0 0.820662 106.074013
9500.0 0.80966 65.64069
9520.0 0.805008 26.072254
9540.0 0.808587 -12.765652
9560.0 0.819737 -51.223488
9580.0 0.834048 -89.798535
9600.0 0.845386 -128.882298
9620.0 0.848224 -168.75003
9640.0 0.839408 150.612882
9660.0 0.822399 109.475281
9680.0 0.804753 68.165821
9700.0 0.794305 27.076657
9720.0 0.796014 -13.536086
9740.0 0.808687 -53.582109
9760.0 0.82744 -93.113423
9780.0 0.844802 -132.376746
9800.0 0.853116 -171.571454
9820.0 0.849095 149.141304
9840.0 0.833918 109.633047
9860.0 0.814084 69.854886
9880.0 0.798144 29.721625
9900.0 0.792268 -10.714669
9920.0 0.799389 -51.286951
9940.0 0.816375 -91.82091
9960.0 0.83591 -132.100334
9980.0 0.84989 -172.027333
10000.0 0.851998 148.455945
10020.0 0.842316 109.329532
10040.0 0.825504 70.36905
10060.0 0.808448 31.304681
10080.0 0.798293 -8.18205
10100.0 0.798423 -48.276897
10120.0 0.808851 -88.908421
10140.0 0.824874 -129.875454
10160.0 0.838574 -170.791158
10180.0 0.844121 148.705883
10200.0 0.839326 108.804877
10220.0 0.827422 69.502811
10240.0 0.814337 30.484308
10260.0 0.804891 -8.640953
10280.0 0.802874 -48.22168
10300.0 0.80823 -88.47822
10320.0 0.817833 -129.310134
10340.0 0.826898 -170.444211
10360.0 0.830235 148.545336
10380.0 0.82694 108.05235
10400.0 0.819428 68.185878
10420.0 0.81176 28.865881
10440.0 0.808359 -10.205875
10460.0 0.810555 -49.372927
10480.0 0.817766 -88.854521
10500.0 0.826644 -128.790383
10520.0 0.831996 -169.069454
10540.0 0.830827 150.538828
10560.0 0.822639 110.260413
10580.0 0.811108 70.271005
10600.0 0.801808 30.505848
10620.0 0.798671 -9.168379
10640.0 0.804122 -48.899854
10660.0 0.816316 -88.823877
10680.0 0.830307 -128.892722
10700.0 0.840156 -169.013952
10720.0 0.840436 150.983918
10740.0 0.830939 111.239375
10760.0 0.815389 71.659804
10780.0 0.799687 32.053663
10800.0 0.790385 -7.880715
10820.0 0.790713 -48.34796
10840.0 0.80106 -89.282951
10860.0 0.817416 -130.465749
10880.0 0.832289 -171.467954
10900.0 0.83978 148.102954
10920.0 0.836945 108.425207
10940.0 0.825965 69.454752
10960.0 0.81209 30.804639
10980.0 0.800138 -7.999112
11000.0 0.794921 -47.372809
11020.0 0.798124 -87.559816
11040.0 0.808349 -128.398712
11060.0 0.8215 -169.502103
11080.0 0.831121 149.665132
11100.0 0.833642 109.549497
11120.0 0.828743 70.224005
11140.0 0.818909 31.495405
11160.0 0.808743 -7.111402
11180.0 0.801328 -46.130661
11200.0 0.799236 -85.903382
11220.0 0.802768 -126.551063
11240.0 0.809354 -167.768512
11260.0 0.816079 150.969283
11280.0 0.819508 110.154515
11300.0 0.818803 70.101298
11320.0 0.815489 30.700965
11340.0 0.81112 -8.377834
11360.0 0.808197 -47.557802
11380.0 0.807444 -87.224336
11400.0 0.808544 -127.439543
11420.0 0.81079 -168.044286
11440.0 0.812095 151.34196
11460.0 0.812062 111.119717
11480.0 0.810828 71.405551
11500.0 0.809012 32.108833
11520.0 0.808274 -7.131043
11540.0 0.808627 -46.744039
11560.0 0.81013 -86.986095
11580.0 0.811827 -127.920337
11600.0 0.811796 -169.211698
11620.0 0.809817 149.657331
11640.0 0.805856 109.119802
11660.0 0.801404 69.403823
11680.0 0.798544 30.310134
11700.0 0.797975 -8.567821
11720.0 0.800766 -47.714732
11740.0 0.805978 -87.566324
11760.0 0.81157 -128.185184
11780.0 0.815466 -169.325178
11800.0 0.815131 149.569053
11820.0 0.810976 109.0937
11840.0 0.804678 69.484532
11860.0 0.798201 30.657472
11880.0 0.794099 -7.846122
11900.0 0.792825 -46.641095
11920.0 0.79472 -86.218496
11940.0 0.798942 -126.88094
11960.0 0.803204 -168.424245
11980.0 0.806314 149.741989
12000.0 0.806907 108.320644
12020.0 0.805374 67.872188
12040.0 0.80314 28.437893
12060.0 0.800486 -10.299652
12080.0 0.798466 -48.873388
12100.0 0.796863 -87.895486
12120.0 0.795433 -127.706536
12140.0 0.79476 -168.388154
12160.0 0.794492 150.37602
12180.0 0.79549 109.169232
12200.0 0.797808 68.447656
12220.0 0.800581 28.469813
12240.0 0.803473 -10.897723
12260.0 0.804661 -50.039528
12280.0 0.803359 -89.337877
12300.0 0.799359 -129.14897
12320.0 0.792917 -169.507534
12340.0 0.786782 149.803683
12360.0 0.783054 109.126022
12380.0 0.783539 68.84321
12400.0 0.788704 29.028068
12420.0 0.796175 -10.472481
12440.0 0.803582 -49.991589
12460.0 0.807254 -89.945132
12480.0 0.804536 -130.482509
12500.0 0.796065 -171.529205
12520.0 0.784391 147.283576
12540.0 0.774889 106.465299
12560.0 0.771539 66.30342
12580.0 0.775235 26.881075
12600.0 0.785195 -12.080469
12620.0 0.797225 -51.078565
12640.0 0.806826 -90.556089
12660.0 0.809709 -130.857046
12680.0 0.803307 -171.89687
12700.0 0.790655 146.746439
12720.0 0.777088 105.618277
12740.0 0.768454 65.244195
12760.0 0.768197 25.749253
12780.0 0.775173 -13.05376
12800.0 0.786995 -51.610172
12820.0 0.79886 -90.546551
12840.0 0.8056 -130.286657
12860.0 0.804283 -171.021115
12880.0 0.794424 147.498246
12900.0 0.781057 105.887102
12920.0 0.770462 64.726896
12940.0 0.76648 24.460099
12960.0 0.770483 -14.898259
12980.0 0.779443 -53.711143
13000.0 0.789415 -92.466927
13020.0 0.796057 -131.751193
13040.0 0.795463 -171.865243
13060.0 0.788299 147.211856
13080.0 0.777914 105.795774
13100.0 0.769993 64.485544
13120.0 0.769137 23.736681
13140.0 0.775065 -16.209404
13160.0 0.785397 -55.417905
13180.0 0.795075 -94.277937
13200.0 0.799103 -133.152832
13220.0 0.795525 -172.407611
13240.0 0.784616 147.774172
13260.0 0.7715 107.448362
13280.0 0.762377 66.737336
13300.0 0.761384 25.952619
13320.0 0.76997 -14.674027
13340.0 0.783918 -55.074456
13360.0 0.797056 -95.256566
13380.0 0.803185 -135.399207
13400.0 0.798197 -175.568592
13420.0 0.784511 144.22897
13440.0 0.76783 103.978087
13460.0 0.755675 63.792301
13480.0 0.754137 23.706001
13500.0 0.763857 -16.224601
13520.0 0.782231 -56.004254
13540.0 0.80204 -95.81074
13560.0 0.814519 -135.70027
13580.0 0.814304 -175.684209
13600.0 0.800526 144.353688
13620.0 0.779801 104.596226
13640.0 0.761138 65.039154
13660.0 0.751451 25.68501
13680.0 0.754953 -13.587815
13700.0 0.769613 -53.010649
13720.0 0.78987 -92.791326
13740.0 0.807167 -133.21045
13760.0 0.812276 -174.264503
13780.0 0.802819 144.30976
13800.0 0.783259 102.878556
13820.0 0.76351 61.8851
13840.0 0.753153 21.543577
13860.0 0.755417 -18.052053
13880.0 0.76954 -56.96874
13900.0 0.789755 -95.568692
13920.0 0.807816 -134.207814
13940.0 0.816728 -173.288539
13960.0 0.811362 146.953969
13980.0 0.79414 106.530636
14000.0 0.772983 65.50067
14020.0 0.757173 24.16326
14040.0 0.75437 -17.114951
14060.0 0.764753 -58.010741
14080.0 0.783475 -98.289136
14100.0 0.802516 -138.074584
14120.0 0.812865 -177.556767
14140.0 0.810944 143.048093
14160.0 0.797822 103.48128
14180.0 0.780053 63.641821
14200.0 0.766869 23.426168
14220.0 0.764005 -17.053647
14240.0 0.773797 -57.495815
14260.0 0.791946 -97.688411
14280.0 0.809863 -137.417392
14300.0 0.819981 -176.692659
14320.0 0.816926 144.355226
14340.0 0.802556 105.547221
14360.0 0.783323 66.486835
14380.0 0.766994 26.888403
14400.0 0.761711 -13.404442
14420.0 0.769911 -54.283235
14440.0 0.788957 -95.290788
14460.0 0.810941 -136.035394
14480.0 0.825107 -176.14545
14500.0 0.826093 144.550423
14520.0 0.813773 105.892246
14540.0 0.793761 67.580025
14560.0 0.774689 29.050908
14580.0 0.763036 -10.171508
14600.0 0.764349 -50.300719
14620.0 0.778505 -91.328332
14640.0 0.799363 -132.832326
14660.0 0.817787 -174.330361
14680.0 0.824058 144.656347
14700.0 0.816336 104.483735
14720.0 0.799546 65.05862
