! File created by SignalIntegrity v1.1.13: Signal and Power Integrity Tools
! https://github.com/TeledyneLeCroy/SignalIntegrity
# MHz S MA R 50.0
0.0 1.039533 0.0
20.0 1.033952 -40.366185
40.0 1.020251 -80.609735
60.0 1.004531 -120.752752
80.0 0.993328 -160.908998
100.0 0.991084 158.70504
120.0 0.997498 117.935001
140.0 1.008909 76.789902
160.0 1.01871 35.437171
180.0 1.020937 -5.752609
200.0 1.01458 -46.434694
220.0 1.002719 -86.464734
240.0 0.991342 -125.954291
260.0 0.985679 -165.296799
280.0 0.987869 155.058918
300.0 0.997336 114.728449
320.0 1.009096 73.550863
340.0 1.016281 31.775836
360.0 1.013951 -10.055094
380.0 1.001941 -51.300342
400.0 0.986073 -91.566485
420.0 0.97308 -130.916839
440.0 0.967763 -169.721612
460.0 0.972324 151.425007
480.0 0.984615 111.932749
500.0 0.999548 71.427547
520.0 1.009188 29.882037
540.0 1.006765 -12.209251
560.0 0.992556 -54.091702
580.0 0.972816 -95.145497
600.0 0.956272 -135.13497
620.0 0.949182 -174.307573
640.0 0.953214 146.842518
660.0 0.966992 107.722401
680.0 0.984903 67.805612
700.0 0.998936 26.900407
720.0 1.001985 -14.79858
740.0 0.991662 -56.713526
760.0 0.973593 -98.194025
780.0 0.956493 -138.887744
800.0 0.947179 -178.761997
820.0 0.948877 141.903202
840.0 0.95983 102.686929
860.0 0.975542 63.206579
880.0 0.989339 23.17558
900.0 0.994584 -17.409875
920.0 0.989178 -58.341974
940.0 0.975732 -99.342045
960.0 0.960863 -140.170295
980.0 0.951196 179.213721
1000.0 0.949698 138.758876
1020.0 0.956218 98.373819
1040.0 0.966676 57.965217
1060.0 0.975496 17.572643
1080.0 0.97865 -22.722268
1100.0 0.974662 -62.819724
1120.0 0.966428 -102.697141
1140.0 0.958396 -142.525891
1160.0 0.954294 177.460692
1180.0 0.956249 137.005361
1200.0 0.962455 95.984559
1220.0 0.96898 54.555703
1240.0 0.971353 13.078785
1260.0 0.967103 -27.947993
1280.0 0.958472 -68.175978
1300.0 0.949523 -107.599986
1320.0 0.944563 -146.496937
1340.0 0.946428 174.592974
1360.0 0.954565 135.102395
1380.0 0.96616 94.613063
1400.0 0.975211 53.017783
1420.0 0.975698 10.740296
1440.0 0.966368 -31.465676
1460.0 0.95107 -72.857727
1480.0 0.937141 -113.052667
1500.0 0.930304 -152.203109
1520.0 0.932702 169.22065
1540.0 0.944017 130.549995
1560.0 0.960076 91.116917
1580.0 0.974461 50.516371
1600.0 0.979945 8.734059
1620.0 0.972375 -33.693127
1640.0 0.955561 -75.946247
1660.0 0.937734 -117.366503
1680.0 0.926633 -157.658658
1700.0 0.926277 163.009643
1720.0 0.935628 124.200692
1740.0 0.951079 85.380147
1760.0 0.966327 46.029743
1780.0 0.974364 5.900897
1800.0 0.971344 -34.972665
1820.0 0.958121 -76.295354
1840.0 0.941374 -117.658386
1860.0 0.928999 -158.791978
1880.0 0.925659 160.449349
1900.0 0.932201 120.046047
1920.0 0.944594 79.863729
1940.0 0.956763 39.801484
1960.0 0.963129 -0.232671
1980.0 0.960481 -40.241077
2000.0 0.950821 -80.222402
2020.0 0.93891 -120.281674
2040.0 0.93024 -160.548841
2060.0 0.928906 158.803629
2080.0 0.934748 117.711473
2100.0 0.944595 76.308127
2120.0 0.95278 34.870312
2140.0 0.954349 -6.176153
2160.0 0.948903 -46.50439
2180.0 0.939244 -86.047875
2200.0 0.930392 -125.005831
2220.0 0.926725 -163.860469
2240.0 0.929923 156.850172
2260.0 0.939531 116.654563
2280.0 0.951052 75.320476
2300.0 0.958048 33.101379
2320.0 0.955912 -9.34856
2340.0 0.944721 -51.196054
2360.0 0.930411 -91.857873
2380.0 0.919518 -131.290425
2400.0 0.916192 -169.842808
2420.0 0.922095 151.837202
2440.0 0.934941 113.027865
2460.0 0.950093 73.15623
2480.0 0.960406 31.940873
2500.0 0.959282 -10.324834
2520.0 0.946623 -52.894139
2540.0 0.928524 -94.929353
2560.0 0.913897 -135.858697
2580.0 0.908891 -175.633159
2600.0 0.914366 145.436091
2620.0 0.928144 106.815775
2640.0 0.94462 67.892471
2660.0 0.956803 28.232865
2680.0 0.958956 -12.36099
2700.0 0.948921 -53.730388
2720.0 0.93159 -95.460242
2740.0 0.915335 -137.13152
2760.0 0.907254 -178.384563
2780.0 0.910546 140.933897
2800.0 0.922587 100.790721
2820.0 0.937836 61.059195
2840.0 0.949623 21.517738
2860.0 0.952482 -17.986369
2880.0 0.945751 -57.582112
2900.0 0.932493 -97.423265
2920.0 0.918902 -137.640242
2940.0 0.911328 -178.389762
2960.0 0.912716 140.311382
2980.0 0.922447 98.629759
3000.0 0.935123 56.870281
3020.0 0.943734 15.48524
3040.0 0.944208 -25.162532
3060.0 0.936464 -64.921742
3080.0 0.924994 -103.923121
3100.0 0.915214 -142.619802
3120.0 0.911134 178.437065
3140.0 0.915056 138.691524
3160.0 0.925129 97.785074
3180.0 0.93648 55.788939
3200.0 0.942646 13.203505
3220.0 0.939354 -29.11821
3240.0 0.928838 -70.415151
3260.0 0.916665 -110.402655
3280.0 0.908496 -149.256063
3300.0 0.907977 172.455299
3320.0 0.915034 134.035444
3340.0 0.927477 94.84321
3360.0 0.939897 54.419682
3380.0 0.945484 12.778343
3400.0 0.940509 -29.597733
3420.0 0.926574 -71.914676
3440.0 0.911052 -113.438405
3460.0 0.901411 -153.876608
3480.0 0.90114 166.683486
3500.0 0.910427 127.84649
3520.0 0.925329 89.06668
3540.0 0.939951 49.879125
3560.0 0.94786 9.947626
3580.0 0.944193 -30.751672
3600.0 0.930271 -71.985732
3620.0 0.91233 -113.43826
3640.0 0.898687 -154.772719
3660.0 0.895612 164.198539
3680.0 0.903631 123.556173
3700.0 0.919177 83.29726
3720.0 0.935261 43.30873
3740.0 0.944464 3.526988
3760.0 0.943123 -36.12384
3780.0 0.931685 -75.752642
3800.0 0.915541 -115.50885
3820.0 0.901803 -155.656937
3840.0 0.89591 163.621496
3860.0 0.900658 122.301036
3880.0 0.91336 80.571429
3900.0 0.927597 38.878816
3920.0 0.93648 -2.308975
3940.0 0.935755 -42.624285
3960.0 0.927073 -81.983456
3980.0 0.914976 -120.688089
4000.0 0.904629 -159.239264
4020.0 0.90052 161.731084
4040.0 0.9039 121.700294
4060.0 0.913549 80.469799
4080.0 0.924562 38.24562
4100.0 0.930489 -4.263889
4120.0 0.928454 -46.198752
4140.0 0.919814 -86.960889
4160.0 0.909548 -126.418863
4180.0 0.902609 -164.96635
4200.0 0.901381 156.766602
4220.0 0.906681 118.081113
4240.0 0.916026 78.375353
4260.0 0.924832 37.421258
4280.0 0.928186 -4.581729
4300.0 0.923154 -46.968245
4320.0 0.912594 -88.923546
4340.0 0.902186 -129.933984
4360.0 0.896868 -169.880271
4380.0 0.899308 150.945167
4400.0 0.908082 112.049366
4420.0 0.919765 72.959572
4440.0 0.929186 33.28793
4460.0 0.931114 -7.060743
4480.0 0.924192 -47.940436
4500.0 0.910941 -89.069652
4520.0 0.897637 -130.130466
4540.0 0.89064 -170.974087
4560.0 0.892623 148.452858
4580.0 0.903021 108.123818
4600.0 0.917108 67.95076
4620.0 0.928504 27.930461
4640.0 0.932321 -11.938387
4660.0 0.926366 -51.643398
4680.0 0.91353 -91.233054
4700.0 0.899195 -130.932113
4720.0 0.888966 -170.993582
4740.0 0.887394 148.338961
4760.0 0.894787 106.998509
4780.0 0.907933 65.225512
4800.0 0.920572 23.451049
4820.0 0.926309 -17.766176
4840.0 0.923445 -58.034143
4860.0 0.913997 -97.331883
4880.0 0.902592 -135.95425
4900.0 0.894126 -174.498177
4920.0 0.891252 146.396315
4940.0 0.895227 106.233012
4960.0 0.903878 64.823348
4980.0 0.912506 22.536127
5000.0 0.91672 -19.864559
5020.0 0.914272 -61.522746
5040.0 0.907548 -101.8991
5060.0 0.900523 -141.050998
5080.0 0.896124 -179.433239
5100.0 0.896325 142.247489
5120.0 0.900259 103.265182
5140.0 0.905809 63.14582
5160.0 0.909755 21.764802
5180.0 0.908938 -20.450408
5200.0 0.903837 -62.712545
5220.0 0.897221 -104.279267
5240.0 0.89288 -144.723548
5260.0 0.893499 175.864398
5280.0 0.898596 137.074136
5300.0 0.906462 98.374621
5320.0 0.913508 59.237392
5340.0 0.915814 19.391832
5360.0 0.91169 -21.1872
5380.0 0.901805 -62.264072
5400.0 0.890676 -103.455081
5420.0 0.883526 -144.488289
5440.0 0.883381 174.795574
5460.0 0.890851 134.37016
5480.0 0.902497 94.098171
5500.0 0.913274 53.907616
5520.0 0.91843 13.764021
5540.0 0.915077 -26.245719
5560.0 0.90508 -66.038829
5580.0 0.892642 -105.681424
5600.0 0.8829 -145.332336
5620.0 0.880143 174.702726
5640.0 0.885086 134.154286
5660.0 0.895877 92.933578
5680.0 0.907284 51.179773
5700.0 0.91327 9.376806
5720.0 0.911382 -31.905052
5740.0 0.902809 -72.267242
5760.0 0.892228 -111.636408
5780.0 0.884358 -150.367767
5800.0 0.88171 170.99028
5820.0 0.88545 131.813225
5840.0 0.893521 91.584248
5860.0 0.902035 50.182723
5880.0 0.906606 7.930009
5900.0 0.904317 -34.398235
5920.0 0.897198 -75.956235
5940.0 0.889394 -116.291266
5960.0 0.884637 -155.408182
5980.0 0.885195 166.230228
6000.0 0.89017 127.950306
6020.0 0.897511 89.093035
6040.0 0.903498 49.127996
6060.0 0.904132 7.957243
6080.0 0.898557 -34.072993
6100.0 0.888954 -76.283193
6120.0 0.880546 -117.93735
6140.0 0.87783 -158.661245
6160.0 0.881686 161.544707
6180.0 0.89083 122.350784
6200.0 0.901086 83.250324
6220.0 0.907704 43.844752
6240.0 0.907425 3.87569
6260.0 0.899304 -36.642795
6280.0 0.887221 -77.490229
6300.0 0.87684 -118.429502
6320.0 0.872955 -159.222195
6340.0 0.877824 160.20347
6360.0 0.888873 119.796002
6380.0 0.901219 79.482786
6400.0 0.90892 39.171021
6420.0 0.907597 -1.088671
6440.0 0.897973 -41.212709
6460.0 0.883995 -81.1821
6480.0 0.871839 -121.038919
6500.0 0.866879 -160.991943
6520.0 0.87092 158.742245
6540.0 0.882944 117.988877
6560.0 0.897521 76.681285
6580.0 0.907434 35.055422
6600.0 0.907869 -6.469534
6620.0 0.898416 -47.409318
6640.0 0.884429 -87.455084
6660.0 0.872339 -126.683122
6680.0 0.86665 -165.401003
6700.0 0.869782 155.876219
6720.0 0.88005 116.590041
6740.0 0.893348 76.346753
6760.0 0.903252 34.999796
6780.0 0.903642 -7.10599
6800.0 0.894224 -49.291699
6820.0 0.87975 -90.885294
6840.0 0.86752 -131.466784
6860.0 0.863058 -171.087337
6880.0 0.86731 149.903677
6900.0 0.878677 110.995199
6920.0 0.892257 71.62749
6940.0 0.901779 31.47909
6960.0 0.902671 -9.500334
6980.0 0.893712 -51.009811
7000.0 0.879816 -92.533882
7020.0 0.868122 -133.662431
7040.0 0.863719 -174.141869
7060.0 0.868524 145.999399
7080.0 0.879569 106.512818
7100.0 0.891788 67.104914
7120.0 0.899486 27.453234
7140.0 0.898146 -12.589151
7160.0 0.888322 -53.027515
7180.0 0.874238 -93.80484
7200.0 0.862596 -134.772577
7220.0 0.859283 -175.838152
7240.0 0.865505 143.102264
7260.0 0.878744 102.144545
7280.0 0.892487 61.319184
7300.0 0.899554 20.739181
7320.0 0.896625 -19.50751
7340.0 0.884601 -59.39066
7360.0 0.869263 -98.973448
7380.0 0.857451 -138.516051
7400.0 0.853996 -178.286098
7420.0 0.861286 141.459792
7440.0 0.876399 100.56569
7460.0 0.892644 59.135374
7480.0 0.901917 17.463631
7500.0 0.898709 -23.945959
7520.0 0.88518 -64.648568
7540.0 0.867948 -104.528657
7560.0 0.85444 -143.734981
7580.0 0.85026 177.316204
7600.0 0.856511 138.149196
7620.0 0.871319 98.36311
7640.0 0.888583 57.669132
7660.0 0.899723 16.142902
7680.0 0.898939 -25.829928
7700.0 0.885992 -67.688578
7720.0 0.867783 -108.942141
7740.0 0.853029 -149.46492
7760.0 0.84717 170.63676
7780.0 0.852375 131.080348
7800.0 0.865857 91.48917
7820.0 0.881864 51.593027
7840.0 0.893447 11.208271
7860.0 0.894445 -29.60345
7880.0 0.88472 -70.605616
7900.0 0.869166 -111.592581
7920.0 0.855225 -152.388862
7940.0 0.849554 167.028945
7960.0 0.853842 126.627142
7980.0 0.866071 86.383099
8000.0 0.880478 46.211283
8020.0 0.889801 6.119146
8040.0 0.889921 -33.880128
8060.0 0.880395 -73.815667
8080.0 0.865842 -113.75374
8100.0 0.853081 -153.915827
8120.0 0.847334 165.520822
8140.0 0.851636 124.490541
8160.0 0.863767 83.072328
8180.0 0.877703 41.588168
8200.0 0.886749 0.395889
8220.0 0.886159 -40.180291
8240.0 0.877188 -80.008199
8260.0 0.864486 -119.303298
8280.0 0.853519 -158.440122
8300.0 0.84934 162.093559
8320.0 0.853359 121.906493
8340.0 0.864204 80.895561
8360.0 0.876758 39.218263
8380.0 0.883959 -2.612872
8400.0 0.882361 -44.003221
8420.0 0.872785 -84.575158
8440.0 0.86027 -124.264184
8460.0 0.850762 -163.414042
8480.0 0.8477 157.487582
8500.0 0.852903 117.959705
8520.0 0.864271 77.626041
8540.0 0.876602 36.462468
8560.0 0.883884 -5.263799
8580.0 0.881487 -47.019304
8600.0 0.870936 -88.253391
8620.0 0.857682 -128.749205
8640.0 0.847509 -168.562866
8660.0 0.845059 151.995955
8680.0 0.850816 112.540671
8700.0 0.862618 72.810431
8720.0 0.875605 32.634158
8740.0 0.883287 -7.908776
8760.0 0.882277 -48.601849
8780.0 0.872753 -89.259051
8800.0 0.85929 -129.768145
8820.0 0.848306 -170.248885
8840.0 0.843918 149.134662
8860.0 0.848165 108.298691
8880.0 0.858813 67.254365
8900.0 0.870585 26.241941
8920.0 0.878363 -14.466686
8940.0 0.87832 -54.658491
8960.0 0.871286 -94.278001
8980.0 0.860894 -133.590891
9000.0 0.85128 -172.985358
9020.0 0.846854 147.09749
9040.0 0.849026 106.355876
9060.0 0.856882 64.867185
9080.0 0.866795 22.999575
9100.0 0.873337 -18.614293
9120.0 0.874058 -59.409172
9140.0 0.869164 -99.200424
9160.0 0.861411 -138.146923
9180.0 0.854741 -176.775462
9200.0 0.851295 144.288039
9220.0 0.852717 104.535879
9240.0 0.858119 63.692233
9260.0 0.864401 21.994542
9280.0 0.868607 -19.954174
9300.0 0.86825 -61.426062
9320.0 0.864291 -101.8913
9340.0 0.859395 -141.351675
9360.0 0.855589 179.83334
9380.0 0.854905 141.06481
9400.0 0.856927 101.708391
9420.0 0.860282 61.403556
9440.0 0.862965 20.09405
9460.0 0.862435 -21.812937
9480.0 0.859056 -63.65207
9500.0 0.854552 -104.891248
9520.0 0.851381 -145.269861
9540.0 0.851862 175.033504
9560.0 0.855614 135.606143
9580.0 0.861583 96.026819
9600.0 0.867175 55.937399
9620.0 0.869175 15.305961
9640.0 0.866608 -25.66281
9660.0 0.859839 -66.631728
9680.0 0.852016 -107.263085
9700.0 0.846851 -147.502788
9720.0 0.846141 172.530426
9740.0 0.850832 132.583709
9760.0 0.858855 92.383227
9780.0 0.866833 51.889677
9800.0 0.871579 11.222427
9820.0 0.870435 -29.306294
9840.0 0.864522 -69.381359
9860.0 0.856506 -108.952853
9880.0 0.849482 -148.173764
9900.0 0.846542 172.529849
9920.0 0.848039 132.665631
9940.0 0.853371 91.917839
9960.0 0.859937 50.233594
9980.0 0.864058 8.067982
10000.0 0.864467 -33.849078
10020.0 0.861373 -74.865711
10040.0 0.857237 -114.647174
10060.0 0.854734 -153.410769
10080.0 0.854462 168.314892
10100.0 0.856812 129.84559
10120.0 0.860092 90.501131
10140.0 0.862157 49.953461
10160.0 0.86176 8.271605
10180.0 0.858244 -33.956456
10200.0 0.854007 -75.878033
10220.0 0.851585 -116.887662
10240.0 0.852104 -156.768749
10260.0 0.855858 164.184035
10280.0 0.860505 125.37863
10300.0 0.863749 86.217615
10320.0 0.863336 46.182501
10340.0 0.857846 5.16295
10360.0 0.849667 -36.549501
10380.0 0.842414 -78.386518
10400.0 0.840141 -119.683589
10420.0 0.84491 -160.11835
10440.0 0.854727 160.282807
10460.0 0.866474 121.195124
10480.0 0.875184 82.106719
10500.0 0.876415 42.655005
10520.0 0.868966 2.620305
10540.0 0.854463 -37.959212
10560.0 0.839104 -78.829979
10580.0 0.82945 -119.759029
10600.0 0.829294 -160.509144
10620.0 0.839382 158.95881
10640.0 0.855228 118.511387
10660.0 0.870377 78.027152
10680.0 0.878279 37.396901
10700.0 0.874723 -3.261007
10720.0 0.862035 -43.730195
10740.0 0.84584 -83.878423
10760.0 0.832976 -123.639254
10780.0 0.828675 -163.182832
10800.0 0.833569 157.236475
10820.0 0.845906 117.347092
10840.0 0.860246 76.889368
10860.0 0.869781 35.90811
10880.0 0.8705 -5.324014
10900.0 0.862006 -46.355295
10920.0 0.849456 -86.754956
10940.0 0.839019 -126.439582
10960.0 0.834382 -165.560606
10980.0 0.83736 155.459887
11000.0 0.845602 116.0563
11020.0 0.855054 75.790585
11040.0 0.860731 34.408977
11060.0 0.858412 -7.83738
11080.0 0.849702 -50.280725
11100.0 0.839598 -92.178913
11120.0 0.833818 -132.942572
11140.0 0.835869 -172.48657
11160.0 0.844314 148.88037
11180.0 0.856028 110.616555
11200.0 0.865665 72.023309
11220.0 0.86761 32.602145
11240.0 0.859792 -7.918872
11260.0 0.843896 -49.442693
11280.0 0.82746 -91.481469
11300.0 0.818834 -133.458007
11320.0 0.821857 -174.790555
11340.0 0.835838 144.793262
11360.0 0.8544 105.167559
11380.0 0.869721 66.04451
11400.0 0.87539 26.988863
11420.0 0.867701 -12.32351
11440.0 0.849786 -52.102805
11460.0 0.828722 -92.515006
11480.0 0.813426 -133.50141
11500.0 0.811278 -174.904803
11520.0 0.822933 143.56851
11540.0 0.843778 102.233477
11560.0 0.864245 61.21262
11580.0 0.874193 20.629251
11600.0 0.869525 -19.487956
11620.0 0.852038 -59.227104
11640.0 0.829641 -98.74618
11660.0 0.811686 -138.385487
11680.0 0.804638 -178.393412
11700.0 0.812118 141.091199
11720.0 0.831101 100.027938
11740.0 0.853438 58.614205
11760.0 0.868953 17.126397
11780.0 0.869577 -24.008885
11800.0 0.85635 -64.414031
11820.0 0.836276 -104.056304
11840.0 0.817882 -143.112445
11860.0 0.808505 178.001491
11880.0 0.810325 138.834165
11900.0 0.822417 99.055358
11920.0 0.839373 58.392217
11940.0 0.852421 16.914015
11960.0 0.855209 -25.03285
11980.0 0.846036 -66.931058
12000.0 0.830632 -108.250173
12020.0 0.81755 -148.811084
12040.0 0.812036 171.350464
12060.0 0.816482 132.01721
12080.0 0.828149 92.798305
12100.0 0.841417 53.376712
12120.0 0.85018 13.42912
12140.0 0.848698 -27.165848
12160.0 0.837364 -68.301287
12180.0 0.821495 -109.81598
12200.0 0.808781 -151.386268
12220.0 0.806239 167.279592
12240.0 0.814633 126.416605
12260.0 0.830428 86.193995
12280.0 0.84664 46.508628
12300.0 0.855128 7.209071
12320.0 0.852192 -31.945442
12340.0 0.83795 -71.291088
12360.0 0.818019 -111.11225
12380.0 0.801125 -151.744412
12400.0 0.794238 166.736156
12420.0 0.801665 124.59792
12440.0 0.820188 82.313071
12460.0 0.840653 40.520226
12480.0 0.853614 -0.360156
12500.0 0.852702 -40.17188
12520.0 0.839547 -79.043822
12540.0 0.820249 -117.510951
12560.0 0.801925 -156.184646
12580.0 0.792254 164.318707
12600.0 0.794882 123.628532
12620.0 0.809736 81.879369
12640.0 0.830707 39.523523
12660.0 0.846785 -2.663907
12680.0 0.850671 -43.972389
12700.0 0.841093 -84.111865
12720.0 0.823324 -123.188752
12740.0 0.805419 -161.777297
12760.0 0.793106 159.449611
12780.0 0.791284 119.946849
12800.0 0.800639 79.353219
12820.0 0.817186 37.78831
12840.0 0.833806 -4.331836
12860.0 0.841526 -46.363558
12880.0 0.837367 -87.671496
12900.0 0.824605 -128.066464
12920.0 0.809166 -167.678938
12940.0 0.798121 153.082969
12960.0 0.794771 113.734955
12980.0 0.799939 74.01747
13000.0 0.811346 33.767885
13020.0 0.822856 -6.90137
13040.0 0.829552 -47.735547
13060.0 0.828175 -88.54103
13080.0 0.819942 -129.144948
13100.0 0.81003 -169.634246
13120.0 0.802606 149.840238
13140.0 0.801413 109.22469
13160.0 0.80651 68.507802
13180.0 0.814505 27.913265
13200.0 0.821773 -12.371374
13220.0 0.823907 -52.280758
13240.0 0.820105 -91.868314
13260.0 0.812364 -131.506149
13280.0 0.803614 -171.592114
13300.0 0.798795 147.525338
13320.0 0.800206 105.7359
13340.0 0.807773 63.459117
13360.0 0.818526 21.346113
13380.0 0.826529 -19.87783
13400.0 0.828899 -59.777848
13420.0 0.824987 -98.488946
13440.0 0.816487 -136.453576
13460.0 0.807474 -174.439256
13480.0 0.80062 146.765247
13500.0 0.799443 106.636771
13520.0 0.805079 65.002592
13540.0 0.8149 22.419532
13560.0 0.824867 -20.140376
13580.0 0.829517 -61.746679
13600.0 0.827364 -101.871764
13620.0 0.820386 -140.750178
13640.0 0.810809 -179.023119
13660.0 0.802707 142.455558
13680.0 0.798282 102.828855
13700.0 0.799148 61.711626
13720.0 0.805684 19.213243
13740.0 0.814285 -23.872961
13760.0 0.821697 -66.440009
13780.0 0.825132 -107.767022
13800.0 0.823855 -147.642288
13820.0 0.820146 173.512829
13840.0 0.814987 134.972685
13860.0 0.810471 96.085219
13880.0 0.808163 56.293134
13900.0 0.808134 15.5255
13920.0 0.811184 -25.902123
13940.0 0.815553 -67.455929
13960.0 0.81979 -108.537541
13980.0 0.823199 -148.970951
14000.0 0.824263 171.130393
14020.0 0.823803 131.451119
14040.0 0.821904 91.579902
14060.0 0.819093 51.413801
14080.0 0.817193 11.025508
14100.0 0.816154 -29.27411
14120.0 0.81702 -69.101352
14140.0 0.819525 -108.396083
14160.0 0.822323 -147.29322
14180.0 0.825351 173.722826
14200.0 0.826606 134.024982
14220.0 0.825529 93.190446
14240.0 0.822198 51.063439
14260.0 0.81702 8.169453
14280.0 0.813341 -34.534512
14300.0 0.812725 -76.168142
14320.0 0.815703 -116.208862
14340.0 0.822063 -154.877555
14360.0 0.828942 167.19042
14380.0 0.834911 129.183619
14400.0 0.837395 90.226301
14420.0 0.834535 49.871202
14440.0 0.827744 8.105257
14460.0 0.819198 -34.457964
14480.0 0.813774 -76.786073
14500.0 0.814253 -118.138449
14520.0 0.819514 -158.210333
14540.0 0.827968 162.678858
14560.0 0.835346 123.818183
14580.0 0.838715 84.555921
14600.0 0.836839 44.311979
14620.0 0.829537 3.020924
14640.0 0.821404 -38.879006
14660.0 0.816629 -80.699774
14680.0 0.817907 -121.671595
14700.0 0.825709 -161.547797
14720.0 0.835916 159.457597
14740.0 0.84511 120.838559
