! File created by SignalIntegrity v1.1.10: Signal and Power Integrity Tools
! https://github.com/TeledyneLeCroy/SignalIntegrity
# MHz S MA R 50.0
0.0 1.015497 0.0
20.0 1.012959 -38.030783
40.0 1.006625 -76.230772
60.0 0.998398 -114.771951
80.0 0.990789 -153.703559
100.0 0.98632 166.996601
120.0 0.985511 127.48317
140.0 0.987931 88.009548
160.0 0.991514 48.807458
180.0 0.993936 10.083265
200.0 0.994255 -28.117951
220.0 0.992098 -65.898309
240.0 0.988802 -103.469117
260.0 0.985852 -141.157474
280.0 0.984236 -179.242533
300.0 0.984683 142.071226
320.0 0.98606 102.763562
340.0 0.986962 63.064643
360.0 0.985915 23.330233
380.0 0.982144 -16.024139
400.0 0.976971 -54.741993
420.0 0.971865 -92.820975
440.0 0.968652 -130.454072
460.0 0.968477 -168.026489
480.0 0.970858 154.077864
500.0 0.97483 115.562332
520.0 0.977804 76.32106
540.0 0.977419 36.568265
560.0 0.972851 -3.287816
580.0 0.964859 -42.75209
600.0 0.956575 -81.474659
620.0 0.950796 -119.413382
640.0 0.949405 -156.754687
660.0 0.953219 166.091529
680.0 0.960781 128.667047
700.0 0.969854 90.594956
720.0 0.976701 51.665824
740.0 0.977806 12.018185
760.0 0.972343 -27.950918
780.0 0.961998 -67.711715
800.0 0.951237 -106.822105
820.0 0.944121 -145.15304
840.0 0.94267 177.175915
860.0 0.947363 139.811803
880.0 0.956011 102.309117
900.0 0.965517 64.296173
920.0 0.971999 25.526075
940.0 0.971996 -13.944937
960.0 0.965297 -53.809442
980.0 0.954207 -93.626676
1000.0 0.943288 -132.962962
1020.0 0.936702 -171.622704
1040.0 0.936039 150.379895
1060.0 0.941367 112.825989
1080.0 0.950316 75.357727
1100.0 0.959622 37.650539
1120.0 0.965993 -0.571958
1140.0 0.966466 -39.390957
1160.0 0.961037 -78.68969
1180.0 0.951742 -118.233049
1200.0 0.942252 -157.690721
1220.0 0.936297 163.177164
1240.0 0.93513 124.501556
1260.0 0.938587 86.285929
1280.0 0.944559 48.374452
1300.0 0.950221 10.587276
1320.0 0.953653 -27.302907
1340.0 0.953311 -65.487954
1360.0 0.949766 -104.070707
1380.0 0.944577 -143.103212
1400.0 0.93958 177.518159
1420.0 0.936806 137.982719
1440.0 0.936425 98.542818
1460.0 0.937939 59.476793
1480.0 0.940158 20.928345
1500.0 0.941583 -17.064931
1520.0 0.942067 -54.633344
1540.0 0.941463 -92.050847
1560.0 0.940481 -129.621356
1580.0 0.94 -167.687549
1600.0 0.940037 153.54114
1620.0 0.940731 114.044141
1640.0 0.940987 74.026513
1660.0 0.939853 33.946069
1680.0 0.93727 -5.723813
1700.0 0.9335 -44.62604
1720.0 0.93021 -82.662884
1740.0 0.928617 -120.052764
1760.0 0.929463 -157.172103
1780.0 0.933087 165.474576
1800.0 0.938049 127.439796
1820.0 0.942637 88.479805
1840.0 0.944381 48.62806
1860.0 0.941642 8.315596
1880.0 0.935424 -31.840672
1900.0 0.927904 -71.273897
1920.0 0.922296 -109.676766
1940.0 0.920662 -147.149119
1960.0 0.923235 175.960465
1980.0 0.929526 139.120704
2000.0 0.937111 101.771184
2020.0 0.943244 63.510641
2040.0 0.945055 24.165077
2060.0 0.9407 -16.025696
2080.0 0.931834 -56.504022
2100.0 0.921851 -96.619304
2120.0 0.914802 -135.850003
2140.0 0.913252 -174.059901
2160.0 0.916968 148.572607
2180.0 0.924721 111.630006
2200.0 0.933517 74.566626
2220.0 0.940035 36.926376
2240.0 0.941645 -1.612443
2260.0 0.936803 -41.06511
2280.0 0.927497 -81.132076
2300.0 0.917525 -121.335883
2320.0 0.910924 -161.131309
2340.0 0.910283 159.820361
2360.0 0.914856 121.596859
2380.0 0.922641 84.041467
2400.0 0.930495 46.787693
2420.0 0.935319 9.458692
2440.0 0.935674 -28.311463
2460.0 0.931075 -66.764591
2480.0 0.923579 -105.931737
2500.0 0.916344 -145.678058
2520.0 0.912112 174.353878
2540.0 0.912691 134.576289
2560.0 0.916964 95.322761
2580.0 0.922693 56.785483
2600.0 0.927363 18.898963
2620.0 0.928764 -18.539904
2640.0 0.926817 -55.851734
2660.0 0.92215 -93.414453
2680.0 0.916736 -131.521825
2700.0 0.912999 -170.386536
2720.0 0.912149 150.019673
2740.0 0.914685 109.968625
2760.0 0.918847 69.886711
2780.0 0.922192 30.275649
2800.0 0.923188 -8.551241
2820.0 0.921078 -46.519488
2840.0 0.917266 -83.807353
2860.0 0.913427 -120.831519
2880.0 0.911147 -158.053815
2900.0 0.911821 164.055504
2920.0 0.914948 125.202602
2940.0 0.91938 85.407797
2960.0 0.922726 45.00251
2980.0 0.922769 4.625919
3000.0 0.919555 -35.094638
3020.0 0.91419 -73.782143
3040.0 0.909136 -111.396213
3060.0 0.906425 -148.271387
3080.0 0.906788 175.097342
3100.0 0.910571 138.127829
3120.0 0.916158 100.293285
3140.0 0.921326 61.321481
3160.0 0.923453 21.25235
3180.0 0.920613 -19.429197
3200.0 0.914118 -59.992901
3220.0 0.906735 -99.785698
3240.0 0.901745 -138.431781
3260.0 0.901316 -175.999069
3280.0 0.905181 147.157216
3300.0 0.91232 110.515498
3320.0 0.920006 73.492356
3340.0 0.92509 35.657899
3360.0 0.9252 -3.228519
3380.0 0.919169 -43.061565
3400.0 0.909459 -83.408584
3420.0 0.900172 -123.704472
3440.0 0.895138 -163.391736
3460.0 0.896477 157.812296
3480.0 0.902947 119.893909
3500.0 0.912153 82.615123
3520.0 0.920695 45.549777
3540.0 0.925173 8.29142
3560.0 0.924003 -29.523146
3580.0 0.916883 -68.106149
3600.0 0.906539 -107.429939
3620.0 0.897207 -147.290592
3640.0 0.892539 172.729977
3660.0 0.894715 133.074558
3680.0 0.902257 94.056334
3700.0 0.911965 55.812663
3720.0 0.920149 18.209296
3740.0 0.923466 -19.015634
3760.0 0.92116 -56.219171
3780.0 0.913865 -93.800041
3800.0 0.904297 -132.05061
3820.0 0.896303 -171.152247
3840.0 0.892704 148.99637
3860.0 0.895208 108.776109
3880.0 0.902274 68.70474
3900.0 0.910472 29.311568
3920.0 0.91661 -9.139321
3940.0 0.918205 -46.668206
3960.0 0.915463 -83.548547
3980.0 0.909668 -120.276283
4000.0 0.902833 -157.364548
4020.0 0.897653 164.699763
4040.0 0.895566 125.652242
4060.0 0.897493 85.600758
4080.0 0.902302 44.994092
4100.0 0.907306 4.565122
4120.0 0.91051 -35.038919
4140.0 0.910507 -73.49663
4160.0 0.907972 -110.855657
4180.0 0.904392 -147.539558
4200.0 0.900965 175.888953
4220.0 0.899267 138.817116
4240.0 0.899406 100.738545
4260.0 0.901076 61.47052
4280.0 0.903209 21.192056
4300.0 0.904083 -19.481395
4320.0 0.903505 -59.772098
4340.0 0.901765 -99.096971
4360.0 0.900045 -137.221797
4380.0 0.899648 -174.363623
4400.0 0.900551 149.01471
4420.0 0.902786 112.34634
4440.0 0.905168 75.064501
4460.0 0.906298 36.820545
4480.0 0.905351 -2.49166
4500.0 0.901726 -42.609071
4520.0 0.896956 -82.976222
4540.0 0.89301 -123.009922
4560.0 0.891508 -162.250649
4580.0 0.893467 159.419777
4600.0 0.897825 121.832541
4620.0 0.903251 84.658662
4640.0 0.907716 47.45563
4660.0 0.909071 9.874073
4680.0 0.906674 -28.333286
4700.0 0.900587 -67.229943
4720.0 0.893113 -106.647397
4740.0 0.887314 -146.314007
4760.0 0.885329 174.14238
4780.0 0.888319 135.018713
4800.0 0.894707 96.452687
4820.0 0.901997 58.459389
4840.0 0.907528 20.865299
4860.0 0.908831 -16.554394
4880.0 0.90569 -54.070679
4900.0 0.898831 -91.97458
4920.0 0.890634 -130.448241
4940.0 0.884287 -169.592775
4960.0 0.881823 150.711995
4980.0 0.884474 110.787564
5000.0 0.890824 71.033291
5020.0 0.898044 31.863921
5040.0 0.903577 -6.521358
5060.0 0.905154 -44.144312
5080.0 0.902775 -81.231931
5100.0 0.897311 -118.214379
5120.0 0.890385 -155.536694
5140.0 0.884521 166.365848
5160.0 0.881227 127.252863
5180.0 0.881815 87.22808
5200.0 0.885798 46.709185
5220.0 0.891041 6.393451
5240.0 0.895693 -33.094452
5260.0 0.897909 -71.436017
5280.0 0.897622 -108.664649
5300.0 0.895586 -145.191674
5320.0 0.892402 178.423944
5340.0 0.88938 141.558676
5360.0 0.886797 103.67774
5380.0 0.885154 64.559801
5400.0 0.884724 24.343096
5420.0 0.88502 -16.373025
5440.0 0.886212 -56.788747
5460.0 0.887775 -96.273542
5480.0 0.889459 -134.54358
5500.0 0.891279 -171.788442
5520.0 0.892444 151.534998
5540.0 0.892908 114.85251
5560.0 0.892056 77.582577
5580.0 0.889643 39.369508
5600.0 0.886354 0.111432
5620.0 0.882778 -39.910445
5640.0 0.880616 -80.118153
5660.0 0.880746 -119.926816
5680.0 0.883033 -158.905482
5700.0 0.887004 163.003208
5720.0 0.890821 125.556922
5740.0 0.893231 88.364362
5760.0 0.893022 50.947618
5780.0 0.8895 12.969996
5800.0 0.88387 -25.747332
5820.0 0.877744 -65.14628
5840.0 0.873862 -104.909762
5860.0 0.874149 -144.656715
5880.0 0.878399 176.000782
5900.0 0.885411 137.269382
5920.0 0.892209 99.134657
5940.0 0.896299 61.469224
5960.0 0.896285 24.005519
5980.0 0.891649 -13.507403
6000.0 0.884256 -51.297901
6020.0 0.876355 -89.554557
6040.0 0.870766 -128.311961
6060.0 0.869793 -167.532954
6080.0 0.873382 152.965211
6100.0 0.880345 113.442309
6120.0 0.887555 74.127207
6140.0 0.891936 35.247158
6160.0 0.892168 -3.119695
6180.0 0.888002 -41.010194
6200.0 0.881527 -78.570713
6220.0 0.87511 -116.09297
6240.0 0.870859 -153.855433
6260.0 0.87061 167.856126
6280.0 0.873957 128.88045
6300.0 0.879632 89.280646
6320.0 0.884984 49.295799
6340.0 0.887263 9.383323
6360.0 0.885988 -30.015805
6380.0 0.88177 -68.634398
6400.0 0.876871 -106.427367
6420.0 0.873438 -143.656279
6440.0 0.872286 179.297082
6460.0 0.873972 141.979713
6480.0 0.877204 103.983453
6500.0 0.880407 65.133458
6520.0 0.881987 25.483476
6540.0 0.880614 -14.576295
6560.0 0.877309 -54.491646
6580.0 0.873573 -93.795407
6600.0 0.87122 -132.215902
6620.0 0.871554 -169.844161
6640.0 0.873983 153.000797
6660.0 0.877798 115.868219
6680.0 0.881053 78.255064
6700.0 0.881804 39.839863
6720.0 0.879345 0.503109
6740.0 0.873793 -39.539753
6760.0 0.867775 -79.792687
6780.0 0.864029 -119.730102
6800.0 0.864105 -158.917436
6820.0 0.868346 162.756766
6840.0 0.874606 125.115126
6860.0 0.880565 87.820662
6880.0 0.883683 50.414578
6900.0 0.881986 12.544496
6920.0 0.875997 -26.019808
6940.0 0.867455 -65.301316
6960.0 0.860107 -105.051943
6980.0 0.857384 -144.91345
7000.0 0.860238 175.548171
7020.0 0.867853 136.627551
7040.0 0.87675 98.381548
7060.0 0.883373 60.714412
7080.0 0.885251 23.338938
7100.0 0.881019 -14.050219
7120.0 0.872332 -51.747243
7140.0 0.861961 -90.005392
7160.0 0.853819 -128.888333
7180.0 0.851548 -168.338942
7200.0 0.855884 151.892504
7220.0 0.865458 112.149846
7240.0 0.875974 72.70735
7260.0 0.882686 33.788767
7280.0 0.883081 -4.572135
7300.0 0.876632 -42.476359
7320.0 0.866204 -80.123207
7340.0 0.855666 -117.836392
7360.0 0.848683 -155.875766
7380.0 0.848314 165.551264
7400.0 0.854448 126.397103
7420.0 0.864956 86.830087
7440.0 0.87543 47.109631
7460.0 0.881013 7.611307
7480.0 0.879892 -31.371964
7500.0 0.872615 -69.728496
7520.0 0.862585 -107.510411
7540.0 0.853819 -145.001588
7560.0 0.848965 177.474244
7580.0 0.849976 139.587927
7600.0 0.855998 101.076155
7620.0 0.864559 61.891584
7640.0 0.872026 22.135186
7660.0 0.874457 -17.862221
7680.0 0.871147 -57.68269
7700.0 0.863684 -97.015743
7720.0 0.855558 -135.679935
7740.0 0.850537 -173.754306
7760.0 0.850062 148.54859
7780.0 0.854503 110.955823
7800.0 0.861848 73.146792
7820.0 0.868798 34.938842
7840.0 0.872495 -3.762283
7860.0 0.870564 -42.882087
7880.0 0.86395 -82.200759
7900.0 0.855537 -121.514007
7920.0 0.84877 -160.599619
7940.0 0.846835 160.642991
7960.0 0.849958 122.211411
7980.0 0.856926 84.055529
8000.0 0.864913 46.003284
8020.0 0.870273 7.916259
8040.0 0.871086 -30.349015
8060.0 0.86645 -68.905173
8080.0 0.858257 -107.755152
8100.0 0.850011 -146.892749
8120.0 0.84477 173.809439
8140.0 0.845133 134.529225
8160.0 0.850622 95.428816
8180.0 0.858918 56.682433
8200.0 0.866845 18.31606
8220.0 0.870793 -19.709802
8240.0 0.869683 -57.518407
8260.0 0.863863 -95.340089
8280.0 0.855622 -133.369036
8300.0 0.848551 -171.817164
8320.0 0.845011 149.238291
8340.0 0.846727 109.900495
8360.0 0.852678 70.377342
8380.0 0.859885 31.016346
8400.0 0.865454 -7.920366
8420.0 0.86665 -46.303576
8440.0 0.863522 -84.160992
8460.0 0.857582 -121.751729
8480.0 0.850987 -159.37666
8500.0 0.846689 162.627837
8520.0 0.845895 124.029154
8540.0 0.849087 84.82889
8560.0 0.854876 45.182513
8580.0 0.860191 5.458539
8600.0 0.862929 -33.971023
8620.0 0.861539 -72.873817
8640.0 0.856849 -111.172878
8660.0 0.851109 -149.06004
8680.0 0.846234 173.186595
8700.0 0.844594 135.255658
8720.0 0.846618 96.879298
8740.0 0.851594 58.00824
8760.0 0.857734 18.722783
8780.0 0.861925 -20.705748
8800.0 0.862784 -59.948738
8820.0 0.859981 -98.801241
8840.0 0.854908 -137.160602
8860.0 0.850203 -175.148377
8880.0 0.847281 147.026
8900.0 0.847497 109.156187
8920.0 0.850443 71.037809
8940.0 0.854484 32.63512
8960.0 0.858075 -6.027668
8980.0 0.858984 -44.846971
9000.0 0.85692 -83.676546
9020.0 0.852671 -122.478415
9040.0 0.847737 -161.220649
9060.0 0.844652 160.050883
9080.0 0.844375 121.288424
9100.0 0.84737 82.538692
9120.0 0.852686 43.839168
9140.0 0.857892 5.312499
9160.0 0.861372 -32.960532
9180.0 0.861353 -70.993873
9200.0 0.857884 -108.84573
9220.0 0.852402 -146.731476
9240.0 0.846429 175.139623
9260.0 0.842573 136.590954
9280.0 0.841936 97.539642
9300.0 0.844704 58.14739
9320.0 0.849941 18.669767
9340.0 0.854959 -20.551765
9360.0 0.858153 -59.257291
9380.0 0.858225 -97.427264
9400.0 0.855192 -135.186738
9420.0 0.850582 -172.869186
9440.0 0.845449 149.169525
9460.0 0.841853 110.683171
9480.0 0.840938 71.570819
9500.0 0.842898 32.057765
9520.0 0.847528 -7.477292
9540.0 0.85274 -46.613975
9560.0 0.857077 -85.046172
9580.0 0.859275 -122.793512
9600.0 0.858461 -160.066652
9620.0 0.855393 162.720735
9640.0 0.850407 125.098487
9660.0 0.845028 86.734851
9680.0 0.840892 47.456181
9700.0 0.838929 7.468177
9720.0 0.84028 -32.754794
9740.0 0.844058 -72.656023
9760.0 0.849008 -111.762267
9780.0 0.853829 -149.973168
9800.0 0.856724 172.547005
9820.0 0.857448 135.425099
9840.0 0.855449 98.179666
9860.0 0.851118 60.462643
9880.0 0.845943 22.037595
9900.0 0.841131 -17.048863
9920.0 0.838981 -56.506503
9940.0 0.840306 -95.972201
9960.0 0.844679 -135.057691
9980.0 0.851024 -173.611716
10000.0 0.856648 148.325575
10020.0 0.859975 110.587075
10040.0 0.859701 72.884368
10060.0 0.855558 35.027312
10080.0 0.849337 -3.135132
10100.0 0.842694 -41.634203
10120.0 0.838344 -80.361644
10140.0 0.837902 -119.224864
10160.0 0.841215 -158.073992
10180.0 0.847529 163.145127
10200.0 0.853975 124.412473
10220.0 0.858194 85.729715
10240.0 0.858501 47.042143
10260.0 0.854146 8.394424
10280.0 0.847118 -30.160691
10300.0 0.83954 -68.606456
10320.0 0.834162 -106.910255
10340.0 0.833038 -145.180177
10360.0 0.835986 176.469247
10380.0 0.842369 137.906342
10400.0 0.849448 99.015453
10420.0 0.854437 59.875824
10440.0 0.855771 20.643599
10460.0 0.852693 -18.401086
10480.0 0.847284 -56.991456
10500.0 0.841714 -95.054406
10520.0 0.83783 -132.630772
10540.0 0.837087 -169.990737
10560.0 0.838725 152.517433
10580.0 0.842112 114.57374
10600.0 0.845543 75.909208
10620.0 0.847266 36.555882
10640.0 0.847129 -3.232497
10660.0 0.845094 -42.99672
10680.0 0.842869 -82.2244
10700.0 0.841818 -120.66754
10720.0 0.842076 -158.306166
10740.0 0.843834 164.565053
10760.0 0.845452 127.456324
10780.0 0.845762 89.888459
10800.0 0.843808 51.411203
10820.0 0.839093 11.901338
10840.0 0.833771 -28.418491
10860.0 0.830051 -69.013318
10880.0 0.830273 -109.154001
10900.0 0.835215 -148.356176
10920.0 0.842786 173.549127
10940.0 0.850851 136.366013
10960.0 0.85618 99.609995
10980.0 0.856489 62.787865
11000.0 0.851402 25.384696
11020.0 0.841607 -12.907391
11040.0 0.831074 -52.114087
11060.0 0.823998 -91.996741
11080.0 0.823555 -131.985791
11100.0 0.830623 -171.535706
11120.0 0.841826 149.716353
11140.0 0.853124 111.844452
11160.0 0.860089 74.570928
11180.0 0.859595 37.534168
11200.0 0.851792 0.278123
11220.0 0.838318 -37.589075
11240.0 0.824095 -76.25941
11260.0 0.814609 -115.757688
11280.0 0.813631 -155.756243
11300.0 0.822468 164.213342
11320.0 0.837155 124.587315
11340.0 0.851862 85.675957
11360.0 0.860891 47.478308
11380.0 0.860398 9.872043
11400.0 0.851353 -27.407483
11420.0 0.836799 -64.725033
11440.0 0.822129 -102.370889
11460.0 0.812962 -140.626802
11480.0 0.812329 -179.544934
11500.0 0.821255 141.014034
11520.0 0.835919 101.286736
11540.0 0.85002 61.638271
11560.0 0.857709 22.31977
11580.0 0.855169 -16.489164
11600.0 0.844176 -54.754423
11620.0 0.82903 -92.673047
11640.0 0.81511 -130.465914
11660.0 0.807677 -168.432685
11680.0 0.808662 153.221298
11700.0 0.818193 114.444206
11720.0 0.832625 75.238492
11740.0 0.845809 35.817595
11760.0 0.852669 -3.561238
11780.0 0.849944 -42.619225
11800.0 0.839627 -81.123433
11820.0 0.826412 -119.101149
11840.0 0.814935 -156.678126
11860.0 0.809529 165.871508
11880.0 0.810979 128.221011
11900.0 0.818397 90.14514
11920.0 0.828639 51.427672
11940.0 0.836665 12.086393
11960.0 0.839372 -27.689817
11980.0 0.835289 -67.591703
12000.0 0.82687 -107.201478
12020.0 0.818655 -146.284414
12040.0 0.813652 175.275783
12060.0 0.814116 137.42169
12080.0 0.819058 99.895144
12100.0 0.826034 62.436976
12120.0 0.832292 24.687338
12140.0 0.834199 -13.607342
12160.0 0.830981 -52.540161
12180.0 0.823549 -92.078689
12200.0 0.815106 -131.914655
12220.0 0.810185 -171.691679
12240.0 0.810516 148.960252
12260.0 0.816293 110.312298
12280.0 0.824827 72.334009
12300.0 0.831986 34.876373
12320.0 0.835056 -2.400838
12340.0 0.831629 -39.888429
12360.0 0.82277 -77.891494
12380.0 0.811666 -116.690568
12400.0 0.802433 -156.274841
12420.0 0.799848 163.596677
12440.0 0.804755 123.37157
12460.0 0.815174 83.613996
12480.0 0.826615 44.625915
12500.0 0.833545 6.498815
12520.0 0.833694 -30.960365
12540.0 0.826427 -68.182965
12560.0 0.814231 -105.606078
12580.0 0.801712 -143.721686
12600.0 0.793049 177.229512
12620.0 0.792715 137.340728
12640.0 0.801106 97.00113
12660.0 0.814839 56.883289
12680.0 0.828446 17.495588
12700.0 0.835574 -20.89929
12720.0 0.834077 -58.346539
12740.0 0.824558 -95.253644
12760.0 0.810157 -132.108274
12780.0 0.796324 -169.506812
12800.0 0.787333 152.106343
12820.0 0.787409 112.641709
12840.0 0.797039 72.331916
12860.0 0.8121 31.834419
12880.0 0.826554 -8.180594
12900.0 0.833579 -47.257321
12920.0 0.831004 -85.24213
12940.0 0.820522 -122.447973
12960.0 0.805563 -159.362037
12980.0 0.791699 163.405291
13000.0 0.782827 125.315846
13020.0 0.782382 86.1943
13040.0 0.791159 46.151753
13060.0 0.805366 5.723104
13080.0 0.819773 -34.436383
13100.0 0.828128 -73.84644
13120.0 0.827738 -112.241557
13140.0 0.820122 -149.791464
13160.0 0.807991 173.133335
13180.0 0.796294 136.067831
13200.0 0.788517 98.518865
13220.0 0.787056 60.269154
13240.0 0.792815 21.258945
13260.0 0.802715 -18.284325
13280.0 0.813087 -57.95871
13300.0 0.819409 -97.452246
13320.0 0.819113 -136.49489
13340.0 0.813518 -175.096662
13360.0 0.804587 146.568185
13380.0 0.796233 108.304314
13400.0 0.791336 69.853369
13420.0 0.790941 31.172649
13440.0 0.795591 -7.710117
13460.0 0.802729 -46.698658
13480.0 0.809966 -85.614191
13500.0 0.814996 -124.432286
13520.0 0.81589 -163.102805
13540.0 0.813724 158.350783
13560.0 0.809433 119.86903
13580.0 0.805233 81.521695
13600.0 0.803189 43.312125
13620.0 0.803252 5.322477
13640.0 0.805718 -32.430028
13660.0 0.808708 -70.088947
13680.0 0.810611 -107.802474
13700.0 0.810743 -145.893203
13720.0 0.808084 175.389948
13740.0 0.804332 135.932334
13760.0 0.800916 95.782192
13780.0 0.799477 55.377563
13800.0 0.80149 15.244809
13820.0 0.80549 -24.102388
13840.0 0.810439 -62.366435
13860.0 0.814473 -99.693921
13880.0 0.815963 -136.414472
13900.0 0.815256 -173.107324
13920.0 0.811827 149.628352
13940.0 0.807282 111.390293
13960.0 0.803331 71.975726
13980.0 0.80131 31.713191
14000.0 0.803063 -8.766114
14020.0 0.807297 -48.764009
14040.0 0.812486 -87.755816
14060.0 0.816752 -125.765901
14080.0 0.817784 -163.113088
14100.0 0.815883 159.635888
14120.0 0.811002 121.842649
14140.0 0.805145 83.142932
14160.0 0.801426 43.414188
14180.0 0.801486 3.070907
14200.0 0.8069 -37.138225
14220.0 0.815594 -76.537406
14240.0 0.824387 -114.67606
14260.0 0.830943 -151.671738
14280.0 0.832421 172.033548
14300.0 0.828996 135.81594
14320.0 0.821037 98.925225
14340.0 0.810495 60.882602
14360.0 0.801656 21.464125
14380.0 0.797574 -18.998326
14400.0 0.801253 -59.666536
14420.0 0.811584 -99.701704
14440.0 0.82431 -138.472286
14460.0 0.835776 -175.944832
14480.0 0.841523 147.484633
14500.0 0.840243 111.266564
14520.0 0.832146 74.684821
14540.0 0.818919 37.242425
14560.0 0.805776 -1.37411
14580.0 0.797005 -41.110985
14600.0 0.796835 -81.418248
14620.0 0.805771 -121.660187
14640.0 0.819429 -161.217849
14660.0 0.83319 160.13796
14680.0 0.84137 122.224864
14700.0 0.841429 84.748924
14720.0 0.834095 47.222611
