! File created by SignalIntegrity v1.1.13: Signal and Power Integrity Tools
! https://github.com/TeledyneLeCroy/SignalIntegrity
# MHz S MA R 50.0
0.0 1.015598 0.0
20.0 1.013131 -38.027503
40.0 1.006882 -76.229835
60.0 0.998697 -114.772279
80.0 0.991156 -153.70399
100.0 0.986742 166.995513
120.0 0.985977 127.482801
140.0 0.988442 88.009542
160.0 0.992047 48.807643
180.0 0.994491 10.083811
200.0 0.994829 -28.117821
220.0 0.992686 -65.898291
240.0 0.989417 -103.469338
260.0 0.986496 -141.157935
280.0 0.984917 -179.242748
300.0 0.985406 142.071021
320.0 0.986816 102.763605
340.0 0.987748 63.064783
360.0 0.986713 23.330136
380.0 0.982946 -16.024324
400.0 0.977774 -54.742514
420.0 0.972668 -92.821622
440.0 0.969468 -130.454651
460.0 0.969317 -168.027046
480.0 0.971734 154.077606
500.0 0.975749 115.562132
520.0 0.978758 76.320788
540.0 0.978397 36.567795
560.0 0.973834 -3.288751
580.0 0.965829 -42.753238
600.0 0.95753 -81.475918
620.0 0.951738 -119.414539
640.0 0.950351 -156.755473
660.0 0.954186 166.090986
680.0 0.961786 128.666777
700.0 0.970909 90.594629
720.0 0.977803 51.665053
740.0 0.978941 12.016808
760.0 0.973486 -27.953053
780.0 0.963127 -67.714222
800.0 0.952344 -106.824566
820.0 0.945209 -145.155157
840.0 0.943754 177.174434
860.0 0.948464 139.810777
880.0 0.957145 102.308347
900.0 0.966698 64.295247
920.0 0.973226 25.524461
940.0 0.973256 -13.947412
960.0 0.966566 -53.812803
980.0 0.955461 -93.63046
1000.0 0.944518 -132.966564
1020.0 0.937909 -171.625789
1040.0 0.937235 150.377571
1060.0 0.942571 112.824208
1080.0 0.951543 75.356125
1100.0 0.960885 37.648702
1120.0 0.967295 -0.574563
1140.0 0.9678 -39.394476
1160.0 0.962389 -78.694075
1180.0 0.953094 -118.237907
1200.0 0.943594 -157.695442
1220.0 0.937625 163.172897
1240.0 0.936445 124.49793
1260.0 0.939899 86.282745
1280.0 0.945877 48.3713
1300.0 0.951554 10.583826
1320.0 0.955008 -27.307055
1340.0 0.95469 -65.492872
1360.0 0.951169 -104.076289
1380.0 0.946 -143.109212
1400.0 0.941016 177.512184
1420.0 0.938247 137.976975
1440.0 0.937861 98.537408
1460.0 0.939362 59.471609
1480.0 0.941565 20.923092
1500.0 0.942975 -17.070389
1520.0 0.943454 -54.639184
1540.0 0.942859 -92.057077
1560.0 0.941901 -129.627887
1580.0 0.941458 -167.694374
1600.0 0.941537 153.534133
1620.0 0.942269 114.036892
1640.0 0.942545 74.018957
1660.0 0.941405 33.938225
1680.0 0.938793 -5.731948
1700.0 0.934982 -44.634268
1720.0 0.931658 -82.671072
1740.0 0.930048 -120.06085
1760.0 0.930903 -157.180043
1780.0 0.934562 165.466574
1800.0 0.939574 127.431508
1820.0 0.944216 88.470881
1840.0 0.945995 48.618205
1860.0 0.943258 8.304883
1880.0 0.937009 -31.851946
1900.0 0.929437 -71.285181
1920.0 0.923779 -109.687624
1940.0 0.922115 -147.159432
1960.0 0.924686 175.950655
1980.0 0.931006 139.111007
2000.0 0.938643 101.761097
2020.0 0.944838 63.499592
2040.0 0.9467 24.152572
2060.0 0.942364 -16.039609
2080.0 0.933481 -56.518835
2100.0 0.923452 -96.63417
2120.0 0.916351 -135.864183
2140.0 0.914761 -174.07317
2160.0 0.918461 148.560136
2180.0 0.926226 111.617821
2200.0 0.935056 74.554037
2220.0 0.941621 36.91272
2240.0 0.943276 -1.627739
2260.0 0.938461 -41.082067
2280.0 0.929156 -81.150191
2300.0 0.919162 -121.354271
2320.0 0.912527 -161.149073
2340.0 0.911853 159.803587
2360.0 0.916404 121.580991
2380.0 0.924182 84.026007
2400.0 0.932044 46.771917
2420.0 0.936887 9.441965
2440.0 0.937267 -28.329688
2460.0 0.932692 -66.784447
2480.0 0.925215 -105.952921
2500.0 0.91799 -145.699952
2520.0 0.913757 174.332076
2540.0 0.914327 134.555062
2560.0 0.918581 95.302214
2580.0 0.924289 56.765376
2600.0 0.928937 18.878789
2620.0 0.93032 -18.560582
2640.0 0.928368 -55.873335
2660.0 0.923708 -93.437219
2680.0 0.918317 -131.545753
2700.0 0.914612 -170.411486
2720.0 0.913795 149.994086
2740.0 0.916353 109.942763
2760.0 0.920514 69.860845
2780.0 0.923833 30.249965
2800.0 0.924785 -8.57677
2820.0 0.922627 -46.544939
2840.0 0.91878 -83.832947
2860.0 0.914929 -120.857595
2880.0 0.912664 -158.080667
2900.0 0.913381 164.027541
2920.0 0.916563 125.173382
2940.0 0.921043 85.377371
2960.0 0.924408 44.971166
2980.0 0.924429 4.594267
3000.0 0.921159 -35.126008
3020.0 0.915725 -73.812839
3040.0 0.910612 -111.426225
3060.0 0.90787 -148.301143
3080.0 0.908237 175.067255
3100.0 0.912058 138.096665
3120.0 0.917707 100.260387
3140.0 0.92294 61.286483
3160.0 0.925112 21.215344
3180.0 0.922272 -19.467393
3200.0 0.915735 -60.031115
3220.0 0.908284 -99.822926
3240.0 0.903227 -138.467599
3260.0 0.902752 -176.033806
3280.0 0.9066 147.122832
3300.0 0.913756 110.480499
3320.0 0.921484 73.455758
3340.0 0.926619 35.619004
3360.0 0.926774 -3.269981
3380.0 0.920761 -43.105074
3400.0 0.911037 -83.452978
3420.0 0.901712 -123.748455
3440.0 0.89663 -163.434406
3460.0 0.897929 157.771009
3480.0 0.904372 119.853468
3500.0 0.913573 82.574655
3520.0 0.922126 45.508299
3540.0 0.926624 8.248182
3560.0 0.925476 -29.568599
3580.0 0.91837 -68.153735
3600.0 0.90803 -107.479013
3620.0 0.898691 -147.340223
3640.0 0.894007 172.680733
3660.0 0.896164 133.026166
3680.0 0.903687 94.008713
3700.0 0.913377 55.765374
3720.0 0.921548 18.161664
3740.0 0.924855 -19.064205
3760.0 0.922547 -56.269194
3780.0 0.915255 -93.851846
3800.0 0.905698 -132.104202
3820.0 0.897721 -171.207372
3840.0 0.894138 148.940308
3860.0 0.89665 108.719802
3880.0 0.903708 68.64873
3900.0 0.91188 29.256195
3920.0 0.917981 -9.19407
3940.0 0.919537 -46.72258
3960.0 0.916765 -83.603036
3980.0 0.910956 -120.331612
4000.0 0.904127 -157.421435
4020.0 0.898975 164.640672
4040.0 0.896925 125.590718
4060.0 0.898887 85.537165
4080.0 0.903711 44.929319
4100.0 0.9087 4.500404
4120.0 0.911863 -35.102575
4140.0 0.911806 -73.558781
4160.0 0.909223 -110.916522
4180.0 0.905613 -147.600017
4200.0 0.90218 175.827724
4220.0 0.900501 138.753833
4240.0 0.900677 100.672212
4260.0 0.90239 61.400883
4280.0 0.904552 21.119787
4300.0 0.905426 -19.554692
4320.0 0.904817 -59.844595
4340.0 0.903027 -99.167441
4360.0 0.901254 -137.289977
4380.0 0.900818 -174.430286
4400.0 0.901701 148.9482
4420.0 0.903942 112.278378
4440.0 0.906347 74.993591
4460.0 0.90751 36.745838
4480.0 0.906594 -2.570093
4500.0 0.902985 -42.690005
4520.0 0.898207 -83.057684
4540.0 0.894235 -123.090102
4560.0 0.892696 -162.328553
4580.0 0.89462 159.343974
4600.0 0.898949 121.757804
4620.0 0.90436 84.583576
4640.0 0.908823 47.378735
4660.0 0.910185 9.794363
4680.0 0.907801 -28.416176
4700.0 0.901725 -67.315562
4720.0 0.894257 -106.734554
4740.0 0.888455 -146.401306
4760.0 0.886458 174.056081
4780.0 0.889429 134.933831
4800.0 0.895795 96.368862
4820.0 0.903062 58.375829
4840.0 0.908574 20.780979
4860.0 0.909865 -16.640352
4880.0 0.90672 -54.158887
4900.0 0.899867 -92.065322
4920.0 0.891682 -130.541314
4940.0 0.885351 -169.687639
4960.0 0.882896 150.616182
4980.0 0.885548 110.691686
5000.0 0.891883 70.937962
5020.0 0.899074 31.769469
5040.0 0.904573 -6.615032
5060.0 0.906118 -44.237638
5080.0 0.903718 -81.325586
5100.0 0.898248 -118.309292
5120.0 0.891329 -155.633752
5140.0 0.885484 166.265936
5160.0 0.882211 127.149906
5180.0 0.882814 87.1227
5200.0 0.886796 46.602674
5220.0 0.892017 6.287477
5240.0 0.896632 -33.198562
5260.0 0.898808 -71.537772
5280.0 0.898489 -108.764431
5300.0 0.896434 -145.29071
5320.0 0.893247 178.324001
5340.0 0.890235 141.456037
5360.0 0.88767 103.570904
5380.0 0.886046 64.448232
5400.0 0.885628 24.227554
5420.0 0.88592 -16.490439
5440.0 0.887095 -56.905441
5460.0 0.888632 -96.387633
5480.0 0.890288 -134.654439
5500.0 0.892086 -171.896828
5520.0 0.893235 151.427413
5540.0 0.893691 114.743646
5560.0 0.892837 77.470371
5580.0 0.890426 39.252635
5600.0 0.887142 -0.010258
5620.0 0.883569 -40.035641
5640.0 0.881409 -80.244474
5660.0 0.881535 -120.051956
5680.0 0.883811 -159.028043
5700.0 0.887767 162.883242
5720.0 0.891564 125.438384
5740.0 0.893953 88.24548
5760.0 0.893723 50.826412
5780.0 0.890185 12.844976
5800.0 0.884549 -25.87675
5820.0 0.878427 -65.279498
5840.0 0.874559 -105.04502
5860.0 0.874862 -144.791891
5880.0 0.879119 175.867428
5900.0 0.886124 137.138597
5920.0 0.892898 99.006032
5940.0 0.896953 61.34163
5960.0 0.896899 23.877361
5980.0 0.89223 -13.637693
6000.0 0.884818 -51.43152
6020.0 0.876919 -89.692141
6040.0 0.87135 -128.453247
6060.0 0.870408 -167.676965
6080.0 0.874022 152.819906
6100.0 0.880992 113.297171
6120.0 0.888185 73.983184
6140.0 0.892525 35.104641
6160.0 0.892709 -3.261008
6180.0 0.888501 -41.151185
6200.0 0.882001 -78.712543
6220.0 0.875582 -116.23697
6240.0 0.871349 -154.002628
6260.0 0.87113 167.7052
6280.0 0.874504 128.72594
6300.0 0.88019 89.123574
6320.0 0.885527 49.137732
6340.0 0.887767 9.226045
6360.0 0.886445 -30.170967
6380.0 0.882186 -68.787126
6400.0 0.877264 -106.57826
6420.0 0.873829 -143.806758
6440.0 0.872689 179.145289
6460.0 0.874395 141.824969
6480.0 0.877643 103.824518
6500.0 0.880847 64.970091
6520.0 0.88241 25.316537
6540.0 0.881005 -14.744935
6560.0 0.877666 -54.659789
6580.0 0.873904 -93.961591
6600.0 0.87154 -132.379745
6620.0 0.871877 -170.006494
6640.0 0.874315 152.838314
6660.0 0.878138 115.703652
6680.0 0.881393 78.086537
6700.0 0.882131 39.666301
6720.0 0.879649 0.324606
6740.0 0.874071 -39.721782
6760.0 0.868034 -79.975821
6780.0 0.864283 -119.912025
6800.0 0.864363 -159.096647
6820.0 0.868612 162.58048
6840.0 0.874874 124.940734
6860.0 0.880823 87.646487
6880.0 0.88392 50.238602
6900.0 0.882191 12.365018
6920.0 0.876168 -26.203733
6940.0 0.867604 -65.489641
6960.0 0.860251 -105.243337
6980.0 0.857543 -145.10585
7000.0 0.860417 175.356927
7020.0 0.868048 136.438972
7040.0 0.876942 98.195901
7060.0 0.883543 60.530988
7080.0 0.885382 23.156168
7100.0 0.881105 -14.234351
7120.0 0.87238 -51.934749
7140.0 0.861987 -90.198016
7160.0 0.853849 -129.08678
7180.0 0.851606 -168.542606
7200.0 0.855975 151.685517
7220.0 0.865572 111.942217
7240.0 0.876086 72.501418
7260.0 0.882767 33.586019
7280.0 0.883116 -4.77151
7300.0 0.876617 -42.673516
7320.0 0.866153 -80.320154
7340.0 0.855601 -118.035659
7360.0 0.848626 -156.079484
7380.0 0.848284 165.342023
7400.0 0.854447 126.182678
7420.0 0.864972 86.612413
7440.0 0.875437 46.891411
7460.0 0.880984 7.395197
7480.0 0.879815 -31.584321
7500.0 0.872496 -69.937205
7520.0 0.862439 -107.717008
7540.0 0.853669 -145.208672
7560.0 0.848826 177.263908
7580.0 0.849859 139.37224
7600.0 0.8559 100.854109
7620.0 0.864464 61.663898
7640.0 0.871911 21.904055
7660.0 0.874303 -18.093761
7680.0 0.870951 -57.911785
7700.0 0.863459 -97.241009
7720.0 0.855326 -135.901528
7740.0 0.850316 -173.973665
7760.0 0.849861 148.329407
7780.0 0.85432 110.734969
7800.0 0.861674 72.922832
7820.0 0.868612 34.711281
7840.0 0.872277 -3.993012
7860.0 0.870302 -43.114941
7880.0 0.863648 -82.434369
7900.0 0.855212 -121.747481
7920.0 0.848444 -160.832599
7940.0 0.846525 160.410385
7960.0 0.84967 121.978652
7980.0 0.856653 83.822164
8000.0 0.864641 45.768808
8020.0 0.869982 7.68034
8040.0 0.870761 -30.586507
8060.0 0.866087 -69.144438
8080.0 0.857863 -107.996229
8100.0 0.849605 -147.135677
8120.0 0.844369 173.564913
8140.0 0.844749 134.283889
8160.0 0.850256 95.18363
8180.0 0.85856 56.438478
8200.0 0.866478 18.073953
8220.0 0.870403 -19.950173
8240.0 0.869262 -57.757819
8260.0 0.863412 -95.580163
8280.0 0.855149 -133.611607
8300.0 0.84807 -172.063831
8320.0 0.844534 148.986831
8340.0 0.846263 109.64515
8360.0 0.852226 70.120208
8380.0 0.859434 30.760179
8400.0 0.864992 -8.173314
8420.0 0.866166 -46.552543
8440.0 0.863013 -84.406733
8460.0 0.857051 -121.996574
8480.0 0.850438 -159.623641
8500.0 0.84613 162.375883
8520.0 0.845333 123.77042
8540.0 0.848528 84.563709
8560.0 0.854319 44.913214
8580.0 0.85963 5.188795
8600.0 0.862361 -34.237604
8620.0 0.860961 -73.135326
8640.0 0.856261 -111.429391
8660.0 0.850514 -149.313606
8680.0 0.845631 172.932847
8700.0 0.843983 134.998707
8720.0 0.845999 96.616975
8740.0 0.850965 57.740339
8760.0 0.857095 18.451042
8780.0 0.861277 -20.978298
8800.0 0.86213 -60.218826
8820.0 0.859326 -99.066945
8840.0 0.854255 -137.421671
8860.0 0.849553 -175.406211
8880.0 0.84663 146.768933
8900.0 0.846837 108.89747
8920.0 0.849769 70.775512
8940.0 0.853791 32.368587
8960.0 0.857361 -6.297823
8980.0 0.858253 -45.119419
9000.0 0.856177 -83.949633
9020.0 0.851926 -122.751143
9040.0 0.846995 -161.492734
9060.0 0.843918 159.779183
9080.0 0.843645 121.016511
9100.0 0.846641 82.266432
9120.0 0.851952 43.566793
9140.0 0.857148 5.040624
9160.0 0.860616 -33.231228
9180.0 0.860585 -71.263408
9200.0 0.857105 -109.114738
9220.0 0.851613 -147.001435
9240.0 0.845629 174.866861
9260.0 0.841762 136.313989
9280.0 0.841116 97.257911
9300.0 0.843875 57.861977
9320.0 0.849108 18.382973
9340.0 0.854126 -20.837329
9360.0 0.857323 -59.539564
9380.0 0.8574 -97.705849
9400.0 0.854366 -135.462678
9420.0 0.849752 -173.144659
9440.0 0.844608 148.891888
9460.0 0.840996 110.401547
9480.0 0.840068 71.284705
9500.0 0.84202 31.768685
9520.0 0.846652 -7.766357
9540.0 0.851873 -46.900103
9560.0 0.856219 -85.327523
9580.0 0.858422 -123.070409
9600.0 0.8576 -160.341236
9620.0 0.854512 162.445186
9640.0 0.849495 124.818257
9660.0 0.844081 86.447318
9680.0 0.839922 47.160663
9700.0 0.837955 7.166821
9720.0 0.839328 -33.057385
9740.0 0.843141 -72.954936
9760.0 0.848126 -112.053959
9780.0 0.852968 -150.256857
9800.0 0.855862 172.269523
9820.0 0.856559 135.150519
9840.0 0.854517 97.903864
9860.0 0.850137 60.182124
9880.0 0.844928 21.750281
9900.0 0.840107 -17.342897
9920.0 0.837981 -56.804693
9940.0 0.839353 -96.27085
9960.0 0.843771 -135.353188
9980.0 0.850145 -173.902001
10000.0 0.855766 148.040421
10020.0 0.85906 110.305521
10040.0 0.858734 72.603731
10060.0 0.854535 34.744848
10080.0 0.848275 -3.421597
10100.0 0.841624 -41.925921
10120.0 0.837297 -80.658298
10140.0 0.8369 -119.525167
10160.0 0.840255 -158.376038
10180.0 0.846591 162.843198
10200.0 0.853025 124.111719
10220.0 0.8572 85.430718
10240.0 0.85745 46.744742
10260.0 0.853045 8.098001
10280.0 0.845996 -30.456913
10300.0 0.838432 -68.903573
10320.0 0.833094 -107.208987
10340.0 0.832024 -145.481014
10360.0 0.835015 176.16618
10380.0 0.841412 137.601572
10400.0 0.848472 98.709796
10420.0 0.853412 59.570785
10440.0 0.854691 20.34083
10460.0 0.851575 -18.700427
10480.0 0.846162 -57.286925
10500.0 0.840622 -95.346909
10520.0 0.836784 -132.921978
10540.0 0.836087 -170.282839
10560.0 0.837751 152.22206
10580.0 0.841134 114.273489
10600.0 0.844529 75.603437
10620.0 0.846195 36.245719
10640.0 0.846007 -3.544349
10660.0 0.843948 -43.307174
10680.0 0.841734 -82.530859
10700.0 0.840723 -120.96928
10720.0 0.841026 -158.604285
10740.0 0.842818 164.268093
10760.0 0.844443 127.157064
10780.0 0.844725 89.583781
10800.0 0.842719 51.098945
10820.0 0.837948 11.581467
10840.0 0.832593 -28.74321
10860.0 0.828884 -69.338314
10880.0 0.829154 -109.474146
10900.0 0.83416 -148.668085
10920.0 0.841784 173.246062
10940.0 0.849873 136.070087
10960.0 0.855191 99.317586
10980.0 0.855453 62.494851
11000.0 0.850302 25.087136
11020.0 0.840448 -13.212392
11040.0 0.829888 -52.427089
11060.0 0.822835 -92.315838
11080.0 0.82245 -132.30662
11100.0 0.829587 -171.853359
11120.0 0.840838 149.405066
11140.0 0.852143 111.540385
11160.0 0.859072 74.272266
11180.0 0.858512 37.237488
11200.0 0.850633 -0.02084
11220.0 0.837101 -37.894794
11240.0 0.822861 -76.574891
11260.0 0.813413 -116.083489
11280.0 0.81251 -156.08934
11300.0 0.821429 163.878764
11320.0 0.836168 124.257087
11340.0 0.850874 85.354219
11360.0 0.859857 47.166144
11380.0 0.859293 9.567704
11400.0 0.850179 -27.707787
11420.0 0.835582 -65.026687
11440.0 0.820905 -102.679101
11460.0 0.811774 -140.945382
11480.0 0.811203 -179.874768
11500.0 0.820193 140.675756
11520.0 0.834891 100.945049
11540.0 0.848972 61.299024
11560.0 0.856601 21.987432
11580.0 0.85399 -16.812983
11600.0 0.842946 -55.07098
11620.0 0.827789 -92.98634
11640.0 0.813894 -130.780787
11660.0 0.806518 -168.753273
11680.0 0.807573 152.892751
11700.0 0.817159 114.108472
11720.0 0.831609 74.898561
11740.0 0.84476 35.478004
11760.0 0.851553 -3.895957
11780.0 0.848759 -42.946565
11800.0 0.8384 -81.443402
11820.0 0.825186 -119.416578
11840.0 0.813742 -156.993255
11860.0 0.80839 165.552549
11880.0 0.809895 127.894908
11900.0 0.817347 89.810641
11920.0 0.827589 51.085438
11940.0 0.835571 11.739053
11960.0 0.838211 -28.038163
11980.0 0.834068 -67.937372
12000.0 0.825624 -107.542043
12020.0 0.817428 -146.619597
12040.0 0.812474 174.944535
12060.0 0.812997 137.09239
12080.0 0.81799 99.565351
12100.0 0.824986 62.104745
12120.0 0.83123 24.351269
12140.0 0.83309 -13.94798
12160.0 0.829811 -52.884894
12180.0 0.822332 -92.426517
12200.0 0.813874 -132.263828
12220.0 0.808978 -172.0401
12240.0 0.809358 148.614342
12260.0 0.815186 109.970322
12280.0 0.823755 71.996017
12300.0 0.830919 34.541284
12320.0 0.833965 -2.735036
12340.0 0.830492 -40.224699
12360.0 0.821584 -78.232682
12380.0 0.810447 -117.039151
12400.0 0.801211 -156.631562
12420.0 0.798655 163.233887
12440.0 0.80361 123.006887
12460.0 0.814069 83.252659
12480.0 0.82553 44.271664
12500.0 0.832453 6.152731
12520.0 0.832576 -31.299686
12540.0 0.825276 -68.519437
12560.0 0.81305 -105.94461
12580.0 0.800521 -144.067208
12600.0 0.791872 176.873871
12620.0 0.791578 136.975843
12640.0 0.800019 96.631668
12660.0 0.813784 56.516357
12680.0 0.827396 17.137365
12700.0 0.834503 -21.246115
12720.0 0.832973 -58.682894
12740.0 0.823424 -95.584064
12760.0 0.808999 -132.439201
12780.0 0.79516 -169.845079
12800.0 0.786183 151.755333
12820.0 0.786294 112.276923
12840.0 0.79597 71.957366
12860.0 0.811058 31.458195
12880.0 0.825511 -8.549879
12900.0 0.832512 -47.614561
12920.0 0.829906 -85.586664
12940.0 0.819399 -122.783666
12960.0 0.804426 -159.695532
12980.0 0.790562 163.066692
13000.0 0.781711 124.965857
13020.0 0.781305 85.830681
13040.0 0.79013 45.777367
13060.0 0.80437 5.345245
13080.0 0.818781 -34.808835
13100.0 0.827115 -74.207372
13120.0 0.826693 -112.589116
13140.0 0.819052 -150.128303
13160.0 0.806905 172.801395
13180.0 0.795206 135.734132
13200.0 0.787444 98.177201
13220.0 0.786012 59.91617
13240.0 0.79181 20.895108
13260.0 0.801742 -18.655089
13280.0 0.812122 -58.330214
13300.0 0.818429 -97.819232
13320.0 0.818102 -136.854547
13340.0 0.812473 -175.449291
13360.0 0.80352 146.219466
13380.0 0.79516 107.955674
13400.0 0.790282 69.501281
13420.0 0.789925 30.815559
13440.0 0.794627 -8.071197
13460.0 0.801813 -47.061183
13480.0 0.80908 -85.974631
13500.0 0.814116 -124.787946
13520.0 0.814992 -163.452469
13540.0 0.812797 158.006959
13560.0 0.808476 119.529309
13580.0 0.804256 81.184123
13600.0 0.802214 42.97478
13620.0 0.802295 4.983892
13640.0 0.80479 -32.770534
13660.0 0.80781 -70.432266
13680.0 0.80973 -108.149374
13700.0 0.809861 -146.244681
13720.0 0.807182 175.03297
13740.0 0.803399 135.57023
13760.0 0.79996 95.416643
13780.0 0.798518 55.012221
13800.0 0.800557 14.884163
13820.0 0.804601 -24.454995
13840.0 0.809601 -62.70951
13860.0 0.813678 -100.028873
13880.0 0.815189 -136.744699
13900.0 0.814476 -173.437377
13920.0 0.811016 149.293407
13940.0 0.806423 111.046825
13960.0 0.802431 71.622407
13980.0 0.800393 31.352401
14000.0 0.802167 -9.128696
14020.0 0.80645 -49.122419
14040.0 0.811694 -88.105853
14060.0 0.816008 -126.107009
14080.0 0.817063 -163.447832
14100.0 0.815158 159.303382
14120.0 0.810252 121.507565
14140.0 0.804361 82.802141
14160.0 0.800624 43.067455
14180.0 0.800694 2.721663
14200.0 0.806151 -37.483701
14220.0 0.814903 -76.873669
14240.0 0.823746 -115.000425
14260.0 0.830334 -151.98523
14280.0 0.831812 171.726791
14300.0 0.828356 135.510438
14320.0 0.820346 98.614755
14340.0 0.809748 60.562298
14360.0 0.800885 21.132222
14380.0 0.796825 -19.339125
14400.0 0.80057 -60.008906
14420.0 0.810985 -100.037736
14440.0 0.823776 -138.796814
14460.0 0.83527 -176.256963
14480.0 0.841004 147.181713
14500.0 0.839673 110.967675
14520.0 0.831505 74.383491
14540.0 0.818208 36.932575
14560.0 0.805031 -1.696379
14580.0 0.796285 -41.446001
14600.0 0.796192 -81.761237
14620.0 0.805231 -122.003705
14640.0 0.818969 -161.55518
14660.0 0.83276 159.810533
14680.0 0.840916 121.906957
14700.0 0.840908 84.437695
14720.0 0.833494 46.91353
