! File created by SignalIntegrity v1.1.10: Signal and Power Integrity Tools
! https://github.com/TeledyneLeCroy/SignalIntegrity
# MHz S MA R 50.0
0.0 1.039535 0.0
20.0 1.033953 -40.366119
40.0 1.020251 -80.609656
60.0 1.00453 -120.75266
80.0 0.993327 -160.908968
100.0 0.991082 158.705006
120.0 0.997497 117.934937
140.0 1.008909 76.789812
160.0 1.018711 35.437143
180.0 1.020939 -5.752572
200.0 1.014581 -46.434597
220.0 1.002719 -86.464579
240.0 0.99134 -125.954165
260.0 0.985677 -165.296702
280.0 0.987867 155.058964
300.0 0.997334 114.728444
320.0 1.009096 73.550894
340.0 1.016282 31.775912
360.0 1.013953 -10.054921
380.0 1.001942 -51.300073
400.0 0.986073 -91.56619
420.0 0.973078 -130.916522
440.0 0.967761 -169.721343
460.0 0.972322 151.425227
480.0 0.984614 111.93297
500.0 0.999548 71.427781
520.0 1.009189 29.882381
540.0 1.006767 -12.208786
560.0 0.992557 -54.091137
580.0 0.972816 -95.144842
600.0 0.956271 -135.134329
620.0 0.949179 -174.306959
640.0 0.953212 146.843096
660.0 0.966991 107.722954
680.0 0.984903 67.806249
700.0 0.998938 26.901154
720.0 1.001987 -14.797665
740.0 0.991664 -56.712443
760.0 0.973593 -98.192867
780.0 0.956492 -138.886543
800.0 0.947176 -178.760841
820.0 0.948874 141.904302
840.0 0.959828 102.688041
860.0 0.975542 63.207736
880.0 0.989341 23.176902
900.0 0.994587 -17.408347
920.0 0.989181 -58.340251
940.0 0.975733 -99.340137
960.0 0.960863 -140.168324
980.0 0.951193 179.215706
1000.0 0.949695 138.760841
1020.0 0.956215 98.375753
1040.0 0.966675 57.967234
1060.0 0.975498 17.574787
1080.0 0.978653 -22.719923
1100.0 0.974665 -62.81714
1120.0 0.96643 -102.694383
1140.0 0.958395 -142.522971
1160.0 0.954291 177.463688
1180.0 0.956245 137.00839
1200.0 0.962452 95.987656
1220.0 0.968979 54.558862
1240.0 0.971355 13.082097
1260.0 0.967107 -27.944498
1280.0 0.958476 -68.172308
1300.0 0.949525 -107.596111
1320.0 0.944563 -146.492928
1340.0 0.946424 174.59712
1360.0 0.95456 135.106683
1380.0 0.966156 94.61749
1400.0 0.975209 53.022436
1420.0 0.9757 10.745163
1440.0 0.966373 -31.4606
1460.0 0.951077 -72.852452
1480.0 0.937145 -113.047283
1500.0 0.930304 -152.197611
1520.0 0.932699 169.226235
1540.0 0.944011 130.555693
1560.0 0.96007 91.122848
1580.0 0.974458 50.522589
1600.0 0.979946 8.740661
1620.0 0.972381 -33.686156
1640.0 0.955569 -75.939016
1660.0 0.93774 -117.359084
1680.0 0.926635 -157.651199
1700.0 0.926274 163.017091
1720.0 0.935621 124.208156
1740.0 0.951071 85.387675
1760.0 0.966321 46.037526
1780.0 0.974364 5.909054
1800.0 0.971349 -34.964027
1820.0 0.95813 -76.28618
1840.0 0.941382 -117.648783
1860.0 0.929003 -158.782043
1880.0 0.925656 160.459439
1900.0 0.932194 120.056145
1920.0 0.944586 79.873839
1940.0 0.956757 39.811618
1960.0 0.963128 -0.22236
1980.0 0.960486 -40.230432
2000.0 0.950829 -80.211307
2020.0 0.938918 -120.26998
2040.0 0.930245 -160.536569
2060.0 0.928904 158.816402
2080.0 0.934741 117.7246
2100.0 0.944586 76.321373
2120.0 0.952774 34.883577
2140.0 0.954349 -6.162944
2160.0 0.948908 -46.491178
2180.0 0.939252 -86.034451
2200.0 0.9304 -124.99202
2220.0 0.926728 -163.846034
2240.0 0.929921 156.865353
2260.0 0.939523 116.670481
2280.0 0.951042 75.337056
2300.0 0.958042 33.118324
2320.0 0.955913 -9.331531
2340.0 0.944729 -51.179131
2360.0 0.930422 -91.8411
2380.0 0.919526 -131.273584
2400.0 0.916195 -169.825682
2420.0 0.922091 151.85487
2440.0 0.93493 113.046319
2460.0 0.95008 73.175547
2480.0 0.960396 31.961054
2500.0 0.959282 -10.304044
2520.0 0.946632 -52.873092
2540.0 0.928537 -94.908266
2560.0 0.913908 -135.837697
2580.0 0.908895 -175.612151
2600.0 0.914361 145.457266
2620.0 0.928132 106.837288
2640.0 0.944604 67.914585
2660.0 0.956791 28.255713
2680.0 0.958952 -12.337318
2700.0 0.948929 -53.705916
2720.0 0.931605 -95.435118
2740.0 0.91535 -137.105839
2760.0 0.907262 -178.358518
2780.0 0.910543 140.960115
2800.0 0.922575 100.817006
2820.0 0.937819 61.085447
2840.0 0.949608 21.544054
2860.0 0.952476 -17.959832
2880.0 0.945755 -57.555108
2900.0 0.932506 -97.395398
2920.0 0.918918 -137.611213
2940.0 0.911338 -178.359364
2960.0 0.912716 140.343037
2980.0 0.922438 98.662187
3000.0 0.935108 56.902904
3020.0 0.943721 15.517459
3040.0 0.944201 -25.130991
3060.0 0.936467 -64.890721
3080.0 0.925004 -103.892165
3100.0 0.915226 -142.58815
3120.0 0.911142 178.470109
3140.0 0.915057 138.726432
3160.0 0.925122 97.821924
3180.0 0.936469 55.827158
3200.0 0.942637 13.242148
3220.0 0.939352 -29.080141
3240.0 0.928844 -70.378223
3260.0 0.916674 -110.366688
3280.0 0.908505 -149.220455
3300.0 0.90798 172.491431
3320.0 0.915032 134.072959
3340.0 0.927469 94.882656
3360.0 0.939886 54.461243
3380.0 0.945478 12.821528
3400.0 0.940513 -29.55387
3420.0 0.926585 -71.871084
3440.0 0.911065 -113.39567
3460.0 0.90142 -153.834632
3480.0 0.901142 166.72518
3500.0 0.910421 127.888541
3520.0 0.925316 89.109758
3540.0 0.939938 49.923604
3560.0 0.947853 9.993636
3580.0 0.944197 -30.704348
3600.0 0.930285 -71.937533
3620.0 0.912349 -113.389501
3640.0 0.898703 -154.723633
3660.0 0.895618 164.247911
3680.0 0.903626 123.605869
3700.0 0.919164 83.347239
3720.0 0.935246 43.359011
3740.0 0.944456 3.577504
3760.0 0.943124 -36.07308
3780.0 0.931696 -75.701405
3800.0 0.915559 -115.456775
3820.0 0.90182 -155.603466
3840.0 0.895921 163.676743
3860.0 0.900658 122.358008
3880.0 0.913351 80.629621
3900.0 0.927585 38.937241
3920.0 0.936472 -2.251257
3940.0 0.935755 -42.567802
3960.0 0.92708 -81.928137
3980.0 0.914988 -120.633126
4000.0 0.904642 -159.183514
4020.0 0.900529 161.788877
4040.0 0.903904 121.761078
4060.0 0.913547 80.533657
4080.0 0.924559 38.311673
4100.0 0.930489 -4.197374
4120.0 0.928459 -46.133507
4140.0 0.919822 -86.897743
4160.0 0.909557 -126.357626
4180.0 0.902615 -164.905897
4200.0 0.901383 156.827807
4220.0 0.906681 118.144555
4240.0 0.916025 78.442143
4260.0 0.924835 37.491499
4280.0 0.928194 -4.509027
4300.0 0.923169 -46.894854
4320.0 0.91261 -88.851231
4340.0 0.902195 -129.863555
4360.0 0.896871 -169.811553
4380.0 0.899304 151.013124
4400.0 0.908076 112.117884
4420.0 0.919761 73.029762
4440.0 0.929189 33.360514
4460.0 0.931127 -6.985775
4480.0 0.924213 -47.863742
4500.0 0.910963 -88.99209
4520.0 0.897652 -130.052849
4540.0 0.890643 -170.896752
4560.0 0.892616 148.529998
4580.0 0.903009 108.201057
4600.0 0.917098 68.028516
4620.0 0.928506 28.008899
4640.0 0.932336 -11.85926
4660.0 0.926391 -51.563581
4680.0 0.913558 -91.152465
4700.0 0.899216 -130.850327
4720.0 0.888976 -170.9101
4740.0 0.88739 148.424518
4760.0 0.894773 107.086162
4780.0 0.90792 65.314553
4800.0 0.920568 23.540324
4820.0 0.92632 -17.677908
4840.0 0.923466 -57.947637
4860.0 0.91402 -97.246918
4880.0 0.902611 -135.869875
4900.0 0.894136 -174.412853
4920.0 0.891253 146.48424
4940.0 0.895222 106.324679
4960.0 0.903874 64.918947
4980.0 0.912509 22.63435
5000.0 0.916734 -19.766023
5020.0 0.914292 -61.426046
5040.0 0.907565 -101.805334
5060.0 0.900532 -140.959739
5080.0 0.896125 -179.34302
5100.0 0.89632 142.338685
5120.0 0.900255 103.359441
5140.0 0.905814 63.244458
5160.0 0.909772 21.867872
5180.0 0.908966 -20.344463
5200.0 0.903865 -62.606303
5220.0 0.897238 -104.174932
5240.0 0.892879 -144.622194
5260.0 0.893483 175.96314
5280.0 0.898574 137.171696
5300.0 0.906447 98.472805
5320.0 0.913509 59.337992
5340.0 0.915839 19.495923
5360.0 0.911733 -21.0795
5380.0 0.901853 -62.153509
5400.0 0.89071 -103.343027
5420.0 0.883533 -144.375989
5440.0 0.883361 174.907317
5460.0 0.890815 134.481148
5480.0 0.902462 94.208798
5500.0 0.913261 54.018341
5520.0 0.918446 13.875257
5540.0 0.915121 -26.1337
5560.0 0.905135 -65.92583
5580.0 0.892687 -105.567003
5600.0 0.882921 -145.216016
5620.0 0.880132 174.821439
5640.0 0.885051 134.2757
5660.0 0.895836 93.057397
5680.0 0.90726 51.305088
5700.0 0.913279 9.502083
5720.0 0.911422 -31.781307
5740.0 0.902862 -72.145631
5760.0 0.892274 -111.516547
5780.0 0.88438 -150.248301
5800.0 0.881704 171.111173
5820.0 0.885422 131.937303
5840.0 0.893484 91.712779
5860.0 0.902011 50.31559
5880.0 0.906611 8.065502
5900.0 0.90435 -34.262839
5920.0 0.897242 -75.823427
5940.0 0.889427 -116.161995
5960.0 0.884647 -155.281863
5980.0 0.88518 166.355355
6000.0 0.890139 128.076685
6020.0 0.897479 89.222987
6040.0 0.903484 49.263221
6060.0 0.904149 8.097939
6080.0 0.898602 -33.928394
6100.0 0.889005 -76.137269
6120.0 0.880579 -117.792698
6140.0 0.877829 -158.519291
6160.0 0.881653 161.683963
6180.0 0.890781 122.488414
6200.0 0.901042 83.388113
6220.0 0.907688 43.984359
6240.0 0.907448 4.018271
6260.0 0.899361 -36.496816
6280.0 0.887287 -77.341266
6300.0 0.876885 -118.278351
6320.0 0.872959 -159.069904
6340.0 0.877784 160.355996
6360.0 0.888808 119.948353
6380.0 0.90116 79.63481
6400.0 0.908894 39.322849
6420.0 0.90762 -0.936826
6440.0 0.898035 -41.060468
6460.0 0.884069 -81.028624
6480.0 0.871895 -120.883276
6500.0 0.866891 -160.833249
6520.0 0.870883 158.904465
6540.0 0.882872 118.154347
6560.0 0.897446 76.849032
6580.0 0.907394 35.223569
6600.0 0.907883 -6.303129
6620.0 0.898475 -47.245999
6640.0 0.884503 -87.294885
6660.0 0.872395 -126.524612
6680.0 0.866667 -165.242025
6700.0 0.869752 156.037973
6720.0 0.879984 116.756643
6740.0 0.893275 76.519197
6760.0 0.903207 35.177534
6780.0 0.903652 -6.925284
6800.0 0.894284 -49.11124
6820.0 0.879828 -90.707406
6840.0 0.867579 -131.292224
6860.0 0.863074 -170.915288
6880.0 0.867278 150.07507
6900.0 0.878611 111.168044
6920.0 0.892183 71.803767
6940.0 0.901733 31.659786
6960.0 0.902676 -9.315627
6980.0 0.893766 -50.822591
7000.0 0.879891 -92.346137
7020.0 0.86818 -133.475578
7040.0 0.863737 -173.956497
7060.0 0.868495 146.183493
7080.0 0.87951 106.696648
7100.0 0.891728 67.289677
7120.0 0.899456 27.64008
7140.0 0.898165 -12.399421
7160.0 0.888386 -52.834567
7180.0 0.874317 -93.608431
7200.0 0.862656 -134.572848
7220.0 0.859294 -175.635707
7240.0 0.865462 143.306414
7260.0 0.878667 102.348986
7280.0 0.892415 61.522628
7300.0 0.899524 20.940551
7320.0 0.896652 -19.308674
7340.0 0.884673 -59.193595
7360.0 0.86935 -98.776398
7380.0 0.857518 -138.316564
7400.0 0.854015 -178.081962
7420.0 0.861248 141.669669
7440.0 0.876319 100.781029
7460.0 0.892564 59.354092
7480.0 0.901879 17.682425
7500.0 0.898735 -23.730307
7520.0 0.885256 -64.437792
7540.0 0.868038 -104.321981
7560.0 0.85451 -143.529859
7580.0 0.850284 177.523097
7600.0 0.85648 138.361096
7620.0 0.871248 98.582082
7640.0 0.888506 57.895603
7660.0 0.899686 16.374983
7680.0 0.89897 -25.595998
7700.0 0.886078 -67.456477
7720.0 0.867884 -108.713973
7740.0 0.853103 -149.240535
7760.0 0.847192 170.859034
7780.0 0.85234 131.302632
7800.0 0.865782 91.713587
7820.0 0.881785 51.820834
7840.0 0.893405 11.439554
7860.0 0.894467 -29.369665
7880.0 0.884801 -70.370857
7900.0 0.869271 -111.357742
7920.0 0.855314 -152.154108
7940.0 0.849594 167.263839
7960.0 0.853825 126.862522
7980.0 0.866014 86.618911
8000.0 0.880414 46.4473
8020.0 0.889767 6.354973
8040.0 0.889939 -33.644795
8060.0 0.880462 -73.580263
8080.0 0.865934 -113.516905
8100.0 0.853164 -153.675619
8120.0 0.84738 165.76599
8140.0 0.851632 124.740756
8160.0 0.863725 83.326085
8180.0 0.877656 41.842485
8200.0 0.886732 0.647469
8220.0 0.886187 -39.933509
8240.0 0.877253 -79.766299
8260.0 0.864563 -119.06402
8280.0 0.853583 -158.19986
8300.0 0.849371 162.338456
8320.0 0.853349 122.158589
8340.0 0.864166 81.154894
8360.0 0.876721 39.482174
8380.0 0.883957 -2.348926
8400.0 0.882405 -43.743697
8420.0 0.872861 -84.321975
8440.0 0.860353 -124.016294
8460.0 0.850827 -163.168057
8480.0 0.847732 157.73606
8500.0 0.852899 118.214365
8520.0 0.864242 77.888848
8540.0 0.876577 36.732457
8560.0 0.88389 -4.990474
8580.0 0.881535 -46.747576
8600.0 0.871011 -87.987155
8620.0 0.857754 -128.489452
8640.0 0.847559 -168.307916
8660.0 0.845076 152.249214
8680.0 0.850802 112.795779
8700.0 0.862592 73.06989
8720.0 0.875591 32.898882
8740.0 0.883308 -7.639643
8760.0 0.882341 -48.330452
8780.0 0.872843 -88.987207
8800.0 0.859378 -129.496655
8820.0 0.848365 -169.977364
8840.0 0.843935 149.407226
8860.0 0.848144 108.572742
8880.0 0.858774 67.529509
8900.0 0.87056 26.516709
8920.0 0.878376 -14.194231
8940.0 0.878375 -54.389417
8960.0 0.87137 -94.011963
8980.0 0.860983 -133.325736
9000.0 0.851353 -172.71789
9020.0 0.846897 147.37014
9040.0 0.849036 106.635171
9060.0 0.856872 65.151778
9080.0 0.866787 23.285542
9100.0 0.87335 -18.331781
9120.0 0.874098 -59.133755
9140.0 0.869218 -98.9326
9160.0 0.861467 -137.884272
9180.0 0.854787 -176.513633
9200.0 0.851328 144.554078
9220.0 0.852741 104.809895
9240.0 0.85814 63.975429
9260.0 0.864432 22.284407
9280.0 0.868651 -19.66311
9300.0 0.868302 -61.139257
9320.0 0.864338 -101.611833
9340.0 0.859425 -141.078979
9360.0 0.855603 -179.897255
9380.0 0.854909 141.335684
9400.0 0.856934 101.985504
9420.0 0.860308 61.689667
9440.0 0.863018 20.388681
9460.0 0.862509 -21.513532
9480.0 0.859133 -63.353437
9500.0 0.854605 -104.597664
9520.0 0.851399 -144.982824
9540.0 0.851848 175.315324
9560.0 0.855585 135.88608
9580.0 0.861565 96.308377
9600.0 0.867189 56.22314
9620.0 0.869234 15.596374
9640.0 0.866702 -25.3695
9660.0 0.859938 -66.338177
9680.0 0.852088 -106.971711
9700.0 0.846873 -147.214534
9720.0 0.846115 172.816243
9740.0 0.850778 132.868547
9760.0 0.858805 92.668755
9780.0 0.866822 52.176535
9800.0 0.871624 11.509951
9820.0 0.870529 -29.01937
9840.0 0.864636 -69.096122
9860.0 0.856604 -108.66893
9880.0 0.849538 -147.889395
9900.0 0.846548 172.817249
9920.0 0.848007 132.958744
9940.0 0.853327 92.21773
9960.0 0.859913 50.538794
9980.0 0.864077 8.374267
10000.0 0.864525 -33.54718
10020.0 0.861445 -74.57189
10040.0 0.857295 -114.362056
10060.0 0.854759 -153.131826
10080.0 0.854455 168.592347
10100.0 0.856788 130.126769
10120.0 0.860075 90.790671
10140.0 0.86217 50.25343
10160.0 0.861814 8.580213
10180.0 0.858322 -33.644336
10200.0 0.854079 -75.568792
10220.0 0.85162 -116.585511
10240.0 0.852094 -156.474332
10260.0 0.855816 164.473165
10280.0 0.860458 125.667019
10300.0 0.863733 86.509871
10320.0 0.863373 46.481942
10340.0 0.85794 5.47019
10360.0 0.849783 -36.237228
10380.0 0.842501 -78.073857
10400.0 0.840162 -119.37525
10420.0 0.844854 -159.816949
10440.0 0.85462 160.577637
10460.0 0.866361 121.485772
10480.0 0.875117 82.396752
10500.0 0.876435 42.947641
10520.0 0.869078 2.917568
10540.0 0.85463 -37.656534
10560.0 0.839263 -78.52265
10580.0 0.829535 -119.448644
10600.0 0.829274 -160.197626
10620.0 0.839267 159.269857
10640.0 0.855065 118.821459
10660.0 0.870241 78.336033
10680.0 0.87823 37.704229
10700.0 0.874783 -2.955795
10720.0 0.862173 -43.427581
10740.0 0.84599 -83.577804
10760.0 0.833076 -123.339384
10780.0 0.828683 -162.882175
10800.0 0.833482 157.53955
10820.0 0.845757 117.653551
10840.0 0.860094 77.199393
10860.0 0.869696 36.220297
10880.0 0.870517 -5.012455
10900.0 0.86211 -46.046793
10920.0 0.849592 -86.450483
10940.0 0.839125 -126.137861
10960.0 0.834419 -165.258766
10980.0 0.837317 155.765242
11000.0 0.845498 116.368572
11020.0 0.854937 76.111552
11040.0 0.860656 34.737656
11060.0 0.858413 -7.505151
11080.0 0.849765 -49.951155
11100.0 0.839671 -91.856993
11120.0 0.833855 -132.630383
11140.0 0.835845 -172.183004
11160.0 0.844234 149.179041
11180.0 0.855923 110.91504
11200.0 0.865579 72.32646
11220.0 0.86759 32.913504
11240.0 0.859854 -7.598247
11260.0 0.844012 -49.114258
11280.0 0.827566 -91.149199
11300.0 0.818865 -133.126813
11320.0 0.821789 -174.46448
11340.0 0.835691 145.112272
11360.0 0.854226 105.480439
11380.0 0.86959 66.353769
11400.0 0.875355 27.297605
11420.0 0.86778 -12.012063
11440.0 0.849947 -51.785943
11460.0 0.828894 -92.190478
11480.0 0.81353 -133.168711
11500.0 0.811259 -174.565946
11520.0 0.822787 143.909919
11540.0 0.843564 102.573327
11560.0 0.864054 61.547847
11580.0 0.874108 20.958081
11600.0 0.869575 -19.165814
11620.0 0.85219 -58.909492
11640.0 0.829826 -98.429245
11660.0 0.811825 -138.064785
11680.0 0.804672 -178.065655
11700.0 0.812023 141.426557
11720.0 0.830906 100.369116
11740.0 0.853227 58.95725
11760.0 0.868819 17.466192
11780.0 0.869574 -23.676621
11800.0 0.856462 -64.091089
11820.0 0.83644 -103.740592
11840.0 0.818033 -142.799271
11860.0 0.808586 178.317451
11880.0 0.81031 139.15765
11900.0 0.822314 99.388921
11920.0 0.839228 58.735918
11940.0 0.852309 17.264859
11960.0 0.855187 -24.680539
11980.0 0.846107 -66.582785
12000.0 0.830751 -107.909163
12020.0 0.817653 -148.477241
12040.0 0.812081 171.679713
12060.0 0.816455 132.34511
12080.0 0.828064 93.128321
12100.0 0.841318 53.711385
12120.0 0.850118 13.769485
12140.0 0.84871 -26.820209
12160.0 0.837448 -67.952267
12180.0 0.821605 -109.4656
12200.0 0.808862 -151.03641
12220.0 0.806249 167.627043
12240.0 0.814568 126.76046
12260.0 0.830322 86.533607
12280.0 0.846543 46.844377
12300.0 0.855092 7.542254
12320.0 0.85224 -31.612956
12340.0 0.83807 -70.956204
12360.0 0.818168 -110.771426
12380.0 0.801241 -151.394725
12400.0 0.794269 167.095279
12420.0 0.801593 124.96303
12440.0 0.820046 82.67819
12460.0 0.840517 40.878955
12480.0 0.853551 -0.012381
12500.0 0.852738 -39.835883
12520.0 0.839666 -78.716843
12540.0 0.820404 -117.187019
12560.0 0.802066 -155.856427
12580.0 0.792331 164.657409
12600.0 0.794863 123.980811
12620.0 0.809629 82.243019
12640.0 0.830568 39.891704
12660.0 0.846695 -2.299884
12680.0 0.85068 -43.6196
12700.0 0.841192 -83.772205
12720.0 0.823475 -122.858956
12740.0 0.805572 -161.450691
12760.0 0.793219 159.780918
12780.0 0.791326 120.288923
12800.0 0.800599 79.708681
12820.0 0.817094 38.154816
12840.0 0.833719 -3.961189
12860.0 0.841499 -45.996945
12880.0 0.837417 -87.315095
12900.0 0.824707 -127.721609
12920.0 0.809284 -167.342453
12940.0 0.798221 153.416335
12960.0 0.79483 114.070854
12980.0 0.799951 74.359594
13000.0 0.81132 34.117212
13020.0 0.822823 -6.546419
13040.0 0.829544 -47.378542
13060.0 0.828205 -88.185127
13080.0 0.820006 -128.791746
13100.0 0.810106 -169.283395
13120.0 0.802673 150.190595
13140.0 0.801459 109.575927
13160.0 0.806532 68.860331
13180.0 0.814516 28.266195
13200.0 0.821788 -12.019704
13220.0 0.823937 -51.931038
13240.0 0.820152 -91.519985
13260.0 0.812415 -131.156902
13280.0 0.803659 -171.238702
13300.0 0.798819 147.885021
13320.0 0.800203 106.101579
13340.0 0.807755 63.826682
13360.0 0.818511 21.709032
13380.0 0.826536 -19.525179
13400.0 0.828932 -59.438052
13420.0 0.825034 -98.160085
13440.0 0.81654 -136.130372
13460.0 0.80752 -174.114628
13480.0 0.800652 147.098806
13500.0 0.799455 106.984254
13520.0 0.805071 65.364351
13540.0 0.814887 22.789837
13560.0 0.824867 -19.771331
13580.0 0.829539 -61.387078
13600.0 0.827405 -101.524827
13620.0 0.820434 -140.413349
13640.0 0.810857 -178.689715
13660.0 0.80275 142.793545
13680.0 0.798314 103.178881
13700.0 0.799162 62.077121
13720.0 0.805675 19.591118
13740.0 0.814258 -23.491662
13760.0 0.821663 -66.066303
13780.0 0.825095 -107.407906
13800.0 0.823823 -147.298619
13820.0 0.820124 173.845018
13840.0 0.814982 135.300389
13860.0 0.810491 96.415494
13880.0 0.808201 56.631373
13900.0 0.808177 15.873486
13920.0 0.811211 -25.54734
13940.0 0.815546 -67.099924
13960.0 0.819746 -108.186066
13980.0 0.823126 -148.627198
14000.0 0.824182 171.466666
14020.0 0.82374 131.782055
14040.0 0.821878 91.908652
14060.0 0.819113 51.742642
14080.0 0.817242 11.355007
14100.0 0.816206 -28.944469
14120.0 0.817046 -68.772715
14140.0 0.819504 -108.068331
14160.0 0.822258 -146.964495
14180.0 0.825261 174.05568
14200.0 0.826521 134.365884
14220.0 0.825484 93.54154
14240.0 0.822205 51.423408
14260.0 0.817062 8.532754
14280.0 0.813377 -34.176164
14300.0 0.812713 -75.821126
14320.0 0.815626 -115.875385
14340.0 0.821928 -154.555289
14360.0 0.828778 167.507278
14380.0 0.83476 129.501946
14400.0 0.837297 90.55287
14420.0 0.83452 50.21016
14440.0 0.827801 8.455999
14460.0 0.819275 -34.100709
14480.0 0.813807 -76.430516
14500.0 0.814198 -117.791062
14520.0 0.819371 -157.873224
14540.0 0.827769 163.00758
14560.0 0.83514 124.143488
14580.0 0.838559 84.883081
14600.0 0.836766 44.644842
14620.0 0.829545 3.360349
14640.0 0.821446 -38.536241
14660.0 0.816636 -80.358814
14680.0 0.817837 -121.337258
14700.0 0.825551 -161.222163
14720.0 0.835702 159.776188
