! File created by SignalIntegrity v1.1.10: Signal and Power Integrity Tools
! https://github.com/TeledyneLeCroy/SignalIntegrity
# MHz S MA R 50.0
0.0 0.957386 0.0
20.0 0.961302 -39.301846
40.0 0.971657 -78.969712
60.0 0.98315 -119.258239
80.0 0.989056 -160.103311
100.0 0.98522 158.80825
120.0 0.972036 117.925626
140.0 0.955426 77.598577
160.0 0.942365 37.868742
180.0 0.937626 -1.43585
200.0 0.943108 -40.658518
220.0 0.956286 -80.161678
240.0 0.971868 -120.161508
260.0 0.982751 -160.686549
280.0 0.983047 158.531624
300.0 0.972607 117.885442
320.0 0.956006 77.664225
340.0 0.940348 37.955654
360.0 0.931576 -1.432931
380.0 0.931885 -40.807125
400.0 0.940607 -80.482873
420.0 0.95325 -120.695109
440.0 0.963408 -161.416971
460.0 0.96592 157.592645
480.0 0.958989 116.727655
500.0 0.946262 76.332308
520.0 0.933456 36.486955
540.0 0.925254 -2.925168
560.0 0.924292 -42.192937
580.0 0.929432 -81.633887
600.0 0.937492 -121.440604
620.0 0.943991 -161.668809
640.0 0.945039 157.860067
660.0 0.9405 117.422155
680.0 0.932894 77.231616
700.0 0.926488 37.383008
720.0 0.924814 -2.245466
740.0 0.92839 -41.855571
760.0 0.935687 -81.647051
780.0 0.942596 -121.751055
800.0 0.944791 -162.091867
820.0 0.940495 157.511972
840.0 0.93084 117.281382
860.0 0.92042 77.350333
880.0 0.913999 37.643233
900.0 0.914427 -2.010358
920.0 0.922213 -41.857055
940.0 0.933887 -82.090152
960.0 0.944 -122.708002
980.0 0.946973 -163.533395
1000.0 0.9401 155.799803
1020.0 0.92637 115.617755
1040.0 0.911508 76.019331
1060.0 0.90166 36.889674
1080.0 0.90101 -2.11487
1100.0 0.909899 -41.381807
1120.0 0.925718 -81.233167
1140.0 0.941894 -121.824132
1160.0 0.950522 -162.954464
1180.0 0.947023 155.826546
1200.0 0.932471 115.042722
1220.0 0.913844 75.023315
1240.0 0.898826 35.716851
1260.0 0.892477 -3.158609
1280.0 0.896949 -42.043175
1300.0 0.910037 -81.376395
1320.0 0.926644 -121.421324
1340.0 0.939465 -162.216267
1360.0 0.941892 156.557777
1380.0 0.93309 115.402683
1400.0 0.917474 74.732586
1420.0 0.902315 34.738533
1440.0 0.893735 -4.708459
1460.0 0.893936 -43.885907
1480.0 0.902347 -83.110848
1500.0 0.914948 -122.671373
1520.0 0.925993 -162.654627
1540.0 0.930719 157.011695
1560.0 0.926869 116.549338
1580.0 0.917084 76.20045
1600.0 0.906382 36.041408
1620.0 0.899365 -3.958808
1640.0 0.898953 -43.943118
1660.0 0.904243 -84.058609
1680.0 0.912065 -124.33342
1700.0 0.918025 -164.714811
1720.0 0.918431 154.984539
1740.0 0.913376 114.941598
1760.0 0.905415 75.191105
1780.0 0.898685 35.64227
1800.0 0.896816 -3.96207
1820.0 0.90059 -43.873036
1840.0 0.908662 -84.230174
1860.0 0.916788 -125.00716
1880.0 0.92017 -165.90816
1900.0 0.916713 153.451777
1920.0 0.907456 113.389867
1940.0 0.896898 74.003989
1960.0 0.889724 35.069279
1980.0 0.888824 -3.787447
2000.0 0.895253 -43.014798
2020.0 0.906451 -82.970738
2040.0 0.91764 -123.732588
2060.0 0.923074 -165.081777
2080.0 0.918988 153.518904
2100.0 0.907284 112.637619
2120.0 0.893148 72.574994
2140.0 0.882469 33.316678
2160.0 0.87941 -5.482594
2180.0 0.884631 -44.289422
2200.0 0.896555 -83.550308
2220.0 0.910376 -123.588726
2240.0 0.919672 -164.387525
2260.0 0.919873 154.370158
2280.0 0.910339 113.19774
2300.0 0.895969 72.553912
2320.0 0.883291 32.577627
2340.0 0.876969 -6.839402
2360.0 0.879251 -46.007489
2380.0 0.888477 -85.29575
2400.0 0.900754 -124.954891
2420.0 0.910798 -165.101906
2440.0 0.913696 154.398582
2460.0 0.908654 113.818722
2480.0 0.89834 73.389175
2500.0 0.887819 33.238397
2520.0 0.881866 -6.713041
2540.0 0.882171 -46.61729
2560.0 0.888186 -86.607653
2580.0 0.896497 -126.767297
2600.0 0.902645 -167.005319
2620.0 0.903836 152.830586
2640.0 0.899367 112.889956
2660.0 0.891938 73.229762
2680.0 0.8853 33.696998
2700.0 0.882283 -5.934285
2720.0 0.884515 -45.917327
2740.0 0.890491 -86.401391
2760.0 0.89703 -127.286832
2780.0 0.90043 -168.296833
2800.0 0.898184 150.991071
2820.0 0.891607 110.909134
2840.0 0.883793 71.506637
2860.0 0.878412 32.59111
2880.0 0.878277 -6.274305
2900.0 0.883458 -45.561993
2920.0 0.892326 -85.618067
2940.0 0.90068 -126.548747
2960.0 0.903768 -168.036848
2980.0 0.899715 150.495989
3000.0 0.889992 109.647248
3020.0 0.879439 69.765617
3040.0 0.872696 30.759844
3060.0 0.872081 -7.735633
3080.0 0.878142 -46.263188
3100.0 0.888296 -85.366341
3120.0 0.89837 -125.364443
3140.0 0.903538 -166.291289
3160.0 0.900389 152.230541
3180.0 0.890517 110.797029
3200.0 0.878637 69.90781
3220.0 0.870173 29.81908
3240.0 0.86873 -9.577811
3260.0 0.874208 -48.596711
3280.0 0.88454 -87.614728
3300.0 0.89537 -126.988488
3320.0 0.901725 -166.850094
3340.0 0.900764 152.858484
3360.0 0.892424 112.358419
3380.0 0.880774 71.915254
3400.0 0.87111 31.638022
3420.0 0.867163 -8.466233
3440.0 0.870581 -48.505015
3460.0 0.879241 -88.613859
3480.0 0.889088 -128.814137
3500.0 0.895606 -169.052868
3520.0 0.895463 150.850129
3540.0 0.889377 111.062993
3560.0 0.880373 71.592498
3580.0 0.872603 32.313962
3600.0 0.869619 -7.070779
3620.0 0.872136 -46.859665
3640.0 0.879031 -87.219114
3660.0 0.886653 -128.126026
3680.0 0.890732 -169.244986
3700.0 0.889413 149.884259
3720.0 0.883331 109.65635
3740.0 0.876029 70.232068
3760.0 0.871163 31.40279
3780.0 0.87063 -7.237422
3800.0 0.875004 -46.20452
3820.0 0.882027 -85.95119
3840.0 0.888209 -126.633646
3860.0 0.890014 -168.07213
3880.0 0.885597 150.298232
3900.0 0.877384 109.14904
3920.0 0.869441 68.909994
3940.0 0.865488 29.673347
3960.0 0.867548 -8.869232
3980.0 0.874552 -47.231015
4000.0 0.884069 -85.959186
4020.0 0.891825 -125.518219
4040.0 0.893436 -166.032786
4060.0 0.887479 152.715983
4080.0 0.875965 111.237397
4100.0 0.864593 70.117534
4120.0 0.858766 29.695422
4140.0 0.860663 -9.958555
4160.0 0.869746 -49.065653
4180.0 0.882019 -88.018657
4200.0 0.892355 -127.164954
4220.0 0.896098 -166.764973
4240.0 0.89066 153.155982
4260.0 0.878428 112.743907
4280.0 0.864692 72.18511
4300.0 0.855545 31.688847
4320.0 0.855174 -8.654385
4340.0 0.863264 -48.821622
4360.0 0.876532 -88.830815
4380.0 0.889099 -128.748457
4400.0 0.895156 -168.544932
4420.0 0.892376 151.822395
4440.0 0.881865 112.371109
4460.0 0.868533 73.05299
4480.0 0.858018 33.659271
4500.0 0.854187 -6.02817
4520.0 0.858803 -46.204794
4540.0 0.86945 -86.947884
4560.0 0.881114 -128.0849
4580.0 0.888146 -169.280896
4600.0 0.886861 149.927041
4620.0 0.878759 109.894302
4640.0 0.868033 70.66655
4660.0 0.859472 32.039869
4680.0 0.856756 -6.439593
4700.0 0.860393 -45.278933
4720.0 0.868941 -84.883982
4740.0 0.878167 -125.460999
4760.0 0.882865 -166.796039
4780.0 0.880497 151.641238
4800.0 0.872027 110.496147
4820.0 0.862271 70.248766
4840.0 0.856136 30.952752
4860.0 0.855954 -7.646586
4880.0 0.862049 -46.036949
4900.0 0.871513 -84.782632
4920.0 0.880033 -124.294594
4940.0 0.883129 -164.768966
4960.0 0.877982 153.99095
4980.0 0.866902 112.477428
5000.0 0.85522 71.229277
5020.0 0.8486 30.67786
5040.0 0.850322 -9.072483
5060.0 0.859242 -48.181272
5080.0 0.871949 -86.972591
5100.0 0.882995 -125.867622
5120.0 0.886948 -165.156021
5140.0 0.881515 155.004252
5160.0 0.867986 114.628332
5180.0 0.852309 73.888589
5200.0 0.841614 32.974524
5220.0 0.840489 -7.859067
5240.0 0.849909 -48.409194
5260.0 0.865619 -88.581222
5280.0 0.88088 -128.324502
5300.0 0.889248 -167.691864
5320.0 0.886788 153.258783
5340.0 0.875031 114.404661
5360.0 0.858776 75.488891
5380.0 0.844493 36.236158
5400.0 0.838145 -3.646028
5420.0 0.842029 -44.279341
5440.0 0.854852 -85.529578
5460.0 0.870614 -127.064905
5480.0 0.881452 -168.3474
5500.0 0.882794 151.103189
5520.0 0.874629 111.528137
5540.0 0.861698 72.856566
5560.0 0.849803 34.663054
5580.0 0.843169 -3.59158
5600.0 0.844557 -42.459721
5620.0 0.853085 -82.351375
5640.0 0.865025 -123.321073
5660.0 0.874477 -165.068204
5680.0 0.875926 153.08218
5700.0 0.869139 111.85796
5720.0 0.857944 71.661655
5740.0 0.847758 32.508977
5760.0 0.843067 -5.982285
5780.0 0.845082 -44.361429
5800.0 0.853104 -83.168954
5820.0 0.863585 -122.848961
5840.0 0.87124 -163.499723
5860.0 0.872151 155.124464
5880.0 0.86529 113.561201
5900.0 0.854605 72.421902
5920.0 0.845833 32.048862
5940.0 0.842814 -7.489681
5960.0 0.8471 -46.404087
5980.0 0.85646 -85.077531
6000.0 0.866794 -123.866683
6020.0 0.873404 -163.093829
6040.0 0.872244 157.110646
6060.0 0.863465 116.783134
6080.0 0.850587 76.038536
6100.0 0.839468 35.098146
6120.0 0.835596 -5.842826
6140.0 0.840418 -46.581057
6160.0 0.852069 -86.935712
6180.0 0.865331 -126.85155
6200.0 0.874099 -166.302178
6220.0 0.874923 154.624086
6240.0 0.867145 115.73225
6260.0 0.854176 76.755738
6280.0 0.841348 37.31098
6300.0 0.833632 -2.88529
6320.0 0.834885 -43.926637
6340.0 0.844544 -85.614902
6360.0 0.85816 -127.411461
6380.0 0.869276 -168.711067
6400.0 0.872445 150.989471
6420.0 0.86732 111.864101
6440.0 0.856743 73.650784
6460.0 0.845117 35.836434
6480.0 0.837094 -2.282273
6500.0 0.835197 -41.351498
6520.0 0.840532 -81.74483
6540.0 0.850708 -123.43433
6560.0 0.860354 -165.802303
6580.0 0.864731 152.077433
6600.0 0.861771 111.024968
6620.0 0.854036 71.412821
6640.0 0.845757 32.994738
6660.0 0.840007 -4.817171
6680.0 0.83912 -42.777326
6700.0 0.84284 -81.610583
6720.0 0.84938 -121.739114
6740.0 0.855486 -163.202141
6760.0 0.857163 154.517804
6780.0 0.85362 112.282761
6800.0 0.846822 70.848734
6820.0 0.840378 30.613363
6840.0 0.837626 -8.546243
6860.0 0.839192 -47.068547
6880.0 0.844546 -85.491513
6900.0 0.851285 -124.360327
6920.0 0.855932 -163.980229
6940.0 0.856189 155.585854
6960.0 0.851079 114.546263
6980.0 0.843057 73.312414
7000.0 0.836183 32.236733
7020.0 0.83344 -8.413255
7040.0 0.836412 -48.54817
7060.0 0.843406 -88.239255
7080.0 0.851208 -127.571928
7100.0 0.85646 -166.698501
7120.0 0.856262 154.262568
7140.0 0.850855 115.1792
7160.0 0.84225 75.826086
7180.0 0.833907 35.996159
7200.0 0.829701 -4.524788
7220.0 0.831126 -45.774539
7240.0 0.837757 -87.504324
7260.0 0.846202 -129.264017
7280.0 0.851905 -170.449551
7300.0 0.852649 149.374612
7320.0 0.848245 110.299061
7340.0 0.841126 72.079673
7360.0 0.834362 34.123916
7380.0 0.830063 -4.250866
7400.0 0.830199 -43.687973
7420.0 0.834456 -84.579938
7440.0 0.840871 -126.756069
7460.0 0.846288 -169.506589
7480.0 0.847534 148.236815
7500.0 0.844829 107.35789
7520.0 0.840102 68.107989
7540.0 0.835618 30.190191
7560.0 0.833479 -7.130075
7580.0 0.833815 -44.742956
7600.0 0.836385 -83.462358
7620.0 0.839534 -123.879414
7640.0 0.840761 -165.978818
7660.0 0.83912 150.921915
7680.0 0.835044 107.959076
7700.0 0.831199 66.20029
7720.0 0.830104 26.066092
7740.0 0.832111 -12.626625
7760.0 0.836898 -50.479802
7780.0 0.842304 -88.278814
7800.0 0.84584 -126.680932
7820.0 0.845595 -166.161478
7840.0 0.840355 153.202868
7860.0 0.832282 111.742958
7880.0 0.824963 70.007648
7900.0 0.82181 28.615161
7920.0 0.824631 -12.084813
7940.0 0.831677 -52.046605
7960.0 0.840114 -91.431125
7980.0 0.846397 -130.562148
8000.0 0.847487 -169.687361
8020.0 0.843162 151.000537
8040.0 0.834744 111.377286
8060.0 0.825862 71.419446
8080.0 0.820425 31.072102
8100.0 0.820363 -9.63805
8120.0 0.826037 -50.631837
8140.0 0.8345 -91.775696
8160.0 0.841631 -132.780602
8180.0 0.844377 -173.362411
8200.0 0.841388 146.72919
8220.0 0.834907 107.580753
8240.0 0.828069 68.984876
8260.0 0.82369 30.583665
8280.0 0.823935 -8.146205
8300.0 0.828202 -47.702832
8320.0 0.834648 -88.355142
8340.0 0.839678 -130.050016
8360.0 0.83979 -172.218998
8380.0 0.83505 145.956538
8400.0 0.827825 105.168062
8420.0 0.822061 65.728806
8440.0 0.820661 27.399395
8460.0 0.823837 -10.372596
8480.0 0.830821 -48.313595
8500.0 0.838463 -87.164428
8520.0 0.842904 -127.371388
8540.0 0.841227 -168.980773
8560.0 0.832812 148.555524
8580.0 0.821993 106.174467
8600.0 0.814228 64.700662
8620.0 0.812905 24.582063
8640.0 0.818751 -14.305193
8660.0 0.828927 -52.478139
8680.0 0.839766 -90.593203
8700.0 0.846819 -129.338463
8720.0 0.84607 -169.122308
8740.0 0.837273 149.989441
8760.0 0.823669 108.319534
8780.0 0.811983 66.515689
8800.0 0.808163 25.182351
8820.0 0.813541 -15.27051
8840.0 0.826112 -54.792362
8860.0 0.840461 -93.676464
8880.0 0.850636 -132.289937
8900.0 0.8525 -171.033327
8920.0 0.84431 149.832001
8940.0 0.829425 110.194653
8960.0 0.813857 70.004523
8980.0 0.804011 29.380142
9000.0 0.804448 -11.514446
9020.0 0.814434 -52.470113
9040.0 0.829642 -93.261531
9060.0 0.843227 -133.774269
9080.0 0.848862 -173.872599
9100.0 0.845004 146.50596
9120.0 0.833808 107.29935
9140.0 0.820709 68.367256
9160.0 0.81144 29.403717
9180.0 0.809152 -9.873499
9200.0 0.814968 -49.684188
9220.0 0.825875 -90.146692
9240.0 0.836444 -131.111754
9260.0 0.84146 -172.274327
9280.0 0.83794 146.809291
9300.0 0.82841 106.519876
9320.0 0.81784 66.934474
9340.0 0.810933 27.921656
9360.0 0.811006 -10.887765
9380.0 0.81753 -49.942048
9400.0 0.82785 -89.599918
9420.0 0.836908 -130.095928
9440.0 0.839145 -171.288889
9460.0 0.833122 147.253323
9480.0 0.821486 106.07263
9500.0 0.810459 65.63963
9520.0 0.805788 26.071986
9540.0 0.809362 -12.765077
9560.0 0.820525 -51.222373
9580.0 0.834862 -89.797418
9600.0 0.846234 -128.881847
9620.0 0.849102 -168.750699
9640.0 0.840302 150.611075
9660.0 0.823291 109.472914
9680.0 0.805632 68.163879
9700.0 0.795169 27.075931
9720.0 0.796869 -13.535349
9740.0 0.809543 -53.580333
9760.0 0.828305 -93.111477
9780.0 0.845682 -132.37551
9800.0 0.854008 -171.571587
9820.0 0.849991 149.139674
9840.0 0.83481 109.630388
9860.0 0.81497 69.852075
9880.0 0.799027 29.719707
9900.0 0.793156 -10.71502
9920.0 0.80029 -51.285743
9940.0 0.817292 -91.818835
9960.0 0.836842 -132.098495
9980.0 0.850828 -172.026626
10000.0 0.852929 148.455133
10020.0 0.843233 109.327419
10040.0 0.826408 70.366353
10060.0 0.809348 31.302254
10080.0 0.799201 -8.183423
10100.0 0.799355 -48.276859
10120.0 0.809812 -88.907276
10140.0 0.825863 -129.874
10160.0 0.839577 -170.79037
10180.0 0.845121 148.705436
10200.0 0.840308 108.803252
10220.0 0.828383 69.500504
10240.0 0.815285 30.482065
10260.0 0.805841 -8.642511
10280.0 0.803842 -48.22223
10300.0 0.809225 -88.477864
10320.0 0.818855 -129.309462
10340.0 0.827936 -170.443917
10360.0 0.83127 148.54479
10380.0 0.827956 108.050978
10400.0 0.820419 68.184153
10420.0 0.812733 28.864343
10440.0 0.809326 -10.206784
10460.0 0.811533 -49.373081
10480.0 0.818765 -88.854203
10500.0 0.827667 -128.790107
10520.0 0.833034 -169.069813
10540.0 0.831866 150.537557
10560.0 0.823665 110.258439
10580.0 0.812116 70.26886
10600.0 0.802805 30.504229
10620.0 0.799668 -9.169017
10640.0 0.805133 -48.899464
10660.0 0.817352 -88.822857
10680.0 0.831367 -128.891868
10700.0 0.841231 -169.014003
10720.0 0.84151 150.982579
10740.0 0.831999 111.236905
10760.0 0.816432 71.656886
10780.0 0.80072 32.051136
10800.0 0.791422 -7.882064
10820.0 0.791768 -48.347757
10840.0 0.80214 -89.281519
10860.0 0.818517 -130.463942
10880.0 0.833397 -171.466848
10900.0 0.840875 148.102679
10920.0 0.838012 108.423538
10940.0 0.827002 69.452147
10960.0 0.813107 30.80188
10980.0 0.801152 -8.001266
11000.0 0.795951 -47.373794
11020.0 0.799182 -87.559455
11040.0 0.809435 -128.397465
11060.0 0.822604 -169.500798
11080.0 0.832223 149.665676
11100.0 0.834724 109.54886
11120.0 0.829799 70.222335
11140.0 0.819945 31.493118
11160.0 0.809773 -7.113722
11180.0 0.802372 -46.132464
11200.0 0.800307 -85.904347
11220.0 0.80387 -126.551135
11240.0 0.810479 -167.768061
11260.0 0.81721 150.96973
11280.0 0.820626 110.154577
11300.0 0.819899 70.100811
11320.0 0.816565 30.700078
11340.0 0.812187 -8.3789
11360.0 0.809268 -47.558828
11380.0 0.80853 -87.225143
11400.0 0.809648 -127.440153
11420.0 0.811905 -168.04478
11440.0 0.813209 151.341451
11460.0 0.813165 111.119101
11480.0 0.811918 71.404896
11500.0 0.810097 32.108198
11520.0 0.809366 -7.131564
11540.0 0.809738 -46.744411
11560.0 0.811267 -86.986426
11580.0 0.812984 -127.920737
11600.0 0.812957 -169.212324
11620.0 0.81096 149.656467
11640.0 0.806969 109.118862
11660.0 0.802486 69.402972
11680.0 0.799608 30.309579
11700.0 0.799038 -8.567999
11720.0 0.801848 -47.714578
11740.0 0.807091 -87.565971
11760.0 0.812712 -128.184958
11780.0 0.816622 -169.32534
11800.0 0.816276 149.568398
11820.0 0.812091 109.092648
11840.0 0.805759 69.483384
11860.0 0.799257 30.656453
11880.0 0.795149 -7.84682
11900.0 0.793892 -46.641371
11920.0 0.795821 -86.218408
11940.0 0.800082 -126.880589
11960.0 0.804374 -168.423883
11980.0 0.807488 149.742151
12000.0 0.808061 108.320557
12020.0 0.806493 67.871862
12040.0 0.804227 28.43746
12060.0 0.801553 -10.30012
12080.0 0.799532 -48.873853
12100.0 0.797944 -87.895869
12120.0 0.796538 -127.706815
12140.0 0.795887 -168.388225
12160.0 0.795627 150.376234
12180.0 0.796619 109.169705
12200.0 0.798921 68.448324
12220.0 0.801678 28.470444
12240.0 0.804559 -10.897354
12260.0 0.805748 -50.03959
12280.0 0.804453 -89.338481
12300.0 0.800464 -129.149958
12320.0 0.794027 -169.508592
12340.0 0.787888 149.803013
12360.0 0.784149 109.126141
12380.0 0.784622 68.844147
12400.0 0.789781 29.029583
12420.0 0.797258 -10.470901
12440.0 0.804683 -49.990531
12460.0 0.808375 -89.944996
12480.0 0.80567 -130.483441
12500.0 0.797196 -171.530803
12520.0 0.785502 147.282091
12540.0 0.775968 106.464674
12560.0 0.772588 66.304095
12580.0 0.776267 26.882883
12600.0 0.786229 -12.078057
12620.0 0.798279 -51.076265
12640.0 0.80791 -90.554673
12660.0 0.810818 -130.856949
12680.0 0.804424 -171.898043
12700.0 0.791754 146.74469
12720.0 0.778152 105.616989
12740.0 0.76948 65.244067
12760.0 0.769195 25.750476
12780.0 0.776164 -13.051562
12800.0 0.787999 -51.607702
12820.0 0.799895 -90.544536
12840.0 0.80667 -130.28577
12860.0 0.805378 -171.021551
12880.0 0.795521 147.496927
12900.0 0.78213 105.885802
12920.0 0.771499 64.726551
12940.0 0.767482 24.461037
12960.0 0.771464 -14.896286
12980.0 0.780422 -53.708735
13000.0 0.790407 -92.464848
13020.0 0.797072 -131.749986
13040.0 0.796499 -171.865138
13060.0 0.789343 147.211182
13080.0 0.77895 105.795143
13100.0 0.771007 64.485716
13120.0 0.770127 23.738023
13140.0 0.776036 -16.207165
13160.0 0.786358 -55.415458
13180.0 0.796037 -94.275971
13200.0 0.800071 -133.151905
13220.0 0.796499 -172.407814
13240.0 0.785591 147.773259
13260.0 0.772473 107.447535
13280.0 0.763345 66.737516
13300.0 0.76235 25.954219
13320.0 0.770938 -14.671263
13340.0 0.784893 -55.07133
13360.0 0.798039 -95.254116
13380.0 0.804169 -135.39811
13400.0 0.799171 -175.568968
13420.0 0.785463 144.227695
13440.0 0.768756 103.977
13460.0 0.75658 63.792396
13480.0 0.75503 23.707843
13500.0 0.76475 -16.221235
13520.0 0.783135 -56.00027
13540.0 0.802959 -95.807263
13560.0 0.815447 -135.698323
13580.0 0.815226 -175.68416
13600.0 0.801426 144.352261
13620.0 0.780671 104.594315
13640.0 0.761982 65.037982
13660.0 0.752282 25.685394
13680.0 0.755788 -13.58568
13700.0 0.77047 -53.007261
13720.0 0.790759 -92.787767
13740.0 0.808087 -133.20786
13760.0 0.813212 -174.263682
13780.0 0.803743 144.308872
13800.0 0.784149 102.876946
13820.0 0.764359 61.884025
13840.0 0.753967 21.544001
13860.0 0.75621 -18.049953
13880.0 0.770327 -56.965525
13900.0 0.790552 -95.565257
13920.0 0.808632 -134.205183
13940.0 0.817563 -173.287431
13960.0 0.812206 146.953399
13980.0 0.79498 106.528922
14000.0 0.773811 65.499005
14020.0 0.757986 24.162813
14040.0 0.755169 -17.113587
14060.0 0.765545 -58.007855
14080.0 0.784264 -98.285739
14100.0 0.803304 -138.071728
14120.0 0.813648 -177.555208
14140.0 0.811717 143.048178
14160.0 0.798579 103.480372
14180.0 0.780795 63.640759
14200.0 0.767599 23.425924
14220.0 0.764728 -17.052515
14240.0 0.774517 -57.493468
14260.0 0.792666 -97.685559
14280.0 0.81058 -137.415008
14300.0 0.82069 -176.691421
14320.0 0.817622 144.355142
14340.0 0.803236 105.546119
14360.0 0.783991 66.485482
14380.0 0.767659 26.887655
14400.0 0.76238 -13.4039
14420.0 0.770589 -54.281283
14440.0 0.789644 -95.288086
14460.0 0.81163 -136.032914
14480.0 0.825787 -176.14404
14500.0 0.826752 144.550448
14520.0 0.814408 105.89117
14540.0 0.794377 67.578437
14560.0 0.775297 29.049618
14580.0 0.763649 -10.171785
14600.0 0.764977 -50.299643
14620.0 0.779154 -91.326127
14640.0 0.800029 -132.829879
14660.0 0.818456 -174.328647
14680.0 0.824712 144.656775
14700.0 0.816963 104.482934
14720.0 0.800142 65.057198
