! File created by SignalIntegrity v1.3.3: Signal and Power Integrity Tools
! https://github.com/TeledyneLeCroy/SignalIntegrity
# MHz S MA R 50.0
0.0 1.039475 0.0
20.0 1.033795 -40.377769
40.0 1.019977 -80.624292
60.0 1.004219 -120.770058
80.0 0.992959 -160.930084
100.0 0.990669 158.681625
120.0 0.997046 117.908244
140.0 1.008404 76.760678
160.0 1.018168 35.406342
180.0 1.020359 -5.784989
200.0 1.013976 -46.467594
220.0 1.002105 -86.49865
240.0 0.990711 -125.989651
260.0 0.985035 -165.333913
280.0 0.987197 155.019085
300.0 0.996623 114.686184
320.0 1.008341 73.506456
340.0 1.015482 31.730152
360.0 1.01313 -10.100708
380.0 1.00112 -51.345659
400.0 0.985263 -91.611468
420.0 0.972285 -130.962216
440.0 0.966966 -169.768558
460.0 0.971506 151.375885
480.0 0.983755 111.880693
500.0 0.998624 71.372835
520.0 1.008205 29.825697
540.0 1.005744 -12.266084
560.0 0.991533 -54.147813
580.0 0.971824 -95.200874
600.0 0.955315 -135.19021
620.0 0.948248 -174.363448
640.0 0.952277 146.784854
660.0 0.96602 107.662479
680.0 0.983872 67.743264
700.0 0.997833 26.836193
720.0 1.000827 -14.863353
740.0 0.990487 -56.778016
760.0 0.972438 -98.257779
780.0 0.955382 -138.951087
800.0 0.946104 -178.825735
820.0 0.947818 141.838563
840.0 0.958759 102.62077
860.0 0.974428 63.138811
880.0 0.988168 23.106536
900.0 0.993357 -17.479798
920.0 0.987915 -58.412184
940.0 0.974464 -99.412586
960.0 0.959609 -140.241526
980.0 0.949963 179.14148
1000.0 0.948477 138.685288
1020.0 0.954992 98.299191
1040.0 0.965432 57.890044
1060.0 0.974225 17.497493
1080.0 0.977357 -22.796863
1100.0 0.973359 -62.893993
1120.0 0.965122 -102.771665
1140.0 0.957091 -142.601601
1160.0 0.952981 177.382863
1180.0 0.954917 136.925242
1200.0 0.961094 95.902554
1220.0 0.967589 54.473072
1240.0 0.96995 12.997027
1260.0 0.965711 -28.028089
1280.0 0.957109 -68.25439
1300.0 0.948192 -107.677753
1320.0 0.943248 -146.575541
1340.0 0.945102 174.512183
1360.0 0.953197 135.018357
1380.0 0.964724 94.525886
1400.0 0.973703 52.928675
1420.0 0.974146 10.651226
1440.0 0.964824 -31.552845
1460.0 0.949581 -72.942516
1480.0 0.935721 -113.135697
1500.0 0.928939 -152.285731
1520.0 0.931356 169.136775
1540.0 0.942645 130.463648
1560.0 0.958636 91.027363
1580.0 0.972926 50.424033
1600.0 0.978326 8.640493
1620.0 0.970723 -33.786158
1640.0 0.953941 -76.037474
1660.0 0.936192 -117.455886
1680.0 0.925171 -157.746902
1700.0 0.924871 162.921689
1720.0 0.934236 124.112029
1740.0 0.949656 85.290217
1760.0 0.964839 45.938382
1780.0 0.972799 5.808398
1800.0 0.96972 -35.065626
1820.0 0.956481 -76.388531
1840.0 0.939757 -117.751868
1860.0 0.927427 -158.886071
1880.0 0.924127 160.354413
1900.0 0.93069 119.950573
1920.0 0.943079 79.768165
1940.0 0.955223 39.706442
1960.0 0.961559 -0.326682
1980.0 0.95889 -40.334178
2000.0 0.949224 -80.31518
2020.0 0.93732 -120.37529
2040.0 0.928656 -160.644456
2060.0 0.927318 158.705536
2080.0 0.933145 117.611225
2100.0 0.942969 76.207168
2120.0 0.95114 34.770487
2140.0 0.952715 -6.273489
2160.0 0.947299 -46.598854
2180.0 0.937681 -86.140456
2200.0 0.928861 -125.098214
2220.0 0.925202 -163.954519
2240.0 0.928376 156.752875
2260.0 0.937925 116.553582
2280.0 0.949372 75.216673
2300.0 0.956307 32.996994
2320.0 0.954161 -9.45093
2340.0 0.943018 -51.295026
2360.0 0.928791 -91.953562
2380.0 0.917981 -131.384215
2400.0 0.914706 -169.936598
2420.0 0.920614 151.741694
2440.0 0.933412 112.929293
2460.0 0.948475 73.054362
2480.0 0.958687 31.836765
2500.0 0.957498 -10.429217
2520.0 0.944842 -52.996832
2540.0 0.926815 -95.029619
2560.0 0.912287 -135.956842
2580.0 0.907366 -175.730018
2600.0 0.912886 145.339402
2620.0 0.926659 106.718403
2640.0 0.943082 67.793808
2660.0 0.955182 28.13287
2680.0 0.957254 -12.461778
2700.0 0.947177 -53.831494
2720.0 0.929856 -95.56141
2740.0 0.913655 -137.232869
2760.0 0.905641 -178.486142
2780.0 0.908987 140.83251
2800.0 0.921054 100.690026
2820.0 0.936296 60.959769
2840.0 0.948055 21.419922
2860.0 0.950882 -18.082763
2880.0 0.944127 -57.677743
2900.0 0.930861 -97.519487
2920.0 0.917272 -137.738539
2940.0 0.909703 -178.491089
2960.0 0.911091 140.207079
2980.0 0.920815 98.524023
3000.0 0.933485 56.76542
3020.0 0.942099 15.383391
3040.0 0.942597 -25.260296
3060.0 0.934893 -65.016011
3080.0 0.923462 -104.015577
3100.0 0.913707 -142.712707
3120.0 0.909623 178.341535
3140.0 0.91351 138.59213
3160.0 0.923526 97.681877
3180.0 0.934816 55.683811
3200.0 0.940952 13.099408
3220.0 0.937683 -29.218814
3240.0 0.927238 -70.511314
3260.0 0.915152 -110.495253
3280.0 0.907052 -149.346914
3300.0 0.906566 172.364201
3320.0 0.913611 133.942292
3340.0 0.925996 94.747097
3360.0 0.938332 54.320807
3380.0 0.943841 12.678156
3400.0 0.938836 -29.697138
3420.0 0.924937 -72.011894
3440.0 0.909496 -113.533074
3460.0 0.899946 -153.969258
3480.0 0.899742 166.591911
3500.0 0.909056 127.755161
3520.0 0.923939 88.974886
3540.0 0.938507 49.786628
3560.0 0.946348 9.854665
3580.0 0.942627 -30.844742
3600.0 0.928691 -72.078674
3620.0 0.910778 -113.531339
3640.0 0.897188 -154.866281
3660.0 0.894166 164.104572
3680.0 0.902222 123.462257
3700.0 0.917777 83.20425
3720.0 0.933848 43.217405
3740.0 0.943029 3.437748
3760.0 0.94167 -36.211116
3780.0 0.930229 -75.838926
3800.0 0.914094 -115.595582
3820.0 0.900369 -155.74559
3840.0 0.894487 163.530054
3860.0 0.899237 122.207286
3880.0 0.911934 80.477027
3900.0 0.926167 38.786082
3920.0 0.935059 -2.398141
3940.0 0.93436 -42.709377
3960.0 0.925716 -82.065289
3980.0 0.913654 -120.768519
4000.0 0.903325 -159.320475
4020.0 0.89921 161.647283
4040.0 0.90256 121.612907
4060.0 0.912164 80.379392
4080.0 0.923138 38.154247
4100.0 0.929054 -4.35354
4120.0 0.927049 -46.284654
4140.0 0.918472 -87.042746
4160.0 0.908273 -126.497743
4180.0 0.901383 -165.044007
4200.0 0.900172 156.688273
4220.0 0.905454 118.000752
4240.0 0.914751 78.29235
4260.0 0.923496 37.336177
4280.0 0.926805 -4.667272
4300.0 0.921771 -47.052518
4320.0 0.911253 -89.005415
4340.0 0.900911 -130.0134
4360.0 0.895657 -169.957904
4380.0 0.898138 150.868482
4400.0 0.906922 111.972784
4420.0 0.918585 72.882661
4440.0 0.927969 33.210673
4460.0 0.92986 -7.138063
4480.0 0.922919 -48.017407
4500.0 0.909679 -89.146233
4520.0 0.896408 -130.206859
4540.0 0.889451 -171.050497
4560.0 0.891467 148.37641
4580.0 0.90188 108.047757
4600.0 0.915966 67.875664
4620.0 0.927351 27.85691
4640.0 0.931157 -12.010076
4660.0 0.925202 -51.713559
4680.0 0.912375 -91.302532
4700.0 0.898054 -131.002147
4720.0 0.887837 -171.065322
4740.0 0.886268 148.265081
4760.0 0.893657 106.922979
4780.0 0.906795 65.149885
4800.0 0.919433 23.37726
4820.0 0.925183 -17.836766
4840.0 0.922349 -58.101217
4860.0 0.912937 -97.396335
4880.0 0.901562 -136.017622
4900.0 0.89311 -174.562143
4920.0 0.89023 146.330328
4940.0 0.894182 106.164467
4960.0 0.902802 64.752823
4980.0 0.911409 22.46533
5000.0 0.915628 -19.933526
5020.0 0.913214 -61.588595
5040.0 0.906539 -101.961714
5060.0 0.899562 -141.111286
5080.0 0.895192 -179.492613
5100.0 0.895397 142.187689
5120.0 0.899313 103.203903
5140.0 0.904829 63.082754
5160.0 0.908743 21.700533
5180.0 0.907914 -20.514673
5200.0 0.902831 -62.77545
5220.0 0.896258 -104.340071
5240.0 0.891965 -144.782218
5260.0 0.892623 175.807414
5280.0 0.89774 137.018088
5300.0 0.905605 98.318886
5320.0 0.912633 59.181533
5340.0 0.914915 19.335706
5360.0 0.910774 -21.243444
5380.0 0.90089 -62.320315
5400.0 0.889779 -103.511215
5420.0 0.882657 -144.544273
5440.0 0.882537 174.739794
5460.0 0.890024 134.31484
5480.0 0.901674 94.043613
5500.0 0.912448 53.854215
5520.0 0.917601 13.712089
5540.0 0.914254 -26.29622
5560.0 0.904269 -66.088248
5580.0 0.89185 -105.73048
5600.0 0.882123 -145.381824
5620.0 0.879373 174.652257
5640.0 0.884314 134.102677
5660.0 0.895094 92.881372
5680.0 0.906492 51.128014
5700.0 0.912478 9.326633
5720.0 0.910609 -31.952878
5740.0 0.902069 -72.312783
5760.0 0.891522 -111.680307
5780.0 0.883678 -150.410979
5800.0 0.881042 170.946759
5820.0 0.884778 131.76874
5840.0 0.892832 91.538595
5860.0 0.901325 50.13641
5880.0 0.905888 7.88412
5900.0 0.903611 -34.442629
5920.0 0.896524 -75.998494
5940.0 0.88876 -116.331471
5960.0 0.884037 -155.446896
5980.0 0.884616 166.192287
6000.0 0.889595 127.912377
6020.0 0.896924 89.054626
6040.0 0.902891 49.088949
6060.0 0.903507 7.917798
6080.0 0.89793 -34.112251
6100.0 0.888343 -76.321727
6120.0 0.879966 -117.974784
6140.0 0.877282 -158.697455
6160.0 0.881162 161.509589
6180.0 0.890319 122.316583
6200.0 0.900576 83.216802
6220.0 0.907188 43.81175
6240.0 0.906904 3.843149
6260.0 0.898785 -36.674968
6280.0 0.886712 -77.522092
6300.0 0.876349 -118.461141
6320.0 0.872483 -159.253625
6340.0 0.877366 160.172396
6360.0 0.888424 119.76547
6380.0 0.900773 79.45307
6400.0 0.908475 39.14235
6420.0 0.907157 -1.116237
6440.0 0.897543 -41.239263
6460.0 0.883581 -81.207981
6480.0 0.871443 -121.06452
6500.0 0.866496 -161.017564
6520.0 0.870545 158.716453
6540.0 0.882571 117.963087
6560.0 0.897147 76.655885
6580.0 0.907059 35.030926
6600.0 0.907503 -6.492687
6620.0 0.898067 -47.43105
6640.0 0.884104 -87.475586
6660.0 0.872036 -126.702774
6680.0 0.866365 -165.420224
6700.0 0.869506 155.857143
6720.0 0.879776 116.57093
6740.0 0.893069 76.327673
6760.0 0.902969 34.981027
6780.0 0.90336 -7.124096
6800.0 0.893952 -49.308832
6820.0 0.879499 -90.901397
6840.0 0.86729 -131.481967
6860.0 0.862847 -171.101756
6880.0 0.867113 149.889825
6900.0 0.878487 110.981813
6920.0 0.89207 71.614522
6940.0 0.901593 31.466574
6960.0 0.902488 -9.512273
6980.0 0.893537 -51.021103
7000.0 0.879654 -92.544479
7020.0 0.867975 -133.672338
7040.0 0.863587 -174.151128
7060.0 0.868404 145.990796
7080.0 0.879459 106.504847
7100.0 0.891686 67.097572
7120.0 0.89939 27.446533
7140.0 0.898057 -12.595244
7160.0 0.888241 -53.033008
7180.0 0.874168 -93.809774
7200.0 0.862537 -134.776975
7220.0 0.859234 -175.841976
7240.0 0.865466 143.09904
7260.0 0.878715 102.141984
7280.0 0.892468 61.317317
7300.0 0.899544 20.737983
7320.0 0.896625 -19.508052
7340.0 0.88461 -59.390599
7360.0 0.869282 -98.972795
7380.0 0.857479 -138.514773
7400.0 0.854033 -178.28416
7420.0 0.861334 141.462461
7440.0 0.876457 100.569097
7460.0 0.892715 59.139465
7480.0 0.901999 17.468314
7500.0 0.898801 -23.940814
7520.0 0.88528 -64.643001
7540.0 0.868053 -104.522624
7560.0 0.85455 -143.72838
7580.0 0.850377 177.323539
7600.0 0.856637 138.157382
7620.0 0.871459 98.372222
7640.0 0.888741 57.679138
7660.0 0.899898 16.153625
7680.0 0.89913 -25.818685
7700.0 0.886191 -67.67696
7720.0 0.867984 -108.930144
7740.0 0.85323 -149.452414
7760.0 0.847372 170.649897
7780.0 0.852582 131.094228
7800.0 0.866074 91.503821
7820.0 0.882097 51.608384
7840.0 0.8937 11.224224
7860.0 0.894716 -29.587046
7880.0 0.885002 -70.588795
7900.0 0.869454 -111.575237
7920.0 0.855514 -152.370831
7940.0 0.849843 167.047807
7960.0 0.854135 126.646829
7980.0 0.866373 86.403467
8000.0 0.880793 46.232121
8020.0 0.890131 6.140229
8040.0 0.890264 -33.858876
8060.0 0.880748 -73.794125
8080.0 0.866202 -113.731601
8100.0 0.853447 -153.892677
8120.0 0.847707 165.54527
8140.0 0.852019 124.516314
8160.0 0.864163 83.099111
8180.0 0.878113 41.615384
8200.0 0.887171 0.423
8220.0 0.886587 -40.153562
8240.0 0.877618 -79.981724
8260.0 0.864915 -119.2766
8280.0 0.853948 -158.412601
8300.0 0.849776 162.122455
8320.0 0.853809 121.937026
8340.0 0.864674 80.927541
8360.0 0.877251 39.25108
8380.0 0.884469 -2.580029
8400.0 0.882877 -43.970913
8420.0 0.873297 -84.543423
8440.0 0.860773 -124.2326
8460.0 0.85126 -163.38192
8480.0 0.8482 157.520905
8500.0 0.853418 117.994659
8520.0 0.864809 77.662659
8540.0 0.87717 36.500276
8560.0 0.884476 -5.225582
8580.0 0.88209 -46.981389
8600.0 0.871533 -88.216061
8620.0 0.858264 -128.712216
8640.0 0.848076 -168.525718
8660.0 0.845621 152.03379
8680.0 0.851382 112.579552
8700.0 0.863203 72.850403
8720.0 0.876217 32.674998
8740.0 0.883927 -7.867475
8760.0 0.882938 -48.560409
8780.0 0.873422 -89.217455
8800.0 0.859957 -129.726066
8820.0 0.848967 -170.20584
8840.0 0.844575 149.178986
8860.0 0.848824 108.344204
8880.0 0.859482 67.300571
8900.0 0.871267 26.288074
8920.0 0.879057 -14.421267
8940.0 0.87902 -54.613983
8960.0 0.871988 -94.234061
8980.0 0.861596 -133.546713
9000.0 0.851985 -172.940006
9020.0 0.847567 147.144754
9040.0 0.849755 106.405259
9060.0 0.857628 64.918103
9080.0 0.867556 23.050864
9100.0 0.874102 -18.563862
9120.0 0.874816 -59.360277
9140.0 0.869909 -99.1529
9160.0 0.862144 -138.09999
9180.0 0.855472 -176.728017
9200.0 0.852037 144.337049
9220.0 0.853483 104.587086
9240.0 0.858915 63.745602
9260.0 0.865224 22.049223
9280.0 0.869443 -19.899446
9300.0 0.869081 -61.372284
9320.0 0.865104 -101.838779
9340.0 0.86019 -141.299951
9360.0 0.856377 179.885145
9380.0 0.8557 141.117652
9400.0 0.857745 101.76302
9420.0 0.861133 61.460167
9440.0 0.863849 20.152213
9460.0 0.863338 -21.754132
9480.0 0.859958 -63.593556
9500.0 0.855437 -104.833467
9520.0 0.852246 -145.212724
9540.0 0.852715 175.090481
9560.0 0.856468 135.663556
9580.0 0.862453 96.085057
9600.0 0.86807 55.996539
9620.0 0.870094 15.365691
9640.0 0.86754 -25.60297
9660.0 0.860769 -66.572082
9680.0 0.852932 -107.203642
9700.0 0.847751 -147.443227
9720.0 0.847032 172.590514
9740.0 0.851726 132.64457
9760.0 0.859764 92.444817
9780.0 0.867762 51.95154
9800.0 0.872525 11.283931
9820.0 0.871387 -29.245608
9840.0 0.865467 -69.321511
9860.0 0.85744 -108.89327
9880.0 0.850409 -148.113542
9900.0 0.847475 172.591681
9920.0 0.848993 132.729774
9940.0 0.854355 91.984289
9960.0 0.860951 50.301523
9980.0 0.865087 8.135892
10000.0 0.865486 -33.782664
10020.0 0.862364 -74.801493
10040.0 0.858196 -114.584945
10060.0 0.85567 -153.349577
10080.0 0.855394 168.376335
10100.0 0.857765 129.908512
10120.0 0.861085 90.566428
10140.0 0.863195 50.021274
10160.0 0.862834 8.341232
10180.0 0.859326 -33.886278
10200.0 0.85507 -75.80859
10220.0 0.852615 -116.819607
10240.0 0.853104 -156.702024
10260.0 0.856847 164.250044
10280.0 0.861505 125.44483
10300.0 0.86478 86.284785
10320.0 0.864406 46.251131
10340.0 0.858947 5.233046
10360.0 0.850775 -36.478388
10380.0 0.843503 -78.315025
10400.0 0.841197 -119.612414
10420.0 0.845935 -160.047942
10440.0 0.855739 160.352354
10460.0 0.867493 121.263953
10480.0 0.87623 82.175153
10500.0 0.877495 42.723338
10520.0 0.870074 2.68886
10540.0 0.855579 -37.889978
10560.0 0.840208 -78.759604
10580.0 0.830533 -119.687137
10600.0 0.830358 -160.43573
10620.0 0.840443 159.033359
10640.0 0.856305 118.58645
10660.0 0.871484 78.101883
10680.0 0.879416 37.470505
10700.0 0.875872 -3.188988
10720.0 0.863172 -43.659645
10740.0 0.846945 -83.808571
10760.0 0.834046 -123.569114
10780.0 0.82972 -163.111507
10800.0 0.834612 157.309529
10820.0 0.846972 117.42183
10840.0 0.861352 76.965203
10860.0 0.870928 35.983934
10880.0 0.87167 -5.249327
10900.0 0.86317 -46.282251
10920.0 0.850589 -86.683297
10940.0 0.840115 -126.368389
10960.0 0.835454 -165.488754
10980.0 0.838433 155.533402
11000.0 0.846703 116.132177
11020.0 0.856205 75.86883
11040.0 0.861935 34.488834
11060.0 0.859645 -7.757243
11080.0 0.850924 -50.20167
11100.0 0.840772 -92.101683
11120.0 0.834934 -132.867305
11140.0 0.836939 -172.412887
11160.0 0.845366 148.953214
11180.0 0.857094 110.689369
11200.0 0.866774 72.09688
11220.0 0.868776 32.676978
11240.0 0.861003 -7.842553
11260.0 0.845123 -49.364786
11280.0 0.828666 -91.402158
11300.0 0.819996 -133.377831
11320.0 0.822975 -174.710454
11340.0 0.836932 144.872295
11360.0 0.855496 105.244979
11380.0 0.870843 66.120181
11400.0 0.876549 27.063102
11420.0 0.868891 -12.249919
11440.0 0.85099 -52.028674
11460.0 0.829918 -92.438839
11480.0 0.814602 -133.422127
11500.0 0.812434 -174.822365
11520.0 0.824081 143.652952
11540.0 0.844937 102.317933
11560.0 0.86543 61.29518
11580.0 0.875403 20.708673
11600.0 0.870741 -19.411812
11620.0 0.853238 -59.153103
11640.0 0.830809 -98.672451
11660.0 0.812821 -138.310003
11680.0 0.805752 -178.314781
11700.0 0.813231 141.173135
11720.0 0.832237 100.112108
11740.0 0.854616 58.698507
11760.0 0.870169 17.208576
11780.0 0.870804 -23.930205
11800.0 0.857553 -64.338827
11820.0 0.837432 -103.983185
11840.0 0.818992 -143.0395
11860.0 0.809584 178.076026
11880.0 0.811401 138.911505
11900.0 0.823521 99.135756
11920.0 0.840529 58.474998
11940.0 0.853637 16.997647
11960.0 0.856463 -24.950129
11980.0 0.847286 -66.850243
12000.0 0.831842 -108.171255
12020.0 0.818703 -148.733297
12040.0 0.81314 171.428004
12060.0 0.817561 132.09507
12080.0 0.829233 92.876799
12100.0 0.842534 53.455784
12120.0 0.851344 13.508499
12140.0 0.849903 -27.086392
12160.0 0.838586 -68.221767
12180.0 0.822702 -109.735993
12200.0 0.809952 -151.305479
12220.0 0.807369 167.360977
12240.0 0.815733 126.497864
12260.0 0.83152 86.274104
12280.0 0.847743 46.586859
12300.0 0.856254 7.28524
12320.0 0.853338 -31.870859
12340.0 0.839107 -71.216803
12360.0 0.819175 -111.036551
12380.0 0.802271 -151.665659
12400.0 0.795372 166.818637
12420.0 0.802792 124.683062
12440.0 0.821316 82.398456
12460.0 0.841789 40.603097
12480.0 0.854752 -0.281586
12500.0 0.853828 -40.097718
12520.0 0.840651 -78.972761
12540.0 0.821328 -117.440697
12560.0 0.802985 -156.112698
12580.0 0.793309 164.394312
12600.0 0.795947 123.708533
12620.0 0.810826 81.962571
12640.0 0.831828 39.607194
12660.0 0.847929 -2.582781
12680.0 0.851812 -43.89565
12700.0 0.842205 -84.039335
12720.0 0.824396 -123.118784
12740.0 0.806455 -161.707568
12760.0 0.794122 159.521357
12780.0 0.792301 120.022023
12800.0 0.801678 79.432014
12820.0 0.818262 37.869354
12840.0 0.834919 -4.250971
12860.0 0.842655 -46.285094
12880.0 0.838482 -87.59649
12900.0 0.825683 -127.994404
12920.0 0.8102 -167.608393
12940.0 0.799119 153.153535
12960.0 0.795751 113.806742
12980.0 0.80092 74.090852
13000.0 0.812345 33.842477
13020.0 0.823883 -6.82647
13040.0 0.830603 -47.661341
13060.0 0.829236 -88.467936
13080.0 0.820997 -129.072742
13100.0 0.811068 -169.562239
13120.0 0.803624 149.91276
13140.0 0.802414 109.297872
13160.0 0.807502 68.581241
13180.0 0.815495 27.98614
13200.0 0.822764 -12.299823
13220.0 0.824901 -52.210675
13240.0 0.8211 -91.799221
13260.0 0.81336 -131.436957
13280.0 0.804612 -171.521586
13300.0 0.799795 147.597939
13320.0 0.801207 105.810365
13340.0 0.80877 63.533936
13360.0 0.819512 21.419169
13380.0 0.827493 -19.808142
13400.0 0.829836 -59.711977
13420.0 0.825897 -98.42601
13440.0 0.817379 -136.391937
13460.0 0.808363 -174.376984
13480.0 0.801521 146.829938
13500.0 0.800367 106.704823
13520.0 0.806029 65.073644
13540.0 0.81587 22.491697
13560.0 0.825839 -20.069655
13580.0 0.830471 -61.67911
13600.0 0.828289 -101.807598
13620.0 0.821284 -140.688315
13640.0 0.811692 -178.96176
13660.0 0.803592 142.518253
13680.0 0.799184 102.894372
13700.0 0.800074 61.780351
13720.0 0.80663 19.284087
13740.0 0.815235 -23.802228
13760.0 0.82263 -66.371712
13780.0 0.826034 -107.702259
13800.0 0.824723 -147.580806
13820.0 0.820988 173.572156
13840.0 0.815816 135.031348
13860.0 0.811301 96.144468
13880.0 0.809002 56.353748
13900.0 0.808983 15.587483
13920.0 0.812037 -25.839561
13940.0 0.816402 -67.393835
13960.0 0.820626 -108.476791
13980.0 0.824021 -148.91181
14000.0 0.825072 171.188214
14020.0 0.824605 131.50808
14040.0 0.822701 91.63647
14060.0 0.819884 51.470118
14080.0 0.817975 11.081411
14100.0 0.816922 -29.218865
14120.0 0.817774 -69.046955
14140.0 0.82027 -108.342324
14160.0 0.82307 -147.239561
14180.0 0.826113 173.777102
14200.0 0.827393 134.080592
14220.0 0.826344 93.24763
14240.0 0.823029 51.121804
14260.0 0.817844 8.22792
14280.0 0.814135 -34.477349
14300.0 0.813475 -76.113231
14320.0 0.816412 -116.156438
14340.0 0.822747 -154.827097
14360.0 0.829621 167.239907
14380.0 0.835606 129.233171
14400.0 0.838119 90.276826
14420.0 0.83529 49.923099
14440.0 0.828516 8.158284
14460.0 0.819963 -34.404564
14480.0 0.814512 -76.733353
14500.0 0.814955 -118.087136
14520.0 0.820188 -158.1606
14540.0 0.828628 162.727328
14560.0 0.836009 123.866052
14580.0 0.839394 84.603766
14600.0 0.837535 44.360158
14620.0 0.83024 3.069421
14640.0 0.822097 -38.83063
14660.0 0.817295 -80.652082
14680.0 0.818543 -121.625111
14700.0 0.826321 -161.502699
14720.0 0.836519 159.501553
