! File created by SignalIntegrity v1.3.3: Signal and Power Integrity Tools
! https://github.com/TeledyneLeCroy/SignalIntegrity
# MHz S MA R 50.0
0.0 0.957428 0.0
20.0 0.961322 -39.310293
40.0 0.971654 -78.983737
60.0 0.983147 -119.276675
80.0 0.989055 -160.125475
100.0 0.98522 158.783535
120.0 0.972038 117.899036
140.0 0.955427 77.570672
160.0 0.942368 37.839608
180.0 0.937631 -1.466529
200.0 0.943118 -40.69102
220.0 0.9563 -80.196417
240.0 0.971882 -120.198531
260.0 0.982761 -160.725611
280.0 0.983049 158.49099
300.0 0.972602 117.843877
320.0 0.955998 77.622006
340.0 0.940343 37.91278
360.0 0.931578 -1.47677
380.0 0.931895 -40.852462
400.0 0.940623 -80.530063
420.0 0.953267 -120.744386
440.0 0.963419 -161.468131
460.0 0.965921 157.540173
480.0 0.95898 116.67445
500.0 0.94625 76.27886
520.0 0.933447 36.433291
540.0 0.925253 -2.979321
560.0 0.924299 -42.247968
580.0 0.929446 -81.690276
600.0 0.937507 -121.498531
620.0 0.944001 -161.728227
640.0 0.945039 157.799463
660.0 0.940492 117.360825
680.0 0.932883 77.169761
700.0 0.92648 37.320655
720.0 0.924815 -2.30855
740.0 0.928398 -41.919748
760.0 0.935699 -81.712507
780.0 0.942605 -121.817864
800.0 0.94479 -162.15977
820.0 0.940484 157.443377
840.0 0.930822 117.212332
860.0 0.920403 77.280895
880.0 0.913991 37.573091
900.0 0.914432 -2.081637
920.0 0.922228 -41.929816
940.0 0.933906 -82.16457
960.0 0.944011 -122.783726
980.0 0.946968 -163.609751
1000.0 0.940079 155.723574
1020.0 0.92634 115.542148
1040.0 0.911481 75.944167
1060.0 0.901645 36.814365
1080.0 0.901014 -2.191205
1100.0 0.90992 -41.460045
1120.0 0.925747 -81.313749
1140.0 0.941919 -121.906977
1160.0 0.950527 -163.038688
1180.0 0.947004 155.742244
1200.0 0.932435 114.95934
1220.0 0.913806 74.941203
1240.0 0.8988 35.635481
1260.0 0.89247 -3.240229
1280.0 0.896963 -42.126145
1300.0 0.910065 -81.461703
1320.0 0.926674 -121.50931
1340.0 0.939481 -162.306541
1360.0 0.941883 156.466334
1380.0 0.933059 115.311451
1400.0 0.917436 74.642368
1420.0 0.902282 34.649446
1440.0 0.893719 -4.796974
1460.0 0.893939 -43.974761
1480.0 0.902367 -83.200844
1500.0 0.914973 -122.76312
1520.0 0.926011 -162.74817
1540.0 0.930722 156.916802
1560.0 0.926855 116.453697
1580.0 0.91706 76.104597
1600.0 0.90636 35.945391
1620.0 0.899353 -4.055255
1640.0 0.898955 -44.040349
1660.0 0.904255 -84.156941
1680.0 0.912079 -124.432752
1700.0 0.918032 -164.814767
1720.0 0.918427 154.884487
1740.0 0.913363 114.841873
1760.0 0.905401 75.091599
1780.0 0.898677 35.542525
1800.0 0.89682 -4.062769
1820.0 0.900603 -43.975341
1840.0 0.908679 -84.334207
1860.0 0.916799 -125.112509
1880.0 0.920167 -166.0138
1900.0 0.916695 153.346969
1920.0 0.907432 113.286454
1940.0 0.896879 73.901833
1960.0 0.889718 34.967426
1980.0 0.888835 -3.89032
2000.0 0.895279 -43.119941
2020.0 0.906482 -83.078988
2040.0 0.917662 -123.843729
2060.0 0.923074 -165.194574
2080.0 0.918964 153.406281
2100.0 0.907248 112.52676
2120.0 0.893118 72.466359
2140.0 0.882455 33.209721
2160.0 0.879418 -5.58919
2180.0 0.884659 -44.397283
2200.0 0.896594 -83.660724
2220.0 0.910411 -123.702356
2240.0 0.919686 -164.50386
2260.0 0.91986 154.25262
2280.0 0.910307 113.080689
2300.0 0.895934 72.438554
2320.0 0.88327 32.464078
2340.0 0.87697 -6.951854
2360.0 0.879274 -46.119971
2380.0 0.888514 -85.409515
2400.0 0.900791 -125.070684
2420.0 0.910822 -165.219835
2440.0 0.913698 154.279119
2460.0 0.908636 113.698747
2480.0 0.898315 73.269401
2500.0 0.887799 33.119098
2520.0 0.881862 -6.832124
2540.0 0.882184 -46.736717
2560.0 0.888211 -86.727818
2580.0 0.896524 -126.888381
2600.0 0.902662 -167.127025
2620.0 0.90384 152.708806
2640.0 0.89936 112.768446
2660.0 0.891929 73.108541
2680.0 0.885298 33.575508
2700.0 0.882292 -6.056847
2720.0 0.884534 -46.041617
2740.0 0.890514 -86.527672
2760.0 0.897045 -127.414502
2780.0 0.900432 -168.4247
2800.0 0.898173 150.864308
2820.0 0.891593 110.784303
2840.0 0.883786 71.38352
2860.0 0.87842 32.468711
2880.0 0.878303 -6.397509
2900.0 0.883494 -45.687565
2920.0 0.89236 -85.746864
2940.0 0.9007 -126.68058
2960.0 0.903764 -168.170167
2980.0 0.899691 150.363445
3000.0 0.889963 109.51725
3020.0 0.879422 69.638834
3040.0 0.872702 30.635547
3060.0 0.872109 -7.859098
3080.0 0.878186 -46.387829
3100.0 0.888342 -85.494077
3120.0 0.8984 -125.496231
3140.0 0.90354 -166.426747
3160.0 0.900361 152.093147
3180.0 0.890477 110.660076
3200.0 0.878607 69.773043
3220.0 0.870168 29.687178
3240.0 0.868755 -9.707339
3260.0 0.874254 -48.725211
3280.0 0.884591 -87.743721
3300.0 0.89541 -127.11934
3320.0 0.901737 -166.983399
3340.0 0.900746 152.723008
3360.0 0.892387 112.221551
3380.0 0.880738 71.777977
3400.0 0.871095 31.500945
3420.0 0.867177 -8.602891
3440.0 0.870619 -48.641314
3460.0 0.879289 -88.750114
3480.0 0.889127 -128.950454
3500.0 0.895622 -169.189155
3520.0 0.895453 150.71409
3540.0 0.88935 110.927373
3560.0 0.880347 71.456981
3580.0 0.872592 32.177956
3600.0 0.869632 -7.208037
3620.0 0.872169 -46.998823
3640.0 0.879071 -87.360208
3660.0 0.886684 -128.268464
3680.0 0.890739 -169.387474
3700.0 0.889397 149.743153
3720.0 0.883304 109.517369
3740.0 0.876007 70.095077
3760.0 0.871159 31.266663
3780.0 0.870648 -7.374313
3800.0 0.875039 -46.343771
3820.0 0.882066 -86.093961
3840.0 0.888233 -126.779867
3860.0 0.890012 -168.220391
3880.0 0.885569 150.15023
3900.0 0.877349 109.003506
3920.0 0.869418 68.767882
3940.0 0.86549 29.534308
3960.0 0.867577 -9.006639
3980.0 0.8746 -47.368861
4000.0 0.884118 -86.099415
4020.0 0.891856 -125.662236
4040.0 0.893432 -166.180711
4060.0 0.887441 152.565419
4080.0 0.875911 111.086202
4100.0 0.864552 69.967744
4120.0 0.858756 29.548158
4140.0 0.86069 -10.103245
4160.0 0.8698 -49.208586
4180.0 0.88208 -88.161293
4200.0 0.892397 -127.308648
4220.0 0.896104 -166.910675
4240.0 0.890625 153.007972
4260.0 0.878369 112.593965
4280.0 0.864637 72.033841
4300.0 0.855518 31.537094
4320.0 0.855189 -8.805822
4340.0 0.863313 -48.972229
4360.0 0.876595 -88.980278
4380.0 0.889149 -128.896819
4400.0 0.89517 -168.692338
4420.0 0.892349 151.675633
4440.0 0.881808 112.224249
4460.0 0.868471 72.90508
4480.0 0.857976 33.509206
4500.0 0.854181 -6.181139
4520.0 0.858834 -46.360666
4540.0 0.869503 -87.105925
4560.0 0.881162 -128.243474
4580.0 0.888164 -169.438044
4600.0 0.88684 149.772857
4620.0 0.878711 109.743596
4640.0 0.86798 70.5184
4660.0 0.859434 31.892507
4680.0 0.856746 -6.588268
4700.0 0.860413 -45.430813
4720.0 0.868979 -85.040008
4740.0 0.878202 -125.620901
4760.0 0.882874 -166.958009
4780.0 0.880473 151.47989
4800.0 0.87198 110.337614
4820.0 0.862223 70.093957
4840.0 0.856105 30.800944
4860.0 0.85595 -7.797165
4880.0 0.862072 -46.188437
4900.0 0.871549 -84.937112
4920.0 0.880062 -124.453258
4940.0 0.88313 -164.93175
4960.0 0.877947 153.825501
4980.0 0.866844 112.311664
5000.0 0.855165 71.065219
5020.0 0.84857 30.516665
5040.0 0.850327 -9.230803
5060.0 0.859277 -48.337705
5080.0 0.871996 -87.128514
5100.0 0.883031 -126.024552
5120.0 0.886951 -165.31503
5140.0 0.881476 154.842718
5160.0 0.867917 114.464279
5180.0 0.852236 73.722575
5200.0 0.841569 32.807397
5220.0 0.840486 -8.026154
5240.0 0.849948 -48.574997
5260.0 0.865679 -88.744952
5280.0 0.880932 -128.485747
5300.0 0.889266 -167.850774
5320.0 0.886761 153.101445
5340.0 0.874968 114.247572
5360.0 0.8587 75.33008
5380.0 0.844429 36.073704
5400.0 0.838119 -3.813348
5420.0 0.842049 -44.451439
5440.0 0.854908 -85.704642
5460.0 0.870678 -127.240066
5480.0 0.881489 -168.519566
5500.0 0.882788 150.93611
5520.0 0.874585 111.366237
5540.0 0.861636 72.698157
5560.0 0.849746 34.505137
5580.0 0.843136 -3.752299
5600.0 0.844558 -42.625851
5620.0 0.853119 -82.524177
5640.0 0.865073 -123.499564
5660.0 0.874512 -165.249296
5680.0 0.875927 152.902549
5700.0 0.869105 111.683046
5720.0 0.857895 71.492282
5740.0 0.847712 32.343763
5760.0 0.843039 -6.14611
5780.0 0.84508 -44.527065
5800.0 0.853126 -83.33892
5820.0 0.863619 -123.024563
5840.0 0.871265 -163.680297
5860.0 0.872152 154.941486
5880.0 0.865267 113.379091
5900.0 0.854572 72.243343
5920.0 0.845808 31.874742
5940.0 0.842808 -7.660158
5960.0 0.847115 -46.572698
5980.0 0.856488 -85.246527
6000.0 0.866821 -124.037906
6020.0 0.873415 -163.268439
6040.0 0.872229 156.932381
6060.0 0.863427 116.601842
6080.0 0.850542 75.855136
6100.0 0.839437 34.91376
6120.0 0.835593 -6.027124
6140.0 0.840445 -46.764429
6160.0 0.852114 -87.117428
6180.0 0.865374 -127.031323
6200.0 0.87412 -166.480052
6220.0 0.874913 154.447607
6240.0 0.867108 115.555898
6260.0 0.854127 76.577779
6280.0 0.841307 37.129397
6300.0 0.833616 -3.071925
6320.0 0.834904 -44.118209
6340.0 0.84459 -85.80952
6360.0 0.858211 -127.60564
6380.0 0.869309 -168.901217
6400.0 0.872447 150.805524
6420.0 0.867296 111.686416
6440.0 0.856706 73.477132
6460.0 0.845083 35.663246
6480.0 0.837074 -2.459056
6500.0 0.8352 -41.535397
6520.0 0.840557 -81.937317
6540.0 0.850746 -123.633963
6560.0 0.860383 -166.004576
6580.0 0.864738 151.878182
6600.0 0.861757 110.832615
6620.0 0.854012 71.22813
6640.0 0.845736 32.815424
6660.0 0.839995 -4.99517
6680.0 0.839122 -42.958522
6700.0 0.842855 -81.798954
6720.0 0.8494 -121.93655
6740.0 0.855501 -163.407465
6760.0 0.857165 154.308856
6780.0 0.853611 112.07586
6800.0 0.846814 70.647994
6820.0 0.840379 30.419983
6840.0 0.837639 -8.733829
6860.0 0.839212 -47.253672
6880.0 0.844566 -85.677806
6900.0 0.851297 -124.550903
6920.0 0.855928 -164.17667
6940.0 0.85617 155.383994
6960.0 0.851053 114.34105
6980.0 0.84304 73.106857
7000.0 0.836187 32.033377
7020.0 0.833466 -8.613072
7040.0 0.836451 -48.744354
7060.0 0.843443 -88.432847
7080.0 0.851227 -127.764285
7100.0 0.856455 -166.891
7120.0 0.856233 154.068654
7140.0 0.850814 114.982844
7160.0 0.842215 75.626184
7180.0 0.833892 35.791905
7200.0 0.829716 -4.733575
7220.0 0.831166 -45.987075
7240.0 0.837805 -87.718398
7260.0 0.846239 -129.476661
7280.0 0.851915 -170.657937
7300.0 0.852634 149.172057
7320.0 0.848218 110.1018
7340.0 0.841102 71.885488
7360.0 0.834353 33.929305
7380.0 0.830073 -4.449814
7400.0 0.830226 -43.894394
7420.0 0.83449 -84.795094
7440.0 0.840895 -126.977818
7460.0 0.846292 -169.729676
7480.0 0.847518 148.018375
7500.0 0.844807 107.148032
7520.0 0.840091 67.906907
7540.0 0.835625 29.995118
7560.0 0.833502 -7.323698
7580.0 0.833845 -44.940473
7600.0 0.836409 -83.668432
7620.0 0.839538 -124.096739
7640.0 0.840737 -166.206196
7660.0 0.839079 150.690009
7680.0 0.835009 107.729946
7700.0 0.831189 65.979623
7720.0 0.83013 25.85562
7740.0 0.832162 -12.828766
7760.0 0.836957 -50.67751
7780.0 0.842351 -88.476901
7800.0 0.845855 -126.883662
7820.0 0.84557 -166.371633
7840.0 0.840297 152.984874
7860.0 0.832217 111.519487
7880.0 0.824924 69.782629
7900.0 0.821815 28.392582
7920.0 0.824677 -12.302508
7940.0 0.831744 -52.259234
7960.0 0.840172 -91.640054
7980.0 0.846421 -130.769688
8000.0 0.847465 -169.895821
8020.0 0.843103 150.789413
8040.0 0.834672 111.162339
8060.0 0.825807 71.200502
8080.0 0.820412 30.849755
8100.0 0.820398 -9.862511
8120.0 0.826104 -50.856574
8140.0 0.834567 -91.998947
8160.0 0.841665 -133.000739
8180.0 0.844364 -173.578444
8200.0 0.841334 146.517148
8220.0 0.834836 107.371576
8240.0 0.828012 68.776361
8260.0 0.823666 30.37325
8280.0 0.823953 -8.360909
8300.0 0.828253 -47.923514
8320.0 0.834705 -88.581732
8340.0 0.839711 -130.280361
8360.0 0.839777 -172.449094
8380.0 0.834998 145.730925
8400.0 0.827761 104.949189
8420.0 0.822011 65.516453
8440.0 0.820645 27.191134
8460.0 0.823857 -10.580477
8480.0 0.830866 -48.525041
8500.0 0.838507 -87.382944
8520.0 0.842917 -127.598561
8540.0 0.84119 -169.215258
8560.0 0.832734 148.317935
8580.0 0.821908 105.939294
8600.0 0.814174 64.471936
8620.0 0.812902 24.361089
8640.0 0.818795 -14.519752
8660.0 0.828997 -52.689572
8680.0 0.839831 -90.80534
8700.0 0.846846 -129.554882
8720.0 0.846033 -169.345164
8740.0 0.837178 149.760242
8760.0 0.823553 108.086153
8780.0 0.811893 66.281893
8800.0 0.808137 24.9519
8820.0 0.813582 -15.495264
8840.0 0.826198 -55.010965
8860.0 0.840553 -93.890396
8880.0 0.85069 -132.501536
8900.0 0.852488 -171.245159
8920.0 0.844228 149.617525
8940.0 0.829297 109.975805
8960.0 0.81373 69.780319
8980.0 0.803929 29.151036
9000.0 0.804439 -11.746507
9020.0 0.814491 -52.702513
9040.0 0.82973 -93.491625
9060.0 0.843298 -134.000313
9080.0 0.848878 -174.093899
9100.0 0.844955 146.288973
9120.0 0.833714 107.084852
9140.0 0.820604 68.152747
9160.0 0.81136 29.186558
9180.0 0.809122 -10.095227
9200.0 0.814993 -49.910938
9220.0 0.825934 -90.37756
9240.0 0.836497 -131.344365
9260.0 0.84147 -172.505646
9280.0 0.837894 146.581643
9300.0 0.828324 106.29676
9320.0 0.817747 66.714655
9340.0 0.810863 27.702699
9360.0 0.81098 -11.108542
9380.0 0.817551 -50.166915
9400.0 0.8279 -89.829735
9420.0 0.836954 -130.329917
9440.0 0.839153 -171.524447
9460.0 0.833081 147.019774
9480.0 0.821413 105.843743
9500.0 0.810385 65.416311
9520.0 0.805742 25.853171
9540.0 0.809357 -12.981714
9560.0 0.820558 -51.439452
9580.0 0.834914 -90.017508
9600.0 0.846271 -129.106542
9620.0 0.849091 -168.980238
9640.0 0.840233 150.377765
9660.0 0.823184 109.237884
9680.0 0.805531 67.92904
9700.0 0.795113 26.842851
9720.0 0.796878 -13.765612
9740.0 0.80961 -53.807592
9760.0 0.828399 -93.336053
9780.0 0.845761 -132.598198
9800.0 0.854031 -171.793185
9820.0 0.849942 148.918503
9840.0 0.834703 109.408579
9860.0 0.814843 69.628437
9880.0 0.798927 29.493191
9900.0 0.793119 -10.944543
9920.0 0.800328 -51.516977
9940.0 0.817387 -92.049881
9960.0 0.836949 -132.3273
9980.0 0.850899 -172.251674
10000.0 0.852934 148.234235
10020.0 0.843171 109.109815
10040.0 0.826306 70.149601
10060.0 0.809241 31.08322
10080.0 0.799129 -8.407408
10100.0 0.799341 -48.507025
10120.0 0.809859 -89.142497
10140.0 0.825946 -130.11147
10160.0 0.839652 -171.026563
10180.0 0.845153 148.47348
10200.0 0.840287 108.576429
10220.0 0.82832 69.277578
10240.0 0.815208 30.26001
10260.0 0.805775 -8.867279
10280.0 0.80381 -48.452265
10300.0 0.809236 -88.713928
10320.0 0.818897 -129.5498
10340.0 0.827985 -170.684947
10360.0 0.831301 148.306867
10380.0 0.827959 107.818776
10400.0 0.820401 67.957769
10420.0 0.812707 28.641796
10440.0 0.809308 -10.428517
10460.0 0.811531 -49.597059
10480.0 0.81878 -89.082113
10500.0 0.82769 -129.021976
10520.0 0.833049 -169.303956
10540.0 0.831863 150.303792
10560.0 0.823647 110.027034
10580.0 0.812094 70.040485
10600.0 0.802795 30.27787
10620.0 0.79968 -9.395405
10640.0 0.805169 -49.127752
10660.0 0.817404 -89.054236
10680.0 0.831417 -129.126059
10700.0 0.841257 -169.249523
10720.0 0.841501 150.747495
10740.0 0.83196 111.003511
10760.0 0.816384 71.424834
10780.0 0.800684 31.818823
10800.0 0.791419 -8.116653
10820.0 0.791807 -48.586141
10840.0 0.802216 -89.523405
10860.0 0.818609 -130.707328
10880.0 0.833473 -171.708577
10900.0 0.840913 147.865702
10920.0 0.83801 108.192611
10940.0 0.826971 69.226483
10960.0 0.81307 30.578704
10980.0 0.801126 -8.225712
11000.0 0.795952 -47.602683
11020.0 0.799218 -87.794421
11040.0 0.8095 -128.637444
11060.0 0.822681 -169.742449
11080.0 0.832288 149.426313
11100.0 0.834762 109.314763
11120.0 0.82981 69.993873
11140.0 0.819933 31.268231
11160.0 0.80975 -7.338664
11180.0 0.802349 -46.361623
11200.0 0.800294 -86.140541
11220.0 0.803877 -126.79486
11240.0 0.810508 -168.016899
11260.0 0.817257 150.720229
11280.0 0.820683 109.908454
11300.0 0.819956 69.860282
11320.0 0.816616 30.464704
11340.0 0.812224 -8.611666
11360.0 0.809286 -47.792225
11380.0 0.808529 -87.462152
11400.0 0.809631 -127.681977
11420.0 0.811884 -168.290456
11440.0 0.813198 151.094317
11460.0 0.813174 110.873243
11480.0 0.811953 71.161584
11500.0 0.810151 31.866898
11520.0 0.809428 -7.37285
11540.0 0.80979 -46.988479
11560.0 0.811292 -87.235187
11580.0 0.812977 -128.17437
11600.0 0.812922 -169.468746
11620.0 0.810919 149.400859
11640.0 0.806944 108.867048
11660.0 0.802495 69.15629
11680.0 0.799653 30.067104
11700.0 0.799108 -8.808989
11720.0 0.801924 -47.957302
11740.0 0.807149 -87.813274
11760.0 0.812733 -128.437656
11780.0 0.816601 -169.581695
11800.0 0.816227 149.311757
11820.0 0.812039 108.83924
11840.0 0.80573 69.234744
11860.0 0.799261 30.4118
11880.0 0.795184 -8.090147
11900.0 0.793943 -46.887275
11920.0 0.795868 -86.470335
11940.0 0.800109 -127.140381
11960.0 0.804369 -168.69044
11980.0 0.807461 149.472917
12000.0 0.808029 108.053441
12020.0 0.806476 67.610407
12040.0 0.804234 28.182444
12060.0 0.80158 -10.550579
12080.0 0.799564 -49.123037
12100.0 0.797965 -88.147695
12120.0 0.796534 -127.964173
12140.0 0.795858 -168.651917
12160.0 0.795587 150.107768
12180.0 0.79659 108.89998
12200.0 0.79892 68.180635
12220.0 0.801705 28.206579
12240.0 0.804602 -11.157544
12260.0 0.805783 -50.298074
12280.0 0.804455 -89.597663
12300.0 0.800422 -129.412011
12320.0 0.793946 -169.774526
12340.0 0.787796 149.533869
12360.0 0.784082 108.855302
12380.0 0.784605 68.573457
12400.0 0.789819 28.75997
12420.0 0.797331 -10.739921
12440.0 0.804752 -50.260192
12460.0 0.808401 -90.216897
12480.0 0.805624 -130.758241
12500.0 0.797083 -171.807808
12520.0 0.78536 147.004466
12540.0 0.775849 106.188586
12560.0 0.772535 66.030917
12580.0 0.77629 26.612779
12600.0 0.786315 -12.34625
12620.0 0.798387 -51.344969
12640.0 0.807986 -90.826139
12660.0 0.810816 -131.13244
12680.0 0.804326 -172.177012
12700.0 0.791592 146.464552
12720.0 0.777987 105.338195
12740.0 0.769367 64.968649
12760.0 0.769165 25.479006
12780.0 0.776212 -13.320341
12800.0 0.788094 -51.876198
12820.0 0.799987 -90.815953
12840.0 0.806702 -130.562509
12860.0 0.805317 -171.304109
12880.0 0.795376 147.210075
12900.0 0.781955 105.597914
12920.0 0.771357 64.440804
12940.0 0.767415 24.179528
12960.0 0.771478 -15.173123
12980.0 0.780493 -53.982579
13000.0 0.790488 -92.738324
13020.0 0.797116 -132.025986
13040.0 0.796467 -172.145653
13060.0 0.789236 146.926057
13080.0 0.778806 105.506797
13100.0 0.770881 64.196935
13120.0 0.770063 23.451721
13140.0 0.776043 -16.489246
13160.0 0.786414 -55.692971
13180.0 0.796101 -94.550342
13200.0 0.800095 -133.425312
13220.0 0.796454 -172.68256
13240.0 0.785479 147.49494
13260.0 0.772327 107.164392
13280.0 0.763221 66.449279
13300.0 0.762289 25.662086
13320.0 0.770957 -14.965011
13340.0 0.784969 -55.364739
13360.0 0.798118 -95.54561
13380.0 0.804199 -135.686873
13400.0 0.799118 -175.854865
13420.0 0.785338 143.944261
13440.0 0.768605 103.694577
13460.0 0.756458 63.509615
13480.0 0.754985 23.424017
13500.0 0.764797 -16.506026
13520.0 0.783252 -56.285112
13540.0 0.803092 -96.091305
13560.0 0.815525 -135.980409
13580.0 0.815204 -175.96306
13600.0 0.801302 144.076737
13620.0 0.780488 104.321107
13640.0 0.761805 64.764536
13660.0 0.752166 25.409006
13680.0 0.755768 -13.866793
13700.0 0.770547 -53.294191
13720.0 0.790891 -93.080398
13740.0 0.808206 -133.505002
13760.0 0.813245 -174.562724
13780.0 0.803668 144.011593
13800.0 0.784002 102.583982
13820.0 0.764205 61.596322
13840.0 0.753869 21.261103
13860.0 0.7562 -18.329317
13880.0 0.770405 -57.242675
13900.0 0.790686 -95.842108
13920.0 0.808762 -134.483554
13940.0 0.817628 -173.568558
13960.0 0.81217 146.668737
13980.0 0.794852 106.240634
14000.0 0.77365 65.20696
14020.0 0.75786 23.867561
14040.0 0.755135 -17.410017
14060.0 0.765615 -58.30295
14080.0 0.784408 -98.577119
14100.0 0.803464 -138.358215
14120.0 0.813762 -177.836786
14140.0 0.811749 142.770887
14160.0 0.798532 103.205489
14180.0 0.780704 63.365923
14200.0 0.767521 23.149094
14220.0 0.764708 -17.331993
14240.0 0.774577 -57.773957
14260.0 0.79279 -97.964616
14280.0 0.810722 -137.690276
14300.0 0.820798 -176.961484
14320.0 0.817663 144.089861
14340.0 0.803207 105.283664
14360.0 0.78392 66.222163
14380.0 0.76759 26.619513
14400.0 0.762361 -13.679027
14420.0 0.770652 -54.562806
14440.0 0.789779 -95.572229
14460.0 0.811796 -136.314805
14480.0 0.825923 -176.419665
14500.0 0.826821 144.283124
14520.0 0.814405 105.630798
14540.0 0.794323 67.320986
14560.0 0.775231 28.789321
14580.0 0.763614 -10.440637
14600.0 0.765013 -50.579912
14620.0 0.779277 -91.61693
14640.0 0.800207 -133.126334
14660.0 0.818631 -174.623774
14680.0 0.82483 144.368888
14700.0 0.817006 104.205314
14720.0 0.800132 64.788507
