! File created by SignalIntegrity v1.1.13: Signal and Power Integrity Tools
! https://github.com/TeledyneLeCroy/SignalIntegrity
# MHz S MA R 50.0
0.0 0.957481 0.0
20.0 0.961464 -39.298451
40.0 0.971907 -78.968419
60.0 0.983449 -119.258196
80.0 0.989427 -160.103528
100.0 0.985644 158.807035
120.0 0.972491 117.92468
140.0 0.955909 77.597917
160.0 0.942859 37.868414
180.0 0.93814 -1.43533
200.0 0.943652 -40.657851
220.0 0.956865 -80.160807
240.0 0.972497 -120.160823
260.0 0.98342 -160.686574
280.0 0.983745 158.531146
300.0 0.97332 117.884417
320.0 0.956717 77.663162
340.0 0.94106 37.95504
360.0 0.932295 -1.433137
380.0 0.932624 -40.806685
400.0 0.941383 -80.482214
420.0 0.954067 -120.694634
440.0 0.964267 -161.416934
460.0 0.966805 157.591847
480.0 0.95988 116.726354
500.0 0.947149 76.33087
520.0 0.934332 36.485732
540.0 0.926129 -2.925747
560.0 0.925178 -42.193068
580.0 0.930341 -81.633723
600.0 0.938435 -121.44053
620.0 0.944964 -161.669313
640.0 0.946032 157.858991
660.0 0.941503 117.420541
680.0 0.933895 77.229879
700.0 0.927491 37.381606
720.0 0.925825 -2.246467
740.0 0.929418 -41.856119
760.0 0.936744 -81.647555
780.0 0.94368 -121.751982
800.0 0.945896 -162.093454
820.0 0.941608 157.509584
840.0 0.931947 117.278625
860.0 0.921522 77.347709
880.0 0.915102 37.641131
900.0 0.915545 -2.011658
920.0 0.923362 -41.857871
940.0 0.935074 -82.090974
960.0 0.94522 -122.709477
980.0 0.948207 -163.536054
1000.0 0.941323 155.796119
1020.0 0.927566 115.613518
1040.0 0.912676 76.015287
1060.0 0.902816 36.886482
1080.0 0.902179 -2.117061
1100.0 0.911105 -41.383098
1120.0 0.92698 -81.234228
1140.0 0.943212 -121.825874
1160.0 0.951873 -162.957561
1180.0 0.94837 155.821859
1200.0 0.933783 115.037075
1220.0 0.915109 75.01763
1240.0 0.900057 35.71187
1260.0 0.8937 -3.162404
1280.0 0.898196 -42.045949
1300.0 0.911333 -81.378652
1320.0 0.928004 -121.423901
1340.0 0.940878 -162.220105
1360.0 0.943326 156.552339
1380.0 0.934507 115.395924
1400.0 0.918851 74.725379
1420.0 0.903649 34.731835
1440.0 0.895045 -4.714199
1460.0 0.895246 -43.890602
1480.0 0.903685 -83.114955
1500.0 0.916327 -122.675627
1520.0 0.927415 -162.659685
1540.0 0.932169 157.005358
1560.0 0.928323 116.541891
1580.0 0.918525 76.192465
1600.0 0.907805 36.033521
1620.0 0.900779 -3.966079
1640.0 0.900374 -43.949803
1660.0 0.905683 -84.065062
1680.0 0.913528 -124.340196
1700.0 0.919505 -164.722454
1720.0 0.919912 154.975975
1740.0 0.914844 114.932388
1760.0 0.906866 75.181788
1780.0 0.900127 35.633373
1800.0 0.898266 -3.970434
1820.0 0.902062 -43.881045
1840.0 0.910167 -84.238416
1860.0 0.918319 -125.016327
1880.0 0.921706 -165.918573
1900.0 0.91823 153.440236
1920.0 0.908937 113.377877
1940.0 0.898345 73.992323
1960.0 0.891154 35.058412
1980.0 0.890264 -3.797376
2000.0 0.896731 -43.02425
2020.0 0.907983 -82.980524
2040.0 0.919225 -123.743647
2060.0 0.924684 -165.094772
2080.0 0.920584 153.504201
2100.0 0.908834 112.622111
2120.0 0.894644 72.559816
2140.0 0.883925 33.302676
2160.0 0.880855 -5.495283
2180.0 0.886096 -44.301181
2200.0 0.898069 -83.562055
2220.0 0.911948 -123.601621
2240.0 0.921289 -164.402426
2260.0 0.921501 154.353049
2280.0 0.911939 113.179208
2300.0 0.897522 72.535241
2320.0 0.884798 32.559872
2340.0 0.87845 -6.855716
2360.0 0.880733 -46.022638
2380.0 0.889984 -85.310538
2400.0 0.902301 -124.970368
2420.0 0.912381 -165.119065
2440.0 0.915297 154.379402
2460.0 0.910248 113.797882
2480.0 0.899912 73.36759
2500.0 0.889366 33.217098
2520.0 0.8834 -6.733502
2540.0 0.883705 -46.636881
2560.0 0.889734 -86.626918
2580.0 0.898061 -126.787074
2600.0 0.904217 -167.02624
2620.0 0.905403 152.808258
2640.0 0.900918 112.866536
2660.0 0.893472 73.205866
2680.0 0.886826 33.673149
2700.0 0.883817 -5.957785
2720.0 0.886071 -45.940676
2740.0 0.892073 -86.425119
2760.0 0.898628 -127.311523
2780.0 0.902024 -168.322847
2800.0 0.899749 150.963989
2820.0 0.893133 110.881603
2840.0 0.885284 71.479312
2860.0 0.879888 32.56441
2880.0 0.879766 -6.300507
2900.0 0.88498 -45.588219
2920.0 0.893893 -85.645177
2940.0 0.902284 -126.577604
2960.0 0.905378 -168.067714
2980.0 0.901295 150.463612
3000.0 0.891517 109.61449
3020.0 0.880909 69.733594
3040.0 0.874131 30.729073
3060.0 0.873509 -7.765249
3080.0 0.879594 -46.292428
3100.0 0.889793 -85.396379
3120.0 0.899916 -125.396474
3140.0 0.905116 -166.326101
3160.0 0.901964 152.193216
3180.0 0.89206 110.75841
3200.0 0.880133 69.869458
3220.0 0.871628 29.782184
3240.0 0.870164 -9.612992
3260.0 0.875642 -48.630711
3280.0 0.88599 -87.648677
3300.0 0.896845 -127.023748
3320.0 0.903218 -166.887657
3340.0 0.902258 152.818292
3360.0 0.893904 112.31618
3380.0 0.882234 71.87215
3400.0 0.872555 31.595201
3420.0 0.868605 -8.508025
3440.0 0.87203 -48.545797
3460.0 0.8807 -88.654288
3480.0 0.890552 -128.855123
3500.0 0.89706 -169.095223
3520.0 0.896893 150.806162
3540.0 0.890777 111.017689
3560.0 0.88175 71.546397
3580.0 0.873974 32.267644
3600.0 0.871005 -7.117075
3620.0 0.873549 -46.906022
3640.0 0.880473 -87.265943
3660.0 0.888108 -128.173871
3680.0 0.892173 -169.29405
3700.0 0.890817 149.834187
3720.0 0.884687 109.605823
3740.0 0.877348 70.181626
3760.0 0.872468 31.352582
3780.0 0.871946 -7.287596
3800.0 0.876355 -46.255276
3820.0 0.88342 -86.003334
3840.0 0.889632 -126.687789
3860.0 0.891439 -168.128352
3880.0 0.886988 150.240706
3900.0 0.878723 109.091444
3920.0 0.87073 68.853344
3940.0 0.866745 29.618069
3960.0 0.868801 -8.923516
3980.0 0.875825 -47.285239
4000.0 0.885376 -86.014605
4020.0 0.893164 -125.576089
4040.0 0.894789 -166.093723
4060.0 0.88882 152.652312
4080.0 0.877273 111.17229
4100.0 0.865864 70.052647
4120.0 0.860011 29.631897
4140.0 0.8619 -10.020393
4160.0 0.870991 -49.126371
4180.0 0.883278 -88.079429
4200.0 0.893625 -127.227061
4220.0 0.897367 -166.829465
4240.0 0.89191 153.088788
4260.0 0.879652 112.67448
4280.0 0.865896 72.114442
4300.0 0.856741 31.618108
4320.0 0.856381 -8.724419
4340.0 0.864488 -48.890764
4360.0 0.877769 -88.899463
4380.0 0.890334 -128.817383
4400.0 0.896367 -168.614782
4420.0 0.893548 151.751231
4440.0 0.882995 112.29853
4460.0 0.869638 72.979091
4480.0 0.859124 33.58412
4500.0 0.855319 -6.104443
4520.0 0.859977 -46.282108
4540.0 0.870663 -87.026212
4560.0 0.882341 -128.164072
4580.0 0.88935 -169.360563
4600.0 0.88801 149.847471
4620.0 0.879845 109.815311
4640.0 0.869069 70.588128
4660.0 0.860488 31.961579
4680.0 0.857783 -6.518586
4700.0 0.861457 -45.359552
4720.0 0.870052 -84.966969
4740.0 0.879312 -125.546686
4760.0 0.884011 -166.883896
4780.0 0.881609 151.55248
4800.0 0.873083 110.407947
4820.0 0.863276 70.162079
4840.0 0.85711 30.867526
4860.0 0.856924 -7.731156
4880.0 0.86304 -46.122168
4900.0 0.872537 -84.869957
4920.0 0.881088 -124.385107
4940.0 0.884194 -164.863028
4960.0 0.879029 153.894121
4980.0 0.867914 112.379502
5000.0 0.856194 71.131967
5020.0 0.84955 30.582277
5040.0 0.851265 -9.166273
5060.0 0.860192 -48.274052
5080.0 0.872912 -87.065595
5100.0 0.883966 -125.962223
5120.0 0.887911 -165.253179
5140.0 0.882456 154.904189
5160.0 0.868898 114.525696
5180.0 0.8532 73.784292
5200.0 0.842503 32.869607
5220.0 0.841389 -7.963644
5240.0 0.850828 -48.512887
5260.0 0.86655 -88.684037
5280.0 0.881803 -128.426716
5300.0 0.890141 -167.793947
5320.0 0.887635 153.156345
5340.0 0.875834 114.301282
5360.0 0.859552 75.383747
5380.0 0.845269 36.128481
5400.0 0.838951 -3.756758
5420.0 0.842881 -44.393043
5440.0 0.855747 -85.645433
5460.0 0.871524 -127.181606
5480.0 0.882335 -168.463332
5500.0 0.883618 150.989322
5520.0 0.875386 111.416699
5540.0 0.862405 72.74684
5560.0 0.850489 34.55334
5580.0 0.843865 -3.703313
5600.0 0.845291 -42.575293
5620.0 0.853868 -82.471872
5640.0 0.865847 -123.446214
5660.0 0.875304 -165.196265
5680.0 0.876718 152.953931
5700.0 0.869872 111.732032
5720.0 0.858623 71.539039
5740.0 0.848402 32.389035
5760.0 0.843702 -6.10143
5780.0 0.845732 -44.482128
5800.0 0.853785 -83.293257
5820.0 0.864296 -122.978134
5840.0 0.871964 -163.633546
5860.0 0.872861 154.987764
5880.0 0.865966 113.424252
5900.0 0.855243 72.287063
5920.0 0.846443 31.917083
5940.0 0.843411 -7.618895
5960.0 0.847697 -46.532233
5980.0 0.857063 -85.20657
6000.0 0.867402 -123.998298
6020.0 0.874008 -163.229139
6040.0 0.872833 156.971414
6060.0 0.864033 116.64063
6080.0 0.851139 75.893813
6100.0 0.840016 34.952422
6120.0 0.836151 -5.988597
6140.0 0.840985 -46.726329
6160.0 0.85264 -87.080236
6180.0 0.865893 -126.995438
6200.0 0.874634 -166.445643
6220.0 0.875422 154.480624
6240.0 0.867611 115.587967
6260.0 0.854621 76.609507
6280.0 0.841793 37.161412
6300.0 0.834095 -3.039188
6320.0 0.835377 -44.084837
6340.0 0.845059 -85.776093
6360.0 0.858674 -127.573103
6380.0 0.869762 -168.870426
6400.0 0.872883 150.834243
6420.0 0.867712 111.71325
6440.0 0.857102 73.502698
6460.0 0.845464 35.688314
6480.0 0.837447 -2.4338
6500.0 0.835572 -41.509455
6520.0 0.840934 -81.910657
6540.0 0.851127 -123.60706
6560.0 0.860764 -165.978262
6580.0 0.865109 151.90308
6600.0 0.862108 110.855766
6620.0 0.85434 71.249686
6640.0 0.846043 32.835849
6660.0 0.840287 -4.975293
6680.0 0.839407 -42.938728
6700.0 0.843139 -81.778926
6720.0 0.849688 -121.916274
6740.0 0.855792 -163.387261
6760.0 0.857452 154.328505
6780.0 0.853887 112.094477
6800.0 0.847071 70.665378
6820.0 0.840615 30.436206
6840.0 0.837857 -8.718576
6860.0 0.839417 -47.239118
6880.0 0.844764 -85.663761
6900.0 0.85149 -124.537254
6920.0 0.856118 -164.163392
6940.0 0.856357 155.396806
6960.0 0.851233 114.353314
6980.0 0.843208 73.118484
7000.0 0.836342 32.044308
7020.0 0.833607 -8.602844
7040.0 0.836581 -48.734867
7060.0 0.843562 -88.4241
7080.0 0.851337 -127.75627
7100.0 0.856556 -166.883712
7120.0 0.856326 154.075284
7140.0 0.850899 114.988867
7160.0 0.842291 75.631673
7180.0 0.833959 35.796916
7200.0 0.829774 -4.729064
7220.0 0.831215 -45.983102
7240.0 0.837844 -87.715059
7260.0 0.846269 -129.474039
7280.0 0.851935 -170.656039
7300.0 0.852644 149.173244
7320.0 0.848219 110.102343
7340.0 0.841093 71.885429
7360.0 0.834336 33.928638
7380.0 0.830047 -4.451112
7400.0 0.830189 -43.896408
7420.0 0.834442 -84.797879
7440.0 0.840836 -126.981364
7460.0 0.846222 -169.7339
7480.0 0.84744 148.013641
7500.0 0.844723 107.1429
7520.0 0.840002 67.901403
7540.0 0.83553 29.989184
7560.0 0.8334 -7.330225
7580.0 0.833732 -44.947771
7600.0 0.836281 -83.676693
7620.0 0.839394 -124.106076
7640.0 0.840576 -166.216537
7660.0 0.838905 150.678888
7680.0 0.834829 107.718369
7700.0 0.831008 65.967832
7720.0 0.82995 25.843675
7740.0 0.83198 -12.840931
7760.0 0.836771 -50.690083
7780.0 0.842154 -88.490098
7800.0 0.845643 -126.897668
7820.0 0.84534 -166.386582
7840.0 0.84005 152.968974
7860.0 0.831958 111.502711
7880.0 0.824659 69.765116
7900.0 0.821547 28.374509
7920.0 0.824407 -12.321013
7940.0 0.83147 -52.278078
7960.0 0.839891 -91.659215
7980.0 0.84613 -130.789206
8000.0 0.847161 -169.915758
8020.0 0.842788 150.768922
8040.0 0.834346 111.141118
8060.0 0.825472 71.178359
8080.0 0.82007 30.826526
8100.0 0.820047 -9.886828
8120.0 0.825743 -50.881805
8140.0 0.834195 -92.02474
8160.0 0.841284 -133.026661
8180.0 0.843977 -173.604187
8200.0 0.840946 146.491672
8220.0 0.834449 107.346166
8240.0 0.827625 68.750596
8260.0 0.823274 30.346633
8280.0 0.823548 -8.38886
8300.0 0.827828 -47.95308
8320.0 0.834256 -88.61284
8340.0 0.839239 -130.312529
8360.0 0.839293 -172.481549
8380.0 0.834516 145.698853
8400.0 0.827292 104.917776
8420.0 0.821557 65.485545
8440.0 0.820198 27.16024
8460.0 0.823406 -10.611978
8480.0 0.830396 -48.557773
8500.0 0.838006 -87.417364
8520.0 0.842379 -127.634753
8540.0 0.840621 -169.252875
8560.0 0.832152 148.279575
8580.0 0.821334 105.900898
8600.0 0.813623 64.433941
8620.0 0.812373 24.323616
8640.0 0.818278 -14.556913
8660.0 0.828477 -52.726837
8680.0 0.83929 -90.843173
8700.0 0.846273 -129.593678
8720.0 0.845424 -169.385118
8740.0 0.836543 149.71912
8760.0 0.82291 108.043986
8780.0 0.811261 66.23896
8800.0 0.807525 24.908591
8820.0 0.812987 -15.538517
8840.0 0.82561 -55.053858
8860.0 0.839957 -93.932855
8880.0 0.850076 -132.543643
8900.0 0.851851 -171.287166
8920.0 0.843571 149.575209
8940.0 0.828627 109.932631
8960.0 0.813056 69.735679
8980.0 0.803256 29.10457
9000.0 0.803766 -11.79471
9020.0 0.813814 -52.751872
9040.0 0.829042 -93.541244
9060.0 0.842597 -134.049357
9080.0 0.848165 -174.141845
9100.0 0.844241 146.242131
9120.0 0.833005 107.038583
9140.0 0.819903 68.106217
9160.0 0.810664 29.138864
9180.0 0.808422 -10.144737
9200.0 0.814276 -49.962434
9220.0 0.825191 -90.430664
9240.0 0.835725 -131.398182
9260.0 0.840677 -172.559173
9280.0 0.837097 146.529048
9300.0 0.827539 106.245116
9320.0 0.816983 66.663387
9340.0 0.810115 27.651006
9360.0 0.810235 -11.161417
9380.0 0.816792 -50.221462
9400.0 0.827111 -89.885958
9420.0 0.836127 -130.387326
9440.0 0.838297 -171.582164
9460.0 0.832217 146.962583
9480.0 0.820567 105.787434
9500.0 0.80957 65.360765
9520.0 0.804958 25.797944
9540.0 0.808589 -13.037134
9560.0 0.819784 -51.495499
9580.0 0.834112 -90.074492
9600.0 0.845424 -129.164504
9620.0 0.848198 -169.039014
9640.0 0.839308 150.318362
9660.0 0.822255 109.177872
9680.0 0.804623 67.86822
9700.0 0.794238 26.78117
9720.0 0.796032 -13.827874
9740.0 0.808778 -53.86993
9760.0 0.827558 -93.397894
9780.0 0.844894 -132.659138
9800.0 0.853132 -171.853054
9820.0 0.849019 148.859499
9840.0 0.83377 109.349718
9860.0 0.813916 69.568681
9880.0 0.798017 29.431541
9900.0 0.792226 -11.008491
9920.0 0.799443 -51.582734
9940.0 0.816497 -92.116317
9960.0 0.83604 -132.393053
9980.0 0.849968 -172.31572
10000.0 0.851987 148.17219
10020.0 0.84222 109.049251
10040.0 0.825362 70.089273
10060.0 0.808308 31.021648
10080.0 0.798202 -8.471433
10100.0 0.79841 -48.573969
10120.0 0.808913 -89.211758
10140.0 0.824975 -130.181657
10160.0 0.838656 -171.09605
10180.0 0.844143 148.405819
10200.0 0.839278 108.510695
10220.0 0.827325 69.212977
10240.0 0.814228 30.1952
10260.0 0.804804 -8.933625
10280.0 0.802835 -48.520935
10300.0 0.808246 -88.784922
10320.0 0.817882 -129.622192
10340.0 0.826948 -170.757315
10360.0 0.830255 148.235752
10380.0 0.826921 107.749435
10400.0 0.819385 67.889803
10420.0 0.811714 28.574294
10440.0 0.808329 -10.496532
10460.0 0.810552 -49.666269
10480.0 0.817786 -89.152589
10500.0 0.82667 -129.093256
10520.0 0.832003 -169.37524
10540.0 0.830803 150.233192
10560.0 0.82259 109.957214
10580.0 0.811054 69.970972
10600.0 0.801776 30.207831
10620.0 0.798676 -9.466696
10640.0 0.804165 -49.200507
10660.0 0.816385 -89.128108
10680.0 0.83037 -129.200168
10700.0 0.84018 -169.322891
10720.0 0.840405 150.67542
10740.0 0.830862 110.932563
10760.0 0.815298 71.354028
10780.0 0.799616 31.746821
10800.0 0.790365 -8.190969
10820.0 0.790758 -48.663143
10840.0 0.801159 -89.602297
10860.0 0.817535 -130.786448
10880.0 0.832381 -171.78605
10900.0 0.839813 147.791132
10920.0 0.836916 108.120979
10940.0 0.825896 69.156771
10960.0 0.812014 30.509222
10980.0 0.800083 -8.296715
11000.0 0.794911 -47.676379
11020.0 0.798168 -87.871012
11040.0 0.808434 -128.715872
11060.0 0.821596 -169.82085
11080.0 0.831193 149.349689
11100.0 0.833669 109.240805
11120.0 0.828728 69.92221
11140.0 0.818864 31.197608
11160.0 0.808688 -7.409879
11180.0 0.801282 -46.434941
11200.0 0.799212 -86.216735
11220.0 0.802777 -126.873705
11240.0 0.809391 -168.097146
11260.0 0.816132 150.640292
11280.0 0.819564 109.830065
11300.0 0.818851 69.783814
11320.0 0.815527 30.389623
11340.0 0.811143 -8.686394
11360.0 0.808203 -47.867578
11380.0 0.807435 -87.538766
11400.0 0.808522 -127.759784
11420.0 0.810765 -168.368807
11440.0 0.812078 151.016228
11460.0 0.812062 110.795969
11480.0 0.810852 71.085007
11500.0 0.809056 31.790387
11520.0 0.808329 -7.450147
11540.0 0.808675 -47.067289
11560.0 0.810154 -87.315608
11580.0 0.811819 -128.255798
11600.0 0.811757 -169.550021
11620.0 0.809765 149.320914
11640.0 0.805818 108.788929
11660.0 0.801399 69.079728
11680.0 0.79858 29.991173
11700.0 0.798041 -8.88547
11720.0 0.800844 -48.035247
11740.0 0.806044 -87.893049
11760.0 0.811598 -128.518703
11780.0 0.815447 -169.662734
11800.0 0.815075 149.232061
11820.0 0.81091 108.761669
11840.0 0.804632 69.159067
11860.0 0.798189 30.337029
11880.0 0.794123 -8.165375
11900.0 0.792873 -46.964336
11920.0 0.79477 -86.55003
11940.0 0.798977 -127.222648
11960.0 0.80321 -168.774154
11980.0 0.806293 149.389557
12000.0 0.806876 107.971929
12020.0 0.805351 67.531388
12040.0 0.80314 28.105525
12060.0 0.800505 -10.626484
12080.0 0.798491 -49.199172
12100.0 0.79688 -88.225183
12120.0 0.795429 -128.043536
12140.0 0.794735 -168.732928
12160.0 0.794459 150.025966
12180.0 0.79547 108.81857
12200.0 0.797817 68.100435
12220.0 0.800616 28.127818
12240.0 0.803519 -11.235188
12260.0 0.804694 -50.375309
12280.0 0.803353 -89.675128
12300.0 0.799306 -129.490164
12320.0 0.792827 -169.853473
12340.0 0.786687 149.454388
12360.0 0.782993 108.775634
12380.0 0.783537 68.493957
12400.0 0.788762 28.680736
12420.0 0.796267 -10.819071
12440.0 0.803665 -50.339465
12460.0 0.807282 -90.296458
12480.0 0.804479 -130.837961
12500.0 0.795935 -171.88738
12520.0 0.784236 146.925306
12540.0 0.774768 106.110074
12560.0 0.771498 65.953052
12580.0 0.775283 26.535376
12600.0 0.785312 -12.423532
12620.0 0.797363 -51.422572
12640.0 0.806922 -90.904212
12660.0 0.809709 -131.210791
12680.0 0.803198 -172.255154
12700.0 0.790475 146.387147
12720.0 0.776912 105.261724
12740.0 0.768343 64.89311
12760.0 0.768184 25.404148
12780.0 0.77525 -13.395006
12800.0 0.787122 -51.95119
12820.0 0.798979 -90.891755
12840.0 0.805645 -130.639194
12860.0 0.804219 -171.381323
12880.0 0.794268 147.132858
12900.0 0.780871 105.521237
12920.0 0.770322 64.364958
12940.0 0.766428 24.104633
12960.0 0.770524 -15.247151
12980.0 0.779546 -54.056137
13000.0 0.789524 -92.811835
13020.0 0.796117 -132.099826
13040.0 0.795436 -172.219982
13060.0 0.788188 146.851346
13080.0 0.777769 105.431886
13100.0 0.769876 64.122222
13120.0 0.769095 23.377695
13140.0 0.775104 -16.562208
13160.0 0.785485 -55.76467
13180.0 0.795165 -94.620939
13200.0 0.799139 -133.495129
13220.0 0.79548 -172.752064
13240.0 0.784496 147.425105
13260.0 0.771351 107.093646
13280.0 0.762263 66.37723
13300.0 0.761351 25.588873
13320.0 0.770029 -15.038721
13340.0 0.784036 -55.438138
13360.0 0.797168 -95.617883
13380.0 0.80323 -135.75752
13400.0 0.798142 -175.923849
13420.0 0.784374 143.876496
13440.0 0.767671 103.627134
13460.0 0.755562 63.441714
13480.0 0.754123 23.355327
13500.0 0.763952 -16.575298
13520.0 0.782403 -56.354275
13540.0 0.802221 -96.159562
13560.0 0.814624 -136.046971
13580.0 0.814283 -176.027479
13600.0 0.800386 144.014194
13620.0 0.779599 104.259577
13640.0 0.760953 64.702804
13660.0 0.751347 25.34609
13680.0 0.754966 -13.931326
13700.0 0.769738 -53.360302
13720.0 0.790051 -93.147514
13740.0 0.807321 -133.57222
13760.0 0.812321 -174.629034
13780.0 0.802734 143.946899
13800.0 0.783095 102.520826
13820.0 0.76335 61.534191
13840.0 0.753068 21.199508
13860.0 0.755442 -18.390584
13880.0 0.769664 -57.303529
13900.0 0.789936 -95.902484
13920.0 0.807981 -134.543366
13940.0 0.816809 -173.627744
13960.0 0.81132 146.610016
13980.0 0.793993 106.181954
14000.0 0.772807 65.147609
14020.0 0.757051 23.807089
14040.0 0.754361 -17.471325
14060.0 0.764866 -58.364251
14080.0 0.783667 -98.637355
14100.0 0.802716 -138.41664
14120.0 0.813 -177.893141
14140.0 0.810978 142.716389
14160.0 0.797766 103.152078
14180.0 0.779955 63.31263
14200.0 0.766796 23.095141
14220.0 0.764009 -17.386771
14240.0 0.773894 -57.828923
14260.0 0.792112 -98.018808
14280.0 0.810038 -137.742811
14300.0 0.820105 -177.011929
14320.0 0.816965 144.041263
14340.0 0.802513 105.236136
14360.0 0.783239 66.174517
14380.0 0.766923 26.570642
14400.0 0.761709 -13.729608
14420.0 0.770007 -54.614708
14440.0 0.789134 -95.624203
14460.0 0.811143 -136.365418
14480.0 0.825262 -176.467931
14500.0 0.826161 144.237422
14520.0 0.813756 105.586971
14540.0 0.793689 67.277818
14560.0 0.774613 28.74542
14580.0 0.763007 -10.486395
14600.0 0.764408 -50.627855
14620.0 0.778663 -91.666465
14640.0 0.799577 -133.176051
14660.0 0.817986 -174.672079
14680.0 0.82418 144.322972
14700.0 0.816368 104.161862
