! File created by SignalIntegrity v1.1.10: Signal and Power Integrity Tools
! https://github.com/TeledyneLeCroy/SignalIntegrity
# MHz S MA R 50.0
0.0 1.015599 0.0
20.0 1.013132 -38.027441
40.0 1.006882 -76.229759
60.0 0.998696 -114.772185
80.0 0.991154 -153.703952
100.0 0.98674 166.995495
120.0 0.985975 127.482746
140.0 0.988442 88.009452
160.0 0.992048 48.807603
180.0 0.994493 10.083821
200.0 0.99483 -28.117746
220.0 0.992687 -65.898148
240.0 0.989417 -103.4692
260.0 0.986494 -141.157799
280.0 0.984915 -179.242663
300.0 0.985404 142.071053
320.0 0.986815 102.763638
340.0 0.987749 63.064821
360.0 0.986714 23.330259
380.0 0.982947 -16.024112
400.0 0.977774 -54.742234
420.0 0.972668 -92.821274
440.0 0.969467 -130.45432
460.0 0.969315 -168.026732
480.0 0.971732 154.077886
500.0 0.975747 115.56238
520.0 0.978758 76.321088
540.0 0.978399 36.568157
560.0 0.973836 -3.28827
580.0 0.965831 -42.752634
600.0 0.95753 -81.475254
620.0 0.951737 -119.413821
640.0 0.950349 -156.754782
660.0 0.954184 166.091649
680.0 0.961784 128.667438
700.0 0.970909 90.595299
720.0 0.977804 51.665837
740.0 0.978943 12.017725
760.0 0.973488 -27.951976
780.0 0.963129 -67.71299
800.0 0.952344 -106.823278
820.0 0.945207 -145.153837
840.0 0.943751 177.175722
860.0 0.948461 139.812029
880.0 0.957143 102.309635
900.0 0.966698 64.296602
920.0 0.973228 25.525998
940.0 0.973259 -13.94566
960.0 0.966569 -53.810849
980.0 0.955463 -93.628325
1000.0 0.944518 -132.96438
1020.0 0.937907 -171.623604
1040.0 0.937232 150.379713
1060.0 0.942568 112.826303
1080.0 0.951541 75.358288
1100.0 0.960886 37.65099
1120.0 0.967297 -0.572033
1140.0 0.967804 -39.391649
1160.0 0.962392 -78.69099
1180.0 0.953096 -118.234595
1200.0 0.943593 -157.692053
1220.0 0.937622 163.17628
1240.0 0.936442 124.501275
1260.0 0.939897 86.286041
1280.0 0.945876 48.37468
1300.0 0.951556 10.587373
1320.0 0.955012 -27.303229
1340.0 0.954694 -65.488684
1360.0 0.951172 -104.071783
1380.0 0.946001 -143.104418
1400.0 0.941015 177.517128
1420.0 0.938244 137.981949
1440.0 0.937858 98.542377
1460.0 0.939361 59.476536
1480.0 0.941566 20.92809
1500.0 0.942979 -17.065226
1520.0 0.943459 -54.633765
1540.0 0.942863 -92.05129
1560.0 0.941903 -129.621751
1580.0 0.941457 -167.68788
1600.0 0.941534 153.540912
1620.0 0.942265 114.043846
1640.0 0.942542 74.02605
1660.0 0.941405 33.945377
1680.0 0.938795 -5.724706
1700.0 0.934987 -44.626876
1720.0 0.931664 -82.663498
1740.0 0.930052 -120.052987
1760.0 0.930904 -157.171886
1780.0 0.934558 165.475058
1800.0 0.939569 127.440337
1820.0 0.944211 88.479999
1840.0 0.945992 48.627616
1860.0 0.94326 8.314501
1880.0 0.937014 -31.842168
1900.0 0.929444 -71.275242
1920.0 0.923786 -109.677567
1940.0 0.922118 -147.149188
1960.0 0.924685 175.961113
1980.0 0.931001 139.121741
2000.0 0.938636 101.772225
2020.0 0.944832 63.511152
2040.0 0.946697 24.164648
2060.0 0.942368 -16.027052
2080.0 0.933489 -56.505906
2100.0 0.923461 -96.620958
2120.0 0.916358 -135.850854
2140.0 0.914763 -174.059775
2160.0 0.918458 148.573591
2180.0 0.926218 111.63138
2200.0 0.935046 74.567886
2220.0 0.941614 36.926996
2240.0 0.943274 -1.612844
2260.0 0.938466 -41.06645
2280.0 0.929166 -81.13391
2300.0 0.919172 -121.337434
2320.0 0.912533 -161.131954
2340.0 0.911853 159.820759
2360.0 0.916398 121.598093
2380.0 0.924172 84.042993
2400.0 0.932034 46.788971
2420.0 0.936881 9.459302
2440.0 0.937267 -28.311774
2460.0 0.932698 -66.765665
2480.0 0.925225 -105.933171
2500.0 0.918 -145.679244
2520.0 0.913763 174.353456
2540.0 0.914325 134.576706
2560.0 0.918573 95.323791
2580.0 0.924278 56.786642
2600.0 0.928927 18.89981
2620.0 0.930315 -18.539576
2640.0 0.928369 -55.851985
2660.0 0.923715 -93.415057
2680.0 0.918326 -131.522469
2700.0 0.91462 -170.386897
2720.0 0.913799 150.019835
2740.0 0.916351 109.969204
2760.0 0.920507 69.887448
2780.0 0.923824 30.276214
2800.0 0.924778 -8.551052
2820.0 0.922625 -46.519598
2840.0 0.918783 -83.807617
2860.0 0.914935 -120.831683
2880.0 0.912672 -158.053673
2900.0 0.913386 164.055999
2920.0 0.916563 125.203392
2940.0 0.921039 85.408565
2960.0 0.9244 45.002936
2980.0 0.924423 4.625858
3000.0 0.921156 -35.095097
3020.0 0.915726 -73.782642
3040.0 0.910618 -111.396453
3060.0 0.907877 -148.27117
3080.0 0.908243 175.098072
3100.0 0.912059 138.128886
3120.0 0.917704 100.29439
3140.0 0.922935 61.322192
3160.0 0.925106 21.25233
3180.0 0.92227 -19.429915
3200.0 0.915737 -59.993949
3220.0 0.90829 -99.786467
3240.0 0.903234 -138.431861
3260.0 0.902757 -175.998372
3280.0 0.906603 147.15855
3300.0 0.913754 110.517067
3320.0 0.921478 73.493713
3340.0 0.926613 35.658574
3360.0 0.92677 -3.228825
3380.0 0.920763 -43.062697
3400.0 0.911045 -83.410013
3420.0 0.901722 -123.705432
3440.0 0.896639 -163.391709
3460.0 0.897933 157.813326
3480.0 0.904371 119.895633
3500.0 0.913567 82.61697
3520.0 0.922117 45.551208
3540.0 0.926617 8.292034
3560.0 0.925474 -29.523536
3580.0 0.918375 -68.107303
3600.0 0.908041 -107.431321
3620.0 0.898703 -147.291489
3640.0 0.894018 172.730093
3660.0 0.896169 133.07568
3680.0 0.903684 94.058076
3700.0 0.91337 55.814398
3720.0 0.921538 18.210483
3740.0 0.924849 -19.015267
3760.0 0.922546 -56.219671
3780.0 0.915261 -93.801117
3800.0 0.905711 -132.051788
3820.0 0.897736 -171.152975
3840.0 0.89415 148.99653
3860.0 0.896655 108.77714
3880.0 0.903706 68.706271
3900.0 0.911873 29.313028
3920.0 0.917972 -9.138387
3940.0 0.91953 -46.667924
3960.0 0.916764 -83.548854
3980.0 0.910961 -120.27691
4000.0 0.904139 -157.36516
4020.0 0.898989 164.699462
4040.0 0.896938 125.652492
4060.0 0.898896 85.601504
4080.0 0.903714 44.995065
4100.0 0.908697 4.565961
4120.0 0.911858 -35.038482
4140.0 0.911802 -73.496571
4160.0 0.909222 -110.85584
4180.0 0.905617 -147.539778
4200.0 0.902188 175.88889
4220.0 0.900512 138.817275
4240.0 0.90069 100.738949
4260.0 0.902402 61.471032
4280.0 0.90456 21.192483
4300.0 0.905429 -19.481169
4320.0 0.904816 -59.772096
4340.0 0.903024 -99.097032
4360.0 0.901252 -137.221768
4380.0 0.900818 -174.363423
4400.0 0.901706 149.015108
4420.0 0.903951 112.346813
4440.0 0.90636 75.064905
4460.0 0.907527 36.820697
4480.0 0.906611 -2.491882
4500.0 0.902998 -42.609572
4520.0 0.898215 -82.976782
4540.0 0.894236 -123.010229
4560.0 0.892694 -162.250518
4580.0 0.894617 159.420306
4600.0 0.898949 121.833322
4620.0 0.904367 84.659412
4640.0 0.908836 47.456093
4660.0 0.910204 9.874067
4680.0 0.907822 -28.333824
4700.0 0.901745 -67.230816
4720.0 0.89427 -106.648279
4740.0 0.888461 -146.314519
4760.0 0.886457 174.142473
4780.0 0.889426 135.019335
4800.0 0.895793 96.453595
4820.0 0.903067 58.460217
4840.0 0.908586 20.86574
4860.0 0.909884 -16.554483
4880.0 0.906743 -54.071308
4900.0 0.899889 -91.97553
4920.0 0.891698 -130.449189
4940.0 0.885359 -169.593374
4960.0 0.882898 150.712002
4980.0 0.885546 110.788128
5000.0 0.891882 71.034157
5020.0 0.899079 31.864717
5040.0 0.904585 -6.52094
5060.0 0.906135 -44.144362
5080.0 0.903737 -81.232419
5100.0 0.898265 -118.215125
5120.0 0.891343 -155.53746
5140.0 0.885494 166.365287
5160.0 0.882218 127.252714
5180.0 0.88282 87.228355
5200.0 0.886802 46.709737
5220.0 0.892026 6.394029
5240.0 0.896643 -33.094094
5260.0 0.898819 -71.435941
5280.0 0.898498 -108.664836
5300.0 0.896441 -145.192029
5320.0 0.893252 178.423548
5340.0 0.890241 141.558314
5360.0 0.887681 103.67751
5380.0 0.886062 64.559733
5400.0 0.885647 24.343181
5420.0 0.885939 -16.372814
5440.0 0.887107 -56.7885
5460.0 0.888636 -96.273296
5480.0 0.890284 -134.543372
5500.0 0.892076 -171.788306
5520.0 0.893227 151.535068
5540.0 0.89369 114.852473
5560.0 0.892848 77.582435
5580.0 0.89045 39.369283
5600.0 0.887174 0.111178
5620.0 0.8836 -39.910596
5640.0 0.881427 -80.118123
5660.0 0.881536 -119.92657
5680.0 0.883796 -158.905082
5700.0 0.887745 163.003621
5720.0 0.891547 125.557237
5740.0 0.89395 88.36446
5760.0 0.89374 50.947454
5780.0 0.890221 12.96962
5800.0 0.884595 -25.747803
5820.0 0.878467 -65.146619
5840.0 0.874579 -104.909789
5860.0 0.874854 -144.65636
5880.0 0.879088 176.001447
5900.0 0.886083 137.270135
5920.0 0.892864 99.135293
5940.0 0.896941 61.469575
5960.0 0.896915 24.005511
5980.0 0.89227 -13.507703
6000.0 0.884871 -51.298365
6020.0 0.876967 -89.554959
6040.0 0.871377 -128.312101
6060.0 0.870404 -167.532731
6080.0 0.873991 152.965777
6100.0 0.880948 113.443023
6120.0 0.888148 74.127846
6140.0 0.892513 35.247553
6160.0 0.892727 -3.119616
6180.0 0.888542 -41.010347
6200.0 0.882051 -78.570973
6220.0 0.875624 -116.093171
6240.0 0.871369 -153.855434
6260.0 0.871122 167.856373
6280.0 0.874473 128.880934
6300.0 0.88015 89.28123
6320.0 0.885498 49.296319
6340.0 0.887763 9.383674
6360.0 0.886467 -30.015661
6380.0 0.882225 -68.634375
6400.0 0.877304 -106.427368
6420.0 0.873856 -143.65622
6440.0 0.872695 179.297271
6460.0 0.874379 141.980019
6480.0 0.877614 103.983848
6500.0 0.880819 65.133865
6520.0 0.882398 25.483812
6540.0 0.881016 -14.576046
6560.0 0.877695 -54.491475
6580.0 0.87394 -93.795248
6600.0 0.871568 -132.215699
6620.0 0.871887 -169.843905
6640.0 0.874306 153.001117
6660.0 0.878117 115.868559
6680.0 0.88137 78.25539
6700.0 0.882121 39.840149
6720.0 0.879659 0.503333
6740.0 0.874099 -39.539538
6760.0 0.868068 -79.792436
6780.0 0.864306 -119.729776
6800.0 0.864365 -158.917025
6820.0 0.868593 162.757208
6840.0 0.874841 125.115564
6860.0 0.880792 87.821048
6880.0 0.883903 50.414883
6900.0 0.8822 12.544736
6920.0 0.876204 -26.019615
6940.0 0.867653 -65.301101
6960.0 0.860295 -105.051655
6980.0 0.85756 -144.913078
7000.0 0.860402 175.54862
7020.0 0.868006 136.628011
7040.0 0.876892 98.381977
7060.0 0.883506 60.714786
7080.0 0.885374 23.339243
7100.0 0.881132 -14.049945
7120.0 0.872437 -51.746981
7140.0 0.862055 -90.005107
7160.0 0.853905 -128.888
7180.0 0.851625 -168.338579
7200.0 0.855952 151.892892
7220.0 0.865517 112.150225
7240.0 0.876023 72.707705
7260.0 0.882725 33.789118
7280.0 0.883111 -4.571788
7300.0 0.876651 -42.475985
7320.0 0.866213 -80.12281
7340.0 0.855665 -117.835995
7360.0 0.848672 -155.875382
7380.0 0.848294 165.551591
7400.0 0.854417 126.397374
7420.0 0.864915 86.830325
7440.0 0.875379 47.109872
7460.0 0.880953 7.611616
7480.0 0.879824 -31.371576
7500.0 0.872538 -69.728037
7520.0 0.8625 -107.509922
7540.0 0.853726 -145.001146
7560.0 0.848862 177.474604
7580.0 0.849862 139.588167
7600.0 0.855872 101.076301
7620.0 0.86442 61.891714
7640.0 0.871874 22.135376
7660.0 0.874295 -17.861889
7680.0 0.870978 -57.682222
7700.0 0.863508 -97.015212
7720.0 0.855378 -135.679431
7740.0 0.850352 -173.753939
7760.0 0.849869 148.548788
7780.0 0.8543 110.955868
7800.0 0.861634 73.146757
7820.0 0.868571 34.93886
7840.0 0.872255 -3.762117
7860.0 0.870313 -42.881708
7880.0 0.863691 -82.200208
7900.0 0.85527 -121.513417
7920.0 0.848497 -160.599121
7940.0 0.846557 160.643272
7960.0 0.849672 122.211461
7980.0 0.85663 84.055427
8000.0 0.864607 46.003148
8020.0 0.869956 7.916253
8040.0 0.870758 -30.348805
8060.0 0.866111 -68.904737
8080.0 0.85791 -107.754573
8100.0 0.849655 -146.892213
8120.0 0.844407 173.809786
8140.0 0.844762 134.529289
8160.0 0.850244 95.428635
8180.0 0.858533 56.682166
8200.0 0.866452 18.315868
8220.0 0.870395 -19.709765
8240.0 0.869278 -57.518097
8260.0 0.863451 -95.339571
8280.0 0.855201 -133.368439
8300.0 0.848118 -171.816697
8320.0 0.844565 149.238483
8340.0 0.846268 109.900363
8360.0 0.852208 70.37697
8380.0 0.859408 31.015957
8400.0 0.864974 -7.920581
8420.0 0.866169 -46.30349
8440.0 0.86304 -84.160599
8460.0 0.857097 -121.751157
8480.0 0.850494 -159.376063
8500.0 0.846181 162.628258
8520.0 0.845368 124.029271
8540.0 0.848542 84.828704
8560.0 0.854314 45.182132
8580.0 0.85962 5.458195
8600.0 0.862357 -33.971159
8620.0 0.860971 -72.873679
8640.0 0.856286 -111.172506
8660.0 0.850548 -149.059593
8680.0 0.845669 173.186971
8700.0 0.844017 135.255825
8720.0 0.846023 96.879195
8740.0 0.850979 58.007948
8760.0 0.857103 18.722438
8780.0 0.861285 -20.705959
8800.0 0.862143 -59.94871
8820.0 0.859345 -98.801003
8840.0 0.854279 -137.160244
8860.0 0.849577 -175.148067
8880.0 0.846653 147.026151
8900.0 0.84686 109.156135
8920.0 0.849791 71.037581
8940.0 0.853816 32.63487
8960.0 0.857392 -6.027792
8980.0 0.858291 -44.846845
9000.0 0.85622 -83.676141
9020.0 0.851968 -122.477859
9040.0 0.847032 -161.220105
9060.0 0.843943 160.051215
9080.0 0.84366 121.288424
9100.0 0.846648 82.538389
9120.0 0.851957 43.838675
9140.0 0.857159 5.312046
9160.0 0.860636 -32.960755
9180.0 0.860616 -70.993761
9200.0 0.857145 -108.845268
9220.0 0.851657 -146.730801
9240.0 0.845674 175.140339
9260.0 0.841803 136.591504
9280.0 0.841148 97.539862
9300.0 0.8439 58.147287
9320.0 0.849127 18.669439
9340.0 0.854143 -20.552099
9360.0 0.857342 -59.257438
9380.0 0.85742 -97.427143
9400.0 0.854391 -135.186331
9420.0 0.849779 -172.868611
9440.0 0.844637 149.170119
9460.0 0.841026 110.683622
9480.0 0.840094 71.570971
9500.0 0.842042 32.057625
9520.0 0.846668 -7.477627
9540.0 0.851883 -46.614312
9560.0 0.856229 -85.046305
9580.0 0.858434 -122.793352
9600.0 0.85762 -160.066146
9620.0 0.854544 162.721521
9640.0 0.849541 125.099422
9660.0 0.844138 86.735766
9680.0 0.839979 47.456832
9700.0 0.838 7.468428
9720.0 0.839348 -32.754961
9740.0 0.843134 -72.656467
9760.0 0.8481 -111.762713
9780.0 0.852936 -149.973407
9800.0 0.855841 172.547147
9820.0 0.856564 135.425679
9840.0 0.854555 98.180617
9860.0 0.850207 60.463835
9880.0 0.845014 22.038754
9900.0 0.840187 -17.048007
9920.0 0.838028 -56.50614
9940.0 0.839353 -95.972366
9960.0 0.84373 -135.058161
9980.0 0.850082 -173.612203
10000.0 0.855709 148.325376
10020.0 0.859035 110.587387
10040.0 0.858756 72.88522
10060.0 0.854605 35.028621
10080.0 0.848375 -3.133646
10100.0 0.841725 -41.632884
10120.0 0.837367 -80.360765
10140.0 0.836917 -119.224578
10160.0 0.84022 -158.074165
10180.0 0.846523 163.144788
10200.0 0.852958 124.412331
10220.0 0.857168 85.7301
10240.0 0.857472 47.043137
10260.0 0.85312 8.395926
10280.0 0.846101 -30.158999
10300.0 0.838532 -68.60497
10320.0 0.833159 -106.909241
10340.0 0.832032 -145.179775
10360.0 0.83497 176.469164
10380.0 0.841334 137.906072
10400.0 0.848395 99.015341
10420.0 0.853371 59.876205
10440.0 0.854703 20.644545
10460.0 0.851637 -18.399713
10480.0 0.846249 -56.989951
10500.0 0.840701 -95.053115
10520.0 0.83683 -132.629853
10540.0 0.836088 -169.990235
10560.0 0.837711 152.517656
10580.0 0.841072 114.573933
10600.0 0.844473 75.909586
10620.0 0.846169 36.556633
10640.0 0.846022 -3.231418
10660.0 0.843993 -42.995525
10680.0 0.841787 -82.223321
10700.0 0.84076 -120.666775
10720.0 0.841034 -158.305684
10740.0 0.842795 164.565392
10760.0 0.844401 127.456731
10780.0 0.844685 89.88918
10800.0 0.842699 51.412303
10820.0 0.837957 11.902729
10840.0 0.832621 -28.417149
10860.0 0.828908 -69.012448
10880.0 0.829153 -109.153771
10900.0 0.834123 -148.356499
10920.0 0.84172 173.548617
10940.0 0.849799 136.365743
10960.0 0.85513 99.610288
10980.0 0.855428 62.788949
11000.0 0.850322 25.386504
11020.0 0.840507 -12.905192
11040.0 0.829958 -52.112089
11060.0 0.822876 -91.995612
11080.0 0.822436 -131.985786
11100.0 0.829514 -171.536599
11120.0 0.84073 149.715204
11140.0 0.852037 111.843783
11160.0 0.859005 74.57123
11180.0 0.85851 37.535678
11200.0 0.850699 0.280657
11220.0 0.837212 -37.586077
11240.0 0.822975 -76.256768
11260.0 0.813474 -115.756301
11280.0 0.812483 -155.756511
11300.0 0.821314 164.211718
11320.0 0.836001 124.58523
11340.0 0.850716 85.674487
11360.0 0.859759 47.478138
11380.0 0.859284 9.873398
11400.0 0.850254 -27.404906
11420.0 0.83571 -64.721939
11440.0 0.821038 -102.368124
11460.0 0.811856 -140.625225
11480.0 0.811198 -179.544966
11500.0 0.820094 141.012618
11520.0 0.834732 101.284753
11540.0 0.848818 61.636854
11560.0 0.856512 22.319698
11580.0 0.853995 -16.487703
11600.0 0.843034 -54.751844
11620.0 0.827917 -92.670194
11640.0 0.814015 -130.463627
11660.0 0.806582 -168.431657
11680.0 0.807552 153.220836
11700.0 0.817056 114.442617
11720.0 0.831457 75.236556
11740.0 0.84462 35.816315
11760.0 0.851479 -3.561205
11780.0 0.848773 -42.617822
11800.0 0.838489 -81.121126
11820.0 0.825307 -119.098757
11840.0 0.813852 -156.676353
11860.0 0.808451 165.8722
11880.0 0.809887 128.220549
11900.0 0.817276 90.143918
11920.0 0.827481 51.426312
11940.0 0.835475 12.085639
11960.0 0.838166 -27.689521
11980.0 0.83409 -67.590463
12000.0 0.825695 -107.199797
12020.0 0.817512 -146.283028
12040.0 0.812537 175.276383
12060.0 0.813018 137.421391
12080.0 0.817963 99.894155
12100.0 0.824928 62.43582
12120.0 0.831165 24.686533
12140.0 0.83305 -13.607385
12160.0 0.829815 -52.539348
12180.0 0.822376 -92.077396
12200.0 0.813939 -131.913466
12220.0 0.809032 -171.6912
12240.0 0.809381 148.959792
12260.0 0.815174 110.311156
12280.0 0.82372 72.332658
12300.0 0.830883 34.875413
12320.0 0.83395 -2.401008
12340.0 0.830515 -39.887694
12360.0 0.821646 -77.890054
12380.0 0.810529 -116.689039
12400.0 0.801284 -156.273932
12420.0 0.79869 163.596421
12440.0 0.803596 123.370129
12460.0 0.814022 83.611987
12480.0 0.825478 44.624103
12500.0 0.832428 6.497865
12520.0 0.832596 -30.960175
12540.0 0.825341 -68.181798
12560.0 0.813149 -105.60438
12580.0 0.800622 -143.720235
12600.0 0.791942 177.229944
12620.0 0.79159 137.33969
12640.0 0.799969 96.998782
12660.0 0.813702 56.880506
12680.0 0.827325 17.493338
12700.0 0.83448 -20.90034
12720.0 0.833014 -58.346213
12740.0 0.823519 -95.252274
12760.0 0.809129 -132.106421
12780.0 0.79529 -169.505276
12800.0 0.786277 152.10677
12820.0 0.786323 112.640584
12840.0 0.795925 72.329383
12860.0 0.810972 31.831385
12880.0 0.825433 -8.183057
12900.0 0.832486 -47.258522
12920.0 0.829948 -85.241915
12940.0 0.8195 -122.446746
12960.0 0.804561 -159.36041
12980.0 0.790699 163.406559
13000.0 0.781812 125.316014
13020.0 0.78134 86.192994
13040.0 0.790088 46.149102
13060.0 0.804278 5.719917
13080.0 0.818688 -34.439084
13100.0 0.827065 -73.847998
13120.0 0.82671 -112.241803
13140.0 0.819129 -149.790765
13160.0 0.807022 173.134411
13180.0 0.795335 136.068657
13200.0 0.787552 98.518848
13220.0 0.786072 60.268036
13240.0 0.791807 21.256806
13260.0 0.801687 -18.286953
13280.0 0.812049 -57.961075
13300.0 0.818375 -97.45382
13320.0 0.818096 -136.495453
13340.0 0.812522 -175.096449
13360.0 0.80361 146.568687
13380.0 0.795268 108.304589
13400.0 0.790375 69.852929
13420.0 0.789979 31.171344
13440.0 0.794626 -7.712155
13460.0 0.801762 -46.701047
13480.0 0.809002 -85.616409
13500.0 0.814038 -124.434006
13520.0 0.814943 -163.103875
13540.0 0.812791 158.350246
13560.0 0.808513 119.868714
13580.0 0.804326 81.521321
13600.0 0.802294 43.311432
13620.0 0.802365 5.32143
13640.0 0.804835 -32.431302
13660.0 0.807822 -70.090262
13680.0 0.809718 -107.803571
13700.0 0.809838 -145.893981
13720.0 0.807164 175.389482
13740.0 0.803399 135.932011
13760.0 0.799978 95.781677
13780.0 0.798547 55.376649
13800.0 0.800579 15.243412
13820.0 0.804608 -24.104108
13840.0 0.809587 -62.368169
13860.0 0.813644 -99.695439
13880.0 0.815147 -136.415558
13900.0 0.81444 -173.107931
13920.0 0.810999 149.628136
13940.0 0.806434 111.390276
13960.0 0.802464 71.975533
13980.0 0.800432 31.712552
14000.0 0.802191 -8.767304
14020.0 0.806444 -48.765602
14040.0 0.811658 -87.75745
14060.0 0.815948 -125.767309
14080.0 0.816996 -163.114058
14100.0 0.815099 159.635392
14120.0 0.810214 121.842465
14140.0 0.804347 83.142805
14160.0 0.800621 43.413706
14180.0 0.800683 3.069822
14200.0 0.806113 -37.139873
14220.0 0.814832 -76.539345
14240.0 0.823653 -114.677849
14260.0 0.830234 -151.673077
14280.0 0.831727 172.032844
14300.0 0.828304 135.815913
14320.0 0.820337 98.925691
14340.0 0.80978 60.883247
14360.0 0.800927 21.464417
14380.0 0.796839 -18.998838
14400.0 0.800524 -59.66792
14420.0 0.810873 -99.703659
14440.0 0.823622 -138.474226
14460.0 0.835109 -175.946292
14480.0 0.840871 147.483919
14500.0 0.839598 111.266687
14520.0 0.831498 74.685599
14540.0 0.818263 37.243527
14560.0 0.805108 -1.373235
14580.0 0.796329 -41.110902
14600.0 0.796156 -81.419171
14620.0 0.805098 -121.66192
14640.0 0.818767 -161.219784
14660.0 0.832541 160.136437
14680.0 0.840733 122.224126
14700.0 0.840802 84.749108
14720.0 0.833475 47.223499
14740.0 0.820745 9.307957
