! File created by SignalIntegrity v1.1.10: Signal and Power Integrity Tools
! https://github.com/TeledyneLeCroy/SignalIntegrity
# MHz S MA R 50.0
0.0 1.039431 0.0
20.0 1.033779 -40.369252
40.0 1.019992 -80.610376
60.0 1.004234 -120.752033
80.0 0.992966 -160.908446
100.0 0.990663 158.705979
120.0 0.997028 117.935022
140.0 1.008384 76.78945
160.0 1.018153 35.436809
180.0 1.020355 -5.752987
200.0 1.013983 -46.434348
220.0 1.002116 -86.464084
240.0 0.990719 -125.953653
260.0 0.985032 -165.296244
280.0 0.987183 155.058767
300.0 0.996601 114.727934
320.0 1.008318 73.550213
340.0 1.015469 31.775415
360.0 1.013131 -10.054692
380.0 1.001132 -51.299426
400.0 0.985278 -91.565274
420.0 0.972293 -130.915733
440.0 0.966964 -169.721154
460.0 0.971491 151.424926
480.0 0.983731 111.932117
500.0 0.998601 71.426895
520.0 1.008194 29.882093
540.0 1.005751 -12.208287
560.0 0.991555 -54.08982
580.0 0.971847 -95.143367
600.0 0.955329 -135.133293
620.0 0.948246 -174.306607
640.0 0.95226 146.842527
660.0 0.965993 107.721863
680.0 0.983845 67.805123
700.0 0.99782 26.900627
720.0 1.000835 -14.797001
740.0 0.990514 -56.710825
760.0 0.972471 -98.190853
780.0 0.955404 -138.884893
800.0 0.946109 -178.76016
820.0 0.947805 141.904049
840.0 0.958734 102.687036
860.0 0.974403 63.206583
880.0 0.988153 23.176312
900.0 0.993362 -17.408004
920.0 0.987938 -58.338845
940.0 0.974495 -99.338205
960.0 0.959636 -140.166579
980.0 0.949974 179.216774
1000.0 0.948472 138.760941
1020.0 0.954975 98.375222
1040.0 0.965414 57.966586
1060.0 0.974217 17.574536
1080.0 0.977364 -22.719389
1100.0 0.973378 -62.816007
1120.0 0.965145 -102.693005
1140.0 0.957107 -142.521829
1160.0 0.952985 177.464181
1180.0 0.954907 137.008301
1200.0 0.961079 95.987249
1220.0 0.967581 54.558699
1240.0 0.969956 13.082633
1260.0 0.965732 -27.943331
1280.0 0.957135 -68.170819
1300.0 0.948212 -107.594875
1320.0 0.943255 -146.49239
1340.0 0.945092 174.596865
1360.0 0.953174 135.105761
1380.0 0.964699 94.616551
1400.0 0.973693 53.02225
1420.0 0.974162 10.746217
1440.0 0.964862 -31.458413
1460.0 0.949625 -72.849998
1480.0 0.935753 -113.045422
1500.0 0.928949 -152.196891
1520.0 0.931341 169.22564
1540.0 0.942611 130.554186
1560.0 0.958597 91.121094
1580.0 0.972902 50.521584
1600.0 0.978333 8.741247
1620.0 0.970763 -33.683996
1640.0 0.953995 -75.936092
1660.0 0.936235 -117.356655
1680.0 0.925188 -157.650145
1700.0 0.924857 163.016625
1720.0 0.934199 124.206482
1740.0 0.949611 85.385613
1760.0 0.964804 46.036007
1780.0 0.972792 5.908844
1800.0 0.969746 -34.962618
1820.0 0.956528 -76.283735
1840.0 0.939803 -117.646338
1860.0 0.927452 -158.780606
1880.0 0.924122 160.459358
1900.0 0.93066 120.054853
1920.0 0.943038 79.872055
1940.0 0.955191 39.810254
1960.0 0.96155 -0.222619
1980.0 0.958908 -40.229518
2000.0 0.949258 -80.209603
2020.0 0.937354 -120.268272
2040.0 0.928675 -160.535602
2060.0 0.927313 158.816316
2080.0 0.933121 117.723608
2100.0 0.94294 76.320205
2120.0 0.951122 34.883011
2140.0 0.952719 -6.162543
2160.0 0.947321 -46.489953
2180.0 0.937709 -86.03305
2200.0 0.928882 -124.99109
2220.0 0.925204 -163.846009
2240.0 0.928356 156.864363
2260.0 0.937891 116.66895
2280.0 0.949339 75.335793
2300.0 0.956298 33.118211
2320.0 0.954181 -9.330184
2340.0 0.94306 -51.176951
2360.0 0.928833 -91.839078
2380.0 0.918004 -131.272595
2400.0 0.914701 -169.826135
2420.0 0.92058 151.853147
2440.0 0.933361 113.043875
2460.0 0.948425 73.173402
2480.0 0.958663 31.96029
2500.0 0.957515 -10.302912
2520.0 0.944891 -52.870537
2540.0 0.926869 -94.905659
2560.0 0.912319 -135.836299
2580.0 0.907363 -175.612513
2600.0 0.912849 145.455279
2620.0 0.926599 106.834456
2640.0 0.943021 67.911918
2660.0 0.955144 28.254268
2680.0 0.957256 -12.336852
2700.0 0.947218 -53.703779
2720.0 0.929914 -95.432364
2740.0 0.913699 -137.1039
2760.0 0.90565 -178.358363
2780.0 0.908957 140.958487
2800.0 0.920997 100.814297
2820.0 0.936235 61.082795
2840.0 0.948012 21.542464
2860.0 0.950874 -17.959874
2880.0 0.944153 -57.553707
2900.0 0.930905 -97.393335
2920.0 0.917313 -137.609519
2940.0 0.909719 -178.35891
2960.0 0.911072 140.341912
2980.0 0.92077 98.660025
3000.0 0.933432 56.900717
3020.0 0.942064 15.516194
3040.0 0.942589 -25.130955
3060.0 0.934909 -64.889751
3080.0 0.92349 -103.890931
3100.0 0.913729 -142.587387
3120.0 0.909626 178.469876
3140.0 0.913489 138.725157
3160.0 0.923487 97.820022
3180.0 0.934777 55.825544
3200.0 0.940932 13.24164
3220.0 0.937691 -29.079443
3240.0 0.927262 -70.376897
3260.0 0.915175 -110.365641
3280.0 0.907062 -149.220329
3300.0 0.906552 172.49043
3320.0 0.913576 134.070999
3340.0 0.925949 94.880396
3360.0 0.938292 54.459581
3380.0 0.943829 12.821284
3400.0 0.938859 -29.552536
3420.0 0.924979 -71.869002
3440.0 0.909533 -113.394039
3460.0 0.899958 -153.834351
3480.0 0.899722 166.723872
3500.0 0.909009 127.886086
3520.0 0.923879 89.106941
3540.0 0.938456 49.921428
3560.0 0.946326 9.992955
3580.0 0.942645 -30.703288
3600.0 0.928739 -71.935255
3620.0 0.91083 -113.387227
3640.0 0.897218 -154.722567
3660.0 0.894159 164.24721
3680.0 0.90218 123.603639
3700.0 0.917717 83.344424
3720.0 0.933793 43.356701
3740.0 0.943001 3.576505
3760.0 0.941678 -36.072504
3780.0 0.930265 -75.699699
3800.0 0.914141 -115.45479
3820.0 0.900404 -155.602191
3840.0 0.894493 163.676587
3860.0 0.89921 122.356408
3880.0 0.911884 80.627234
3900.0 0.926118 38.935137
3920.0 0.935031 -2.25225
3940.0 0.934361 -42.567551
3960.0 0.925738 -81.92703
3980.0 0.913683 -120.631864
4000.0 0.903348 -159.18276
4020.0 0.899214 161.788713
4040.0 0.902544 121.759913
4060.0 0.912133 80.53196
4080.0 0.923108 38.310235
4100.0 0.929042 -4.1979
4120.0 0.927058 -46.13302
4140.0 0.918492 -86.896775
4160.0 0.908291 -126.356825
4180.0 0.901388 -164.905738
4200.0 0.900161 156.827121
4220.0 0.90543 118.143217
4240.0 0.914723 78.440605
4260.0 0.923479 37.490442
4280.0 0.926809 -4.509062
4300.0 0.921796 -46.893929
4320.0 0.911284 -88.849933
4340.0 0.90093 -129.862683
4360.0 0.895655 -169.811609
4380.0 0.898115 151.01212
4400.0 0.906887 112.116245
4420.0 0.918552 73.028108
4440.0 0.927952 33.359498
4460.0 0.92987 -6.985733
4480.0 0.922954 -47.862659
4500.0 0.909721 -88.990574
4520.0 0.896436 -130.051716
4540.0 0.889452 -170.896627
4560.0 0.89144 148.528956
4580.0 0.901837 108.199279
4600.0 0.915925 68.026709
4620.0 0.927331 28.007786
4640.0 0.931169 -11.859252
4660.0 0.92524 -51.562546
4680.0 0.912424 -91.150872
4700.0 0.898094 -130.848897
4720.0 0.887852 -170.909503
4740.0 0.886252 148.423969
4760.0 0.893616 107.084618
4780.0 0.906749 65.312702
4800.0 0.919403 23.538978
4820.0 0.925184 -17.678281
4840.0 0.922375 -57.947048
4860.0 0.912973 -97.245813
4880.0 0.901594 -135.868781
4900.0 0.893126 -174.412216
4920.0 0.890226 146.484136
4940.0 0.894162 106.323891
4960.0 0.902777 64.917823
4980.0 0.911395 22.633441
5000.0 0.915633 -19.766295
5020.0 0.913235 -61.425716
5040.0 0.906562 -101.80471
5060.0 0.899574 -140.959204
5080.0 0.895191 -179.34284
5100.0 0.895385 142.338466
5120.0 0.899298 103.358918
5140.0 0.904823 63.243918
5160.0 0.908754 21.867639
5180.0 0.907942 -20.34426
5200.0 0.902863 -62.605794
5220.0 0.896277 -104.174495
5240.0 0.891961 -144.622131
5260.0 0.892597 175.962753
5280.0 0.897703 137.170961
5300.0 0.905574 98.472028
5320.0 0.912623 59.337504
5340.0 0.914938 19.495986
5360.0 0.910825 -21.078826
5380.0 0.90095 -62.152522
5400.0 0.889822 -103.34219
5420.0 0.882663 -144.375733
5440.0 0.882505 174.906819
5460.0 0.889966 134.480105
5480.0 0.901617 94.207616
5500.0 0.912418 54.017509
5520.0 0.917613 13.875108
5540.0 0.914303 -26.133165
5560.0 0.904336 -65.924861
5580.0 0.891905 -105.566051
5600.0 0.882147 -145.215507
5620.0 0.879355 174.821274
5640.0 0.884262 134.274874
5660.0 0.895032 93.056274
5680.0 0.90645 51.304169
5700.0 0.91248 9.501752
5720.0 0.910651 -31.780968
5740.0 0.90213 -72.144904
5760.0 0.891575 -111.515804
5780.0 0.883703 -150.247859
5800.0 0.881031 171.111119
5820.0 0.884737 131.936786
5840.0 0.892779 91.711984
5860.0 0.901288 50.314865
5880.0 0.905885 8.065168
5900.0 0.903643 -34.262736
5920.0 0.89657 -75.82307
5940.0 0.888794 -116.161684
5960.0 0.884045 -155.281813
5980.0 0.884593 166.355105
6000.0 0.889552 128.076188
6020.0 0.89688 89.222438
6040.0 0.902868 49.262846
6060.0 0.903522 8.097891
6080.0 0.897977 -33.928122
6100.0 0.888397 -76.13693
6120.0 0.879997 -117.792573
6140.0 0.877273 -158.51953
6160.0 0.881117 161.683376
6180.0 0.890254 122.487679
6200.0 0.900518 83.38746
6220.0 0.907164 43.983999
6240.0 0.906926 4.018317
6260.0 0.898845 -36.496471
6280.0 0.886782 -77.340858
6300.0 0.876393 -118.278179
6320.0 0.872479 -159.070163
6340.0 0.877313 160.355344
6360.0 0.888342 119.947492
6380.0 0.900697 79.634037
6400.0 0.908439 39.322411
6420.0 0.907177 -0.936861
6440.0 0.897607 -41.060186
6460.0 0.883659 -81.028279
6480.0 0.871498 -120.883124
6500.0 0.866502 -160.833458
6520.0 0.870495 158.903855
6540.0 0.882481 118.1535
6560.0 0.897054 76.848206
6580.0 0.907007 35.223014
6600.0 0.907511 -6.303301
6620.0 0.898125 -47.245907
6640.0 0.884178 -87.294729
6660.0 0.87209 -126.524588
6680.0 0.866375 -165.242261
6700.0 0.869465 156.037485
6720.0 0.879695 116.755972
6740.0 0.892981 76.51851
6760.0 0.902912 35.177023
6780.0 0.903363 -6.925539
6800.0 0.894009 -49.111278
6820.0 0.879574 -90.707399
6840.0 0.867345 -131.292334
6860.0 0.862856 -170.915573
6880.0 0.867071 150.074604
6900.0 0.878409 111.167483
6920.0 0.891984 71.803213
6940.0 0.901536 31.659326
6960.0 0.902485 -9.315928
6980.0 0.893585 -50.822781
7000.0 0.879724 -92.346302
7020.0 0.868028 -133.475799
7040.0 0.863598 -173.956828
7060.0 0.868366 146.183091
7080.0 0.879389 106.696214
7100.0 0.891615 67.289262
7120.0 0.899349 27.63973
7140.0 0.898067 -12.399726
7160.0 0.888297 -52.834841
7180.0 0.87424 -93.608718
7200.0 0.862589 -134.573181
7220.0 0.859237 -175.636063
7240.0 0.865414 143.306043
7260.0 0.878629 102.348632
7280.0 0.892386 61.5223
7300.0 0.899504 20.940217
7320.0 0.896642 -19.309023
7340.0 0.884673 -59.193983
7360.0 0.869361 -98.776812
7380.0 0.857538 -138.316954
7400.0 0.854045 -178.082302
7420.0 0.861288 141.66942
7440.0 0.87637 100.780844
7460.0 0.892626 59.353898
7480.0 0.901951 17.682155
7500.0 0.898817 -23.730715
7520.0 0.885344 -64.438308
7540.0 0.868132 -104.322519
7560.0 0.854611 -143.530332
7580.0 0.850393 177.522787
7600.0 0.856602 138.36096
7620.0 0.871384 98.582067
7640.0 0.888658 57.895587
7660.0 0.899852 16.374791
7680.0 0.899147 -25.596443
7700.0 0.886262 -67.457135
7720.0 0.868072 -108.714684
7740.0 0.853293 -149.241087
7760.0 0.847387 170.858753
7780.0 0.852544 131.302647
7800.0 0.865999 91.713789
7820.0 0.882016 51.821013
7840.0 0.893651 11.439514
7860.0 0.894726 -29.370067
7880.0 0.885067 -70.371577
7900.0 0.869543 -111.358572
7920.0 0.855589 -152.1548
7940.0 0.849876 167.263504
7960.0 0.854116 126.862577
7980.0 0.866316 86.619213
8000.0 0.880728 46.447612
8020.0 0.890092 6.355024
8040.0 0.890271 -33.645131
8060.0 0.8808 -73.580948
8080.0 0.866278 -113.517754
8100.0 0.853516 -153.676335
8120.0 0.847744 165.765629
8140.0 0.852013 124.740837
8160.0 0.864122 83.326473
8180.0 0.878067 41.842854
8200.0 0.887149 0.647543
8220.0 0.886604 -39.933864
8240.0 0.877666 -79.766994
8260.0 0.864975 -119.064803
8280.0 0.853999 -158.200479
8300.0 0.849801 162.338234
8320.0 0.8538 122.158821
8340.0 0.864641 81.155413
8360.0 0.877216 39.482657
8380.0 0.884462 -2.348838
8400.0 0.882908 -43.744124
8420.0 0.873355 -84.322772
8440.0 0.860838 -124.017182
8460.0 0.851311 -163.168707
8480.0 0.848227 157.735849
8500.0 0.853415 118.214638
8520.0 0.864786 77.889446
8540.0 0.877148 36.733004
8560.0 0.884479 -4.990327
8580.0 0.882125 -46.74798
8600.0 0.87159 -87.987959
8620.0 0.858319 -128.490287
8640.0 0.848114 -168.308465
8660.0 0.845634 152.249162
8680.0 0.851373 112.796216
8700.0 0.863185 73.070575
8720.0 0.876207 32.899471
8740.0 0.883945 -7.63952
8760.0 0.882988 -48.330941
8780.0 0.873491 -88.988149
8800.0 0.860024 -129.4977
8820.0 0.849011 -169.978067
8840.0 0.844588 149.407141
8860.0 0.848809 108.573285
8880.0 0.859454 67.530417
8900.0 0.871251 26.517502
8920.0 0.87907 -14.193935
8940.0 0.879064 -54.38977
8960.0 0.872053 -94.012854
8980.0 0.861663 -133.326825
9000.0 0.85204 -172.71882
9020.0 0.8476 147.369693
9040.0 0.849765 106.635339
9060.0 0.857625 65.152381
9080.0 0.867554 23.286221
9100.0 0.874116 -18.331428
9120.0 0.874848 -59.133902
9140.0 0.869948 -98.933147
9160.0 0.862183 -137.885024
9180.0 0.855504 -176.514322
9200.0 0.852062 144.553644
9220.0 0.853504 104.809791
9240.0 0.858937 63.975601
9260.0 0.865255 22.284604
9280.0 0.869483 -19.663109
9300.0 0.869123 -61.13953
9320.0 0.865138 -101.612307
9340.0 0.860208 -141.079457
9360.0 0.85638 -179.897616
9380.0 0.855698 141.335506
9400.0 0.85775 101.985486
9420.0 0.861158 61.689647
9440.0 0.863897 20.38851
9460.0 0.863403 -21.513962
9480.0 0.860021 -63.35406
9500.0 0.855477 -104.598255
9520.0 0.852254 -144.983219
9540.0 0.852695 175.315224
9560.0 0.856437 135.886217
9580.0 0.862435 96.308555
9600.0 0.868082 56.223146
9620.0 0.870146 15.595991
9640.0 0.867621 -25.370285
9660.0 0.86085 -66.339159
9680.0 0.852986 -106.972601
9700.0 0.847761 -147.215037
9720.0 0.847001 172.81621
9740.0 0.851674 132.868874
9760.0 0.859718 92.669184
9780.0 0.867753 52.176686
9800.0 0.872564 11.509585
9820.0 0.871466 -29.020294
9840.0 0.86556 -69.097412
9860.0 0.857515 -108.670232
9880.0 0.850446 -147.890439
9900.0 0.847467 172.816655
9920.0 0.848954 132.958606
9940.0 0.85431 92.217845
9960.0 0.860927 50.538888
9980.0 0.865103 8.374043
10000.0 0.865536 -33.547781
10020.0 0.862423 -74.572697
10040.0 0.858238 -114.36288
10060.0 0.855681 -153.132495
10080.0 0.855376 168.591842
10100.0 0.857731 130.126334
10120.0 0.861057 90.790174
10140.0 0.863197 50.252682
10160.0 0.862872 8.579198
10180.0 0.859388 -33.645456
10200.0 0.855128 -75.569751
10220.0 0.852639 -116.586074
10240.0 0.853088 -156.474547
10260.0 0.856799 164.473092
10280.0 0.861451 125.666782
10300.0 0.86475 86.509131
10320.0 0.864422 46.480565
10340.0 0.859013 5.468285
10360.0 0.850863 -36.239181
10380.0 0.843571 -78.075218
10400.0 0.841211 -119.375674
10420.0 0.845883 -159.816483
10440.0 0.855641 160.578522
10460.0 0.867387 121.486423
10480.0 0.876158 82.396599
10500.0 0.877493 42.94629
10520.0 0.870149 2.915102
10540.0 0.855703 -37.659546
10560.0 0.84033 -78.52534
10580.0 0.830596 -119.450173
10600.0 0.830336 -160.197713
10620.0 0.84034 159.270897
10640.0 0.85616 118.822844
10660.0 0.871358 78.336791
10680.0 0.879358 37.703719
10700.0 0.875905 -2.95769
10720.0 0.86327 -43.430333
10740.0 0.847057 -83.580493
10760.0 0.83412 -123.341226
10780.0 0.82972 -162.882717
10800.0 0.834532 157.540196
10820.0 0.846837 117.654775
10840.0 0.861211 77.20036
10860.0 0.870841 36.220181
10880.0 0.871667 -5.013932
10900.0 0.86324 -46.049236
10920.0 0.850689 -86.453111
10940.0 0.840194 -126.139858
10960.0 0.835477 -165.259742
10980.0 0.838388 155.765252
11000.0 0.846605 116.36915
11020.0 0.856092 76.111968
11040.0 0.861854 34.737283
11060.0 0.859627 -7.506546
11080.0 0.85096 -49.953144
11100.0 0.840824 -91.858724
11120.0 0.834961 -132.631272
11140.0 0.836917 -172.182924
11160.0 0.845295 149.179736
11180.0 0.856998 110.915701
11200.0 0.866686 72.32644
11220.0 0.868735 32.912264
11240.0 0.861028 -7.600719
11260.0 0.845197 -49.117272
11280.0 0.828742 -91.151624
11300.0 0.82002 -133.12763
11320.0 0.822923 -174.46355
11340.0 0.836813 145.11425
11360.0 0.855349 105.482384
11380.0 0.870722 66.354585
11400.0 0.876497 27.296671
11420.0 0.868928 -12.014774
11440.0 0.851096 -51.789746
11460.0 0.830042 -92.194063
11480.0 0.814682 -133.170762
11500.0 0.812421 -174.565684
11520.0 0.823968 143.912161
11540.0 0.844765 102.576214
11560.0 0.865267 61.54984
11580.0 0.875316 20.958064
11600.0 0.870758 -19.167995
11620.0 0.853338 -58.913073
11640.0 0.830944 -98.432998
11660.0 0.812928 -138.067344
11680.0 0.805783 -178.066134
11700.0 0.813162 141.428225
11720.0 0.832085 100.372071
11740.0 0.854442 58.959916
11760.0 0.870048 17.4672
11780.0 0.870782 -23.677789
11800.0 0.857624 -64.093925
11820.0 0.837553 -103.743897
11840.0 0.81911 -142.801897
11860.0 0.809655 178.316334
11880.0 0.811397 139.158266
11900.0 0.823445 99.390758
11920.0 0.840412 58.737972
11940.0 0.853537 17.265899
11960.0 0.85643 -24.6812
11980.0 0.847328 -66.584842
12000.0 0.831929 -107.911624
12020.0 0.818787 -148.478937
12040.0 0.813187 171.679425
12060.0 0.817554 132.346191
12080.0 0.829177 93.130199
12100.0 0.842459 53.713081
12120.0 0.851288 13.770122
12140.0 0.8499 -26.821073
12160.0 0.83864 -67.954337
12180.0 0.822783 -109.467814
12200.0 0.810021 -151.037623
12220.0 0.807392 167.627518
12240.0 0.815701 126.762449
12260.0 0.831453 86.536161
12280.0 0.847676 46.846408
12300.0 0.856225 7.542879
12320.0 0.853368 -31.614026
12340.0 0.839192 -70.958545
12360.0 0.819287 -110.774106
12380.0 0.802367 -151.396436
12400.0 0.795412 167.095552
12420.0 0.802758 124.965393
12440.0 0.821227 82.681692
12460.0 0.841698 40.881998
12480.0 0.854709 -0.010971
12500.0 0.853856 -39.836407
12520.0 0.84074 -78.718858
12540.0 0.821448 -117.189539
12560.0 0.803103 -155.858377
12580.0 0.793387 164.657026
12600.0 0.795957 123.982498
12620.0 0.810769 82.246274
12640.0 0.831741 39.895212
12660.0 0.847872 -2.297621
12680.0 0.851824 -43.619318
12700.0 0.842283 -83.773585
12720.0 0.824517 -122.861162
12740.0 0.806584 -161.452659
12760.0 0.794229 159.780091
12780.0 0.792361 120.289747
12800.0 0.801677 79.71111
12820.0 0.818217 38.157964
12840.0 0.83487 -3.958563
12860.0 0.842645 -45.995747
12880.0 0.838527 -87.315459
12900.0 0.825768 -127.72286
12920.0 0.810304 -167.343727
12940.0 0.799218 153.415804
12960.0 0.795826 114.071523
12980.0 0.800963 74.361358
13000.0 0.812357 34.119574
13020.0 0.823882 -6.544263
13040.0 0.830612 -47.377271
13060.0 0.829268 -88.18489
13080.0 0.821054 -128.792257
13100.0 0.811138 -169.283984
13120.0 0.803696 150.190573
13140.0 0.80248 109.57678
13160.0 0.807555 68.861999
13180.0 0.815539 28.268151
13200.0 0.822806 -12.018049
13220.0 0.824944 -51.930062
13240.0 0.821149 -91.519777
13260.0 0.813408 -131.157121
13280.0 0.804657 -171.238846
13300.0 0.799831 147.8855
13320.0 0.801232 106.103027
13340.0 0.808792 63.828865
13360.0 0.819537 21.711378
13380.0 0.827531 -19.523307
13400.0 0.829885 -59.436998
13420.0 0.825948 -98.159758
13440.0 0.817429 -136.130527
13460.0 0.808407 -174.11484
13480.0 0.801559 147.099
13500.0 0.800399 106.985189
13520.0 0.806055 65.366143
13540.0 0.815896 22.792062
13560.0 0.825873 -19.769324
13580.0 0.830514 -61.385745
13600.0 0.828337 -101.524309
13620.0 0.82133 -140.413405
13640.0 0.811737 -178.690022
13660.0 0.803636 142.793372
13680.0 0.799227 103.179277
13700.0 0.800114 62.078307
13720.0 0.806656 19.593061
13740.0 0.815246 -23.48939
13760.0 0.822628 -66.064274
13780.0 0.826019 -107.406401
13800.0 0.824704 -147.297715
13820.0 0.820973 173.845469
13840.0 0.815818 135.30063
13860.0 0.81133 96.415743
13880.0 0.809055 56.631916
13900.0 0.809048 15.87445
13920.0 0.812091 -25.545981
13940.0 0.816421 -67.098322
13960.0 0.820606 -108.18452
13980.0 0.823966 -148.625878
14000.0 0.825005 171.46765
14020.0 0.824553 131.782691
14040.0 0.822687 91.909085
14060.0 0.819918 51.743007
14080.0 0.81804 11.355515
14100.0 0.816992 -28.94369
14120.0 0.817819 -68.771697
14140.0 0.820267 -108.06715
14160.0 0.823021 -146.963364
14180.0 0.826034 174.056587
14200.0 0.827317 134.366459
14220.0 0.826306 93.541733
14240.0 0.823044 51.423433
14260.0 0.817899 8.532926
14280.0 0.814188 -34.17554
14300.0 0.813485 -75.819922
14320.0 0.81636 -115.873816
14340.0 0.822635 -154.553631
14360.0 0.829476 167.508712
14380.0 0.835468 129.502884
14400.0 0.838028 90.553212
14420.0 0.835278 50.209919
14440.0 0.828575 8.45551
14460.0 0.820047 -34.10093
14480.0 0.814558 -76.430104
14500.0 0.814919 -117.78993
14520.0 0.820066 -157.871689
14540.0 0.828449 163.009099
14560.0 0.835819 124.14464
14580.0 0.839247 84.883594
14600.0 0.837467 44.644749
14620.0 0.830251 3.359926
14640.0 0.822145 -38.536509
14660.0 0.817316 -80.358462
14680.0 0.818492 -121.336246
14700.0 0.826185 -161.220735
14720.0 0.836323 159.777597
