! File created by SignalIntegrity v1.1.10: Signal and Power Integrity Tools
! https://github.com/TeledyneLeCroy/SignalIntegrity
# MHz S MA R 50.0
0.0 0.993909 180.0
20.0 0.988756 139.126696
40.0 0.976551 98.663314
60.0 0.963315 58.762765
80.0 0.954971 19.360358
100.0 0.955447 -19.85809
120.0 0.964227 -59.27189
140.0 0.978016 -99.173512
160.0 0.990338 -139.703941
180.0 0.994305 179.330768
200.0 0.987418 138.318256
220.0 0.972072 97.655524
240.0 0.955218 57.569609
260.0 0.943768 17.952845
280.0 0.941402 -21.465787
300.0 0.948998 -61.042296
320.0 0.962898 -101.084407
340.0 0.97691 -141.651684
360.0 0.984473 177.414511
380.0 0.98135 136.511784
400.0 0.969538 96.048027
420.0 0.954442 56.184317
440.0 0.942031 16.852546
460.0 0.936694 -22.266449
480.0 0.938852 -61.550294
500.0 0.94673 -101.28265
520.0 0.955906 -141.611067
540.0 0.961163 177.618529
560.0 0.960034 136.732413
580.0 0.952888 96.088053
600.0 0.943698 55.932167
620.0 0.936959 16.219298
640.0 0.934998 -23.250023
660.0 0.938505 -62.768593
680.0 0.94492 -102.607689
700.0 0.950511 -142.830734
720.0 0.952104 176.65009
740.0 0.948082 136.099178
760.0 0.94084 95.793299
780.0 0.934098 55.830086
800.0 0.931314 16.170414
820.0 0.934519 -23.413275
840.0 0.942102 -63.17754
860.0 0.950727 -103.265504
880.0 0.955631 -143.685771
900.0 0.953153 175.803166
920.0 0.944018 135.504495
940.0 0.931686 95.623924
960.0 0.921619 56.199476
980.0 0.918225 16.997049
1000.0 0.922732 -22.306138
1020.0 0.934061 -62.045697
1040.0 0.947224 -102.442257
1060.0 0.955814 -143.395544
1080.0 0.955184 175.436774
1100.0 0.944661 134.561513
1120.0 0.929416 94.372652
1140.0 0.91595 54.916352
1160.0 0.909302 15.990546
1180.0 0.912223 -22.839375
1200.0 0.923306 -62.045835
1220.0 0.938723 -101.963662
1240.0 0.951868 -142.716989
1260.0 0.955945 175.983256
1280.0 0.949048 134.678142
1300.0 0.934285 93.902289
1320.0 0.918689 53.966998
1340.0 0.908679 14.774904
1360.0 0.90707 -23.998268
1380.0 0.914246 -62.804336
1400.0 0.926786 -102.096713
1420.0 0.939265 -142.098428
1440.0 0.946127 177.202897
1460.0 0.943584 136.135549
1480.0 0.933499 95.167591
1500.0 0.920999 54.618915
1520.0 0.911636 14.618034
1540.0 0.909304 -24.982044
1560.0 0.913732 -64.454793
1580.0 0.922486 -104.042371
1600.0 0.931144 -143.928824
1620.0 0.935089 175.930103
1640.0 0.932895 135.704375
1660.0 0.925685 95.585913
1680.0 0.917507 55.718904
1700.0 0.912617 16.037757
1720.0 0.912813 -23.606357
1740.0 0.918125 -63.402739
1760.0 0.925355 -103.504505
1780.0 0.930315 -143.858959
1800.0 0.930123 175.699272
1820.0 0.923966 135.435342
1840.0 0.915051 95.55944
1860.0 0.907575 56.054109
1880.0 0.904969 16.764284
1900.0 0.909179 -22.630934
1920.0 0.918408 -62.456746
1940.0 0.928865 -102.874813
1960.0 0.935132 -143.846078
1980.0 0.932919 174.999261
2000.0 0.923029 134.143908
2020.0 0.909611 93.943758
2040.0 0.898666 54.520401
2060.0 0.894845 15.642494
2080.0 0.899292 -23.084715
2100.0 0.910953 -62.125089
2120.0 0.925081 -101.887538
2140.0 0.935231 -142.472264
2160.0 0.936228 176.326501
2180.0 0.926587 135.021976
2200.0 0.911251 94.174529
2220.0 0.897296 54.065949
2240.0 0.890232 14.708107
2260.0 0.892874 -24.189139
2280.0 0.903565 -63.056434
2300.0 0.918365 -102.285925
2320.0 0.931174 -142.178902
2340.0 0.935699 177.281147
2360.0 0.929935 136.366128
2380.0 0.916316 95.46533
2400.0 0.90139 54.943448
2420.0 0.891754 14.9067
2440.0 0.890372 -24.710515
2460.0 0.897422 -64.113033
2480.0 0.90917 -103.585876
2500.0 0.920128 -143.290459
2520.0 0.925497 176.707629
2540.0 0.922386 136.514537
2560.0 0.912924 96.321079
2580.0 0.901872 56.219382
2600.0 0.894219 16.248395
2620.0 0.893589 -23.68434
2640.0 0.89941 -63.705223
2660.0 0.908658 -103.860132
2680.0 0.916433 -144.147969
2700.0 0.918128 175.597938
2720.0 0.913155 135.570931
2740.0 0.903764 95.868647
2760.0 0.894687 56.482035
2780.0 0.890495 17.188922
2800.0 0.892879 -22.278232
2820.0 0.90141 -62.161327
2840.0 0.911927 -102.601362
2860.0 0.918778 -143.452003
2880.0 0.918098 175.609905
2900.0 0.909261 135.006696
2920.0 0.896701 95.05076
2940.0 0.88606 55.735609
2960.0 0.881578 16.855772
2980.0 0.885616 -21.991128
3000.0 0.89648 -61.248442
3020.0 0.910081 -101.219758
3040.0 0.920059 -142.019419
3060.0 0.920367 176.629595
3080.0 0.910434 135.247378
3100.0 0.89456 94.339911
3120.0 0.880104 54.231166
3140.0 0.873282 14.876649
3160.0 0.876102 -23.98298
3180.0 0.887823 -62.739187
3200.0 0.903779 -101.837992
3220.0 0.91718 -141.539904
3240.0 0.921885 178.087069
3260.0 0.91458 137.254808
3280.0 0.89872 96.335738
3300.0 0.881613 55.606269
3320.0 0.870409 15.248656
3340.0 0.869758 -24.741551
3360.0 0.878972 -64.484811
3380.0 0.894064 -104.106991
3400.0 0.908594 -143.771212
3420.0 0.915766 176.492067
3440.0 0.912891 136.71943
3460.0 0.901263 96.930649
3480.0 0.886357 57.131183
3500.0 0.874868 17.195028
3520.0 0.870932 -22.979614
3540.0 0.876125 -63.419873
3560.0 0.88743 -104.0844
3580.0 0.899007 -144.757307
3600.0 0.905432 174.797038
3620.0 0.903351 134.792688
3640.0 0.894508 95.317266
3660.0 0.883299 56.188651
3680.0 0.874413 17.111267
3700.0 0.871959 -22.298876
3720.0 0.876468 -62.350875
3740.0 0.885855 -103.097744
3760.0 0.895276 -144.36278
3780.0 0.899072 174.334191
3800.0 0.895541 133.527578
3820.0 0.88649 93.532439
3840.0 0.876567 54.382172
3860.0 0.870603 15.743237
3880.0 0.870727 -22.864537
3900.0 0.877419 -61.930225
3920.0 0.88771 -101.851955
3940.0 0.896393 -142.680514
3960.0 0.898751 175.852591
3980.0 0.892412 134.303497
4000.0 0.880627 93.266921
4020.0 0.869167 53.026083
4040.0 0.862811 13.580613
4060.0 0.864514 -25.357483
4080.0 0.873203 -64.215817
4100.0 0.885588 -103.362207
4120.0 0.896458 -143.09311
4140.0 0.899986 176.569758
4160.0 0.894204 135.826705
4180.0 0.881124 94.963853
4200.0 0.866675 54.282659
4220.0 0.857481 13.895806
4240.0 0.856789 -26.185743
4260.0 0.865042 -66.02019
4280.0 0.878574 -105.751346
4300.0 0.891358 -145.44026
4320.0 0.898056 174.864612
4340.0 0.895128 135.164879
4360.0 0.884147 95.471355
4380.0 0.869992 55.653099
4400.0 0.858373 15.572532
4420.0 0.854541 -24.904932
4440.0 0.859628 -65.793839
4460.0 0.871295 -106.873508
4480.0 0.884115 -147.839258
4500.0 0.891604 171.690516
4520.0 0.891103 131.972197
4540.0 0.883351 92.972275
4560.0 0.872176 54.436288
4580.0 0.862592 15.855358
4600.0 0.857818 -23.297229
4620.0 0.860039 -63.391341
4640.0 0.868056 -104.53491
4660.0 0.877664 -146.360717
4680.0 0.884181 171.785939
4700.0 0.884026 130.606344
4720.0 0.878193 90.545311
4740.0 0.870176 51.528603
4760.0 0.86333 13.151626
4780.0 0.860828 -25.21035
4800.0 0.863192 -64.201999
4820.0 0.86946 -104.220447
4840.0 0.876765 -145.35873
4860.0 0.880702 172.790757
4880.0 0.879416 130.958403
4900.0 0.873587 89.817055
4920.0 0.866452 49.755003
4940.0 0.861858 10.664208
4960.0 0.861254 -27.870506
4980.0 0.865089 -66.379584
5000.0 0.871485 -105.409438
5020.0 0.877058 -145.243315
5040.0 0.879039 174.101441
5060.0 0.875478 132.920394
5080.0 0.868199 91.710796
5100.0 0.861039 50.845454
5120.0 0.85725 10.534491
5140.0 0.859087 -29.263859
5160.0 0.865426 -68.765573
5180.0 0.873538 -108.163906
5200.0 0.879924 -147.656548
5220.0 0.880927 172.70155
5240.0 0.8761 132.933189
5260.0 0.867089 93.019716
5280.0 0.857648 52.945821
5300.0 0.852224 12.585983
5320.0 0.852808 -28.147042
5340.0 0.859653 -69.204658
5360.0 0.869729 -110.426724
5380.0 0.878119 -151.440134
5400.0 0.881441 168.125501
5420.0 0.87814 128.496534
5440.0 0.870312 89.674851
5460.0 0.86153 51.304968
5480.0 0.854762 12.878826
5500.0 0.852915 -26.188708
5520.0 0.856285 -66.380199
5540.0 0.863406 -107.780981
5560.0 0.870933 -150.048253
5580.0 0.874444 167.628832
5600.0 0.872799 126.145354
5620.0 0.867385 85.998229
5640.0 0.86117 47.199411
5660.0 0.857352 9.250137
5680.0 0.856829 -28.584159
5700.0 0.859905 -67.037853
5720.0 0.86503 -106.723552
5740.0 0.8693 -147.784147
5760.0 0.870679 170.155636
5780.0 0.867995 127.921983
5800.0 0.86323 86.444777
5820.0 0.859444 46.209017
5840.0 0.858191 7.203585
5860.0 0.860358 -31.020305
5880.0 0.864484 -69.153772
5900.0 0.86849 -107.819979
5920.0 0.870313 -147.514432
5940.0 0.867857 171.658026
5960.0 0.862122 130.021511
5980.0 0.855732 88.156303
6000.0 0.852023 46.733841
6020.0 0.853482 6.127622
6040.0 0.859152 -33.633362
6060.0 0.86692 -72.766183
6080.0 0.873424 -111.679528
6100.0 0.87522 -150.693719
6120.0 0.871396 169.96086
6140.0 0.862604 130.190933
6160.0 0.852565 90.069773
6180.0 0.845894 49.657771
6200.0 0.845368 9.074072
6220.0 0.852015 -31.588376
6240.0 0.862846 -72.276779
6260.0 0.873025 -112.844413
6280.0 0.878147 -153.155694
6300.0 0.875384 166.970432
6320.0 0.866512 127.649226
6340.0 0.855327 88.768312
6360.0 0.846157 50.090509
6380.0 0.842886 11.191123
6400.0 0.846222 -28.366794
6420.0 0.855124 -68.85779
6440.0 0.865585 -110.330342
6460.0 0.872046 -152.368291
6480.0 0.871666 165.7304
6500.0 0.864752 124.661261
6520.0 0.855454 84.844896
6540.0 0.848421 46.167625
6560.0 0.845889 8.182777
6580.0 0.849028 -29.774024
6600.0 0.856106 -68.439672
6620.0 0.863953 -108.316781
6640.0 0.868797 -149.579614
6660.0 0.867127 168.191906
6680.0 0.860056 125.891468
6700.0 0.851578 84.40778
6720.0 0.846051 44.309148
6740.0 0.846387 5.565162
6760.0 0.851742 -32.297786
6780.0 0.86006 -69.949799
6800.0 0.867698 -108.161445
6820.0 0.870294 -147.470631
6840.0 0.865904 171.907485
6860.0 0.855185 130.215768
6880.0 0.843362 88.151351
6900.0 0.836769 46.465053
6920.0 0.838283 5.736745
6940.0 0.847618 -33.875214
6960.0 0.860499 -72.65018
6980.0 0.871537 -111.024074
7000.0 0.876298 -149.534592
7020.0 0.871654 171.410261
7040.0 0.85926 131.597586
7060.0 0.844015 90.966938
7080.0 0.832604 49.739913
7100.0 0.830891 8.260439
7120.0 0.839351 -33.065956
7140.0 0.854383 -73.884301
7160.0 0.86921 -114.0805
7180.0 0.876847 -153.627358
7200.0 0.874607 167.3755
7220.0 0.863316 128.71495
7240.0 0.84791 90.147957
7260.0 0.834836 51.303947
7280.0 0.828897 11.883352
7300.0 0.833251 -28.30054
7320.0 0.846105 -69.27867
7340.0 0.861617 -110.769669
7360.0 0.872372 -152.330405
7380.0 0.872458 166.60269
7400.0 0.862706 126.477101
7420.0 0.848222 87.349169
7440.0 0.835122 48.994047
7460.0 0.828824 10.90281
7480.0 0.83097 -27.526412
7500.0 0.840957 -66.79804
7520.0 0.854629 -107.277594
7540.0 0.864893 -148.875206
7560.0 0.866444 168.946278
7580.0 0.858069 126.999914
7600.0 0.844853 86.058323
7620.0 0.833991 46.406346
7640.0 0.829641 7.914924
7660.0 0.833628 -29.862563
7680.0 0.843892 -67.586615
7700.0 0.856179 -105.855985
7720.0 0.86525 -145.195755
7740.0 0.865319 174.209745
7760.0 0.855409 132.612957
7780.0 0.839719 90.555256
7800.0 0.825861 48.764562
7820.0 0.820923 7.772523
7840.0 0.826312 -32.20995
7860.0 0.839653 -71.26667
7880.0 0.85548 -109.809341
7900.0 0.866771 -148.277079
7920.0 0.868853 172.917303
7940.0 0.859617 133.472526
7960.0 0.842528 93.313856
7980.0 0.825171 52.463198
8000.0 0.814874 11.177101
8020.0 0.816718 -30.131008
8040.0 0.829375 -71.074596
8060.0 0.846706 -111.330383
8080.0 0.861221 -150.846823
8100.0 0.866107 170.270393
8120.0 0.859921 131.802902
8140.0 0.845353 93.342928
8160.0 0.828006 54.482793
8180.0 0.81523 14.805959
8200.0 0.811781 -25.896312
8220.0 0.81954 -67.441403
8240.0 0.83498 -109.388347
8260.0 0.849959 -151.060968
8280.0 0.857654 168.119508
8300.0 0.854789 128.411593
8320.0 0.84383 89.754489
8340.0 0.830407 51.678089
8360.0 0.819415 13.575987
8380.0 0.815511 -25.155438
8400.0 0.82001 -64.999746
8420.0 0.830925 -106.028715
8440.0 0.843193 -147.948964
8460.0 0.849508 169.935953
8480.0 0.846827 128.448238
8500.0 0.837109 88.068004
8520.0 0.825364 48.879619
8540.0 0.817482 10.52673
8560.0 0.816162 -27.565086
8580.0 0.822228 -65.939898
8600.0 0.833488 -105.103986
8620.0 0.844507 -145.247533
8640.0 0.850002 173.758171
8660.0 0.846085 132.330854
8680.0 0.834467 91.073012
8700.0 0.82127 50.369229
8720.0 0.812141 10.369324
8740.0 0.811334 -29.011183
8760.0 0.818781 -68.061018
8780.0 0.831217 -107.035167
8800.0 0.843804 -146.221793
8820.0 0.850152 174.208708
8840.0 0.847119 134.236416
8860.0 0.835373 93.851026
8880.0 0.819573 53.144219
8900.0 0.807198 12.183316
8920.0 0.803227 -28.907242
8940.0 0.809637 -69.858347
8960.0 0.823839 -110.45749
8980.0 0.839229 -150.49323
9000.0 0.849852 170.105939
9020.0 0.851178 131.220325
9040.0 0.843062 92.639649
9060.0 0.829304 53.930127
9080.0 0.81471 14.640287
9100.0 0.805452 -25.572232
9120.0 0.8051 -66.818149
9140.0 0.813618 -108.720143
9160.0 0.827301 -150.64883
9180.0 0.838967 168.083276
9200.0 0.843949 127.946262
9220.0 0.841164 88.912334
9240.0 0.832516 50.629698
9260.0 0.82254 12.45647
9280.0 0.814561 -26.314357
9300.0 0.811672 -66.15008
9320.0 0.814964 -107.210583
9340.0 0.822095 -149.079321
9360.0 0.829768 169.03338
9380.0 0.833886 127.898757
9400.0 0.833154 88.004821
9420.0 0.829305 49.246707
9440.0 0.824114 11.140873
9460.0 0.820419 -26.981112
9480.0 0.819427 -65.840193
9500.0 0.821102 -105.84682
9520.0 0.824706 -147.070092
9540.0 0.827296 170.922744
9560.0 0.827412 128.929932
9580.0 0.825009 87.626303
9600.0 0.821303 47.391527
9620.0 0.819127 8.119767
9640.0 0.819489 -30.62841
9660.0 0.822913 -69.325324
9680.0 0.82858 -108.44815
9700.0 0.833584 -148.188314
9720.0 0.835895 171.530991
9740.0 0.833537 130.961558
9760.0 0.827135 90.482315
9780.0 0.81974 50.254028
9800.0 0.81387 10.256805
9820.0 0.81244 -29.672472
9840.0 0.81595 -69.797635
9860.0 0.822839 -110.184618
9880.0 0.830794 -150.772616
9900.0 0.835822 168.674887
9920.0 0.836196 128.478229
9940.0 0.832111 88.735882
9960.0 0.825089 49.381981
9980.0 0.818563 10.093651
10000.0 0.814442 -29.569854
10020.0 0.814406 -69.889162
10040.0 0.818763 -110.972396
10060.0 0.825232 -152.512536
10080.0 0.831696 166.059715
10100.0 0.835374 125.272989
10120.0 0.835235 85.475489
10140.0 0.832417 46.543698
10160.0 0.827612 8.048036
10180.0 0.822866 -30.58345
10200.0 0.819306 -69.968594
10220.0 0.817536 -110.386359
10240.0 0.818537 -151.748583
10260.0 0.821305 166.492357
10280.0 0.825298 125.15496
10300.0 0.829623 84.794133
10320.0 0.832949 45.593767
10340.0 0.835411 7.245471
10360.0 0.835929 -30.890905
10380.0 0.834082 -69.459659
10400.0 0.829892 -109.057584
10420.0 0.823288 -149.865783
10440.0 0.816867 168.416419
10460.0 0.813018 126.443647
10480.0 0.813733 85.038888
10500.0 0.819816 44.638554
10520.0 0.828935 5.224487
10540.0 0.83882 -33.581854
10560.0 0.846127 -72.416301
10580.0 0.847621 -111.765711
10600.0 0.842645 -151.926922
10620.0 0.831918 167.160482
10640.0 0.819936 125.936459
10660.0 0.811811 84.877015
10680.0 0.810213 44.407965
10700.0 0.816106 4.626376
10720.0 0.826587 -34.717394
10740.0 0.837789 -73.96251
10760.0 0.845767 -113.522818
10780.0 0.846574 -153.559894
10800.0 0.840376 166.046396
10820.0 0.829688 125.569454
10840.0 0.819142 85.412445
10860.0 0.813539 45.747202
10880.0 0.814023 6.517721
10900.0 0.820395 -32.533465
10920.0 0.829714 -71.878908
10940.0 0.837534 -111.845985
10960.0 0.840749 -152.584074
10980.0 0.837124 166.102342
11000.0 0.828949 124.750108
11020.0 0.820774 83.840525
11040.0 0.816022 43.71248
11060.0 0.817122 4.336658
11080.0 0.822595 -34.667437
11100.0 0.829626 -73.749977
11120.0 0.834987 -113.423251
11140.0 0.835022 -153.914563
11160.0 0.829949 164.913058
11180.0 0.822208 123.461336
11200.0 0.816057 82.360165
11220.0 0.815534 42.018751
11240.0 0.820413 2.535718
11260.0 0.828921 -36.284715
11280.0 0.837107 -74.952918
11300.0 0.84035 -113.92421
11320.0 0.836742 -153.573907
11340.0 0.82614 165.975308
11360.0 0.813148 124.974201
11380.0 0.804177 83.796834
11400.0 0.803299 42.936176
11420.0 0.812094 2.691339
11440.0 0.826805 -36.987937
11460.0 0.84148 -76.313513
11480.0 0.85008 -115.685707
11500.0 0.847326 -155.365402
11520.0 0.833975 164.592854
11540.0 0.815093 124.24679
11560.0 0.798665 83.874161
11580.0 0.792446 43.701015
11600.0 0.798527 3.883933
11620.0 0.815238 -35.557095
11640.0 0.836241 -74.900355
11660.0 0.852453 -114.403506
11680.0 0.856971 -154.282052
11700.0 0.846253 165.431209
11720.0 0.824825 124.943242
11740.0 0.802302 84.41502
11760.0 0.787461 44.062223
11780.0 0.786494 4.019072
11800.0 0.798777 -35.764121
11820.0 0.819194 -75.396287
11840.0 0.839894 -115.180876
11860.0 0.851194 -155.303218
11880.0 0.848437 164.269246
11900.0 0.832893 123.678622
11920.0 0.811964 83.233745
11940.0 0.795711 43.118538
11960.0 0.789697 3.426491
11980.0 0.795771 -35.824045
12000.0 0.810678 -74.88452
12020.0 0.827284 -114.022426
12040.0 0.838732 -153.54731
12060.0 0.838705 166.361976
12080.0 0.827144 125.820015
12100.0 0.810035 84.995921
12120.0 0.795187 44.20308
12140.0 0.790087 3.728641
12160.0 0.796102 -36.30496
12180.0 0.809884 -75.844851
12200.0 0.825323 -115.111917
12220.0 0.834227 -154.354013
12240.0 0.832507 166.241183
12260.0 0.820254 126.481247
12280.0 0.80271 86.363856
12300.0 0.788759 45.897947
12320.0 0.784306 5.219175
12340.0 0.791966 -35.385856
12360.0 0.808356 -75.763737
12380.0 0.825253 -115.770772
12400.0 0.835175 -155.415815
12420.0 0.83246 165.198808
12440.0 0.818177 126.004514
12460.0 0.79881 86.755104
12480.0 0.781951 47.264458
12500.0 0.775594 7.424872
12520.0 0.782464 -32.784812
12540.0 0.800183 -73.158292
12560.0 0.821746 -113.573082
12580.0 0.836238 -153.870485
12600.0 0.836862 166.12265
12620.0 0.822737 126.416118
12640.0 0.799725 86.979613
12660.0 0.778196 47.565664
12680.0 0.76605 7.919303
12700.0 0.76875 -32.024669
12720.0 0.785824 -72.3069
12740.0 0.810059 -112.779255
12760.0 0.831517 -153.30221
12780.0 0.839335 166.281723
12800.0 0.829925 126.218901
12820.0 0.808324 86.505641
12840.0 0.78346 47.015044
12860.0 0.766034 7.521342
12880.0 0.762033 -32.207866
12900.0 0.772638 -72.1344
12920.0 0.794108 -112.231976
12940.0 0.816568 -152.401423
12960.0 0.830604 167.501404
12980.0 0.829802 127.521879
13000.0 0.814716 87.750843
13020.0 0.793361 48.068519
13040.0 0.774173 8.276023
13060.0 0.76506 -31.685134
13080.0 0.769215 -71.841967
13100.0 0.783675 -112.000506
13120.0 0.802525 -152.022947
13140.0 0.816469 168.110165
13160.0 0.819339 128.434707
13180.0 0.810549 88.772556
13200.0 0.793766 48.939037
13220.0 0.777543 8.741181
13240.0 0.768756 -31.950347
13260.0 0.771132 -72.884459
13280.0 0.783938 -113.720035
13300.0 0.800055 -154.064951
13320.0 0.812401 166.351415
13340.0 0.815451 127.445066
13360.0 0.807956 89.010055
13380.0 0.794395 50.568622
13400.0 0.779874 11.576677
13420.0 0.771125 -28.293663
13440.0 0.77238 -69.156618
13460.0 0.782707 -110.587248
13480.0 0.797847 -151.942484
13500.0 0.809392 167.33605
13520.0 0.811762 127.611995
13540.0 0.804507 88.706075
13560.0 0.790045 50.153129
13580.0 0.774945 11.29839
13600.0 0.764776 -28.544672
13620.0 0.764107 -69.590587
13640.0 0.774774 -111.635539
13660.0 0.791546 -153.943464
13680.0 0.807038 164.419122
13700.0 0.814113 124.006384
13720.0 0.810073 85.000682
13740.0 0.798588 47.021969
13760.0 0.783825 9.366118
13780.0 0.771733 -28.653992
13800.0 0.767092 -67.716266
13820.0 0.771485 -108.017697
13840.0 0.784433 -149.335367
13860.0 0.799404 168.896134
13880.0 0.809146 127.468973
13900.0 0.809638 86.816328
13920.0 0.800488 47.027326
13940.0 0.787123 7.807719
13960.0 0.774858 -31.424063
13980.0 0.768438 -71.032056
14000.0 0.771423 -111.213031
14020.0 0.782058 -151.768358
14040.0 0.796816 167.78292
14060.0 0.80953 127.77469
14080.0 0.814754 88.447844
14100.0 0.811908 49.641502
14120.0 0.801711 10.916953
14140.0 0.788573 -28.180789
14160.0 0.777515 -68.148045
14180.0 0.771981 -109.030092
14200.0 0.775059 -150.48622
14220.0 0.784442 168.064235
14240.0 0.795811 127.289915
14260.0 0.804868 87.372208
14280.0 0.807429 48.151581
14300.0 0.804033 9.165467
14320.0 0.796101 -30.268181
14340.0 0.786892 -70.552811
14360.0 0.781328 -111.838306
14380.0 0.781108 -153.718993
14400.0 0.786946 164.641602
14420.0 0.795882 123.886622
14440.0 0.803294 84.366168
14460.0 0.807394 45.811979
14480.0 0.806077 7.529791
14500.0 0.800432 -31.232111
14520.0 0.792908 -71.279608
14540.0 0.785883 -112.861806
14560.0 0.783944 -155.552835
14580.0 0.78787 161.659937
14600.0 0.796026 120.045972
14620.0 0.805639 80.196295
14640.0 0.81223 42.010118
14660.0 0.814834 4.843673
14680.0 0.812372 -32.356488
14700.0 0.805001 -70.498316
14720.0 0.795816 -110.368996
14740.0 0.787386 -152.142341
