! File created by SignalIntegrity v1.1.10: Signal and Power Integrity Tools
! https://github.com/TeledyneLeCroy/SignalIntegrity
# MHz S MA R 50.0
0.0 0.993311 180.0
20.0 0.995183 140.717665
40.0 1.000579 101.63961
60.0 1.00698 62.859737
80.0 1.011444 24.454813
100.0 1.012573 -13.636034
120.0 1.009593 -51.551121
140.0 1.004102 -89.475147
160.0 0.9981 -127.662003
180.0 0.993491 -166.272561
200.0 0.992004 154.60454
220.0 0.993095 115.046911
240.0 0.995637 75.315875
260.0 0.997587 35.709451
280.0 0.997122 -3.456537
300.0 0.994519 -42.034263
320.0 0.990447 -80.077184
340.0 0.986822 -117.775134
360.0 0.985303 -155.476356
380.0 0.986204 166.505559
400.0 0.989431 127.932046
420.0 0.992712 88.734954
440.0 0.993654 49.12559
460.0 0.990719 9.451983
480.0 0.983671 -29.861105
500.0 0.975129 -68.530052
520.0 0.967783 -106.545181
540.0 0.964093 -144.085186
560.0 0.965555 178.461686
580.0 0.9712 140.691457
600.0 0.979242 102.289752
620.0 0.985931 63.110136
640.0 0.987622 23.343681
660.0 0.983134 -16.612167
680.0 0.973578 -56.262379
700.0 0.963189 -95.226544
720.0 0.955932 -133.437949
740.0 0.954109 -171.04255
760.0 0.958687 151.596474
780.0 0.967729 114.051455
800.0 0.978351 75.980044
820.0 0.986338 37.163606
840.0 0.987619 -2.299747
860.0 0.981458 -42.078336
880.0 0.969823 -81.724026
900.0 0.957629 -120.823142
920.0 0.949587 -159.233026
940.0 0.947843 162.984388
960.0 0.952957 125.560495
980.0 0.962466 88.10552
1000.0 0.972787 50.28976
1020.0 0.979901 11.849482
1040.0 0.980092 -27.237537
1060.0 0.973277 -66.776506
1080.0 0.961945 -106.456227
1100.0 0.950785 -145.898651
1120.0 0.944369 175.120331
1140.0 0.9442 136.68255
1160.0 0.950068 98.715905
1180.0 0.95921 60.983334
1200.0 0.967928 23.250982
1220.0 0.973279 -14.738778
1240.0 0.972768 -53.14804
1260.0 0.966932 -91.999408
1280.0 0.958093 -131.238122
1300.0 0.949589 -170.651822
1320.0 0.944989 149.994285
1340.0 0.945144 110.923589
1360.0 0.949448 72.312781
1380.0 0.955592 34.159694
1400.0 0.960486 -3.615012
1420.0 0.962617 -41.21323
1440.0 0.960952 -78.906786
1460.0 0.956527 -116.931015
1480.0 0.951403 -155.518892
1500.0 0.947316 165.273597
1520.0 0.946169 125.570241
1540.0 0.947622 85.663847
1560.0 0.950357 45.998987
1580.0 0.952778 6.918284
1600.0 0.953129 -31.387172
1620.0 0.951736 -68.9646
1640.0 0.949228 -106.1148
1660.0 0.946843 -143.218978
1680.0 0.946083 179.263032
1700.0 0.94695 140.989762
1720.0 0.949372 101.849906
1740.0 0.951753 61.992801
1760.0 0.952237 21.904624
1780.0 0.950352 -17.856419
1800.0 0.946153 -56.849191
1820.0 0.941567 -94.903062
1840.0 0.938394 -132.22126
1860.0 0.93768 -169.187436
1880.0 0.940369 153.67438
1900.0 0.945345 115.868442
1920.0 0.951002 77.110009
1940.0 0.954691 37.371558
1960.0 0.953792 -2.95587
1980.0 0.948503 -43.2491
2000.0 0.940549 -82.912297
2020.0 0.933297 -121.572129
2040.0 0.929626 -159.274848
2060.0 0.930298 163.673128
2080.0 0.935435 126.790113
2100.0 0.942965 89.538379
2120.0 0.950137 51.539778
2140.0 0.954091 12.592659
2160.0 0.952233 -27.15603
2180.0 0.945312 -67.270027
2200.0 0.935996 -107.22632
2220.0 0.928114 -146.54662
2240.0 0.924966 174.948104
2260.0 0.926967 137.179364
2280.0 0.933494 99.880525
2300.0 0.942073 62.633929
2320.0 0.94946 25.084936
2340.0 0.953175 -13.060513
2360.0 0.95103 -51.908612
2380.0 0.943846 -91.330946
2400.0 0.934352 -131.077508
2420.0 0.926042 -170.764897
2440.0 0.922369 149.923703
2460.0 0.923815 111.168215
2480.0 0.929385 73.019008
2500.0 0.936656 35.315139
2520.0 0.942422 -2.157962
2540.0 0.945055 -39.677273
2560.0 0.943369 -77.527941
2580.0 0.938249 -115.886305
2600.0 0.931901 -154.86901
2620.0 0.926361 165.615567
2640.0 0.923986 125.831126
2660.0 0.924936 86.132032
2680.0 0.928161 46.921507
2700.0 0.932156 8.410361
2720.0 0.93478 -29.377935
2740.0 0.935614 -66.626849
2760.0 0.93448 -103.721748
2780.0 0.931957 -141.062772
2800.0 0.929441 -179.06547
2820.0 0.927384 142.033205
2840.0 0.92668 102.291116
2860.0 0.92702 62.043587
2880.0 0.927454 21.908994
2900.0 0.927699 -17.542893
2920.0 0.927026 -55.988059
2940.0 0.92601 -93.424682
2960.0 0.925268 -130.223501
2980.0 0.925003 -166.900059
3000.0 0.925909 155.938975
3020.0 0.927179 117.772982
3040.0 0.928124 78.390564
3060.0 0.927737 37.94617
3080.0 0.925111 -2.921243
3100.0 0.921389 -43.382687
3120.0 0.917748 -82.794428
3140.0 0.915738 -120.885293
3160.0 0.91638 -157.886909
3180.0 0.919069 165.698035
3200.0 0.923391 129.228184
3220.0 0.927541 92.04792
3240.0 0.92968 53.73392
3260.0 0.928586 14.143326
3280.0 0.923545 -26.397001
3300.0 0.916667 -67.185231
3320.0 0.910623 -107.474479
3340.0 0.907639 -146.702599
3360.0 0.908994 175.23404
3380.0 0.913519 138.073986
3400.0 0.91989 101.351094
3420.0 0.925834 64.474031
3440.0 0.92885 26.980735
3460.0 0.927817 -11.437654
3480.0 0.922208 -50.802472
3500.0 0.914254 -90.80165
3520.0 0.907202 -130.973454
3540.0 0.90353 -170.783872
3560.0 0.904777 150.108158
3580.0 0.909567 111.769278
3600.0 0.915801 74.076575
3620.0 0.9211 36.699474
3640.0 0.923024 -0.695295
3660.0 0.921228 -38.423505
3680.0 0.915959 -76.733987
3700.0 0.90921 -115.681917
3720.0 0.903779 -155.208031
3740.0 0.901263 164.951813
3760.0 0.902763 125.165617
3780.0 0.906985 85.756822
3800.0 0.911765 46.991898
3820.0 0.915422 8.907708
3840.0 0.916237 -28.617432
3860.0 0.914525 -65.833689
3880.0 0.910974 -103.128247
3900.0 0.906789 -140.844261
3920.0 0.903846 -179.300097
3940.0 0.902624 141.374994
3960.0 0.903541 101.342161
3980.0 0.905616 60.983235
4000.0 0.907169 20.891903
4020.0 0.907706 -18.435334
4040.0 0.906724 -56.764338
4060.0 0.905153 -94.146111
4080.0 0.904015 -130.970419
4100.0 0.903548 -167.742035
4120.0 0.904336 154.972201
4140.0 0.905378 116.694889
4160.0 0.9058 77.264164
4180.0 0.904819 36.857617
4200.0 0.901862 -3.906311
4220.0 0.898434 -44.244952
4240.0 0.895819 -83.572828
4260.0 0.895224 -121.646449
4280.0 0.897288 -158.697878
4300.0 0.900913 164.777763
4320.0 0.905284 128.156277
4340.0 0.908429 90.786714
4360.0 0.908513 52.257229
4380.0 0.904983 12.44961
4400.0 0.8982 -28.277174
4420.0 0.891299 -69.1749
4440.0 0.887317 -109.472634
4460.0 0.887747 -148.610047
4480.0 0.892754 173.489905
4500.0 0.900011 136.510727
4520.0 0.907234 99.936111
4540.0 0.911748 63.124159
4560.0 0.911136 25.576292
4580.0 0.905344 -13.022586
4600.0 0.895695 -52.672192
4620.0 0.886305 -92.982897
4640.0 0.881455 -133.388597
4660.0 0.882881 -173.269193
4680.0 0.890228 147.744003
4700.0 0.900023 109.657471
4720.0 0.908522 72.249165
4740.0 0.912784 35.078362
4760.0 0.910665 -2.285927
4780.0 0.903119 -40.208423
4800.0 0.892501 -78.933053
4820.0 0.882965 -118.418251
4840.0 0.878869 -158.429533
4860.0 0.881617 161.47963
4880.0 0.890394 121.784658
4900.0 0.901243 82.760936
4920.0 0.909532 44.516386
4940.0 0.91247 6.9006
4960.0 0.908587 -30.369273
4980.0 0.899698 -67.626876
5000.0 0.888937 -105.271169
5020.0 0.879998 -143.565927
5040.0 0.876763 177.348301
5060.0 0.880184 137.569493
5080.0 0.889113 97.464308
5100.0 0.899627 57.468162
5120.0 0.906782 18.043259
5140.0 0.908281 -20.550058
5160.0 0.903727 -58.321438
5180.0 0.895563 -95.475291
5200.0 0.887166 -132.452242
5220.0 0.881014 -169.710484
5240.0 0.879558 152.326541
5260.0 0.882783 113.378278
5280.0 0.889242 73.498143
5300.0 0.896109 32.998569
5320.0 0.899677 -7.529429
5340.0 0.898968 -47.470611
5360.0 0.89472 -86.467551
5380.0 0.889276 -124.435772
5400.0 0.885491 -161.648507
5420.0 0.884344 161.452726
5440.0 0.88652 124.37862
5460.0 0.890803 86.638563
5480.0 0.894902 47.980429
5500.0 0.896874 8.384381
5520.0 0.894846 -31.835096
5540.0 0.889909 -72.11212
5560.0 0.884568 -111.934495
5580.0 0.881245 -150.9363
5600.0 0.881973 170.915868
5620.0 0.886057 133.384954
5640.0 0.892063 96.122268
5660.0 0.897609 58.674117
5680.0 0.89979 20.714637
5700.0 0.897689 -17.941922
5720.0 0.891391 -57.277688
5740.0 0.883668 -97.005254
5760.0 0.878311 -136.766527
5780.0 0.877496 -176.159095
5800.0 0.882181 145.075741
5820.0 0.890231 106.949568
5840.0 0.898454 69.335895
5860.0 0.903844 31.914539
5880.0 0.903482 -5.645248
5900.0 0.897378 -43.633395
5920.0 0.887182 -82.282797
5940.0 0.876672 -121.598129
5960.0 0.870683 -161.43654
5980.0 0.871579 158.549249
6000.0 0.879596 118.800822
6020.0 0.891375 79.619385
6040.0 0.901846 41.181912
6060.0 0.907307 3.415219
6080.0 0.905224 -33.918679
6100.0 0.89664 -71.132315
6120.0 0.8846 -108.648477
6140.0 0.873084 -146.784032
6160.0 0.866919 174.268782
6180.0 0.868301 134.570931
6200.0 0.877121 94.506432
6220.0 0.889896 54.5494
6240.0 0.900854 15.189713
6260.0 0.906173 -23.304731
6280.0 0.903917 -60.97034
6300.0 0.895525 -98.040435
6320.0 0.884464 -134.984619
6340.0 0.874037 -172.280598
6360.0 0.868239 149.67038
6380.0 0.868868 110.644064
6400.0 0.875724 70.791522
6420.0 0.886213 30.504084
6440.0 0.895197 -9.632933
6460.0 0.899316 -49.090623
6480.0 0.897264 -87.653215
6500.0 0.890454 -125.365931
6520.0 0.882367 -162.589111
6540.0 0.875509 160.20014
6560.0 0.872533 122.565834
6580.0 0.874216 84.157134
6600.0 0.879442 44.944297
6620.0 0.886285 5.145074
6640.0 0.891204 -34.79772
6660.0 0.892492 -74.359115
6680.0 0.890209 -113.239633
6700.0 0.88557 -151.350455
6720.0 0.881253 171.118906
6740.0 0.878449 133.812003
6760.0 0.878091 96.394655
6780.0 0.880084 58.53095
6800.0 0.882793 20.084466
6820.0 0.885156 -18.913698
6840.0 0.885448 -58.287175
6860.0 0.883474 -97.702123
6880.0 0.88049 -136.907346
6900.0 0.877583 -175.71884
6920.0 0.876684 145.905296
6940.0 0.878034 107.841314
6960.0 0.881018 69.964149
6980.0 0.88466 32.069702
7000.0 0.886724 -5.991623
7020.0 0.886463 -44.306515
7040.0 0.883521 -82.961785
7060.0 0.87881 -121.921807
7080.0 0.874739 -161.150455
7100.0 0.872643 159.463388
7120.0 0.873856 120.118859
7140.0 0.877864 80.979182
7160.0 0.882657 42.250781
7180.0 0.886693 4.018129
7200.0 0.88786 -33.760544
7220.0 0.885945 -71.211513
7240.0 0.881709 -108.637525
7260.0 0.876259 -146.327283
7280.0 0.872063 175.440065
7300.0 0.870289 136.509752
7320.0 0.871868 97.006555
7340.0 0.87636 57.216088
7360.0 0.88138 17.60811
7380.0 0.885245 -21.406569
7400.0 0.886059 -59.658052
7420.0 0.883583 -97.181964
7440.0 0.879046 -134.318462
7460.0 0.873437 -171.507383
7480.0 0.869047 150.800064
7500.0 0.867042 112.234728
7520.0 0.868027 72.769827
7540.0 0.871897 32.664539
7560.0 0.876446 -7.512975
7580.0 0.880194 -47.124176
7600.0 0.881765 -85.802565
7620.0 0.880767 -123.464522
7640.0 0.878393 -160.405666
7660.0 0.875009 162.8828
7680.0 0.871903 125.891168
7700.0 0.869733 88.131773
7720.0 0.868603 49.413415
7740.0 0.869112 9.822059
7760.0 0.870322 -30.244121
7780.0 0.871839 -70.18306
7800.0 0.873135 -109.551108
7820.0 0.873406 -148.115701
7840.0 0.873195 174.023542
7860.0 0.872189 136.523615
7880.0 0.870768 99.020005
7900.0 0.869434 61.124086
7920.0 0.867917 22.660138
7940.0 0.867034 -16.338429
7960.0 0.866573 -55.669327
7980.0 0.866608 -94.959909
8000.0 0.867396 -133.952574
8020.0 0.868093 -172.50749
8040.0 0.868851 149.340466
8060.0 0.868995 111.37501
8080.0 0.868077 73.417132
8100.0 0.866516 35.274313
8120.0 0.864063 -3.117506
8140.0 0.861883 -41.692609
8160.0 0.860602 -80.385135
8180.0 0.860446 -119.058385
8200.0 0.861869 -157.687513
8220.0 0.863629 163.690254
8240.0 0.86513 125.037318
8260.0 0.865503 86.260686
8280.0 0.864033 47.402792
8300.0 0.861713 8.545374
8320.0 0.858997 -30.192916
8340.0 0.857247 -68.656681
8360.0 0.85733 -106.849887
8380.0 0.858776 -144.830378
8400.0 0.861512 177.215666
8420.0 0.863897 139.0279
8440.0 0.864794 100.451527
8460.0 0.863638 61.388637
8480.0 0.860003 21.983676
8500.0 0.855712 -17.458687
8520.0 0.852239 -56.619374
8540.0 0.851082 -95.195588
8560.0 0.853195 -133.154304
8580.0 0.857356 -170.647955
8600.0 0.862569 152.017985
8620.0 0.866551 114.41967
8640.0 0.867259 76.275722
8660.0 0.864267 37.421964
8680.0 0.857758 -2.027988
8700.0 0.850676 -41.702713
8720.0 0.845922 -81.196813
8740.0 0.845188 -120.112107
8760.0 0.849157 -158.327916
8780.0 0.855615 164.017893
8800.0 0.862302 126.63681
8820.0 0.866489 89.081545
8840.0 0.865739 51.022429
8860.0 0.860263 12.248808
8880.0 0.851284 -27.224266
8900.0 0.84258 -67.081782
8920.0 0.838012 -106.936117
8940.0 0.839081 -146.352975
8960.0 0.845905 174.902941
8980.0 0.85546 136.782846
9000.0 0.86425 99.104974
9020.0 0.869251 61.513249
9040.0 0.86783 23.720401
9060.0 0.860751 -14.462863
9080.0 0.850217 -53.132501
9100.0 0.840293 -92.165868
9120.0 0.835338 -131.4101
9140.0 0.836727 -170.645037
9160.0 0.84424 150.311679
9180.0 0.854524 111.47367
9200.0 0.863144 72.842857
9220.0 0.867076 34.319165
9240.0 0.864252 -4.16943
9260.0 0.856408 -42.627348
9280.0 0.846862 -81.105206
9300.0 0.839189 -119.558982
9320.0 0.836862 -157.991171
9340.0 0.840053 163.579706
9360.0 0.847602 125.160281
9380.0 0.856408 86.654374
9400.0 0.862323 48.050697
9420.0 0.863356 9.349632
9440.0 0.858614 -29.413713
9460.0 0.850428 -68.112127
9480.0 0.842594 -106.716404
9500.0 0.837884 -145.184621
9520.0 0.838707 176.443666
9540.0 0.844206 138.027869
9560.0 0.852026 99.476123
9580.0 0.859011 60.646627
9600.0 0.861367 21.544116
9620.0 0.8585 -17.697597
9640.0 0.85162 -56.907074
9660.0 0.844071 -95.818224
9680.0 0.839917 -134.307996
9700.0 0.84048 -172.348971
9720.0 0.846034 149.971951
9740.0 0.854143 112.380542
9760.0 0.861121 74.63273
9780.0 0.864174 36.446555
9800.0 0.860762 -2.334756
9820.0 0.852155 -41.662062
9840.0 0.841843 -81.387383
9860.0 0.83412 -121.152191
9880.0 0.833121 -160.616611
9900.0 0.838918 160.451929
9920.0 0.849556 122.15351
9940.0 0.861075 84.296165
9960.0 0.868461 46.623597
9980.0 0.869141 8.81014
10000.0 0.861894 -29.44885
10020.0 0.84944 -68.271885
10040.0 0.837155 -107.69658
10060.0 0.829986 -147.504461
10080.0 0.831997 172.666469
10100.0 0.842302 133.152388
10120.0 0.856706 94.243447
10140.0 0.869712 55.946901
10160.0 0.87542 18.137757
10180.0 0.872021 -19.406907
10200.0 0.860458 -57.029714
10220.0 0.84491 -94.982484
10240.0 0.831886 -133.502804
10260.0 0.826134 -172.616794
10280.0 0.830957 147.906286
10300.0 0.84483 108.370593
10320.0 0.862105 69.166594
10340.0 0.8764 30.495681
10360.0 0.881453 -7.611199
10380.0 0.875821 -45.244611
10400.0 0.861827 -82.725096
10420.0 0.844188 -120.375318
10440.0 0.829878 -158.541623
10460.0 0.823728 162.563971
10480.0 0.828816 123.035202
10500.0 0.843899 83.101808
10520.0 0.86268 43.186812
10540.0 0.87813 3.667883
10560.0 0.883775 -35.24086
10580.0 0.878262 -73.445006
10600.0 0.865054 -111.15448
10620.0 0.848993 -148.68822
10640.0 0.836478 173.583754
10660.0 0.831335 135.315868
10680.0 0.835131 96.437531
10700.0 0.846635 57.010901
10720.0 0.86034 17.321756
10740.0 0.870916 -22.240585
10760.0 0.873972 -61.393327
10780.0 0.86884 -99.913108
10800.0 0.859113 -137.849879
10820.0 0.848447 -175.407788
10840.0 0.841299 147.167852
10860.0 0.839926 109.550357
10880.0 0.844129 71.572832
10900.0 0.852561 33.105841
10920.0 0.860816 -5.860683
10940.0 0.865436 -45.165499
10960.0 0.864379 -84.655826
10980.0 0.857932 -124.079944
11000.0 0.850034 -163.276295
11020.0 0.843864 157.812742
11040.0 0.842217 119.246031
11060.0 0.845777 80.925154
11080.0 0.852144 42.77392
11100.0 0.858989 4.661631
11120.0 0.862672 -33.601749
11140.0 0.861445 -72.103823
11160.0 0.856126 -110.977571
11180.0 0.848511 -150.21515
11200.0 0.842826 170.315431
11220.0 0.841521 130.805843
11240.0 0.845162 91.608484
11260.0 0.852642 52.943518
11280.0 0.859978 14.910508
11300.0 0.864514 -22.558183
11320.0 0.864015 -59.790156
11340.0 0.858005 -97.130688
11360.0 0.848988 -135.020478
11380.0 0.839586 -173.781483
11400.0 0.834271 146.558782
11420.0 0.835791 106.228158
11440.0 0.843593 65.843758
11460.0 0.855101 26.032691
11480.0 0.86476 -12.79595
11500.0 0.868954 -50.512189
11520.0 0.86641 -87.4234
11540.0 0.85754 -123.994029
11560.0 0.84606 -160.829371
11580.0 0.835312 161.477512
11600.0 0.829603 122.648641
11620.0 0.831972 82.710675
11640.0 0.841393 42.215621
11660.0 0.854686 1.951834
11680.0 0.865689 -37.44957
11700.0 0.870001 -75.642282
11720.0 0.866825 -112.817268
11740.0 0.856784 -149.46027
11760.0 0.84372 173.782573
11780.0 0.831263 136.203242
11800.0 0.82345 97.416809
11820.0 0.824098 57.370615
11840.0 0.832807 16.557556
11860.0 0.846731 -24.158891
11880.0 0.859889 -64.046691
11900.0 0.866841 -102.646141
11920.0 0.86632 -140.031527
11940.0 0.858468 -176.644744
11960.0 0.846537 146.938425
11980.0 0.834203 110.018082
12000.0 0.824717 72.14285
12020.0 0.82194 33.120106
12040.0 0.82623 -6.840136
12060.0 0.836105 -47.108183
12080.0 0.847537 -87.071901
12100.0 0.855317 -126.235128
12120.0 0.857565 -164.481226
12140.0 0.853485 157.937454
12160.0 0.844925 120.670131
12180.0 0.835107 83.226335
12200.0 0.82637 45.292625
12220.0 0.822196 6.755059
12240.0 0.823435 -32.3294
12260.0 0.82939 -71.631378
12280.0 0.838065 -110.890808
12300.0 0.845217 -149.890474
12320.0 0.848737 171.458386
12340.0 0.84716 133.036131
12360.0 0.840996 94.771539
12380.0 0.833238 56.519497
12400.0 0.82589 18.222543
12420.0 0.821935 -20.056437
12440.0 0.822335 -58.316474
12460.0 0.826159 -96.470657
12480.0 0.832456 -134.579784
12500.0 0.838047 -172.780666
12520.0 0.841242 148.826197
12540.0 0.840849 110.08305
12560.0 0.836435 71.058772
12580.0 0.830438 31.92117
12600.0 0.824453 -7.087497
12620.0 0.820794 -45.654276
12640.0 0.820687 -83.720837
12660.0 0.823054 -121.349957
12680.0 0.827469 -158.82648
12700.0 0.831491 163.408889
12720.0 0.83348 125.050451
12740.0 0.832822 85.868177
12760.0 0.828976 46.015623
12780.0 0.824448 5.956928
12800.0 0.820981 -33.766174
12820.0 0.819886 -72.614121
12840.0 0.821844 -110.467905
12860.0 0.824802 -147.524994
12880.0 0.827838 175.77703
12900.0 0.829105 138.780717
12920.0 0.82738 100.989918
12940.0 0.823577 62.040998
12960.0 0.81833 22.003683
12980.0 0.814706 -18.54094
13000.0 0.814589 -58.838814
13020.0 0.817717 -98.121263
13040.0 0.823471 -136.105554
13060.0 0.828695 -173.006326
13080.0 0.831592 150.683572
13100.0 0.830658 114.181565
13120.0 0.824679 76.834367
13140.0 0.815731 38.151037
13160.0 0.806219 -1.95869
13180.0 0.800763 -42.940232
13200.0 0.802659 -83.940886
13220.0 0.810721 -124.020736
13240.0 0.822412 -162.689599
13260.0 0.83266 159.923997
13280.0 0.837729 123.404048
13300.0 0.836126 87.033328
13320.0 0.827019 50.167644
13340.0 0.813861 12.324714
13360.0 0.800915 -26.741845
13380.0 0.79358 -66.71433
13400.0 0.796069 -106.987888
13420.0 0.806814 -146.794739
13440.0 0.822063 174.406414
13460.0 0.835545 136.610603
13480.0 0.841807 99.564292
13500.0 0.839075 62.71326
13520.0 0.826782 25.478254
13540.0 0.80918 -12.568505
13560.0 0.792291 -51.738293
13580.0 0.782388 -91.851053
13600.0 0.784814 -132.428816
13620.0 0.79814 -172.83239
13640.0 0.817284 147.511802
13660.0 0.834652 108.715162
13680.0 0.842869 70.710328
13700.0 0.840085 33.226799
13720.0 0.827121 -4.109044
13740.0 0.809347 -41.545564
13760.0 0.793873 -79.378942
13780.0 0.785726 -117.655248
13800.0 0.788976 -156.278102
13820.0 0.801895 164.864786
13840.0 0.819471 125.983873
13860.0 0.834982 87.075341
13880.0 0.840852 48.161856
13900.0 0.835295 9.273139
13920.0 0.820384 -29.642584
13940.0 0.802403 -68.492873
13960.0 0.789509 -107.270364
13980.0 0.785845 -145.881662
14000.0 0.793567 175.808927
14020.0 0.809734 137.724528
14040.0 0.82808 99.808252
14060.0 0.842496 61.836333
14080.0 0.846203 23.641661
14100.0 0.838166 -14.770769
14120.0 0.821788 -53.428642
14140.0 0.803465 -92.169334
14160.0 0.791543 -130.879621
14180.0 0.78952 -169.47011
14200.0 0.798121 152.174937
14220.0 0.813801 113.886933
14240.0 0.829332 75.505701
14260.0 0.839051 36.798609
14280.0 0.837766 -2.408556
14300.0 0.826303 -41.99961
14320.0 0.8107 -81.83318
14340.0 0.797613 -121.553583
14360.0 0.793906 -160.792004
14380.0 0.80043 160.620436
14400.0 0.814331 122.761287
14420.0 0.83081 85.302475
14440.0 0.842296 47.818839
14460.0 0.844574 9.881077
14480.0 0.835376 -28.928124
14500.0 0.817752 -68.642046
14520.0 0.800397 -109.099499
14540.0 0.790729 -149.771188
14560.0 0.794326 170.09857
14580.0 0.809768 130.967018
14600.0 0.830321 93.039264
14620.0 0.849222 56.023285
14640.0 0.858432 19.392487
14660.0 0.854817 -17.353597
14680.0 0.839197 -54.824885
14700.0 0.816402 -93.349346
14720.0 0.796705 -133.046514
14740.0 0.788039 -173.620339
