! File created by SignalIntegrity v1.1.10: Signal and Power Integrity Tools
! https://github.com/TeledyneLeCroy/SignalIntegrity
# MHz S MA R 50.0
0.0 0.993804 180.0
20.0 0.988575 139.123326
40.0 0.976282 98.662715
60.0 0.963009 58.763659
80.0 0.954599 19.361022
100.0 0.955015 -19.857024
120.0 0.963741 -59.271947
140.0 0.977464 -99.174161
160.0 0.989742 -139.704661
180.0 0.99367 179.329987
200.0 0.986761 138.318382
220.0 0.971412 97.656127
240.0 0.954547 57.570433
260.0 0.943085 17.953711
280.0 0.940691 -21.465671
300.0 0.948243 -61.042671
320.0 0.962097 -101.085274
340.0 0.976058 -141.652675
360.0 0.983589 177.414133
380.0 0.980454 136.511934
400.0 0.968644 96.048771
420.0 0.953559 56.18523
440.0 0.941149 16.853038
460.0 0.935798 -22.266407
480.0 0.937927 -61.550977
500.0 0.945761 -101.283715
520.0 0.954894 -141.612034
540.0 0.960116 177.617912
560.0 0.958969 136.732542
580.0 0.951824 96.08862
600.0 0.942638 55.932795
620.0 0.935899 16.219699
640.0 0.933927 -23.250255
660.0 0.937408 -62.76925
680.0 0.943793 -102.608573
700.0 0.949351 -142.831498
720.0 0.950923 176.649864
740.0 0.946897 136.099333
760.0 0.939657 95.793662
780.0 0.932922 55.830233
800.0 0.930131 16.169948
820.0 0.933316 -23.414266
840.0 0.940869 -63.178935
860.0 0.949458 -103.266762
880.0 0.954339 -143.68638
900.0 0.951856 175.803304
920.0 0.942733 135.505287
940.0 0.930422 95.624737
960.0 0.920366 56.199726
980.0 0.916965 16.996412
1000.0 0.921441 -22.307812
1020.0 0.932719 -62.0479
1040.0 0.945829 -102.444302
1060.0 0.954378 -143.39666
1080.0 0.953742 175.43706
1100.0 0.943246 134.562811
1120.0 0.928043 94.374253
1140.0 0.914612 54.917387
1160.0 0.907975 15.990364
1180.0 0.910875 -22.840831
1200.0 0.921908 -62.048332
1220.0 0.937257 -101.966375
1240.0 0.95034 -142.718913
1260.0 0.954388 175.98276
1280.0 0.947505 134.679147
1300.0 0.932789 93.903984
1320.0 0.917244 53.968399
1340.0 0.907268 14.77531
1360.0 0.905663 -23.999238
1380.0 0.912809 -62.806397
1400.0 0.925295 -102.099287
1420.0 0.937712 -142.100664
1440.0 0.944528 177.20182
1460.0 0.941972 136.135782
1480.0 0.931904 95.168758
1500.0 0.91944 54.620178
1520.0 0.910107 14.618603
1540.0 0.907787 -24.982436
1560.0 0.912205 -64.456089
1580.0 0.920932 -104.044026
1600.0 0.929559 -143.930177
1620.0 0.933483 175.929477
1640.0 0.931286 135.704617
1660.0 0.924087 95.586589
1680.0 0.915923 55.71944
1700.0 0.911039 16.037711
1720.0 0.911224 -23.607188
1740.0 0.916511 -63.404013
1760.0 0.923711 -103.505693
1780.0 0.928649 -143.859498
1800.0 0.928454 175.699681
1820.0 0.922315 135.436377
1840.0 0.913426 95.560522
1860.0 0.905968 56.054547
1880.0 0.90336 16.763628
1900.0 0.907542 -22.632583
1920.0 0.916723 -62.458919
1940.0 0.927127 -102.87659
1960.0 0.933361 -143.846613
1980.0 0.931152 175.000213
2000.0 0.921302 134.145922
2020.0 0.907941 93.945794
2040.0 0.897043 54.5215
2060.0 0.893242 15.642131
2080.0 0.897672 -23.08659
2100.0 0.909282 -62.127836
2120.0 0.923342 -101.890166
2140.0 0.93343 -142.473644
2160.0 0.934401 176.327068
2180.0 0.924784 135.024151
2200.0 0.909503 94.177264
2220.0 0.895608 54.067966
2240.0 0.888585 14.708541
2260.0 0.891232 -24.190398
2280.0 0.901894 -63.058957
2300.0 0.916638 -102.28871
2320.0 0.929386 -142.180792
2340.0 0.933869 177.280967
2360.0 0.928102 136.367781
2380.0 0.914513 95.467963
2400.0 0.899633 54.945845
2420.0 0.890035 14.907873
2440.0 0.88867 -24.710995
2460.0 0.895711 -64.114794
2480.0 0.907432 -103.588121
2500.0 0.918356 -143.292195
2520.0 0.923702 176.707174
2540.0 0.920589 136.515443
2560.0 0.911142 96.322858
2580.0 0.900111 56.221119
2600.0 0.89247 16.249263
2620.0 0.891836 -23.684638
2640.0 0.897638 -63.706478
2660.0 0.906861 -103.861587
2680.0 0.914622 -144.148797
2700.0 0.916321 175.59818
2720.0 0.911373 135.572174
2740.0 0.902016 95.870228
2760.0 0.892963 56.483181
2780.0 0.888773 17.189066
2800.0 0.891132 -22.279259
2820.0 0.899617 -62.163038
2840.0 0.910084 -102.60291
2860.0 0.916906 -143.452478
2880.0 0.916235 175.610933
2900.0 0.907443 135.008791
2920.0 0.894942 95.053024
2940.0 0.88435 55.737053
2960.0 0.879886 16.855764
2980.0 0.883903 -21.992601
3000.0 0.894714 -61.250878
3020.0 0.908242 -101.222082
3040.0 0.918159 -142.020455
3060.0 0.918447 176.630479
3080.0 0.908547 135.249885
3100.0 0.892741 94.342825
3120.0 0.878356 54.233189
3140.0 0.871584 14.876983
3160.0 0.874416 -23.98447
3180.0 0.88611 -62.741872
3200.0 0.902011 -101.840835
3220.0 0.915349 -141.541681
3240.0 0.92001 178.087261
3260.0 0.912701 137.256933
3280.0 0.896873 96.338871
3300.0 0.879814 55.608957
3320.0 0.868652 15.249715
3340.0 0.868022 -24.742469
3360.0 0.877233 -64.487273
3380.0 0.892302 -104.109884
3400.0 0.906804 -143.773307
3420.0 0.91396 176.491608
3440.0 0.911088 136.720779
3460.0 0.89948 96.93312
3480.0 0.884597 57.133672
3500.0 0.873119 17.196455
3520.0 0.869177 -22.979886
3540.0 0.874349 -63.421629
3560.0 0.885629 -104.086783
3580.0 0.897191 -144.759162
3600.0 0.903625 174.796558
3620.0 0.901577 134.793631
3640.0 0.892776 95.319086
3660.0 0.8816 56.190436
3680.0 0.872724 17.112176
3700.0 0.870252 -22.299255
3720.0 0.87472 -62.352453
3740.0 0.88406 -103.099772
3760.0 0.893451 -144.364255
3780.0 0.897254 174.333944
3800.0 0.893768 133.528572
3820.0 0.88478 93.53398
3840.0 0.874914 54.383419
3860.0 0.868978 15.74356
3880.0 0.869094 -22.865408
3900.0 0.875743 -61.93199
3920.0 0.885972 -101.853915
3940.0 0.894599 -142.681722
3960.0 0.896935 175.85281
3980.0 0.890621 134.304986
4000.0 0.878895 93.268866
4020.0 0.867503 53.027433
4040.0 0.861197 13.580659
4060.0 0.862919 -25.35883
4080.0 0.871594 -64.21816
4100.0 0.88394 -103.36468
4120.0 0.894765 -143.094732
4140.0 0.898262 176.56966
4160.0 0.892479 135.828162
4180.0 0.879427 94.966053
4200.0 0.86502 54.28445
4220.0 0.855863 13.896256
4240.0 0.855192 -26.186974
4260.0 0.863445 -66.022647
4280.0 0.876963 -105.75412
4300.0 0.889731 -145.442308
4320.0 0.89642 174.86403
4340.0 0.8935 135.165808
4360.0 0.882537 95.47324
4380.0 0.868402 55.654943
4400.0 0.856793 15.573332
4420.0 0.852957 -24.905712
4440.0 0.85803 -65.796096
4460.0 0.869683 -106.876393
4480.0 0.882504 -147.841673
4500.0 0.890016 171.689322
4520.0 0.889556 131.972373
4540.0 0.88185 92.973332
4560.0 0.870708 54.437495
4580.0 0.861132 15.856009
4600.0 0.856337 -23.297656
4620.0 0.858515 -63.392891
4640.0 0.866485 -104.537156
4660.0 0.876065 -146.362838
4680.0 0.88259 171.784683
4700.0 0.882482 130.606085
4720.0 0.876713 90.545684
4740.0 0.868754 51.529005
4760.0 0.861942 13.151541
4780.0 0.85944 -25.211139
4800.0 0.861776 -64.203468
4820.0 0.867995 -104.222218
4840.0 0.875255 -145.360236
4860.0 0.879176 172.789944
4880.0 0.877913 130.958329
4900.0 0.872139 89.817261
4920.0 0.865066 49.754932
4940.0 0.860522 10.663518
4960.0 0.859942 -27.871883
4980.0 0.863773 -66.381365
5000.0 0.870144 -105.411179
5020.0 0.875682 -145.244519
5040.0 0.877637 174.101102
5060.0 0.874073 132.920766
5080.0 0.866814 91.711353
5100.0 0.85969 50.845521
5120.0 0.855935 10.533627
5140.0 0.857797 -29.26561
5160.0 0.864149 -68.767825
5180.0 0.872262 -108.166023
5200.0 0.878644 -147.657934
5220.0 0.879646 172.701172
5240.0 0.874825 132.933718
5260.0 0.865823 93.020601
5280.0 0.856389 52.946354
5300.0 0.850968 12.585592
5320.0 0.851548 -28.148571
5340.0 0.858387 -69.206967
5360.0 0.868465 -110.429104
5380.0 0.876872 -151.441857
5400.0 0.880228 168.124835
5420.0 0.876969 128.496783
5440.0 0.869178 89.675568
5460.0 0.86042 51.305587
5480.0 0.853654 12.878854
5500.0 0.851787 -26.189502
5520.0 0.855123 -66.381764
5540.0 0.862212 -107.78287
5560.0 0.869727 -150.049828
5580.0 0.873259 167.627991
5600.0 0.871663 126.14526
5620.0 0.866309 85.998492
5640.0 0.860144 47.199583
5660.0 0.856354 9.249916
5680.0 0.855833 -28.584918
5700.0 0.858888 -67.039039
5720.0 0.863978 -106.724888
5740.0 0.868219 -147.785255
5760.0 0.869589 170.155051
5780.0 0.866927 127.921864
5800.0 0.862205 86.444826
5820.0 0.858469 46.208892
5840.0 0.857254 7.203085
5860.0 0.85944 -31.021136
5880.0 0.863567 -69.154763
5900.0 0.867556 -107.82084
5920.0 0.869357 -147.514878
5940.0 0.866886 171.658078
5960.0 0.86115 130.021896
5980.0 0.854778 88.156591
6000.0 0.851098 46.733638
6020.0 0.852588 6.126814
6040.0 0.858284 -33.63463
6060.0 0.86607 -72.76754
6080.0 0.872583 -111.680576
6100.0 0.874385 -150.694176
6120.0 0.870567 169.961088
6140.0 0.861782 130.191617
6160.0 0.85175 90.070489
6180.0 0.845085 49.658049
6200.0 0.844563 9.073607
6220.0 0.851213 -31.589509
6240.0 0.862048 -72.278218
6260.0 0.872237 -112.845648
6280.0 0.877378 -153.156316
6300.0 0.874641 166.970515
6320.0 0.865797 127.64984
6340.0 0.854636 88.769081
6360.0 0.845478 50.091022
6380.0 0.842205 11.191098
6400.0 0.845528 -28.367466
6420.0 0.854412 -68.858911
6440.0 0.864861 -110.331484
6460.0 0.871326 -152.369015
6480.0 0.870971 165.73032
6500.0 0.864095 124.661673
6520.0 0.854837 84.845467
6540.0 0.847833 46.168033
6560.0 0.845316 8.182786
6580.0 0.848455 -29.774455
6600.0 0.85552 -68.440442
6620.0 0.86335 -108.317626
6640.0 0.868183 -149.580189
6660.0 0.86652 168.191787
6680.0 0.859473 125.89175
6700.0 0.85103 84.408194
6720.0 0.845537 44.309409
6740.0 0.845897 5.565136
6760.0 0.851264 -32.298125
6780.0 0.859583 -69.950337
6800.0 0.867214 -108.161985
6820.0 0.869802 -147.470966
6840.0 0.865409 171.907511
6860.0 0.854697 130.216094
6880.0 0.84289 88.151741
6900.0 0.836319 46.465252
6920.0 0.837853 5.736602
6940.0 0.847202 -33.875653
6960.0 0.860094 -72.650769
6980.0 0.871138 -111.024626
7000.0 0.875903 -149.534911
7020.0 0.871265 171.41026
7040.0 0.858879 131.597879
7060.0 0.843642 90.967353
7080.0 0.83224 49.740185
7100.0 0.830535 8.260391
7120.0 0.839003 -33.066365
7140.0 0.854044 -73.884929
7160.0 0.868882 -114.08112
7180.0 0.876534 -153.627803
7200.0 0.874312 167.375332
7220.0 0.86304 128.715039
7240.0 0.847647 90.148204
7260.0 0.834583 51.304224
7280.0 0.828647 11.883488
7300.0 0.832999 -28.300649
7320.0 0.845851 -69.279032
7340.0 0.861364 -110.770181
7360.0 0.872129 -152.330889
7380.0 0.872233 166.60234
7400.0 0.862502 126.476916
7420.0 0.848039 87.34913
7440.0 0.834955 48.994084
7460.0 0.828665 10.902866
7480.0 0.830813 -27.526428
7500.0 0.840798 -66.798201
7520.0 0.85447 -107.277904
7540.0 0.864737 -148.875635
7560.0 0.866299 168.945819
7580.0 0.857941 126.999494
7600.0 0.844744 86.057981
7620.0 0.833898 46.406128
7640.0 0.829559 7.914809
7660.0 0.833553 -29.862619
7680.0 0.843821 -67.586684
7700.0 0.856111 -105.856166
7720.0 0.865186 -145.196087
7740.0 0.865263 174.209245
7760.0 0.855365 132.612341
7780.0 0.839688 90.554645
7800.0 0.825843 48.764066
7820.0 0.820915 7.772232
7840.0 0.826312 -32.21006
7860.0 0.839657 -71.266716
7880.0 0.85549 -109.80945
7900.0 0.866788 -148.277389
7920.0 0.86888 172.916737
7940.0 0.859656 133.471733
7960.0 0.842578 93.312949
7980.0 0.825233 52.462394
8000.0 0.814946 11.176567
8020.0 0.816797 -30.131218
8040.0 0.829461 -71.074591
8060.0 0.846797 -111.330407
8080.0 0.861317 -150.847074
8100.0 0.866211 170.269791
8120.0 0.860033 131.801956
8140.0 0.845475 93.34179
8160.0 0.828139 54.481673
8180.0 0.815376 14.805116
8200.0 0.811939 -25.896722
8220.0 0.819709 -67.441444
8240.0 0.835158 -109.388264
8260.0 0.850143 -151.061115
8280.0 0.85784 168.118918
8300.0 0.854978 128.410561
8320.0 0.844023 89.753168
8340.0 0.830607 51.676764
8360.0 0.819625 13.574918
8380.0 0.815734 -25.156068
8400.0 0.820249 -64.999912
8420.0 0.83118 -106.028657
8440.0 0.843461 -147.949034
8460.0 0.849782 169.935432
8480.0 0.847101 128.447177
8500.0 0.837381 88.066611
8520.0 0.825635 48.878197
8540.0 0.817755 10.525596
8560.0 0.816443 -27.565744
8580.0 0.822522 -65.940104
8600.0 0.8338 -105.103929
8620.0 0.844836 -145.247595
8640.0 0.850345 173.757635
8660.0 0.846437 132.329711
8680.0 0.834821 91.071403
8700.0 0.821623 50.367572
8720.0 0.812495 10.368026
8740.0 0.811692 -29.011882
8760.0 0.819146 -68.061115
8780.0 0.831593 -107.034958
8800.0 0.844192 -146.221681
8820.0 0.850554 174.208312
8840.0 0.847532 134.235279
8860.0 0.835795 93.849268
8880.0 0.820002 53.142222
8900.0 0.807636 12.18165
8920.0 0.803673 -28.908122
8940.0 0.810091 -69.858377
8960.0 0.824298 -110.456959
8980.0 0.83969 -150.492695
9000.0 0.850313 170.105974
9020.0 0.851638 131.219602
9040.0 0.843524 92.638156
9060.0 0.829773 53.928168
9080.0 0.815194 14.638329
9100.0 0.805956 -25.573668
9120.0 0.805625 -66.818684
9140.0 0.814161 -108.719872
9160.0 0.827851 -150.648224
9180.0 0.839513 168.083617
9200.0 0.844483 127.945928
9220.0 0.841687 88.911301
9240.0 0.833034 50.628156
9260.0 0.823065 12.454796
9280.0 0.815104 -26.315722
9300.0 0.81224 -66.150818
9320.0 0.815557 -107.210576
9340.0 0.822702 -149.078855
9360.0 0.830376 169.033799
9380.0 0.834483 127.89873
9400.0 0.833734 88.004168
9420.0 0.829874 49.245568
9440.0 0.824684 11.139521
9460.0 0.821004 -26.982362
9480.0 0.820038 -65.841028
9500.0 0.821745 -105.847144
9520.0 0.825375 -147.069998
9540.0 0.827978 170.922963
9560.0 0.828088 128.929937
9580.0 0.825668 87.625985
9600.0 0.821945 47.390929
9620.0 0.819759 8.119083
9640.0 0.820123 -30.62894
9660.0 0.82356 -69.325582
9680.0 0.829247 -108.448096
9700.0 0.834273 -148.188114
9720.0 0.836597 171.53108
9740.0 0.834244 130.96136
9760.0 0.827838 90.481751
9780.0 0.820438 50.253265
9800.0 0.814568 10.256103
9820.0 0.813148 -29.67286
9840.0 0.816673 -69.797501
9860.0 0.82358 -110.184024
9880.0 0.831548 -150.771795
9900.0 0.836579 168.6756
9920.0 0.836945 128.478512
9940.0 0.832849 88.735661
9960.0 0.82582 49.38132
9980.0 0.819299 10.092796
10000.0 0.815194 -29.570533
10020.0 0.815183 -69.889371
10040.0 0.819565 -110.971928
10060.0 0.826048 -152.511502
10080.0 0.83251 166.060972
10100.0 0.83617 125.274126
10120.0 0.836008 85.476202
10140.0 0.833171 46.543908
10160.0 0.828361 8.047809
10180.0 0.823626 -30.583945
10200.0 0.820091 -69.969019
10220.0 0.81835 -110.386415
10240.0 0.819373 -151.74803
10260.0 0.822145 166.493537
10280.0 0.826126 125.15649
10300.0 0.830428 84.795697
10320.0 0.833734 45.595027
10340.0 0.836188 7.246223
10360.0 0.836715 -30.89069
10380.0 0.834892 -69.459932
10400.0 0.830733 -109.058072
10420.0 0.824157 -149.866115
10440.0 0.817749 168.416639
10460.0 0.813893 126.444693
10480.0 0.81459 85.040616
10500.0 0.820654 44.640602
10520.0 0.829764 5.22641
10540.0 0.839654 -33.580453
10560.0 0.846981 -72.415582
10580.0 0.848501 -111.765708
10600.0 0.843546 -151.927386
10620.0 0.832826 167.160054
10640.0 0.820833 125.936577
10660.0 0.812687 84.878047
10680.0 0.811067 44.409816
10700.0 0.816948 4.628635
10720.0 0.827433 -34.715202
10740.0 0.838652 -73.960866
10760.0 0.846653 -113.521943
10780.0 0.847478 -153.559767
10800.0 0.841283 166.046088
10820.0 0.830583 125.569285
10840.0 0.820016 85.412834
10860.0 0.814394 45.74833
10880.0 0.814872 6.519434
10900.0 0.821256 -32.531574
10920.0 0.830602 -71.877208
10940.0 0.838456 -111.84483
10960.0 0.8417 -152.583545
10980.0 0.838086 166.102508
11000.0 0.829899 124.750341
11020.0 0.821697 83.841294
11040.0 0.816917 43.713886
11060.0 0.818 4.338466
11080.0 0.823474 -34.66559
11100.0 0.830523 -73.748535
11120.0 0.835914 -113.422424
11140.0 0.835975 -153.914304
11160.0 0.830913 164.913116
11180.0 0.823162 123.46183
11200.0 0.816985 82.361484
11220.0 0.816432 42.020892
11240.0 0.821289 2.538252
11260.0 0.829791 -36.282462
11280.0 0.837987 -74.951466
11300.0 0.841251 -113.923901
11320.0 0.837666 -153.574637
11340.0 0.827079 165.974167
11360.0 0.814088 124.973541
11380.0 0.805106 83.797522
11400.0 0.804211 42.93841
11420.0 0.812993 2.694582
11440.0 0.8277 -36.984588
11460.0 0.842382 -76.311062
11480.0 0.850993 -115.684763
11500.0 0.848248 -155.366039
11520.0 0.834894 164.591192
11540.0 0.815999 124.245245
11560.0 0.799553 83.873823
11580.0 0.793318 43.702486
11600.0 0.799392 3.886997
11620.0 0.816109 -35.553385
11640.0 0.837132 -74.897114
11660.0 0.85337 -114.40176
11680.0 0.857907 -154.28227
11700.0 0.847193 165.429378
11720.0 0.825751 124.940831
11740.0 0.803204 84.413457
11760.0 0.788339 44.062512
11780.0 0.787357 4.021347
11800.0 0.79964 -35.760526
11820.0 0.820073 -75.392627
11840.0 0.840798 -115.178338
11860.0 0.852121 -155.302572
11880.0 0.84937 164.267973
11900.0 0.833812 123.676331
11920.0 0.812856 83.23172
11940.0 0.796574 43.11792
11960.0 0.790536 3.427706
11980.0 0.7966 -35.821469
12000.0 0.811513 -74.881509
12020.0 0.828138 -114.020098
12040.0 0.83961 -153.546492
12060.0 0.839601 166.361105
12080.0 0.828043 125.817962
12100.0 0.810922 84.993862
12120.0 0.796055 44.202153
12140.0 0.790936 3.72936
12160.0 0.796937 -36.302864
12180.0 0.810716 -75.842352
12200.0 0.826158 -115.110047
12220.0 0.83507 -154.353516
12240.0 0.833358 166.2401
12260.0 0.821106 126.479145
12280.0 0.803557 86.361729
12300.0 0.789599 45.896915
12320.0 0.78514 5.219867
12340.0 0.792795 -35.383757
12360.0 0.809183 -75.76118
12380.0 0.82608 -115.768967
12400.0 0.835998 -155.415597
12420.0 0.833275 165.197336
12440.0 0.818979 126.001879
12460.0 0.799601 86.752408
12480.0 0.782735 47.262854
12500.0 0.776379 7.425079
12520.0 0.783256 -32.782822
12540.0 0.800986 -73.155508
12560.0 0.822561 -113.570852
12580.0 0.837057 -153.869936
12600.0 0.837674 166.121087
12620.0 0.823532 126.412987
12640.0 0.8005 86.976022
12660.0 0.778956 47.562965
12680.0 0.766805 7.918547
12700.0 0.76951 -32.023301
12720.0 0.786596 -72.304102
12740.0 0.810848 -112.77646
12760.0 0.832318 -153.300853
12780.0 0.840135 166.280906
12800.0 0.830709 126.216053
12820.0 0.809084 86.501812
12840.0 0.784198 47.011615
12860.0 0.766757 7.519498
12880.0 0.762751 -32.20753
12900.0 0.77336 -72.132325
12920.0 0.794841 -112.229313
12940.0 0.817313 -152.399566
12960.0 0.831355 167.501394
12980.0 0.830549 127.519828
13000.0 0.815451 87.747349
13020.0 0.794082 48.064778
13040.0 0.774882 8.273335
13060.0 0.765761 -31.686001
13080.0 0.769913 -71.840992
13100.0 0.784374 -111.998564
13120.0 0.803225 -152.021292
13140.0 0.817172 168.110533
13160.0 0.820041 128.433311
13180.0 0.811248 88.769726
13200.0 0.794462 48.935663
13220.0 0.778235 8.738381
13240.0 0.769446 -31.95162
13260.0 0.771816 -72.884072
13280.0 0.784613 -113.718638
13300.0 0.800716 -154.063629
13320.0 0.813047 166.351683
13340.0 0.816083 127.443921
13360.0 0.808579 89.007645
13380.0 0.795016 50.565585
13400.0 0.780503 11.573938
13420.0 0.771767 -28.295302
13440.0 0.773033 -69.156732
13460.0 0.783365 -110.586256
13480.0 0.798498 -151.941401
13500.0 0.810028 167.336269
13520.0 0.812377 127.610803
13540.0 0.805106 88.703616
13560.0 0.790638 50.149995
13580.0 0.775542 11.295434
13600.0 0.765387 -28.546484
13620.0 0.764733 -69.590743
13640.0 0.775407 -111.634254
13660.0 0.792173 -153.941727
13680.0 0.807644 164.420094
13700.0 0.814688 124.005961
13720.0 0.81062 84.998841
13740.0 0.799115 47.019202
13760.0 0.784345 9.36321
13780.0 0.77226 -28.65627
13800.0 0.767634 -67.717227
13820.0 0.772042 -108.017203
13840.0 0.785 -149.333972
13860.0 0.799969 168.897455
13880.0 0.809699 127.469248
13900.0 0.810172 86.815216
13920.0 0.801004 47.025093
13940.0 0.787628 7.805025
13960.0 0.77536 -31.42631
13980.0 0.768941 -71.033168
14000.0 0.771927 -111.212717
14020.0 0.782558 -151.766961
14040.0 0.797306 167.784519
14060.0 0.810006 127.775654
14080.0 0.815218 88.447612
14100.0 0.812364 49.640016
14120.0 0.802167 10.914635
14140.0 0.789036 -28.183275
14160.0 0.777988 -68.149837
14180.0 0.772461 -109.030595
14200.0 0.775535 -150.485415
14220.0 0.784905 168.0658
14240.0 0.796257 127.291318
14260.0 0.805297 87.372776
14280.0 0.807848 48.151048
14300.0 0.804453 9.163973
14320.0 0.79653 -30.270055
14340.0 0.787332 -70.554354
14360.0 0.781773 -111.838834
14380.0 0.781547 -153.718254
14400.0 0.787365 164.643175
14420.0 0.796275 123.888316
14440.0 0.803663 84.367267
14460.0 0.80775 45.812107
14480.0 0.806431 7.528998
14500.0 0.800796 -31.233501
14520.0 0.793288 -71.280915
14540.0 0.786275 -112.86231
14560.0 0.784333 -155.552124
14580.0 0.78824 161.661713
14600.0 0.796365 120.048063
14620.0 0.805946 80.197964
14640.0 0.812516 42.010925
14660.0 0.815112 4.843498
14680.0 0.812654 -32.357371
14700.0 0.805297 -70.499449
14720.0 0.79613 -110.369703
14740.0 0.787709 -152.14198
14760.0 0.785048 164.898908
