! File created by SignalIntegrity v1.1.13: Signal and Power Integrity Tools
! https://github.com/TeledyneLeCroy/SignalIntegrity
# MHz S MA R 50.0
0.0 0.993885 180.0
20.0 0.988593 139.103745
40.0 0.976226 98.631245
60.0 0.962955 58.723541
80.0 0.954564 19.313171
100.0 0.955011 -19.9106
120.0 0.96377 -59.330978
140.0 0.977505 -99.238155
160.0 0.989779 -139.773113
180.0 0.993683 179.257252
200.0 0.986741 138.242343
220.0 0.971374 97.577186
240.0 0.954504 57.488704
260.0 0.943058 17.869165
280.0 0.940691 -21.553736
300.0 0.948267 -61.134552
320.0 0.962138 -101.18125
340.0 0.976094 -141.752631
360.0 0.983602 177.311169
380.0 0.98044 136.406889
400.0 0.968608 95.942568
420.0 0.953523 56.078118
440.0 0.941127 16.744404
460.0 0.9358 -22.377272
480.0 0.937955 -61.665119
500.0 0.945802 -101.40178
520.0 0.954934 -141.734009
540.0 0.960136 177.4925
560.0 0.958962 136.604885
580.0 0.951799 95.959642
600.0 0.942609 55.802858
620.0 0.935884 16.088687
640.0 0.933933 -23.383127
660.0 0.937433 -62.904607
680.0 0.943828 -102.746818
700.0 0.949381 -142.972588
720.0 0.950936 176.506717
740.0 0.946891 135.954876
760.0 0.939642 95.648476
780.0 0.932913 55.684326
800.0 0.930141 16.022629
820.0 0.933348 -23.56367
840.0 0.940917 -63.331083
860.0 0.949504 -103.42169
880.0 0.954367 -143.8433
900.0 0.951856 175.645444
920.0 0.94271 135.347576
940.0 0.930395 95.467371
960.0 0.920354 56.041917
980.0 0.916983 16.83686
1000.0 0.921493 -22.470768
1020.0 0.932792 -62.215301
1040.0 0.945901 -102.616184
1060.0 0.954421 -143.571774
1080.0 0.95374 175.261183
1100.0 0.943208 134.388346
1120.0 0.927992 94.202218
1140.0 0.914579 54.747207
1160.0 0.907978 15.820073
1180.0 0.91092 -23.013515
1200.0 0.92199 -62.225605
1220.0 0.93735 -102.149378
1240.0 0.950412 -142.906969
1260.0 0.954412 175.791938
1280.0 0.947479 134.488814
1300.0 0.932738 93.716481
1320.0 0.917199 53.78418
1340.0 0.907254 14.593248
1360.0 0.905692 -24.181509
1380.0 0.912875 -62.991338
1400.0 0.925383 -102.288833
1420.0 0.937792 -142.295605
1440.0 0.944573 177.00254
1460.0 0.941974 135.934324
1480.0 0.931873 94.967525
1500.0 0.919403 54.420646
1520.0 0.910089 14.420713
1540.0 0.907799 -25.179598
1560.0 0.912247 -64.653984
1580.0 0.920988 -104.24386
1600.0 0.92961 -144.132294
1620.0 0.933513 175.725429
1640.0 0.931288 135.499695
1660.0 0.924075 95.381618
1680.0 0.915912 55.514491
1700.0 0.911044 15.832254
1720.0 0.911252 -23.814301
1740.0 0.916553 -63.613651
1760.0 0.923752 -103.718053
1780.0 0.928671 -144.07393
1800.0 0.928449 175.484726
1820.0 0.922291 135.222228
1840.0 0.913402 95.347715
1860.0 0.905964 55.842464
1880.0 0.903387 16.550504
1900.0 0.907599 -22.848684
1920.0 0.916796 -62.679607
1940.0 0.927187 -103.102153
1960.0 0.933383 -144.075398
1980.0 0.931127 174.771074
2000.0 0.921245 133.919476
2020.0 0.907886 93.723579
2040.0 0.897018 54.302976
2060.0 0.893263 15.425266
2080.0 0.897738 -23.304911
2100.0 0.909375 -62.350551
2120.0 0.923432 -102.119118
2140.0 0.933479 -142.708711
2160.0 0.934388 176.088542
2180.0 0.92472 134.785888
2200.0 0.909424 93.942402
2220.0 0.895555 53.837731
2240.0 0.888581 14.481893
2260.0 0.89128 -24.415783
2280.0 0.901982 -63.286118
2300.0 0.916734 -102.520292
2320.0 0.929453 -142.417935
2340.0 0.93388 177.038926
2360.0 0.928053 136.123318
2380.0 0.914436 95.223881
2400.0 0.899567 54.703974
2420.0 0.890009 14.668751
2440.0 0.888695 -24.948309
2460.0 0.895775 -64.35187
2480.0 0.907509 -103.826565
2500.0 0.918416 -143.533112
2520.0 0.92372 176.463881
2540.0 0.920564 136.270502
2560.0 0.911092 96.077195
2580.0 0.900068 55.975266
2600.0 0.892455 16.002953
2620.0 0.891858 -23.93187
2640.0 0.897687 -63.955178
2660.0 0.906913 -104.111829
2680.0 0.91465 -144.399789
2700.0 0.916313 175.347566
2720.0 0.911335 135.323075
2740.0 0.901972 95.622856
2760.0 0.892938 56.236529
2780.0 0.888784 16.941437
2800.0 0.891181 -22.529984
2820.0 0.899685 -62.418298
2840.0 0.910141 -102.862762
2860.0 0.916921 -143.715307
2880.0 0.916197 175.34825
2900.0 0.907371 134.749104
2920.0 0.894871 94.797691
2940.0 0.884314 55.485456
2960.0 0.879903 16.605426
2980.0 0.88397 -22.244873
3000.0 0.89481 -61.508315
3020.0 0.908329 -101.486691
3040.0 0.918195 -142.291735
3060.0 0.918411 176.355487
3080.0 0.908455 134.975676
3100.0 0.892643 94.07309
3120.0 0.878297 53.969347
3140.0 0.871588 14.618311
3160.0 0.874484 -24.240618
3180.0 0.886218 -62.998915
3200.0 0.90212 -102.101998
3220.0 0.915414 -141.809047
3240.0 0.919998 177.81391
3260.0 0.912618 136.979598
3280.0 0.896759 96.060418
3300.0 0.879726 55.331907
3320.0 0.868629 14.975321
3340.0 0.868071 -25.013957
3360.0 0.877335 -64.756735
3380.0 0.892415 -104.378788
3400.0 0.906882 -144.042841
3420.0 0.913971 176.220659
3440.0 0.91103 136.448321
3460.0 0.899385 96.659088
3480.0 0.884509 56.857667
3500.0 0.87308 16.918178
3520.0 0.869203 -23.260631
3540.0 0.874429 -63.704363
3560.0 0.885727 -104.370371
3580.0 0.897261 -145.042144
3600.0 0.903637 174.515889
3620.0 0.901532 134.516105
3640.0 0.892701 95.044206
3660.0 0.881534 55.916439
3680.0 0.8727 16.836366
3700.0 0.870281 -22.579222
3720.0 0.874795 -62.63794
3740.0 0.884148 -103.390343
3760.0 0.89351 -144.657241
3780.0 0.897258 174.042284
3800.0 0.893719 133.241673
3820.0 0.884712 93.253178
3840.0 0.874864 54.107457
3860.0 0.868971 15.469555
3880.0 0.86914 -23.141315
3900.0 0.875827 -62.213277
3920.0 0.886062 -102.142603
3940.0 0.894651 -142.977522
3960.0 0.896921 175.553138
3980.0 0.89055 134.005999
4000.0 0.878806 92.97443
4020.0 0.867444 52.739276
4040.0 0.861198 13.297942
4060.0 0.862982 -25.638428
4080.0 0.871702 -64.497826
4100.0 0.884053 -103.647474
4120.0 0.894838 -143.382403
4140.0 0.898263 176.276963
4160.0 0.892407 135.532087
4180.0 0.879323 94.66891
4200.0 0.864937 53.988134
4220.0 0.855843 13.602108
4240.0 0.855249 -26.478595
4260.0 0.863559 -66.312016
4280.0 0.877093 -106.041955
4300.0 0.889826 -145.729631
4320.0 0.896444 174.576557
4340.0 0.89345 134.877441
4360.0 0.882441 95.183029
4380.0 0.86831 55.36186
4400.0 0.856752 15.276502
4420.0 0.852991 -25.205907
4440.0 0.858135 -66.097986
4460.0 0.86982 -107.177342
4480.0 0.88262 -148.138679
4500.0 0.89007 171.398195
4520.0 0.889539 131.68742
4540.0 0.881787 92.692719
4560.0 0.870637 54.15758
4580.0 0.86109 15.57271
4600.0 0.856352 -23.58794
4620.0 0.85859 -63.691707
4640.0 0.866598 -104.843024
4660.0 0.876172 -146.671484
4680.0 0.882651 171.479152
4700.0 0.882487 130.308176
4720.0 0.87668 90.256652
4740.0 0.868716 51.246844
4760.0 0.861929 12.87187
4780.0 0.859468 -25.493178
4800.0 0.861845 -64.491999
4820.0 0.868087 -104.519281
4840.0 0.875339 -145.66444
4860.0 0.879221 172.482995
4880.0 0.877912 130.654471
4900.0 0.872115 89.520832
4920.0 0.865049 49.466929
4940.0 0.860534 10.382167
4960.0 0.859994 -28.150277
4980.0 0.863856 -66.660893
5000.0 0.870236 -105.695137
5020.0 0.875754 -145.534692
5040.0 0.877664 173.805418
5060.0 0.874055 132.622123
5080.0 0.866775 91.412995
5100.0 0.859665 50.550136
5120.0 0.855955 10.242273
5140.0 0.857866 -29.553046
5160.0 0.864256 -69.052369
5180.0 0.872375 -108.449104
5200.0 0.878728 -147.94066
5220.0 0.879679 172.417781
5240.0 0.874802 132.648867
5260.0 0.86577 92.733388
5280.0 0.856343 52.655681
5300.0 0.850963 12.291049
5320.0 0.851605 -28.446418
5340.0 0.858497 -69.506015
5360.0 0.868594 -110.725985
5380.0 0.876977 -151.733239
5400.0 0.880278 167.84129
5420.0 0.876963 128.221029
5440.0 0.869135 89.405009
5460.0 0.86037 51.035966
5480.0 0.853628 12.605096
5500.0 0.851805 -26.471473
5520.0 0.855192 -66.673662
5540.0 0.862313 -108.082783
5560.0 0.869826 -150.35183
5580.0 0.873323 167.33126
5600.0 0.871681 125.859332
5620.0 0.866296 85.724621
5640.0 0.860122 46.934697
5660.0 0.856344 8.988689
5680.0 0.855851 -28.848602
5700.0 0.858936 -67.31031
5720.0 0.864048 -107.006254
5740.0 0.86829 -148.075509
5760.0 0.869639 169.861376
5780.0 0.866951 127.631945
5800.0 0.86221 86.164002
5820.0 0.858471 45.938575
5840.0 0.857266 6.940655
5860.0 0.859466 -31.280364
5880.0 0.863605 -69.415991
5900.0 0.867596 -108.088432
5920.0 0.869386 -147.790799
5940.0 0.866895 171.374763
5960.0 0.861143 129.735102
5980.0 0.854774 87.871496
6000.0 0.851113 46.454201
6020.0 0.852628 5.854721
6040.0 0.858346 -33.900257
6060.0 0.866137 -73.029023
6080.0 0.872638 -111.940439
6100.0 0.874412 -150.954635
6120.0 0.870561 169.698848
6140.0 0.861754 129.927129
6160.0 0.85172 89.803733
6180.0 0.845077 49.389437
6200.0 0.844593 8.803575
6220.0 0.851277 -31.860074
6240.0 0.86213 -72.548002
6260.0 0.872309 -113.11303
6280.0 0.877416 -153.419398
6300.0 0.874642 166.712812
6320.0 0.865769 127.397239
6340.0 0.854602 88.519662
6360.0 0.845458 49.841346
6380.0 0.842214 10.937412
6400.0 0.845571 -28.628355
6420.0 0.85448 -69.128156
6440.0 0.86493 -110.606937
6460.0 0.87137 -152.645555
6480.0 0.870978 165.4592
6500.0 0.864078 124.400602
6520.0 0.854816 84.595234
6540.0 0.847826 45.925976
6560.0 0.845332 7.943784
6580.0 0.848492 -30.016155
6600.0 0.855573 -68.689777
6620.0 0.8634 -108.577207
6640.0 0.868212 -149.848393
6660.0 0.866521 167.920657
6680.0 0.859457 125.625315
6700.0 0.85102 84.152221
6720.0 0.845546 44.065197
6740.0 0.845927 5.330119
6760.0 0.851309 -32.529051
6780.0 0.859628 -70.183027
6800.0 0.867244 -108.401372
6820.0 0.869804 -147.720011
6840.0 0.86538 171.649367
6860.0 0.854657 129.952887
6880.0 0.842868 87.889437
6900.0 0.836335 46.209281
6920.0 0.837908 5.489276
6940.0 0.847277 -34.115266
6960.0 0.860165 -72.885849
6980.0 0.87118 -111.259268
7000.0 0.875902 -149.772538
7020.0 0.871223 171.167328
7040.0 0.858815 131.34902
7060.0 0.843592 90.713725
7080.0 0.832235 49.484182
7100.0 0.830587 8.00525
7120.0 0.839097 -33.317961
7140.0 0.854145 -74.131511
7160.0 0.868953 -114.32224
7180.0 0.876552 -153.864003
7200.0 0.874279 167.143056
7220.0 0.862978 128.485029
7240.0 0.847589 89.91813
7260.0 0.834555 51.071692
7280.0 0.828668 11.646254
7300.0 0.833066 -28.543693
7320.0 0.845942 -69.527305
7340.0 0.861442 -111.02124
7360.0 0.872159 -152.580521
7380.0 0.87221 166.358239
7400.0 0.86245 126.240702
7420.0 0.847991 87.120563
7440.0 0.834937 48.770394
7460.0 0.828687 10.680007
7480.0 0.830873 -27.753048
7500.0 0.840878 -67.032482
7520.0 0.85454 -107.521407
7540.0 0.864766 -149.126531
7560.0 0.866275 168.693061
7580.0 0.85789 126.751577
7600.0 0.844703 85.819563
7620.0 0.833897 46.178443
7640.0 0.829605 7.695609
7660.0 0.833631 -30.077724
7680.0 0.84391 -67.803011
7700.0 0.856181 -106.078889
7720.0 0.865209 -145.428493
7740.0 0.865228 173.966778
7760.0 0.855288 132.362974
7780.0 0.839617 90.304015
7800.0 0.825822 48.517739
7820.0 0.820959 7.533885
7840.0 0.826408 -32.439935
7860.0 0.839771 -71.490434
7880.0 0.855584 -110.030648
7900.0 0.866832 -148.499989
7920.0 0.86886 172.689855
7940.0 0.859589 133.239136
7960.0 0.842502 93.074762
7980.0 0.825193 52.220575
8000.0 0.814974 10.934188
8020.0 0.81689 -30.370779
8040.0 0.829586 -71.30904
8060.0 0.846908 -111.559401
8080.0 0.861375 -151.071531
8100.0 0.866205 170.047984
8120.0 0.859976 131.580442
8140.0 0.845402 93.118117
8160.0 0.82809 54.253456
8180.0 0.815381 14.57111
8200.0 0.812011 -26.136177
8220.0 0.819829 -67.684233
8240.0 0.835282 -109.63088
8260.0 0.850224 -151.300127
8280.0 0.857854 167.885997
8300.0 0.854939 128.184265
8320.0 0.843966 89.531828
8340.0 0.830568 51.457448
8360.0 0.819632 13.353995
8380.0 0.815794 -25.381812
8400.0 0.820351 -65.232392
8420.0 0.831294 -106.267861
8440.0 0.843542 -148.192146
8460.0 0.849806 169.69301
8480.0 0.847075 128.20992
8500.0 0.837341 87.836985
8520.0 0.82562 48.655792
8540.0 0.817785 10.308182
8560.0 0.816522 -27.781508
8580.0 0.822632 -66.157903
8600.0 0.833911 -105.32673
8620.0 0.844912 -145.477042
8640.0 0.850359 173.522339
8660.0 0.846395 132.091467
8680.0 0.834761 90.833781
8700.0 0.821591 50.133616
8720.0 0.812524 10.139126
8740.0 0.811782 -29.235878
8760.0 0.819277 -68.281685
8780.0 0.831726 -107.254691
8800.0 0.844286 -146.443173
8820.0 0.85058 173.982917
8840.0 0.847488 134.004878
8860.0 0.835715 93.614003
8880.0 0.819938 52.903114
8900.0 0.807631 11.940939
8920.0 0.80375 -29.147531
8940.0 0.810232 -70.093827
8960.0 0.82446 -110.686801
8980.0 0.839822 -150.717063
9000.0 0.850379 169.885721
9020.0 0.851632 131.001208
9040.0 0.843467 92.418678
9060.0 0.829705 53.704817
9080.0 0.815158 14.408925
9100.0 0.805981 -25.809508
9120.0 0.805718 -67.058938
9140.0 0.814296 -108.960832
9160.0 0.82798 -150.885645
9180.0 0.839595 167.85249
9200.0 0.844503 127.7215
9220.0 0.841661 88.69186
9240.0 0.832995 50.410341
9260.0 0.823045 12.235044
9280.0 0.815127 -26.540259
9300.0 0.812312 -66.381299
9320.0 0.815664 -107.445548
9340.0 0.822812 -149.314898
9360.0 0.830451 168.800892
9380.0 0.834509 127.671854
9400.0 0.833721 87.783517
9420.0 0.829848 49.029168
9440.0 0.824672 10.923923
9460.0 0.821022 -27.200774
9480.0 0.820092 -66.064961
9500.0 0.821823 -106.07778
9520.0 0.825451 -147.305973
9540.0 0.828028 170.685029
9560.0 0.828101 128.694083
9580.0 0.825657 87.395186
9600.0 0.821935 47.165755
9620.0 0.819771 7.898394
9640.0 0.820171 -30.847234
9660.0 0.823639 -69.543751
9680.0 0.829338 -108.667679
9700.0 0.834347 -148.409966
9720.0 0.83663 171.307101
9740.0 0.834227 130.735939
9760.0 0.827788 90.255311
9780.0 0.820385 50.025976
9800.0 0.814548 10.02769
9820.0 0.813178 -29.902472
9840.0 0.816755 -70.027729
9860.0 0.823691 -110.413889
9880.0 0.831651 -150.999842
9900.0 0.83664 168.45039
9920.0 0.836947 128.256118
9940.0 0.832799 88.514918
9960.0 0.825748 49.159841
9980.0 0.819236 9.868147
10000.0 0.815173 -29.799965
10020.0 0.815217 -70.123547
10040.0 0.819647 -111.208477
10060.0 0.826149 -152.746752
10080.0 0.832592 165.830703
10100.0 0.836208 125.050779
10120.0 0.835997 85.258959
10140.0 0.833125 46.33002
10160.0 0.828305 7.833412
10180.0 0.823584 -30.8024
10200.0 0.820081 -70.193425
10220.0 0.81838 -110.616395
10240.0 0.819431 -151.980354
10260.0 0.822212 166.263428
10280.0 0.826175 124.932222
10300.0 0.830448 84.578415
10320.0 0.833725 45.382822
10340.0 0.836159 7.035523
10360.0 0.836679 -31.103897
10380.0 0.834861 -69.678999
10400.0 0.830713 -109.284258
10420.0 0.824152 -150.098226
10440.0 0.817756 168.182322
10460.0 0.813908 126.212721
10480.0 0.814607 84.813839
10500.0 0.820667 44.419313
10520.0 0.829773 5.008408
10540.0 0.839656 -33.798419
10560.0 0.846976 -72.636312
10580.0 0.848486 -111.990835
10600.0 0.843517 -152.156352
10620.0 0.832789 166.929574
10640.0 0.820795 125.707566
10660.0 0.812659 84.652831
10680.0 0.811056 44.188629
10700.0 0.816952 4.410061
10720.0 0.827449 -34.933431
10740.0 0.838671 -74.180886
10760.0 0.846662 -113.744436
10780.0 0.847467 -153.78395
10800.0 0.841246 165.822292
10820.0 0.830528 125.348062
10840.0 0.819956 85.194902
10860.0 0.814339 45.532768
10880.0 0.814832 6.303707
10900.0 0.821233 -32.750529
10920.0 0.830596 -72.101646
10940.0 0.838459 -112.0755
10960.0 0.841697 -152.818638
10980.0 0.838072 165.866697
11000.0 0.829871 124.517767
11020.0 0.821661 83.614436
11040.0 0.816878 43.49228
11060.0 0.817959 4.119446
11080.0 0.823435 -34.885726
11100.0 0.830487 -73.973248
11120.0 0.835881 -113.653232
11140.0 0.835948 -154.150318
11160.0 0.830893 164.67539
11180.0 0.823154 123.227092
11200.0 0.816989 82.133104
11220.0 0.816438 41.79971
11240.0 0.821287 2.322158
11260.0 0.829769 -36.497307
11280.0 0.83794 -75.168908
11300.0 0.84118 -114.146871
11320.0 0.837578 -153.803818
11340.0 0.826998 165.740397
11360.0 0.814035 124.738452
11380.0 0.805096 83.564857
11400.0 0.80424 42.710233
11420.0 0.813039 2.47072
11440.0 0.827737 -37.2062
11460.0 0.842385 -76.533282
11480.0 0.850948 -115.909454
11500.0 0.848161 -155.593656
11520.0 0.834788 164.361848
11540.0 0.815913 124.016415
11560.0 0.799515 83.647429
11580.0 0.793334 43.479555
11600.0 0.79945 3.66669
11620.0 0.816179 -35.773501
11640.0 0.83718 -75.119772
11660.0 0.853368 -114.629062
11680.0 0.857839 -154.514289
11700.0 0.847079 165.194396
11720.0 0.825632 124.70549
11740.0 0.803126 84.180347
11760.0 0.788326 43.832835
11780.0 0.787404 3.794724
11800.0 0.799724 -35.98608
11820.0 0.820157 -75.620073
11840.0 0.840845 -115.409734
11860.0 0.852106 -155.538258
11880.0 0.849295 164.029874
11900.0 0.833713 123.43905
11920.0 0.812778 82.998008
11940.0 0.796546 42.889356
11960.0 0.790563 3.203837
11980.0 0.796663 -36.043014
12000.0 0.811583 -75.103981
12020.0 0.828186 -114.246816
12040.0 0.839611 -153.779122
12060.0 0.839555 166.123049
12080.0 0.827973 125.576784
12100.0 0.810868 84.752998
12120.0 0.796048 43.964419
12140.0 0.790977 3.496195
12160.0 0.79701 -36.531979
12180.0 0.810788 -76.069804
12200.0 0.826199 -115.338506
12220.0 0.835066 -154.585172
12240.0 0.833311 166.004408
12260.0 0.821047 126.240076
12280.0 0.803525 86.120701
12300.0 0.789622 45.656064
12320.0 0.785222 4.980967
12340.0 0.792912 -35.620064
12360.0 0.809292 -75.99535
12380.0 0.826142 -116.002412
12400.0 0.835991 -155.649349
12420.0 0.833213 164.962815
12440.0 0.818902 125.766391
12460.0 0.799556 86.516189
12480.0 0.78276 47.026065
12500.0 0.776479 7.188044
12520.0 0.783412 -33.020043
12540.0 0.801149 -73.39368
12560.0 0.822675 -113.810634
12580.0 0.837084 -154.111538
12600.0 0.837612 165.878291
12620.0 0.823427 126.169969
12640.0 0.800415 86.733105
12660.0 0.778943 47.320327
12680.0 0.766888 7.676114
12700.0 0.769675 -32.26595
12720.0 0.7868 -72.547714
12740.0 0.811027 -113.022311
12760.0 0.832413 -153.549294
12780.0 0.840124 166.030802
12800.0 0.830621 125.965748
12820.0 0.808985 86.252685
12840.0 0.784155 46.764132
12860.0 0.766807 7.27382
12880.0 0.762893 -32.451535
12900.0 0.77356 -72.375768
12920.0 0.795041 -112.473752
12940.0 0.817455 -152.646659
12960.0 0.831399 167.251075
12980.0 0.830504 127.267064
13000.0 0.815367 87.493143
13020.0 0.794022 47.810297
13040.0 0.774897 8.019543
13060.0 0.765862 -31.938338
13080.0 0.770078 -72.091478
13100.0 0.784556 -112.2482
13120.0 0.803367 -152.271695
13140.0 0.817238 167.857779
13160.0 0.820029 128.177079
13180.0 0.811192 88.509865
13200.0 0.794419 48.672466
13220.0 0.778251 8.47321
13240.0 0.769541 -32.216318
13260.0 0.771973 -73.145864
13280.0 0.784782 -113.975797
13300.0 0.800846 -154.31628
13320.0 0.813103 166.102049
13340.0 0.816069 127.195202
13360.0 0.80853 88.757097
13380.0 0.794978 50.310887
13400.0 0.780518 11.313589
13420.0 0.771855 -28.561213
13440.0 0.773182 -69.426052
13460.0 0.783531 -110.856217
13480.0 0.798618 -152.209457
13500.0 0.810063 167.071231
13520.0 0.812328 127.347939
13540.0 0.805012 88.440787
13560.0 0.790555 49.883959
13580.0 0.775521 11.02343
13600.0 0.765459 -28.825399
13620.0 0.764895 -69.875133
13640.0 0.775612 -111.919969
13660.0 0.792349 -154.224072
13680.0 0.807728 164.144655
13700.0 0.814669 123.738714
13720.0 0.810533 84.738066
13740.0 0.799016 46.761528
13760.0 0.78429 9.104542
13780.0 0.772279 -28.919584
13800.0 0.767734 -67.987097
13820.0 0.772199 -108.293966
13840.0 0.785156 -149.615943
13860.0 0.800064 168.613067
13880.0 0.809694 127.185058
13900.0 0.810083 86.533041
13920.0 0.800884 46.74483
13940.0 0.787537 7.525651
13960.0 0.775344 -31.705607
13980.0 0.769013 -71.31256
14000.0 0.772063 -111.491093
14020.0 0.78271 -152.043314
14040.0 0.79741 167.510418
14060.0 0.810024 127.503114
14080.0 0.815145 88.174547
14100.0 0.812231 49.363973
14120.0 0.802026 10.633036
14140.0 0.788934 -28.472137
14160.0 0.777957 -68.445401
14180.0 0.772502 -109.330366
14200.0 0.775615 -150.785351
14220.0 0.784974 167.7689
14240.0 0.796268 126.997984
14260.0 0.805235 87.081329
14280.0 0.807733 47.857869
14300.0 0.804319 8.865382
14320.0 0.79642 -30.576301
14340.0 0.787278 -70.868064
14360.0 0.78178 -112.156015
14380.0 0.781593 -154.033046
14400.0 0.787402 164.335715
14420.0 0.796263 123.589725
14440.0 0.803588 84.074603
14460.0 0.807621 45.520119
14480.0 0.806283 7.231608
14500.0 0.800663 -31.541275
14520.0 0.793201 -71.600432
14540.0 0.786251 -113.190277
14560.0 0.784354 -155.880127
14580.0 0.788268 161.343074
14600.0 0.796352 119.743767
14620.0 0.80587 79.907215
14640.0 0.812384 41.728018
14660.0 0.814946 4.560879
14680.0 0.812487 -32.646967
14700.0 0.805156 -70.801793
14720.0 0.796032 -110.686374
14740.0 0.787663 -152.469297
14760.0 0.785031 164.569647
