! File created by SignalIntegrity v1.1.13: Signal and Power Integrity Tools
! https://github.com/TeledyneLeCroy/SignalIntegrity
# MHz S MA R 50.0
0.0 0.993397 180.0
20.0 0.99521 140.698194
40.0 1.000539 101.608129
60.0 1.006941 62.819365
80.0 1.011413 24.406772
100.0 1.012556 -13.689549
120.0 1.009593 -51.609561
140.0 1.004108 -89.537919
160.0 0.998113 -127.728972
180.0 0.993502 -166.344195
200.0 0.99201 154.528395
220.0 0.993097 114.966222
240.0 0.99563 75.231242
260.0 0.997575 35.621864
280.0 0.997106 -3.546436
300.0 0.994503 -42.125787
320.0 0.990437 -80.170436
340.0 0.98682 -117.870659
360.0 0.98531 -155.574845
380.0 0.986219 166.403091
400.0 0.989447 127.825214
420.0 0.992725 88.623846
440.0 0.993656 49.011027
460.0 0.990709 9.335472
480.0 0.983655 -29.978403
500.0 0.975114 -68.647388
520.0 0.967778 -106.662749
540.0 0.964102 -144.204057
560.0 0.965577 178.340205
580.0 0.971232 140.565787
600.0 0.979272 102.158957
620.0 0.985948 62.974239
640.0 0.987618 23.203772
660.0 0.983111 -16.753921
680.0 0.973549 -56.404003
700.0 0.963167 -95.366798
720.0 0.955931 -133.576738
740.0 0.954133 -171.181034
760.0 0.958731 151.456676
780.0 0.967785 113.908405
800.0 0.978402 75.832275
820.0 0.986369 37.010756
840.0 0.98762 -2.456894
860.0 0.981433 -42.23772
880.0 0.96979 -81.883452
900.0 0.957608 -120.981094
920.0 0.949592 -159.389022
940.0 0.947878 162.829457
960.0 0.953015 125.405063
980.0 0.962534 87.94761
1000.0 0.972847 50.127568
1020.0 0.979936 11.682183
1040.0 0.980095 -27.409752
1060.0 0.973251 -66.952139
1080.0 0.961912 -106.633177
1100.0 0.950765 -146.075068
1120.0 0.944376 174.945693
1140.0 0.944238 136.509689
1160.0 0.950126 98.543932
1180.0 0.959275 60.810763
1200.0 0.967982 23.076047
1220.0 0.97331 -14.91733
1240.0 0.972773 -53.330916
1260.0 0.966917 -92.186379
1280.0 0.958076 -131.428065
1300.0 0.949585 -170.843221
1320.0 0.945008 149.803211
1340.0 0.945187 110.73405
1360.0 0.949503 72.125171
1380.0 0.955645 33.973611
1400.0 0.960528 -3.800872
1420.0 0.96264 -41.400423
1440.0 0.960962 -79.097013
1460.0 0.956529 -117.12568
1480.0 0.951407 -155.718518
1500.0 0.947332 165.069417
1520.0 0.946196 125.363253
1540.0 0.947657 85.456536
1560.0 0.95039 45.79371
1580.0 0.9528 6.716637
1600.0 0.953141 -31.585177
1620.0 0.95174 -69.160208
1640.0 0.949235 -106.310208
1660.0 0.946859 -143.416879
1680.0 0.946112 179.060382
1700.0 0.946991 140.780901
1720.0 0.949414 101.635051
1740.0 0.951786 61.774032
1760.0 0.952249 21.685136
1780.0 0.950343 -18.073316
1800.0 0.946136 -57.061734
1820.0 0.941555 -95.111436
1840.0 0.9384 -132.427283
1860.0 0.937711 -169.394123
1880.0 0.940422 153.463948
1900.0 0.945412 115.651673
1920.0 0.951061 76.885814
1940.0 0.954725 37.141177
1960.0 0.953789 -3.189222
1980.0 0.94847 -43.481136
2000.0 0.94051 -83.139714
2020.0 0.933274 -121.793785
2040.0 0.929634 -159.49165
2060.0 0.930342 163.458524
2080.0 0.935505 126.574437
2100.0 0.943046 89.31841
2120.0 0.950204 51.313152
2140.0 0.954124 12.358946
2160.0 0.952222 -27.395247
2180.0 0.945266 -67.511358
2200.0 0.935945 -107.466021
2220.0 0.928084 -146.782149
2240.0 0.924975 174.71763
2260.0 0.927015 136.952876
2280.0 0.933568 99.655742
2300.0 0.942154 62.408048
2320.0 0.949523 24.855168
2340.0 0.9532 -13.295916
2360.0 0.951013 -52.150121
2380.0 0.943795 -91.577398
2400.0 0.934296 -131.326378
2420.0 0.92601 -171.013321
2440.0 0.922374 149.678327
2460.0 0.92386 110.927194
2480.0 0.929453 72.782148
2500.0 0.936726 35.081065
2520.0 0.942475 -2.391653
2540.0 0.945076 -39.913123
2560.0 0.943358 -77.76828
2580.0 0.938215 -116.132661
2600.0 0.931863 -155.121367
2620.0 0.926338 165.35874
2640.0 0.923991 125.572917
2660.0 0.924968 85.875957
2680.0 0.928208 46.670161
2700.0 0.932201 8.164766
2720.0 0.934812 -29.618892
2740.0 0.935625 -66.865765
2760.0 0.934476 -103.962075
2780.0 0.931944 -141.308127
2800.0 0.929429 -179.318366
2820.0 0.927383 141.772039
2840.0 0.926691 102.023651
2860.0 0.92704 61.7742
2880.0 0.927476 21.642665
2900.0 0.927714 -17.802379
2920.0 0.927033 -56.23982
2940.0 0.926011 -93.670653
2960.0 0.925269 -130.467495
2980.0 0.92501 -167.146931
3000.0 0.925922 155.684825
3020.0 0.927199 117.508609
3040.0 0.928144 78.115901
3060.0 0.927749 37.66491
3080.0 0.925112 -3.202892
3100.0 0.921381 -43.658336
3120.0 0.917741 -83.060471
3140.0 0.91574 -121.141947
3160.0 0.916395 -158.137262
3180.0 0.919097 165.44902
3200.0 0.923427 128.97526
3220.0 0.927578 91.786603
3240.0 0.929704 53.461671
3260.0 0.928586 13.861013
3280.0 0.923523 -26.685183
3300.0 0.916636 -67.472946
3320.0 0.910602 -107.756056
3340.0 0.907641 -146.975395
3360.0 0.909019 174.969512
3380.0 0.913564 137.814594
3400.0 0.919942 101.092545
3420.0 0.925879 64.212054
3440.0 0.928874 26.711837
3460.0 0.927811 -11.714953
3480.0 0.922176 -51.08738
3500.0 0.914212 -91.091105
3520.0 0.907172 -131.263114
3540.0 0.903528 -171.070013
3560.0 0.904804 149.827726
3580.0 0.909617 111.494554
3600.0 0.915855 73.805807
3620.0 0.921144 36.430088
3640.0 0.923045 -0.966311
3660.0 0.921221 -38.698643
3680.0 0.91593 -77.014889
3700.0 0.909175 -115.968945
3720.0 0.903755 -155.499774
3740.0 0.901266 164.657976
3760.0 0.902794 124.873078
3780.0 0.907034 85.468524
3800.0 0.911816 46.709317
3820.0 0.915461 8.630786
3840.0 0.916256 -28.89054
3860.0 0.914524 -66.105935
3880.0 0.910959 -103.403117
3900.0 0.906769 -141.125183
3920.0 0.903832 -179.589136
3940.0 0.902625 141.077781
3960.0 0.903557 101.039485
3980.0 0.905643 60.68006
4000.0 0.907198 20.593415
4020.0 0.907729 -18.725459
4040.0 0.906743 -57.045469
4060.0 0.905166 -94.420501
4080.0 0.904026 -131.242191
4100.0 0.90356 -168.016371
4120.0 0.904347 154.690621
4140.0 0.905389 116.403002
4160.0 0.905807 76.961955
4180.0 0.904821 36.549041
4200.0 0.901863 -4.214733
4220.0 0.89844 -44.546586
4240.0 0.895837 -83.863949
4260.0 0.895253 -121.927388
4280.0 0.897326 -158.97204
4300.0 0.900953 164.504939
4320.0 0.905316 127.87903
4340.0 0.908445 90.500249
4360.0 0.908508 51.959062
4380.0 0.904959 12.141225
4400.0 0.898175 -28.590524
4420.0 0.891292 -69.485806
4440.0 0.887343 -109.774794
4460.0 0.887804 -148.900951
4480.0 0.892829 173.209007
4500.0 0.900086 136.23568
4520.0 0.90729 99.661571
4540.0 0.911774 62.845055
4560.0 0.911125 25.288728
4580.0 0.905303 -13.319897
4600.0 0.89565 -52.977551
4620.0 0.886284 -93.291836
4640.0 0.881481 -133.695383
4660.0 0.882953 -173.569496
4680.0 0.890326 147.451895
4700.0 0.900122 109.372353
4720.0 0.908594 71.967861
4740.0 0.912814 34.797166
4760.0 0.910651 -2.570636
4780.0 0.903074 -40.499077
4800.0 0.892454 -79.23041
4820.0 0.882946 -118.72108
4840.0 0.878899 -158.734523
4860.0 0.881698 161.176417
4880.0 0.890502 121.486569
4900.0 0.901348 82.469613
4920.0 0.909604 44.231411
4940.0 0.912497 6.620255
4960.0 0.908574 -30.647795
4980.0 0.89966 -67.90672
5000.0 0.888901 -105.555173
5020.0 0.879988 -143.856139
5040.0 0.876795 177.051725
5060.0 0.88026 137.268326
5080.0 0.889211 97.162013
5100.0 0.899719 57.168883
5120.0 0.906844 17.750108
5140.0 0.908303 -20.835663
5160.0 0.903721 -58.600356
5180.0 0.895546 -95.750289
5200.0 0.887157 -132.727065
5220.0 0.881027 -169.989323
5240.0 0.879597 152.040401
5260.0 0.882846 113.083354
5280.0 0.889313 73.195647
5300.0 0.896168 32.692762
5320.0 0.899713 -7.832918
5340.0 0.898981 -47.766751
5360.0 0.894726 -86.753894
5380.0 0.889289 -124.713082
5400.0 0.88552 -161.919771
5420.0 0.884389 161.183014
5440.0 0.886571 124.1058
5460.0 0.890852 86.358914
5480.0 0.894934 47.692114
5500.0 0.896883 8.088691
5520.0 0.894837 -32.134182
5540.0 0.8899 -72.409209
5560.0 0.88458 -112.22492
5580.0 0.881287 -151.218041
5600.0 0.882039 170.642183
5620.0 0.886134 133.116416
5640.0 0.892131 95.854846
5660.0 0.89765 58.403974
5680.0 0.899797 20.438867
5700.0 0.897663 -18.224086
5720.0 0.891355 -57.564741
5740.0 0.883649 -97.293826
5760.0 0.878334 -137.052387
5780.0 0.877565 -176.439086
5800.0 0.882278 144.802875
5820.0 0.890329 106.682818
5840.0 0.898525 69.072481
5860.0 0.903867 31.651142
5880.0 0.903453 -5.911949
5900.0 0.897311 -43.905697
5920.0 0.88711 -82.561426
5940.0 0.876631 -121.881968
5960.0 0.870701 -161.722374
5980.0 0.87166 158.265444
6000.0 0.879715 118.522576
6020.0 0.891493 79.348512
6040.0 0.901925 40.917969
6060.0 0.907327 3.156308
6080.0 0.905188 -34.175529
6100.0 0.896568 -71.39037
6120.0 0.884526 -108.910502
6140.0 0.873043 -147.051804
6160.0 0.866935 173.995542
6180.0 0.868378 134.294507
6200.0 0.877235 94.230477
6220.0 0.890007 54.277723
6240.0 0.900924 14.924616
6260.0 0.906183 -23.562782
6280.0 0.903877 -61.222849
6300.0 0.895459 -98.290386
6320.0 0.884403 -135.235431
6340.0 0.874009 -172.535591
6360.0 0.868259 149.409175
6380.0 0.868936 110.376539
6400.0 0.87582 70.519649
6420.0 0.886302 30.231672
6440.0 0.895248 -9.901963
6460.0 0.899316 -49.353517
6480.0 0.897228 -87.909314
6500.0 0.890405 -125.616789
6520.0 0.882331 -162.837405
6540.0 0.875506 159.951227
6560.0 0.872566 122.313648
6580.0 0.87428 83.90035
6600.0 0.879517 44.683182
6620.0 0.886345 4.881877
6640.0 0.891232 -35.059796
6660.0 0.892485 -74.617102
6680.0 0.890182 -113.491807
6700.0 0.885545 -151.597044
6720.0 0.881246 170.876394
6740.0 0.878467 133.571204
6760.0 0.87813 96.153004
6780.0 0.880131 58.286485
6800.0 0.882832 19.836003
6820.0 0.885173 -19.165917
6840.0 0.885442 -58.541703
6860.0 0.883452 -97.956894
6880.0 0.88047 -137.160172
6900.0 0.877584 -175.96839
6920.0 0.87671 145.659475
6940.0 0.878081 107.598735
6960.0 0.881072 69.723447
6980.0 0.884703 31.829274
7000.0 0.886743 -6.233573
7020.0 0.886452 -44.551371
7040.0 0.883491 -83.210179
7060.0 0.878777 -122.173562
7080.0 0.874725 -161.404162
7100.0 0.872663 159.20987
7120.0 0.87391 119.868008
7140.0 0.877937 80.733138
7160.0 0.882726 42.010403
7180.0 0.886736 3.783048
7200.0 0.887868 -33.992049
7220.0 0.88592 -71.442047
7240.0 0.881665 -108.869817
7260.0 0.876217 -146.563797
7280.0 0.872044 175.198186
7300.0 0.870307 136.263071
7320.0 0.871921 96.757415
7340.0 0.876431 56.968123
7360.0 0.881446 17.364547
7380.0 0.885282 -21.643907
7400.0 0.886061 -59.889455
7420.0 0.883557 -97.40968
7440.0 0.879006 -134.545648
7460.0 0.873404 -171.737491
7480.0 0.869037 150.564493
7500.0 0.867066 111.992925
7520.0 0.868081 72.523213
7540.0 0.871965 32.416798
7560.0 0.876507 -7.757565
7580.0 0.88023 -47.36238
7600.0 0.881772 -86.033372
7620.0 0.880754 -123.689424
7640.0 0.878371 -160.62755
7660.0 0.874996 162.660374
7680.0 0.871908 125.664983
7700.0 0.869761 87.899873
7720.0 0.868649 49.175464
7740.0 0.869163 9.579895
7760.0 0.870365 -30.487341
7780.0 0.871862 -70.424147
7800.0 0.873138 -109.787991
7820.0 0.873397 -148.348301
7840.0 0.873185 173.793963
7860.0 0.872191 136.295047
7880.0 0.870789 98.790423
7900.0 0.869473 60.89231
7920.0 0.867969 22.425854
7940.0 0.867087 -16.57438
7960.0 0.866616 -55.905476
7980.0 0.866636 -95.194952
8000.0 0.867408 -134.18565
8020.0 0.868098 -172.738697
8040.0 0.868855 149.11051
8060.0 0.869007 111.145553
8080.0 0.868101 73.187458
8100.0 0.866551 35.044263
8120.0 0.864105 -3.347879
8140.0 0.861925 -41.923104
8160.0 0.86064 -80.615631
8180.0 0.860475 -119.28926
8200.0 0.86189 -157.91922
8220.0 0.863647 163.457201
8240.0 0.865148 124.802805
8260.0 0.865527 86.025373
8280.0 0.864064 47.167768
8300.0 0.861749 8.312114
8320.0 0.859039 -30.423373
8340.0 0.857289 -68.884252
8360.0 0.857367 -107.075419
8380.0 0.858808 -145.055731
8400.0 0.861538 176.988507
8420.0 0.863921 138.797402
8440.0 0.864818 100.217212
8460.0 0.863665 61.151724
8480.0 0.860039 21.746535
8500.0 0.855755 -17.693131
8520.0 0.852292 -56.848924
8540.0 0.851138 -95.419822
8560.0 0.853248 -133.374425
8580.0 0.857402 -170.8666
8600.0 0.862604 151.797797
8620.0 0.866577 114.195459
8640.0 0.867277 76.046146
8660.0 0.864281 37.187696
8680.0 0.857779 -2.264612
8700.0 0.85071 -41.938384
8720.0 0.845972 -81.428571
8740.0 0.84525 -120.338824
8760.0 0.849222 -158.550317
8780.0 0.855674 163.797455
8800.0 0.862346 126.415313
8820.0 0.866516 88.856411
8840.0 0.86575 50.792013
8860.0 0.860265 12.013282
8880.0 0.851293 -27.463047
8900.0 0.842608 -67.320884
8920.0 0.838066 -107.172463
8940.0 0.839157 -146.584877
8960.0 0.845989 174.675569
8980.0 0.855539 136.558659
9000.0 0.864312 98.881858
9020.0 0.86929 61.289386
9040.0 0.867847 23.494462
9060.0 0.860755 -14.69124
9080.0 0.850224 -53.362825
9100.0 0.840316 -92.397282
9120.0 0.835382 -131.641515
9140.0 0.836791 -170.875913
9160.0 0.844313 150.081371
9180.0 0.854593 111.243675
9200.0 0.863197 72.612797
9220.0 0.867109 34.089225
9240.0 0.86427 -4.398753
9260.0 0.856423 -42.855355
9280.0 0.846887 -81.331246
9300.0 0.839232 -119.78307
9320.0 0.836922 -158.213802
9340.0 0.840123 163.357412
9360.0 0.847669 124.93697
9380.0 0.856459 86.429179
9400.0 0.862353 47.823332
9420.0 0.863365 9.120843
9440.0 0.858614 -29.642626
9460.0 0.850433 -68.339928
9480.0 0.842617 -106.942235
9500.0 0.837929 -145.4087
9520.0 0.838767 176.220339
9540.0 0.84427 137.80378
9560.0 0.85208 99.249755
9580.0 0.859046 60.417479
9600.0 0.861382 21.312794
9620.0 0.858503 -17.929237
9640.0 0.851629 -57.136611
9660.0 0.844099 -96.043816
9680.0 0.839966 -134.528822
9700.0 0.840545 -172.565894
9720.0 0.846097 149.756747
9740.0 0.854191 112.164271
9760.0 0.861141 74.412575
9780.0 0.864164 36.220874
9800.0 0.860732 -2.566104
9820.0 0.852125 -41.897432
9840.0 0.841841 -81.623652
9860.0 0.834159 -121.386103
9880.0 0.833197 -160.845702
9900.0 0.83901 160.22819
9920.0 0.849637 121.933678
9940.0 0.86112 84.077767
9960.0 0.868458 46.403734
9980.0 0.869093 8.586625
10000.0 0.861823 -29.677096
10020.0 0.84938 -68.504581
10040.0 0.837137 -107.931763
10060.0 0.830027 -147.739317
10080.0 0.832087 172.43483
10100.0 0.842413 132.925676
10120.0 0.856799 94.02153
10140.0 0.869755 55.728542
10160.0 0.875404 17.920976
10180.0 0.871955 -19.624061
10200.0 0.860372 -57.248768
10220.0 0.844842 -95.204455
10240.0 0.831865 -133.727524
10260.0 0.826175 -172.843175
10280.0 0.831049 147.679948
10300.0 0.844941 108.145925
10320.0 0.862191 68.944273
10340.0 0.876429 30.27578
10360.0 0.881416 -7.8293
10380.0 0.875734 -45.462058
10400.0 0.861724 -82.943226
10420.0 0.844107 -120.595676
10440.0 0.829846 -158.765139
10460.0 0.823758 162.337159
10480.0 0.828897 122.80578
10500.0 0.843997 82.871237
10520.0 0.862753 42.956552
10540.0 0.878145 3.43943
10560.0 0.883726 -35.466461
10580.0 0.878171 -73.667649
10600.0 0.864955 -111.374771
10620.0 0.848921 -148.907562
10640.0 0.836452 173.363892
10660.0 0.831358 135.094332
10680.0 0.835187 96.213557
10700.0 0.846696 56.784682
10720.0 0.860375 17.09418
10740.0 0.870903 -22.467885
10760.0 0.873913 -61.618473
10780.0 0.868759 -100.134974
10800.0 0.859036 -138.068137
10820.0 0.848398 -175.623212
10840.0 0.841284 146.953712
10860.0 0.839937 109.335606
10880.0 0.84415 71.355253
10900.0 0.852569 32.883793
10920.0 0.860795 -6.087942
10940.0 0.865381 -45.397392
10960.0 0.864303 -84.890366
10980.0 0.85786 -124.314714
11000.0 0.849989 -163.508855
11020.0 0.843856 157.583984
11040.0 0.842237 119.021322
11060.0 0.845805 80.703603
11080.0 0.852155 42.553408
11100.0 0.858964 4.43977
11120.0 0.862609 -33.826967
11140.0 0.861356 -72.333546
11160.0 0.856038 -111.211327
11180.0 0.848456 -150.451158
11200.0 0.842818 170.080129
11220.0 0.841558 130.574405
11240.0 0.845218 91.382802
11260.0 0.852681 52.723814
11280.0 0.859973 14.694993
11300.0 0.864452 -22.772519
11320.0 0.863906 -60.00663
11340.0 0.857875 -97.352453
11360.0 0.848871 -135.24933
11380.0 0.839519 -174.017369
11400.0 0.834272 146.318351
11420.0 0.835853 105.987755
11440.0 0.84368 65.607926
11460.0 0.855164 25.80439
11480.0 0.864767 -13.01651
11500.0 0.868894 -50.727221
11520.0 0.866301 -87.636331
11540.0 0.857413 -124.208902
11560.0 0.845951 -161.049569
11580.0 0.835255 161.250066
11600.0 0.829612 122.414233
11620.0 0.83204 82.472342
11640.0 0.841486 41.977674
11660.0 0.854752 1.718226
11680.0 0.865696 -37.676953
11700.0 0.86994 -75.86425
11720.0 0.866717 -113.036377
11740.0 0.856663 -149.680227
11760.0 0.843622 173.558181
11780.0 0.831217 135.972015
11800.0 0.82347 97.178273
11820.0 0.824176 57.127179
11840.0 0.832909 16.313475
11860.0 0.84681 -24.399179
11880.0 0.859911 -64.280318
11900.0 0.8668 -102.872965
11920.0 0.866235 -140.253346
11940.0 0.858373 -176.864655
11960.0 0.846463 146.717029
11980.0 0.834171 109.792578
12000.0 0.824736 71.911688
12020.0 0.822002 32.883676
12040.0 0.826313 -7.079858
12060.0 0.836175 -47.348493
12080.0 0.847567 -87.310218
12100.0 0.855301 -126.470279
12120.0 0.857516 -164.713257
12140.0 0.853429 157.707492
12160.0 0.844885 120.440622
12180.0 0.835099 82.996008
12200.0 0.8264 45.060482
12220.0 0.822253 6.520793
12240.0 0.823503 -32.565578
12260.0 0.829449 -71.869217
12280.0 0.838101 -111.129749
12300.0 0.845227 -150.130114
12320.0 0.848729 171.218583
12340.0 0.847152 132.79694
12360.0 0.841001 94.533629
12380.0 0.833265 56.283726
12400.0 0.825938 17.989275
12420.0 0.821994 -20.287554
12440.0 0.822393 -58.546523
12460.0 0.826207 -96.70166
12480.0 0.832488 -134.813694
12500.0 0.838069 -173.018963
12520.0 0.841261 148.583175
12540.0 0.840875 109.836673
12560.0 0.836475 70.811457
12580.0 0.830491 31.675971
12600.0 0.824515 -7.32836
12620.0 0.820854 -45.890496
12640.0 0.820736 -83.953944
12660.0 0.823089 -121.583225
12680.0 0.827493 -159.063508
12700.0 0.831514 163.165221
12720.0 0.833513 124.79893
12740.0 0.832872 85.610453
12760.0 0.829048 45.75567
12780.0 0.824535 5.700016
12800.0 0.821073 -34.01582
12820.0 0.819968 -72.855408
12840.0 0.821904 -110.7027
12860.0 0.82484 -147.757534
12880.0 0.82786 175.541781
12900.0 0.829124 138.53853
12920.0 0.82741 100.738217
12940.0 0.82363 61.780487
12960.0 0.818414 21.738344
12980.0 0.814813 -18.804917
13000.0 0.814703 -59.095717
13020.0 0.817816 -98.36892
13040.0 0.823539 -136.345437
13060.0 0.828731 -173.242697
13080.0 0.831602 150.4453
13100.0 0.830656 113.936534
13120.0 0.824685 76.579045
13140.0 0.815763 37.88496
13160.0 0.806293 -2.23229
13180.0 0.800878 -43.215091
13200.0 0.802797 -84.210102
13220.0 0.810851 -124.280573
13240.0 0.822507 -162.940268
13260.0 0.83271 159.679273
13280.0 0.837741 123.160574
13300.0 0.836114 86.786804
13320.0 0.827007 49.914705
13340.0 0.813873 12.06413
13360.0 0.800973 -27.008593
13380.0 0.793688 -66.983622
13400.0 0.796211 -107.255126
13420.0 0.806957 -147.057144
13440.0 0.822171 174.148924
13460.0 0.835599 136.356003
13480.0 0.841804 99.309208
13500.0 0.839029 62.454515
13520.0 0.826723 25.213194
13540.0 0.809141 -12.841169
13560.0 0.792304 -52.017695
13580.0 0.78247 -92.134545
13600.0 0.784953 -132.712393
13620.0 0.798302 -173.112862
13640.0 0.817423 147.235766
13660.0 0.834736 108.443605
13680.0 0.84289 70.442218
13700.0 0.840056 32.961091
13720.0 0.827076 -4.373423
13740.0 0.80932 -41.80973
13760.0 0.793888 -79.643581
13780.0 0.785791 -117.92128
13800.0 0.789077 -156.546451
13820.0 0.80201 164.592964
13840.0 0.819564 125.707334
13860.0 0.835023 86.793999
13880.0 0.840834 47.876672
13900.0 0.835232 8.986362
13920.0 0.820317 -29.928164
13940.0 0.802371 -68.775056
13960.0 0.789532 -107.547613
13980.0 0.785922 -146.154188
14000.0 0.793671 175.539262
14020.0 0.809834 137.454837
14040.0 0.828142 99.535247
14060.0 0.842498 61.558145
14080.0 0.846143 23.358035
14100.0 0.838065 -15.058398
14120.0 0.821688 -53.717671
14140.0 0.803402 -92.45753
14160.0 0.791533 -131.165473
14180.0 0.789557 -169.754015
14200.0 0.798176 151.890545
14220.0 0.813841 113.598721
14240.0 0.829327 75.210217
14260.0 0.838984 36.494402
14280.0 0.837649 -2.720383
14300.0 0.826173 -42.315566
14320.0 0.810605 -82.147994
14340.0 0.797584 -121.862659
14360.0 0.793936 -161.092725
14380.0 0.800491 160.327358
14400.0 0.814377 122.471828
14420.0 0.830803 85.011446
14440.0 0.842216 47.521005
14460.0 0.84442 9.573138
14480.0 0.835183 -29.24648
14500.0 0.817579 -68.967985
14520.0 0.800299 -109.426686
14540.0 0.790732 -150.0924
14560.0 0.794399 169.788556
14580.0 0.809855 130.669162
14600.0 0.83036 92.749965
14620.0 0.849172 55.737199
14640.0 0.858283 19.103931
14660.0 0.854589 -17.649323
14680.0 0.838939 -55.130408
14700.0 0.816181 -93.665019
14720.0 0.796578 -133.36892
14740.0 0.788031 -173.943275
