! File created by SignalIntegrity v1.1.13: Signal and Power Integrity Tools
! https://github.com/TeledyneLeCroy/SignalIntegrity
# MHz S MA R 50.0
0.0 0.996072 180.0
20.0 1.000468 139.441262
40.0 1.012318 98.80594
60.0 1.025823 58.025615
80.0 1.033842 17.230818
100.0 1.032562 -23.386989
120.0 1.022183 -63.656569
140.0 1.008019 -103.532589
160.0 0.99646 -143.219295
180.0 0.992008 176.996944
200.0 0.99669 136.793732
220.0 1.007527 95.968412
240.0 1.018649 54.607558
260.0 1.023445 13.028104
280.0 1.018157 -28.255675
300.0 1.005648 -68.835776
320.0 0.991801 -108.644077
340.0 0.98286 -147.900146
360.0 0.983 172.901188
380.0 0.991949 133.233176
400.0 1.006328 92.708288
420.0 1.018644 51.212032
440.0 1.020912 9.120298
460.0 1.010605 -32.898685
480.0 0.991621 -74.193101
500.0 0.972724 -114.435743
520.0 0.961429 -153.793163
540.0 0.961115 167.304902
560.0 0.972045 128.276245
580.0 0.989708 88.568713
600.0 1.006717 47.909343
620.0 1.01468 6.372194
640.0 1.008382 -35.515908
660.0 0.991241 -77.0654
680.0 0.971693 -117.820563
700.0 0.958307 -157.662702
720.0 0.956343 163.135694
740.0 0.965623 124.116808
760.0 0.982788 84.798962
780.0 1.00077 44.765807
800.0 1.011013 3.924892
820.0 1.008418 -37.508371
840.0 0.993587 -79.092146
860.0 0.974046 -120.36568
880.0 0.958819 -161.130936
900.0 0.953315 158.615252
920.0 0.959024 118.701249
940.0 0.972148 78.866278
960.0 0.98631 38.941438
980.0 0.995032 -1.179249
1000.0 0.993793 -41.447405
1020.0 0.983902 -81.757365
1040.0 0.970312 -122.097466
1060.0 0.95932 -162.49253
1080.0 0.956039 156.945351
1100.0 0.960943 116.153058
1120.0 0.971255 75.203937
1140.0 0.981253 34.245804
1160.0 0.985201 -6.44247
1180.0 0.981619 -46.645921
1200.0 0.972376 -86.337889
1220.0 0.962422 -125.679002
1240.0 0.956763 -165.066496
1260.0 0.957758 155.092144
1280.0 0.965548 114.493878
1300.0 0.975933 73.070227
1320.0 0.982731 31.165519
1340.0 0.981522 -10.641066
1360.0 0.971788 -51.738133
1380.0 0.958544 -91.789236
1400.0 0.947779 -130.925925
1420.0 0.943852 -169.560233
1440.0 0.949142 151.689069
1460.0 0.961789 112.215935
1480.0 0.977149 71.655962
1500.0 0.987751 29.99253
1520.0 0.986806 -12.250807
1540.0 0.974395 -54.273397
1560.0 0.956373 -95.413378
1580.0 0.941142 -135.389767
1600.0 0.934912 -174.427826
1620.0 0.939166 146.985282
1640.0 0.952601 108.256241
1660.0 0.969911 68.81532
1680.0 0.983533 28.385616
1700.0 0.98677 -12.981252
1720.0 0.976802 -54.849553
1740.0 0.95868 -96.614214
1760.0 0.941171 -137.860092
1780.0 0.931536 -178.405906
1800.0 0.933463 141.641231
1820.0 0.945028 102.005988
1840.0 0.961265 62.417708
1860.0 0.975356 22.620204
1880.0 0.980701 -17.45515
1900.0 0.97546 -57.754609
1920.0 0.962144 -98.209713
1940.0 0.947152 -138.74542
1960.0 0.93746 -179.397721
1980.0 0.936484 139.819489
2000.0 0.944324 98.962013
2020.0 0.956502 58.123863
2040.0 0.966491 17.523957
2060.0 0.969746 -22.658239
2080.0 0.964663 -62.347317
2100.0 0.954414 -101.632983
2120.0 0.944015 -140.86429
2140.0 0.93779 179.549488
2160.0 0.938859 139.220828
2180.0 0.946153 97.971778
2200.0 0.955624 56.034696
2220.0 0.961708 13.946096
2240.0 0.960201 -27.578878
2260.0 0.952375 -68.02376
2280.0 0.942279 -107.342691
2300.0 0.934652 -145.861422
2320.0 0.933301 175.773651
2340.0 0.93874 136.859509
2360.0 0.949524 96.844248
2380.0 0.9607 55.476784
2400.0 0.965678 13.097188
2420.0 0.961162 -29.500171
2440.0 0.948703 -71.411496
2460.0 0.93479 -112.045519
2480.0 0.925785 -151.41989
2500.0 0.924687 170.051966
2520.0 0.932331 131.714506
2540.0 0.945764 92.860061
2560.0 0.959831 53.002068
2580.0 0.968138 11.951315
2600.0 0.965283 -29.981019
2620.0 0.95237 -72.127168
2640.0 0.935544 -113.835865
2660.0 0.922468 -154.680065
2680.0 0.918659 165.349067
2700.0 0.924495 125.980374
2720.0 0.937468 86.835526
2740.0 0.952159 47.494643
2760.0 0.961948 7.733456
2780.0 0.96278 -32.504326
2800.0 0.953861 -73.128187
2820.0 0.939609 -113.956905
2840.0 0.926762 -154.909865
2860.0 0.920394 164.083478
2880.0 0.923107 123.081014
2900.0 0.932619 82.147953
2920.0 0.943839 41.462502
2940.0 0.95158 1.176224
2960.0 0.952071 -38.58989
2980.0 0.946128 -77.849554
3000.0 0.936915 -116.870727
3020.0 0.928435 -156.031159
3040.0 0.924601 164.200733
3060.0 0.926308 123.483981
3080.0 0.932414 81.819546
3100.0 0.939062 39.567539
3120.0 0.941643 -2.535571
3140.0 0.939024 -43.763442
3160.0 0.932649 -83.75144
3180.0 0.926123 -122.568076
3200.0 0.922915 -160.74054
3220.0 0.924222 161.020739
3240.0 0.930228 121.985668
3260.0 0.938104 81.583626
3280.0 0.943311 39.749538
3300.0 0.942171 -3.022101
3320.0 0.933812 -45.764013
3340.0 0.922638 -87.511758
3360.0 0.914146 -127.835939
3380.0 0.9117 -166.84355
3400.0 0.916695 154.901376
3420.0 0.926983 116.632456
3440.0 0.938876 77.660863
3460.0 0.947156 37.480607
3480.0 0.94659 -3.931953
3500.0 0.936751 -46.128079
3520.0 0.921768 -88.396913
3540.0 0.908858 -130.037878
3560.0 0.903915 -170.742775
3580.0 0.907963 149.432164
3600.0 0.919219 110.165366
3620.0 0.932765 70.980049
3640.0 0.942618 31.528774
3660.0 0.944626 -8.397343
3680.0 0.937144 -48.795335
3700.0 0.923775 -89.501798
3720.0 0.910648 -130.391561
3740.0 0.903167 -171.328332
3760.0 0.904712 147.749528
3780.0 0.913762 106.863465
3800.0 0.925919 66.104295
3820.0 0.935555 25.552443
3840.0 0.937832 -14.636971
3860.0 0.932619 -54.360309
3880.0 0.922664 -93.706281
3900.0 0.912584 -132.893341
3920.0 0.907022 -172.330351
3940.0 0.907692 147.581626
3960.0 0.914365 106.608124
3980.0 0.923253 64.770558
4000.0 0.928857 22.539308
4020.0 0.928143 -19.391966
4040.0 0.92126 -60.39906
4060.0 0.912358 -100.187573
4080.0 0.906003 -138.984526
4100.0 0.904571 -177.313198
4120.0 0.909133 144.121918
4140.0 0.917408 104.621731
4160.0 0.92537 63.798184
4180.0 0.928373 21.686718
4200.0 0.923284 -21.07372
4220.0 0.91277 -63.51951
4240.0 0.902313 -104.890393
4260.0 0.896867 -144.867251
4280.0 0.899064 176.299435
4300.0 0.90748 138.018058
4320.0 0.919163 99.596222
4340.0 0.929179 60.354327
4360.0 0.932025 19.945215
4380.0 0.925529 -21.582365
4400.0 0.911645 -63.767059
4420.0 0.897318 -105.892697
4440.0 0.88973 -147.40213
4460.0 0.891711 171.989376
4480.0 0.902549 132.201888
4500.0 0.917338 92.856843
4520.0 0.929705 53.555676
4540.0 0.934257 13.931868
4560.0 0.927846 -26.172653
4580.0 0.913283 -66.723362
4600.0 0.897027 -107.637416
4620.0 0.886302 -148.735592
4640.0 0.886378 170.119684
4660.0 0.896769 129.038797
4680.0 0.912981 88.13381
4700.0 0.927588 47.44167
4720.0 0.933354 7.076889
4740.0 0.928277 -32.865356
4760.0 0.914829 -72.410403
4780.0 0.899318 -111.692159
4800.0 0.888552 -151.049511
4820.0 0.886371 169.170456
4840.0 0.894118 128.700857
4860.0 0.908234 87.423042
4880.0 0.921753 45.567764
4900.0 0.927925 3.603692
4920.0 0.923219 -37.869568
4940.0 0.910982 -78.397957
4960.0 0.897588 -117.962411
4980.0 0.888525 -156.846075
5000.0 0.887603 164.417197
5020.0 0.894506 125.224753
5040.0 0.906443 85.132255
5060.0 0.917897 43.916454
5080.0 0.922201 1.841248
5100.0 0.917165 -40.440595
5120.0 0.905509 -82.207789
5140.0 0.893696 -122.942007
5160.0 0.887756 -162.614458
5180.0 0.889509 158.456985
5200.0 0.898326 119.753739
5220.0 0.910135 80.652891
5240.0 0.918995 40.72536
5260.0 0.920084 -0.213338
5280.0 0.911274 -41.970339
5300.0 0.896909 -84.037303
5320.0 0.884611 -125.907576
5340.0 0.880392 -167.1656
5360.0 0.886861 152.328366
5380.0 0.900952 112.436393
5400.0 0.916738 72.917653
5420.0 0.927458 33.440493
5440.0 0.927361 -6.205298
5460.0 0.916287 -46.122543
5480.0 0.898594 -86.398051
5500.0 0.881978 -127.032349
5520.0 0.874257 -168.036567
5540.0 0.878607 150.683471
5560.0 0.893758 109.329914
5580.0 0.912967 68.081633
5600.0 0.92697 27.188463
5620.0 0.929713 -13.160254
5640.0 0.919942 -52.895059
5660.0 0.90272 -92.099627
5680.0 0.885669 -131.131287
5700.0 0.875123 -170.403218
5720.0 0.875781 149.69696
5740.0 0.887376 108.924477
5760.0 0.905188 67.369573
5780.0 0.921045 25.371307
5800.0 0.926449 -16.467828
5820.0 0.919618 -57.550627
5840.0 0.904841 -97.635386
5860.0 0.88928 -136.829327
5880.0 0.879813 -175.59644
5900.0 0.879348 145.476503
5920.0 0.88816 105.885418
5940.0 0.902493 65.260355
5960.0 0.915107 23.638377
5980.0 0.919646 -18.564201
6000.0 0.913298 -60.687685
6020.0 0.900113 -102.09197
6040.0 0.887488 -142.547475
6060.0 0.880726 177.839402
6080.0 0.882749 138.72128
6100.0 0.892056 99.617355
6120.0 0.904327 60.163517
6140.0 0.914101 20.096694
6160.0 0.915689 -20.588116
6180.0 0.908219 -61.661742
6200.0 0.895315 -102.869553
6220.0 0.883286 -143.946851
6240.0 0.878479 175.216975
6260.0 0.882683 134.627662
6280.0 0.894173 94.276626
6300.0 0.907755 54.063841
6320.0 0.916439 13.966519
6340.0 0.916245 -26.020988
6360.0 0.906625 -65.948306
6380.0 0.891931 -105.880161
6400.0 0.879107 -146.027721
6420.0 0.873532 173.436935
6440.0 0.878575 132.467658
6460.0 0.892308 91.149887
6480.0 0.90839 49.811699
6500.0 0.919458 8.819366
6520.0 0.919713 -31.502298
6540.0 0.909702 -71.007278
6560.0 0.894265 -109.923497
6580.0 0.879493 -148.67969
6600.0 0.871639 172.149506
6620.0 0.873474 132.056924
6640.0 0.884828 90.865138
6660.0 0.90107 48.732967
6680.0 0.913735 6.277046
6700.0 0.916866 -35.70601
6720.0 0.909372 -76.642337
6740.0 0.895785 -116.351294
6760.0 0.882857 -155.175987
6780.0 0.875006 166.293196
6800.0 0.875269 127.440356
6820.0 0.883227 87.729495
6840.0 0.89522 46.992736
6860.0 0.905927 5.407956
6880.0 0.909269 -36.490275
6900.0 0.903937 -78.020605
6920.0 0.893269 -118.790604
6940.0 0.88228 -158.740529
6960.0 0.87617 161.842261
6980.0 0.876697 122.49292
7000.0 0.883301 82.840928
7020.0 0.893075 42.613383
7040.0 0.900712 1.830273
7060.0 0.902744 -39.25161
7080.0 0.898048 -80.32606
7100.0 0.889234 -121.107573
7120.0 0.881353 -161.566702
7140.0 0.877673 158.170247
7160.0 0.880093 117.954655
7180.0 0.887249 77.635088
7200.0 0.895161 37.263749
7220.0 0.900225 -3.018261
7240.0 0.899392 -43.049001
7260.0 0.893326 -82.716496
7280.0 0.885208 -122.177521
7300.0 0.87835 -161.71624
7320.0 0.87636 158.305019
7340.0 0.879865 117.59353
7360.0 0.88724 76.191013
7380.0 0.89497 34.407488
7400.0 0.898252 -7.176683
7420.0 0.895657 -47.989488
7440.0 0.888441 -87.814579
7460.0 0.879773 -126.773318
7480.0 0.873757 -165.369699
7500.0 0.872239 155.741349
7520.0 0.876251 115.998657
7540.0 0.884273 75.039717
7560.0 0.892128 33.031126
7580.0 0.896043 -9.397561
7600.0 0.893445 -51.401506
7620.0 0.886016 -92.276712
7640.0 0.877871 -131.88836
7660.0 0.872018 -170.546319
7680.0 0.871105 151.147918
7700.0 0.875043 112.474547
7720.0 0.882084 72.931767
7740.0 0.889435 32.280791
7760.0 0.892819 -9.245555
7780.0 0.890762 -51.024055
7800.0 0.88436 -92.423984
7820.0 0.876706 -133.007315
7840.0 0.871784 -172.789668
7860.0 0.870824 147.879
7880.0 0.873891 108.565285
7900.0 0.87923 68.82304
7920.0 0.883506 28.490539
7940.0 0.88484 -12.327625
7960.0 0.882072 -53.337262
7980.0 0.876767 -94.145468
8000.0 0.872036 -134.593092
8020.0 0.869641 -174.719753
8040.0 0.871021 145.264158
8060.0 0.875073 105.052119
8080.0 0.879363 64.529309
8100.0 0.881813 23.739167
8120.0 0.880278 -17.054499
8140.0 0.875672 -57.488998
8160.0 0.870242 -97.407212
8180.0 0.866186 -136.836523
8200.0 0.865845 -176.088846
8220.0 0.868863 144.374091
8240.0 0.873971 104.189295
8260.0 0.878632 63.148112
8280.0 0.879504 21.473606
8300.0 0.876163 -20.280047
8320.0 0.869885 -61.50839
8340.0 0.863843 -101.764015
8360.0 0.861345 -141.078389
8380.0 0.862967 -179.832264
8400.0 0.86852 141.393235
8420.0 0.875401 101.937011
8440.0 0.879825 61.431685
8460.0 0.879272 19.875612
8480.0 0.872671 -22.243333
8500.0 0.863389 -64.115347
8520.0 0.856207 -105.115956
8540.0 0.854067 -144.965718
8560.0 0.858377 176.125195
8580.0 0.866954 137.589479
8600.0 0.876441 98.811243
8620.0 0.882834 59.193422
8640.0 0.881944 18.489748
8660.0 0.873753 -23.127277
8680.0 0.861507 -65.168039
8700.0 0.851034 -106.943121
8720.0 0.847636 -148.00083
8740.0 0.851995 171.782639
8760.0 0.862434 132.227075
8780.0 0.874515 92.884146
8800.0 0.882702 53.385795
8820.0 0.88364 13.484755
8840.0 0.876004 -26.838545
8860.0 0.863371 -67.366007
8880.0 0.851676 -107.910059
8900.0 0.845575 -148.295995
8920.0 0.848032 171.487665
8940.0 0.857323 131.273756
8960.0 0.869139 90.913785
8980.0 0.878121 50.257695
9000.0 0.879087 9.382792
9020.0 0.871955 -31.444221
9040.0 0.860275 -71.980644
9060.0 0.84965 -112.030277
9080.0 0.845426 -151.669106
9100.0 0.848763 168.838822
9120.0 0.858505 129.157438
9140.0 0.870246 88.888546
9160.0 0.877693 47.896378
9180.0 0.877036 6.321863
9200.0 0.867708 -35.420961
9220.0 0.854703 -76.767465
9240.0 0.84488 -117.401302
9260.0 0.842172 -157.255863
9280.0 0.848113 163.435409
9300.0 0.85979 124.185224
9320.0 0.871996 84.546194
9340.0 0.879159 44.140264
9360.0 0.876332 2.932564
9380.0 0.864624 -38.734673
9400.0 0.849763 -80.379965
9420.0 0.839008 -121.469613
9440.0 0.838059 -161.74623
9460.0 0.846883 158.729739
9480.0 0.862304 119.678207
9500.0 0.878267 80.585448
9520.0 0.887163 41.048133
9540.0 0.884663 0.838414
9560.0 0.870501 -40.035011
9580.0 0.851062 -81.277257
9600.0 0.835903 -122.577976
9620.0 0.831496 -163.596898
9640.0 0.84036 155.883198
9660.0 0.858574 115.802094
9680.0 0.878301 76.002779
9700.0 0.891331 36.20708
9720.0 0.890751 -3.7656
9740.0 0.876748 -43.948935
9760.0 0.855466 -84.406029
9780.0 0.835974 -125.112266
9800.0 0.827283 -166.05195
9820.0 0.832542 152.840264
9840.0 0.849734 111.729267
9860.0 0.871575 70.673909
9880.0 0.887578 29.799278
9900.0 0.89106 -10.745399
9920.0 0.880772 -50.876581
9940.0 0.862314 -90.555556
9960.0 0.844718 -129.992091
9980.0 0.834654 -169.463843
10000.0 0.836571 150.7737
10020.0 0.849564 110.457814
10040.0 0.867866 69.534661
10060.0 0.883363 28.070181
10080.0 0.887469 -13.63922
10100.0 0.87852 -55.119948
10120.0 0.861791 -96.073784
10140.0 0.845304 -136.373107
10160.0 0.836947 -176.14918
10180.0 0.83937 144.296129
10200.0 0.851341 104.697308
10220.0 0.867929 64.734645
10240.0 0.880822 24.280243
10260.0 0.884125 -16.580106
10280.0 0.875938 -57.637047
10300.0 0.860755 -98.553583
10320.0 0.847122 -139.164438
10340.0 0.841052 -179.42348
10360.0 0.845665 140.638025
10380.0 0.858732 100.814167
10400.0 0.873763 60.944412
10420.0 0.883874 20.846064
10440.0 0.882807 -19.579035
10460.0 0.870615 -60.273816
10480.0 0.853231 -101.23715
10500.0 0.838755 -142.382506
10520.0 0.83529 176.414839
10540.0 0.845022 135.299982
10560.0 0.864596 94.506948
10580.0 0.88638 54.106058
10600.0 0.900105 14.127908
10620.0 0.900033 -25.440861
10640.0 0.885907 -64.781862
10660.0 0.8634 -104.120397
10680.0 0.842226 -143.837071
10700.0 0.830268 175.761261
10720.0 0.833212 134.653104
10740.0 0.850498 93.009278
10760.0 0.874297 51.275823
10780.0 0.89408 9.896219
10800.0 0.90004 -30.810917
10820.0 0.890296 -70.683578
10840.0 0.870486 -109.97492
10860.0 0.848628 -149.150909
10880.0 0.833938 171.241618
10900.0 0.831834 130.750199
10920.0 0.843438 89.36287
10940.0 0.864571 47.36729
10960.0 0.884766 5.356509
10980.0 0.89503 -35.994297
11000.0 0.891696 -76.316771
11020.0 0.877764 -115.561631
11040.0 0.861023 -154.126681
11060.0 0.847561 167.363166
11080.0 0.842342 128.356997
11100.0 0.847034 88.391243
11120.0 0.858667 47.398242
11140.0 0.872048 5.633867
11160.0 0.879644 -36.409901
11180.0 0.877807 -78.101104
11200.0 0.868854 -119.110729
11220.0 0.857485 -159.400927
11240.0 0.84999 160.822471
11260.0 0.84945 121.183497
11280.0 0.85566 81.45844
11300.0 0.866158 41.47427
11320.0 0.874919 1.215581
11340.0 0.87759 -39.18147
11360.0 0.872474 -79.664945
11380.0 0.861499 -120.176175
11400.0 0.850764 -160.802709
11420.0 0.845092 158.327731
11440.0 0.847834 117.276547
11460.0 0.858512 76.171358
11480.0 0.871647 35.330125
11500.0 0.881588 -4.938201
11520.0 0.883221 -44.529847
11540.0 0.875728 -83.490938
11560.0 0.862861 -122.225369
11580.0 0.849033 -161.279682
11600.0 0.840403 158.839271
11620.0 0.840798 117.791487
11640.0 0.850458 75.797728
11660.0 0.866 33.473481
11680.0 0.879254 -8.360146
11700.0 0.884297 -49.0077
11720.0 0.879631 -88.353056
11740.0 0.867211 -126.721049
11760.0 0.852553 -164.834204
11780.0 0.839978 156.410922
11800.0 0.833956 116.353419
11820.0 0.837538 74.666763
11840.0 0.84901 31.758971
11860.0 0.863817 -11.35997
11880.0 0.874639 -53.618637
11900.0 0.877045 -94.269951
11920.0 0.872158 -133.327568
11940.0 0.862278 -171.354086
11960.0 0.851689 150.855195
11980.0 0.8436 112.383441
12000.0 0.839787 72.647269
12020.0 0.841897 31.462712
12040.0 0.847852 -10.778155
12060.0 0.854829 -53.164734
12080.0 0.859929 -94.882037
12100.0 0.860961 -135.445739
12120.0 0.85929 -174.925317
12140.0 0.855849 146.159517
12160.0 0.851957 107.26167
12180.0 0.849079 67.837185
12200.0 0.846692 27.669038
12220.0 0.845512 -13.098259
12240.0 0.84512 -54.160085
12260.0 0.845053 -95.072046
12280.0 0.846074 -135.653294
12300.0 0.847274 -175.975248
12320.0 0.848866 143.78029
12340.0 0.850423 103.321684
12360.0 0.850635 62.623459
12380.0 0.849895 21.859914
12400.0 0.847561 -18.664429
12420.0 0.844438 -58.580978
12440.0 0.841939 -97.863481
12460.0 0.840053 -136.726671
12480.0 0.84004 -175.641467
12500.0 0.841289 144.752754
12520.0 0.842989 104.063041
12540.0 0.844722 62.185197
12560.0 0.8446 19.604598
12580.0 0.843037 -22.74108
12600.0 0.840654 -64.043628
12620.0 0.838029 -103.853712
12640.0 0.836872 -142.386649
12660.0 0.836625 179.667845
12680.0 0.837372 141.484422
12700.0 0.838575 102.156427
12720.0 0.838616 61.208457
12740.0 0.837933 18.76447
12760.0 0.836384 -24.36596
12780.0 0.835205 -66.898001
12800.0 0.835914 -107.941398
12820.0 0.837609 -147.267011
12840.0 0.840172 174.703911
12860.0 0.841888 137.064274
12880.0 0.840916 98.933237
12900.0 0.837125 59.499654
12920.0 0.830186 18.401627
12940.0 0.823385 -24.029134
12960.0 0.820359 -66.964548
12980.0 0.822623 -109.278416
13000.0 0.830202 -150.275716
13020.0 0.839171 170.058003
13040.0 0.845937 131.316514
13060.0 0.847767 92.738878
13080.0 0.842228 53.685664
13100.0 0.831272 13.746972
13120.0 0.818331 -27.180725
13140.0 0.809034 -68.684293
13160.0 0.80856 -110.223558
13180.0 0.816698 -151.273613
13200.0 0.830889 168.408006
13220.0 0.845234 128.598608
13240.0 0.853296 89.005981
13260.0 0.852041 49.279405
13280.0 0.840516 9.240417
13300.0 0.823633 -31.00248
13320.0 0.808575 -71.322388
13340.0 0.800849 -111.464353
13360.0 0.804293 -151.340238
13380.0 0.816751 168.867406
13400.0 0.833284 128.890271
13420.0 0.847069 88.293416
13440.0 0.850301 46.923071
13460.0 0.841441 4.993539
13480.0 0.824377 -37.045517
13500.0 0.807497 -78.532583
13520.0 0.799256 -119.0906
13540.0 0.801678 -158.66726
13560.0 0.813749 162.480283
13580.0 0.830434 123.697813
13600.0 0.844272 84.398517
13620.0 0.849632 44.108028
13640.0 0.842428 2.745827
13660.0 0.826282 -39.198849
13680.0 0.809976 -81.06062
13700.0 0.800879 -122.093524
13720.0 0.803523 -161.899066
13740.0 0.815537 159.366971
13760.0 0.831681 121.265979
13780.0 0.845886 83.012333
13800.0 0.850561 43.918739
13820.0 0.843015 3.577367
13840.0 0.825206 -38.091611
13860.0 0.805391 -80.557499
13880.0 0.794667 -123.046416
13900.0 0.797507 -164.756663
13920.0 0.812846 154.811092
13940.0 0.833942 115.467539
13960.0 0.851188 76.755585
13980.0 0.857959 38.042024
14000.0 0.849644 -1.249874
14020.0 0.829183 -41.386871
14040.0 0.805833 -82.533594
14060.0 0.789785 -124.462408
14080.0 0.789952 -166.671338
14100.0 0.806163 151.327091
14120.0 0.830913 109.945451
14140.0 0.853577 69.163634
14160.0 0.862742 28.845462
14180.0 0.855191 -11.100629
14200.0 0.834979 -50.880812
14220.0 0.811266 -90.569176
14240.0 0.795626 -130.294665
14260.0 0.793897 -170.119543
14280.0 0.807633 150.042058
14300.0 0.831925 110.051584
14320.0 0.855728 69.802119
14340.0 0.868671 29.162647
14360.0 0.86282 -11.901724
14380.0 0.840549 -53.147517
14400.0 0.813397 -94.429843
14420.0 0.793238 -135.529021
14440.0 0.7898 -176.186142
14460.0 0.804124 143.67193
14480.0 0.83024 104.073504
14500.0 0.858735 64.702979
14520.0 0.876451 25.21014
14540.0 0.875732 -14.570689
14560.0 0.856503 -54.794278
14580.0 0.827029 -95.387377
14600.0 0.801937 -136.287265
14620.0 0.791324 -177.339631
14640.0 0.799778 141.835507
14660.0 0.823777 101.359664
14680.0 0.851769 61.238804
14700.0 0.872164 21.288638
14720.0 0.87471 -18.768352
