! File created by SignalIntegrity v1.3.3: Signal and Power Integrity Tools
! https://github.com/TeledyneLeCroy/SignalIntegrity
# MHz S MA R 50.0
0.0 0.993952 180.0
20.0 0.988769 139.117127
40.0 0.976529 98.647762
60.0 0.963292 58.742887
80.0 0.954958 19.336618
100.0 0.955449 -19.884744
120.0 0.964246 -59.30127
140.0 0.978042 -99.205393
160.0 0.990363 -139.73804
180.0 0.994318 179.294557
200.0 0.987414 138.280399
220.0 0.972059 97.616235
240.0 0.955202 57.528907
260.0 0.943759 17.910704
280.0 0.941407 -21.509714
300.0 0.949015 -61.088175
320.0 0.962924 -101.132336
340.0 0.976933 -141.701602
360.0 0.984486 177.363103
380.0 0.981349 136.459361
400.0 0.969525 95.995015
420.0 0.954428 56.130839
440.0 0.942024 16.798267
460.0 0.936699 -22.321898
480.0 0.93887 -61.607413
500.0 0.946756 -101.341769
520.0 0.955931 -141.672139
540.0 0.961179 177.55575
560.0 0.960036 136.668515
580.0 0.952881 96.023504
600.0 0.943689 55.867103
620.0 0.936955 16.153648
640.0 0.935005 -23.316662
660.0 0.938521 -62.836547
680.0 0.944943 -102.677119
700.0 0.950532 -142.90161
720.0 0.952116 176.578188
740.0 0.948085 136.026639
760.0 0.940837 95.720382
780.0 0.934098 55.756787
800.0 0.931323 16.096344
820.0 0.934538 -23.488476
840.0 0.94213 -63.254187
860.0 0.950755 -103.343617
880.0 0.955651 -143.764909
900.0 0.953159 175.723556
920.0 0.944012 135.424963
940.0 0.931677 95.544577
960.0 0.921617 56.119868
980.0 0.918238 16.916501
1000.0 0.922761 -22.388491
1020.0 0.934101 -62.130403
1040.0 0.947265 -102.529299
1060.0 0.955841 -143.484276
1080.0 0.955189 175.34764
1100.0 0.944647 134.473106
1120.0 0.929396 94.285465
1140.0 0.915937 54.830087
1160.0 0.909307 15.904155
1180.0 0.912249 -22.927087
1200.0 0.92335 -62.135983
1220.0 0.938774 -102.056836
1240.0 0.951909 -142.812799
1260.0 0.955963 175.886004
1280.0 0.94904 134.581126
1300.0 0.934264 93.806722
1320.0 0.91867 53.873067
1340.0 0.908674 14.682005
1360.0 0.907087 -24.091378
1380.0 0.914282 -62.898951
1400.0 0.926833 -102.193798
1420.0 0.93931 -142.198376
1440.0 0.946155 177.100671
1460.0 0.943591 136.032193
1480.0 0.933488 95.064329
1500.0 0.920984 54.516502
1520.0 0.911629 14.516385
1540.0 0.909312 -25.083448
1560.0 0.913755 -64.556716
1580.0 0.922517 -104.145452
1600.0 0.931174 -144.033196
1620.0 0.935109 175.824664
1640.0 0.932902 135.598446
1660.0 0.925684 95.479954
1680.0 0.917505 55.612917
1700.0 0.912622 15.931431
1720.0 0.912829 -23.713668
1740.0 0.918148 -63.511543
1760.0 0.925378 -103.614894
1780.0 0.930329 -143.970585
1800.0 0.930124 175.587269
1820.0 0.923958 135.323717
1840.0 0.915044 95.448482
1860.0 0.907577 55.943507
1880.0 0.904986 16.653062
1900.0 0.90921 -22.743854
1920.0 0.918447 -62.572247
1940.0 0.928897 -102.993093
1960.0 0.935145 -143.966238
1980.0 0.932909 174.878774
2000.0 0.923003 134.02475
2020.0 0.909586 93.826803
2040.0 0.898657 54.40535
2060.0 0.894859 15.528252
2080.0 0.899328 -23.199852
2100.0 0.911002 -62.242754
2120.0 0.925129 -102.008726
2140.0 0.935258 -142.596928
2160.0 0.936223 176.199813
2180.0 0.926556 134.895316
2200.0 0.911213 94.049605
2220.0 0.897271 53.943454
2240.0 0.890233 14.587454
2260.0 0.892901 -24.309254
2280.0 0.903612 -63.177685
2300.0 0.918416 -102.409797
2320.0 0.93121 -142.306003
2340.0 0.935706 177.151196
2360.0 0.929912 136.234708
2380.0 0.916278 95.334028
2400.0 0.901359 54.813268
2420.0 0.891742 14.777929
2440.0 0.890387 -24.838435
2460.0 0.897456 -64.241037
2480.0 0.909211 -103.714873
2500.0 0.92016 -143.421082
2520.0 0.925507 176.575457
2540.0 0.922374 136.381281
2560.0 0.9129 96.187292
2580.0 0.901852 56.085416
2600.0 0.894214 16.114096
2620.0 0.893603 -23.819278
2640.0 0.899437 -63.841161
2660.0 0.908685 -103.997203
2680.0 0.916447 -144.285759
2700.0 0.918123 175.460062
2720.0 0.913135 135.433644
2740.0 0.903742 95.732158
2760.0 0.894677 56.345831
2780.0 0.890505 17.05209
2800.0 0.892909 -22.416897
2820.0 0.901449 -62.302717
2840.0 0.911957 -102.745578
2860.0 0.918784 -143.598218
2880.0 0.918075 175.463428
2900.0 0.909221 134.861609
2920.0 0.896663 94.907886
2940.0 0.886043 55.594695
2960.0 0.881591 16.715461
2980.0 0.885656 -22.132655
3000.0 0.896536 -61.393054
3020.0 0.91013 -101.368697
3040.0 0.920078 -142.17247
3060.0 0.920344 176.474068
3080.0 0.910381 135.091939
3100.0 0.894505 94.18675
3120.0 0.880073 54.081161
3140.0 0.873288 14.729455
3160.0 0.876144 -24.128861
3180.0 0.887886 -62.885773
3200.0 0.903841 -101.987193
3220.0 0.917216 -141.693008
3240.0 0.921875 177.930137
3260.0 0.914531 137.095211
3280.0 0.898655 96.175164
3300.0 0.881564 55.446271
3320.0 0.870399 15.090022
3340.0 0.869789 -24.898662
3360.0 0.879033 -64.640933
3380.0 0.89413 -104.26307
3400.0 0.908637 -143.92801
3420.0 0.91577 176.334044
3440.0 0.912855 136.560112
3460.0 0.901207 96.77006
3480.0 0.886308 56.96915
3500.0 0.874848 17.031454
3520.0 0.87095 -23.144803
3540.0 0.876174 -63.586441
3560.0 0.887488 -104.251739
3580.0 0.899047 -144.924658
3600.0 0.905436 174.630622
3620.0 0.903322 134.627702
3640.0 0.894462 95.153443
3660.0 0.88326 56.025034
3680.0 0.874401 16.946325
3700.0 0.87198 -22.466503
3720.0 0.876516 -62.521997
3740.0 0.885909 -103.272189
3760.0 0.895311 -144.539038
3780.0 0.899071 174.158288
3800.0 0.895508 133.35406
3820.0 0.886446 93.362166
3840.0 0.876537 54.214451
3860.0 0.870601 15.576417
3880.0 0.870759 -23.032727
3900.0 0.877473 -62.101908
3920.0 0.887766 -102.028402
3940.0 0.896424 -142.861657
3960.0 0.89874 175.668627
3980.0 0.892365 134.119456
4000.0 0.880569 93.085169
4020.0 0.869129 52.847767
4040.0 0.862812 13.405316
4060.0 0.864555 -25.531119
4080.0 0.873273 -64.389712
4100.0 0.88566 -103.538303
4120.0 0.896503 -143.272567
4140.0 0.899984 176.38675
4160.0 0.894155 135.64108
4180.0 0.881054 94.777041
4200.0 0.86662 54.095869
4220.0 0.857468 13.709967
4240.0 0.856826 -26.370301
4260.0 0.865116 -66.203597
4280.0 0.878657 -105.934044
4300.0 0.891418 -145.622956
4320.0 0.898069 174.68141
4340.0 0.895092 134.980632
4360.0 0.884081 95.285396
4380.0 0.869929 55.464788
4400.0 0.858345 15.381356
4420.0 0.854563 -25.098658
4440.0 0.859697 -65.988962
4460.0 0.871385 -107.068325
4480.0 0.88419 -148.03186
4500.0 0.891636 171.501321
4520.0 0.891087 131.786525
4540.0 0.883304 92.788913
4560.0 0.872126 54.252855
4580.0 0.862563 15.669226
4600.0 0.857827 -23.488349
4620.0 0.860088 -63.588424
4640.0 0.868131 -104.736952
4660.0 0.877734 -146.564941
4680.0 0.884218 171.58335
4700.0 0.884024 130.408316
4720.0 0.878165 90.352625
4740.0 0.870145 51.339942
4760.0 0.863317 12.964115
4780.0 0.860844 -25.399899
4800.0 0.863238 -64.396273
4820.0 0.869522 -104.4208
4840.0 0.876821 -145.564242
4860.0 0.88073 172.582986
4880.0 0.87941 130.75222
4900.0 0.873564 89.615351
4920.0 0.866433 49.558439
4940.0 0.861861 10.471619
4960.0 0.861286 -28.061554
4980.0 0.865144 -66.571825
5000.0 0.871548 -105.605072
5020.0 0.877106 -145.44357
5040.0 0.879054 173.896991
5060.0 0.87546 132.713434
5080.0 0.868164 91.503468
5100.0 0.861015 50.639578
5120.0 0.857256 10.330814
5140.0 0.85913 -29.46536
5160.0 0.865498 -68.965511
5180.0 0.873615 -108.363216
5200.0 0.879981 -147.855967
5220.0 0.880946 172.501289
5240.0 0.876079 132.73145
5260.0 0.867045 92.815783
5280.0 0.857607 52.738826
5300.0 0.852213 12.375588
5320.0 0.852842 -28.360409
5340.0 0.859726 -69.419443
5360.0 0.869817 -110.640419
5380.0 0.878191 -151.65028
5400.0 0.881474 167.920605
5420.0 0.878131 128.296845
5440.0 0.870273 89.478428
5460.0 0.861486 51.108667
5480.0 0.854735 12.67891
5500.0 0.85292 -26.395244
5520.0 0.856329 -66.594585
5540.0 0.863475 -108.001783
5560.0 0.871001 -150.271066
5580.0 0.874486 167.409467
5600.0 0.872805 125.933512
5620.0 0.867367 85.794825
5640.0 0.861144 47.002132
5660.0 0.857335 9.054992
5680.0 0.856833 -28.781733
5700.0 0.859933 -67.241696
5720.0 0.865075 -106.935516
5740.0 0.869349 -148.003302
5760.0 0.870712 169.93342
5780.0 0.868007 127.702134
5800.0 0.863225 86.231305
5820.0 0.859436 46.00297
5840.0 0.858191 7.002958
5860.0 0.860368 -31.219094
5880.0 0.864505 -69.354678
5900.0 0.868513 -108.026331
5920.0 0.870328 -147.727722
5940.0 0.867858 171.438532
5960.0 0.862109 129.798817
5980.0 0.855721 87.934392
6000.0 0.852025 46.515747
6020.0 0.853503 5.91463
6040.0 0.85919 -33.841923
6060.0 0.866964 -72.972104
6080.0 0.873458 -111.884738
6100.0 0.875234 -150.899916
6120.0 0.871384 169.752764
6140.0 0.862574 129.980572
6160.0 0.852533 89.857092
6180.0 0.845878 49.44304
6200.0 0.845381 8.85758
6220.0 0.852056 -31.805961
6240.0 0.862901 -72.494388
6260.0 0.873073 -113.0607
6280.0 0.87817 -153.369067
6300.0 0.875376 166.760913
6320.0 0.866481 127.443364
6340.0 0.855291 88.564547
6360.0 0.846132 49.885999
6380.0 0.842884 10.982737
6400.0 0.846247 -28.581734
6420.0 0.855169 -69.080287
6440.0 0.865632 -110.558633
6460.0 0.872073 -152.598111
6480.0 0.871663 165.504499
6500.0 0.864729 124.443191
6520.0 0.855428 84.635353
6540.0 0.848406 45.964396
6560.0 0.845893 7.981558
6580.0 0.84905 -29.978107
6600.0 0.856141 -68.650819
6620.0 0.863985 -108.537239
6640.0 0.868811 -149.808033
6660.0 0.867119 167.96038
6680.0 0.860033 125.663354
6700.0 0.85156 84.188048
6720.0 0.84605 44.098951
6740.0 0.846404 5.362317
6760.0 0.851772 -32.497661
6780.0 0.86009 -70.151771
6800.0 0.867715 -108.369813
6820.0 0.870286 -147.687997
6840.0 0.865869 171.681567
6860.0 0.85514 129.9848
6880.0 0.843332 87.920548
6900.0 0.836774 46.239195
6920.0 0.838322 5.517905
6940.0 0.847675 -34.087823
6960.0 0.860553 -72.859342
6980.0 0.871566 -111.233406
7000.0 0.876288 -149.747151
7020.0 0.871608 171.192383
7040.0 0.859194 131.37379
7060.0 0.84396 90.738219
7080.0 0.83259 49.508395
7100.0 0.830929 8.029038
7120.0 0.839428 -33.294782
7140.0 0.854467 -74.10917
7160.0 0.869266 -114.300958
7180.0 0.876855 -153.843863
7200.0 0.874567 167.162045
7220.0 0.863251 128.503013
7240.0 0.847846 89.93537
7260.0 0.834801 51.088462
7280.0 0.828907 11.662868
7300.0 0.833304 -28.527061
7320.0 0.846182 -69.51068
7340.0 0.861681 -111.004861
7360.0 0.872392 -152.564824
7380.0 0.872428 166.372908
7400.0 0.862647 126.254169
7420.0 0.848167 87.132849
7440.0 0.835096 48.781718
7460.0 0.828836 10.690633
7480.0 0.831018 -27.742792
7500.0 0.841024 -67.022322
7520.0 0.854688 -107.511261
7540.0 0.864912 -149.116502
7560.0 0.866412 168.702644
7580.0 0.858009 126.760359
7600.0 0.844803 85.827323
7620.0 0.833979 46.185085
7640.0 0.829675 7.70125
7660.0 0.833694 -30.072869
7680.0 0.843971 -67.798684
7700.0 0.85624 -106.074827
7720.0 0.865265 -145.424587
7740.0 0.865275 173.970522
7760.0 0.855323 132.366385
7780.0 0.839637 90.306798
7800.0 0.825827 48.519659
7820.0 0.820954 7.53481
7840.0 0.826397 -32.439924
7860.0 0.839757 -71.491096
7880.0 0.855566 -110.031756
7900.0 0.866808 -148.501341
7920.0 0.868826 172.688311
7940.0 0.859541 133.237302
7960.0 0.842438 93.072423
7980.0 0.825117 52.217398
8000.0 0.814887 10.929954
8020.0 0.816798 -30.376059
8040.0 0.829491 -71.315115
8060.0 0.846811 -111.565856
8080.0 0.861273 -151.078063
8100.0 0.866094 170.041511
8120.0 0.859853 131.573945
8140.0 0.845266 93.111261
8160.0 0.82794 54.245813
8180.0 0.815219 14.562217
8200.0 0.811839 -26.146558
8220.0 0.819651 -67.695908
8240.0 0.835099 -109.643313
8260.0 0.850036 -151.312616
8280.0 0.85766 167.873923
8300.0 0.854738 128.172656
8320.0 0.843758 89.520393
8340.0 0.830352 51.445598
8360.0 0.819405 13.341104
8380.0 0.815557 -25.396239
8400.0 0.820102 -65.248546
8420.0 0.831033 -106.285408
8440.0 0.84327 -148.210372
8460.0 0.849525 169.67492
8480.0 0.84679 128.192484
8500.0 0.837055 87.820137
8520.0 0.825333 48.639087
8540.0 0.817496 10.290972
8560.0 0.816228 -27.799822
8580.0 0.822328 -66.177637
8600.0 0.833593 -105.347904
8620.0 0.844577 -145.499277
8640.0 0.850007 173.499644
8660.0 0.84603 132.068819
8680.0 0.83439 90.811396
8700.0 0.82122 50.111248
8720.0 0.812154 10.116323
8740.0 0.811413 -29.259515
8760.0 0.818906 -68.306387
8780.0 0.831347 -107.280356
8800.0 0.843893 -146.469526
8820.0 0.85017 173.956222
8840.0 0.847061 133.978098
8860.0 0.835274 93.587041
8880.0 0.819486 52.875603
8900.0 0.807175 11.912363
8920.0 0.803292 -29.177513
8940.0 0.809775 -70.125033
8960.0 0.824003 -110.718665
8980.0 0.839363 -150.748823
9000.0 0.849916 169.854654
9020.0 0.851163 130.970957
9040.0 0.842989 92.388931
9060.0 0.829216 53.674787
9080.0 0.814653 14.377607
9100.0 0.80546 -25.842972
9120.0 0.805183 -67.094888
9140.0 0.813751 -108.998643
9160.0 0.827432 -150.924005
9180.0 0.83905 167.814915
9200.0 0.843965 127.685492
9220.0 0.841129 88.657298
9240.0 0.832462 50.376472
9260.0 0.822504 12.200726
9280.0 0.814569 -26.576245
9300.0 0.811734 -66.419734
9320.0 0.815067 -107.486471
9340.0 0.822204 -149.357341
9360.0 0.829843 168.758483
9380.0 0.833911 127.630719
9400.0 0.833136 87.744126
9420.0 0.82927 48.991057
9440.0 0.82409 10.886032
9460.0 0.820426 -27.239684
9480.0 0.81947 -66.106048
9500.0 0.821171 -106.12158
9520.0 0.824776 -147.352161
9540.0 0.827342 170.637608
9560.0 0.827421 128.646949
9580.0 0.824995 87.349342
9600.0 0.821291 47.121416
9620.0 0.819139 7.855053
9640.0 0.819537 -30.890532
9660.0 0.822991 -69.587888
9680.0 0.828668 -108.713284
9700.0 0.833654 -148.457127
9720.0 0.83592 171.25884
9740.0 0.833511 130.687195
9760.0 0.827076 90.206628
9780.0 0.81968 49.977446
9800.0 0.813846 9.978978
9820.0 0.812472 -29.951854
9840.0 0.816037 -70.078262
9860.0 0.822957 -110.465615
9880.0 0.830902 -151.052345
9900.0 0.835884 168.397777
9920.0 0.836194 128.204065
9940.0 0.832054 88.4636
9960.0 0.825008 49.108943
9980.0 0.818494 9.816953
10000.0 0.814419 -29.852397
10020.0 0.814442 -70.177849
10040.0 0.818851 -111.264734
10060.0 0.825341 -152.804245
10080.0 0.831787 165.773264
10100.0 0.835419 124.994496
10120.0 0.835229 85.204392
10140.0 0.832373 46.276933
10160.0 0.827557 7.780939
10180.0 0.822824 -30.855358
10200.0 0.819296 -70.248023
10220.0 0.817566 -110.673263
10240.0 0.818598 -152.0393
10260.0 0.821378 166.203406
10280.0 0.825358 124.872592
10300.0 0.829657 84.520213
10320.0 0.832955 45.326339
10340.0 0.835394 6.980313
10360.0 0.835902 -31.158867
10380.0 0.834053 -69.734856
10400.0 0.829867 -109.342037
10420.0 0.823275 -150.158438
10440.0 0.816867 168.120014
10460.0 0.813035 126.149298
10480.0 0.813763 84.750644
10500.0 0.819852 44.357306
10520.0 0.828971 4.947794
10540.0 0.838847 -33.857998
10560.0 0.846138 -72.695669
10580.0 0.847609 -112.050753
10600.0 0.842607 -152.217385
10620.0 0.831866 166.867185
10640.0 0.819887 125.644117
10660.0 0.811785 84.588884
10680.0 0.810219 44.124879
10700.0 0.816139 4.347028
10720.0 0.826637 -34.99572
10740.0 0.837837 -74.242622
10760.0 0.845793 -113.805974
10780.0 0.846564 -153.845591
10800.0 0.840328 165.76043
10820.0 0.829619 125.285836
10840.0 0.819074 85.132329
10860.0 0.813488 45.469892
10880.0 0.814001 6.240484
10900.0 0.8204 -32.814164
10920.0 0.829738 -72.165954
10940.0 0.837559 -112.140616
10960.0 0.840756 -152.884472
10980.0 0.837108 165.800374
11000.0 0.828914 124.451388
11020.0 0.820734 83.548313
11040.0 0.81599 43.426633
11060.0 0.817099 4.054353
11080.0 0.822581 -34.950544
11100.0 0.829615 -74.038149
11120.0 0.834973 -113.718642
11140.0 0.835003 -154.216513
11160.0 0.829928 164.608493
11180.0 0.822198 123.159742
11200.0 0.816065 82.065867
11220.0 0.815556 41.733215
11240.0 0.820437 2.256791
11260.0 0.828929 -36.561418
11280.0 0.837084 -75.232116
11300.0 0.84029 -114.209733
11320.0 0.83665 -153.866996
11340.0 0.826043 165.676147
11360.0 0.813079 124.672687
11380.0 0.804165 83.497546
11400.0 0.803345 42.64201
11420.0 0.812175 2.402674
11440.0 0.826885 -37.273196
11460.0 0.841521 -76.598646
11480.0 0.850056 -115.973103
11500.0 0.847237 -155.65597
11520.0 0.833848 164.300155
11540.0 0.814981 123.954236
11560.0 0.798612 83.583911
11580.0 0.792469 43.414481
11600.0 0.798615 3.600508
11620.0 0.815353 -35.839848
11640.0 0.836336 -75.185488
11660.0 0.852483 -114.693549
11680.0 0.856909 -154.577285
11700.0 0.846119 165.132511
11720.0 0.824673 124.643851
11740.0 0.802196 84.117764
11760.0 0.78744 43.768552
11780.0 0.786559 3.728908
11800.0 0.798902 -36.052703
11820.0 0.819328 -75.686441
11840.0 0.839983 -115.474952
11860.0 0.851199 -155.601768
11880.0 0.848353 163.968216
11900.0 0.832765 123.378584
11920.0 0.811854 82.93768
11940.0 0.795665 42.828246
11960.0 0.789728 3.141601
11980.0 0.795859 -36.105924
12000.0 0.810787 -75.166914
12020.0 0.827369 -114.309117
12040.0 0.838755 -153.840332
12060.0 0.838658 166.062903
12080.0 0.827053 125.517281
12100.0 0.809952 84.693236
12120.0 0.795159 43.903614
12140.0 0.790126 3.434318
12160.0 0.796193 -36.594338
12180.0 0.809986 -76.131611
12200.0 0.825394 -115.398924
12220.0 0.834238 -154.643868
12240.0 0.832458 165.947277
12260.0 0.820176 126.183608
12280.0 0.802653 86.063671
12300.0 0.788764 45.597406
12320.0 0.784388 4.92036
12340.0 0.7921 -35.681729
12360.0 0.808493 -76.056619
12380.0 0.825342 -116.061837
12400.0 0.83518 -155.706045
12420.0 0.832391 164.908719
12440.0 0.818076 125.713963
12460.0 0.798736 86.463785
12480.0 0.781954 46.97201
12500.0 0.77569 7.131458
12520.0 0.782636 -33.078961
12540.0 0.800376 -73.453517
12560.0 0.82189 -113.869547
12580.0 0.836279 -154.168042
12600.0 0.836791 165.824872
12620.0 0.822603 126.118994
12640.0 0.799602 86.683019
12660.0 0.778151 47.269224
12680.0 0.766118 7.622485
12700.0 0.768923 -32.322322
12720.0 0.786055 -72.60586
12740.0 0.810273 -113.080412
12760.0 0.831636 -153.605432
12780.0 0.839324 165.977732
12800.0 0.829812 125.915784
12820.0 0.808186 86.204595
12840.0 0.783379 46.716012
12860.0 0.766058 7.224044
12880.0 0.762171 -32.503782
12900.0 0.772854 -72.429933
12920.0 0.794338 -112.52839
12940.0 0.816738 -152.700139
12960.0 0.830658 167.200067
12980.0 0.829743 127.218799
13000.0 0.814599 87.44688
13020.0 0.793261 47.764518
13040.0 0.774154 7.972534
13060.0 0.765143 -31.987458
13080.0 0.769383 -72.14253
13100.0 0.783875 -112.299967
13120.0 0.802688 -152.322576
13140.0 0.816549 167.808887
13160.0 0.819323 128.130577
13180.0 0.810472 88.465141
13200.0 0.793692 48.628168
13220.0 0.777528 8.427902
13240.0 0.768832 -32.263607
13260.0 0.771284 -73.194797
13280.0 0.784116 -114.024964
13300.0 0.800198 -154.364012
13320.0 0.812466 166.056999
13340.0 0.815435 127.15298
13360.0 0.807893 88.716949
13380.0 0.794332 50.271375
13400.0 0.779863 11.272935
13420.0 0.771193 -28.604275
13440.0 0.77252 -69.471804
13460.0 0.782875 -110.903503
13480.0 0.797974 -152.256201
13500.0 0.809432 167.026742
13520.0 0.811708 127.306481
13540.0 0.804397 88.401849
13560.0 0.78994 49.846094
13580.0 0.774899 10.984852
13600.0 0.76483 -28.86641
13620.0 0.764262 -69.919183
13640.0 0.774985 -111.966084
13660.0 0.791737 -154.270019
13680.0 0.807135 164.101316
13700.0 0.814097 123.699197
13720.0 0.809979 84.702202
13740.0 0.798473 46.72809
13760.0 0.783748 9.071645
13780.0 0.771731 -28.953744
13800.0 0.767178 -68.023929
13820.0 0.771638 -108.333746
13840.0 0.784596 -149.657503
13860.0 0.79951 168.571691
13880.0 0.80915 127.145803
13900.0 0.80955 86.496757
13920.0 0.800359 46.711116
13940.0 0.787017 7.493332
13960.0 0.774826 -31.738143
13980.0 0.768497 -71.346514
14000.0 0.771556 -111.526822
14020.0 0.782216 -152.080165
14040.0 0.796933 167.473914
14060.0 0.809562 127.46824
14080.0 0.814691 88.141975
14100.0 0.811776 49.33353
14120.0 0.801561 10.603723
14140.0 0.788456 -28.501612
14160.0 0.777468 -68.476389
14180.0 0.772013 -109.363543
14200.0 0.775139 -150.820228
14220.0 0.78452 167.73363
14240.0 0.795839 126.963919
14260.0 0.804823 87.049409
14280.0 0.807325 47.828118
14300.0 0.803903 8.837153
14320.0 0.795989 -30.604251
14340.0 0.786831 -70.896936
14360.0 0.781329 -112.186535
14380.0 0.781155 -154.065019
14400.0 0.786992 164.30355
14420.0 0.795887 123.55875
14440.0 0.803239 84.045739
14460.0 0.807285 45.493507
14480.0 0.805942 7.20657
14500.0 0.800304 -31.565773
14520.0 0.792821 -71.625676
14540.0 0.785857 -113.217198
14560.0 0.783967 -155.908645
14580.0 0.787909 161.314045
14600.0 0.796033 119.715905
14620.0 0.805587 79.881686
14640.0 0.812124 41.705063
14660.0 0.81469 4.540071
14680.0 0.81222 -32.666685
14700.0 0.804866 -70.821665
14720.0 0.79572 -110.707632
14740.0 0.787342 -152.492692
