! File created by SignalIntegrity v1.1.10: Signal and Power Integrity Tools
! https://github.com/TeledyneLeCroy/SignalIntegrity
# MHz S MA R 50.0
0.0 0.996093 180.0
20.0 1.000622 139.464446
40.0 1.012634 98.839071
60.0 1.02619 58.066624
80.0 1.034281 17.279534
100.0 1.033054 -23.333977
120.0 1.022701 -63.598897
140.0 1.008573 -103.47104
160.0 0.997027 -143.153962
180.0 0.9926 177.067469
200.0 0.99732 136.869006
220.0 1.008198 96.048879
240.0 1.019381 54.692382
260.0 1.024227 13.11547
280.0 1.018971 -28.166456
300.0 1.006477 -68.745684
320.0 0.992621 -108.552496
340.0 0.983677 -147.805622
360.0 0.983823 172.999706
380.0 0.992798 133.337359
400.0 1.007235 92.818223
420.0 1.019619 51.326665
440.0 1.021953 9.237686
460.0 1.011676 -32.781314
480.0 0.992674 -74.076798
500.0 0.973739 -114.320312
520.0 0.962401 -153.677387
540.0 0.962067 167.423324
560.0 0.973014 128.398913
580.0 0.990729 88.696976
600.0 1.007827 48.043116
620.0 1.01588 6.509516
640.0 1.009638 -35.377301
660.0 0.992497 -76.927668
680.0 0.972897 -117.684212
700.0 0.959449 -157.526733
720.0 0.957439 163.272613
740.0 0.966709 124.256723
760.0 0.983913 84.943256
780.0 1.001974 44.91498
800.0 1.012317 4.078451
820.0 1.009805 -37.35233
840.0 0.994999 -78.935184
860.0 0.975431 -120.208712
880.0 0.960142 -160.974162
900.0 0.954577 158.772523
920.0 0.960256 118.859447
940.0 0.973386 79.025961
960.0 0.987595 39.102894
980.0 0.996383 -1.01634
1000.0 0.995201 -41.283046
1020.0 0.985344 -81.591536
1040.0 0.971751 -121.929599
1060.0 0.960739 -162.321737
1080.0 0.957436 157.119237
1100.0 0.962331 116.329783
1120.0 0.972661 75.382235
1140.0 0.982691 34.423912
1160.0 0.986672 -6.265749
1180.0 0.983106 -46.47108
1200.0 0.973855 -86.1638
1220.0 0.963882 -125.503526
1240.0 0.958209 -164.887361
1260.0 0.959208 155.276954
1280.0 0.967034 114.684617
1300.0 0.977477 73.265291
1320.0 0.984337 31.361655
1340.0 0.983158 -10.447634
1360.0 0.973404 -51.549294
1380.0 0.960101 -91.604652
1400.0 0.949266 -130.743292
1420.0 0.945288 -169.376096
1440.0 0.950568 151.877803
1460.0 0.963256 112.411605
1480.0 0.978711 71.858765
1500.0 0.989428 30.199938
1520.0 0.988567 -12.042919
1540.0 0.976166 -54.069081
1560.0 0.958075 -95.214201
1580.0 0.94274 -135.194745
1600.0 0.936415 -174.234582
1620.0 0.940616 147.180043
1640.0 0.954063 108.455335
1660.0 0.971447 69.020615
1680.0 0.985196 28.597275
1700.0 0.988562 -12.765321
1720.0 0.978667 -54.632168
1740.0 0.960535 -96.397794
1760.0 0.942945 -137.645681
1780.0 0.933205 -178.19318
1800.0 0.935049 141.852909
1820.0 0.946577 102.217665
1840.0 0.96284 62.63021
1860.0 0.977003 22.833811
1880.0 0.982437 -17.240283
1900.0 0.977268 -57.538548
1920.0 0.963975 -97.991933
1940.0 0.948962 -138.524997
1960.0 0.939222 -179.174201
1980.0 0.938195 140.045913
2000.0 0.946012 99.189839
2020.0 0.958194 58.350931
2040.0 0.968213 17.748392
2060.0 0.9715 -22.437484
2080.0 0.966429 -62.12935
2100.0 0.956177 -101.41538
2120.0 0.945763 -140.643785
2140.0 0.939528 179.776144
2160.0 0.940608 139.455104
2180.0 0.947933 98.212753
2200.0 0.957455 56.278619
2220.0 0.963578 14.187622
2240.0 0.96207 -27.343768
2260.0 0.954201 -67.796254
2280.0 0.944033 -107.120674
2300.0 0.936342 -145.640641
2320.0 0.934957 175.997881
2340.0 0.940409 137.091437
2360.0 0.951263 97.085903
2380.0 0.962549 55.726854
2400.0 0.967635 13.35096
2420.0 0.96317 -29.249118
2440.0 0.95067 -71.16754
2460.0 0.936654 -111.809428
2480.0 0.927531 -151.189402
2500.0 0.926344 170.281003
2520.0 0.933958 131.946352
2540.0 0.947429 93.098309
2560.0 0.961602 53.248434
2580.0 0.97005 12.204574
2600.0 0.967308 -29.724295
2620.0 0.954427 -71.871222
2640.0 0.937538 -113.5835
2660.0 0.924344 -154.431894
2680.0 0.920417 165.593779
2700.0 0.926173 126.223423
2720.0 0.939131 87.078776
2740.0 0.953869 47.739531
2760.0 0.963752 7.980899
2780.0 0.964688 -32.254273
2800.0 0.955836 -72.875426
2820.0 0.941598 -113.701152
2840.0 0.928711 -154.650987
2860.0 0.922273 164.345163
2880.0 0.924924 123.343853
2900.0 0.934397 82.409517
2920.0 0.945614 41.720347
2940.0 0.953375 1.428643
2960.0 0.953889 -38.342587
2980.0 0.947961 -77.605165
3000.0 0.938749 -116.62546
3020.0 0.930267 -155.780564
3040.0 0.926438 164.459965
3060.0 0.92816 123.752914
3080.0 0.934295 82.095568
3100.0 0.940971 39.84475
3120.0 0.943557 -2.263641
3140.0 0.940908 -43.501057
3160.0 0.934472 -83.498568
3180.0 0.927883 -122.321055
3200.0 0.924633 -160.493869
3220.0 0.925937 161.273159
3240.0 0.931989 122.248496
3260.0 0.939952 81.858643
3280.0 0.945265 40.034176
3300.0 0.944197 -2.734668
3320.0 0.935828 -45.481286
3340.0 0.92457 -87.23846
3360.0 0.915959 -127.572327
3380.0 0.913408 -166.586202
3400.0 0.918348 155.157421
3420.0 0.928642 116.892496
3440.0 0.940609 77.92888
3460.0 0.94901 37.757919
3480.0 0.948567 -3.647102
3500.0 0.938794 -45.840125
3520.0 0.923783 -88.110471
3540.0 0.910774 -129.755886
3560.0 0.90571 -170.466074
3580.0 0.90966 149.704801
3600.0 0.920874 110.435982
3620.0 0.934437 71.250755
3640.0 0.944358 31.801137
3660.0 0.946454 -8.122858
3680.0 0.939038 -48.518564
3700.0 0.92569 -89.222605
3720.0 0.912532 -130.109641
3740.0 0.904989 -171.043404
3760.0 0.906473 148.036756
3780.0 0.915485 107.151459
3800.0 0.927641 66.390785
3820.0 0.9373 25.834975
3840.0 0.939604 -14.359651
3860.0 0.934404 -54.087773
3880.0 0.924438 -93.435937
3900.0 0.914338 -132.621065
3920.0 0.908759 -172.051976
3940.0 0.909427 147.869201
3960.0 0.916123 106.90505
3980.0 0.92505 65.073293
4000.0 0.930688 22.841587
4020.0 0.929973 -19.096704
4040.0 0.923041 -60.114163
4060.0 0.914066 -99.912191
4080.0 0.90764 -138.71455
4100.0 0.906166 -177.042603
4120.0 0.910733 144.398987
4140.0 0.919063 104.909588
4160.0 0.927118 64.097709
4180.0 0.930213 21.993997
4200.0 0.925162 -20.765851
4220.0 0.914604 -63.218332
4240.0 0.904039 -104.599696
4260.0 0.898475 -144.586338
4280.0 0.900585 176.574255
4300.0 0.908969 138.292213
4320.0 0.920686 99.874943
4340.0 0.930792 60.641219
4360.0 0.933752 20.241258
4380.0 0.927345 -21.279592
4400.0 0.913471 -63.461874
4420.0 0.899074 -105.589537
4440.0 0.891371 -147.10399
4460.0 0.893246 172.281963
4480.0 0.904027 132.490153
4500.0 0.918818 93.143145
4520.0 0.931243 53.842401
4540.0 0.93588 14.220429
4560.0 0.92954 -25.881467
4580.0 0.915 -66.429351
4600.0 0.898705 -107.340528
4620.0 0.887903 -148.435976
4640.0 0.887895 170.421003
4660.0 0.898231 129.34034
4680.0 0.914438 88.433615
4700.0 0.929083 47.73759
4720.0 0.934901 7.367448
4740.0 0.929857 -32.580531
4760.0 0.9164 -72.129667
4780.0 0.900849 -111.412151
4800.0 0.890028 -150.766274
4820.0 0.887801 169.460587
4840.0 0.895532 128.999537
4860.0 0.90967 87.729093
4880.0 0.923243 45.876977
4900.0 0.929468 3.909885
4920.0 0.924771 -37.571369
4940.0 0.91249 -78.109503
4960.0 0.899019 -117.681816
4980.0 0.889878 -156.568774
5000.0 0.888908 164.696533
5020.0 0.895807 125.511085
5040.0 0.90779 85.428431
5060.0 0.919325 44.221637
5080.0 0.923706 2.150905
5100.0 0.918693 -40.133193
5120.0 0.906984 -81.908023
5140.0 0.895069 -122.651747
5160.0 0.889025 -162.33227
5180.0 0.890708 158.735127
5200.0 0.899512 120.032727
5220.0 0.911369 80.937167
5240.0 0.920322 41.017693
5260.0 0.921511 0.086785
5280.0 0.912753 -41.665213
5300.0 0.89836 -83.731438
5320.0 0.885962 -125.605084
5340.0 0.88162 -166.868946
5360.0 0.887996 152.618486
5380.0 0.902049 112.721207
5400.0 0.917864 73.199411
5420.0 0.92866 33.721294
5440.0 0.928648 -5.923638
5460.0 0.917628 -45.838809
5480.0 0.899926 -86.111223
5500.0 0.883244 -126.741752
5520.0 0.875427 -167.742724
5540.0 0.879689 150.979036
5560.0 0.894798 109.624753
5580.0 0.914024 68.373058
5600.0 0.92809 27.474371
5620.0 0.9309 -12.881074
5640.0 0.921155 -52.621858
5660.0 0.903911 -91.829747
5680.0 0.886796 -130.86103
5700.0 0.876171 -170.128682
5720.0 0.876763 149.97829
5740.0 0.888328 109.21304
5760.0 0.906164 67.663171
5780.0 0.922091 25.66517
5800.0 0.927565 -16.178866
5820.0 0.920763 -57.269964
5840.0 0.905951 -97.36307
5860.0 0.890316 -136.562351
5880.0 0.880768 -175.330502
5900.0 0.880239 145.746042
5920.0 0.88903 106.162096
5940.0 0.903393 65.545376
5960.0 0.916079 23.929924
5980.0 0.920694 -18.271072
6000.0 0.914376 -60.398516
6020.0 0.901152 -101.810392
6040.0 0.888439 -142.274293
6060.0 0.881578 178.106036
6080.0 0.883529 138.984456
6100.0 0.892809 99.880597
6120.0 0.905108 60.429911
6140.0 0.914952 20.367703
6160.0 0.916617 -20.312665
6180.0 0.909193 -61.383518
6200.0 0.896271 -102.590737
6220.0 0.884169 -143.66922
6240.0 0.879267 175.49194
6260.0 0.883389 134.899262
6280.0 0.894845 94.544858
6300.0 0.908446 54.329101
6320.0 0.917189 14.229657
6340.0 0.917062 -25.759118
6360.0 0.907477 -65.686442
6380.0 0.892771 -105.616664
6400.0 0.879887 -145.761371
6420.0 0.874228 173.706536
6440.0 0.879197 132.739297
6460.0 0.892893 91.421085
6480.0 0.908993 50.07963
6500.0 0.920119 9.081518
6520.0 0.920432 -31.246723
6540.0 0.910449 -70.756961
6560.0 0.894994 -109.67533
6580.0 0.880169 -148.429497
6600.0 0.872244 172.405328
6620.0 0.874012 132.320472
6640.0 0.885331 91.135957
6660.0 0.90159 49.007513
6680.0 0.914314 6.54999
6700.0 0.917509 -35.439811
6720.0 0.91004 -76.385274
6740.0 0.896427 -116.102225
6760.0 0.883436 -154.931626
6780.0 0.875506 166.537128
6800.0 0.875702 127.68764
6820.0 0.883623 87.982468
6840.0 0.895626 47.251749
6860.0 0.906386 5.670658
6880.0 0.909795 -36.227717
6900.0 0.904504 -77.761696
6920.0 0.893826 -118.536985
6940.0 0.882782 -158.491437
6960.0 0.8766 162.088751
6980.0 0.877056 122.739135
7000.0 0.88362 83.088847
7020.0 0.893393 42.863816
7040.0 0.901066 2.082986
7060.0 0.903151 -38.997958
7080.0 0.898488 -80.073016
7100.0 0.889669 -120.855984
7120.0 0.881746 -161.316938
7140.0 0.878002 158.418285
7160.0 0.880362 118.200922
7180.0 0.887484 77.879186
7200.0 0.895397 37.505356
7220.0 0.900495 -2.779431
7240.0 0.899702 -42.812455
7260.0 0.893662 -82.480741
7280.0 0.885538 -121.940468
7300.0 0.878644 -161.475552
7320.0 0.876598 158.550609
7340.0 0.880046 117.843562
7360.0 0.887388 76.443091
7380.0 0.895122 34.657608
7400.0 0.898436 -6.932154
7420.0 0.89588 -47.752326
7440.0 0.888684 -87.583865
7460.0 0.880007 -126.545706
7480.0 0.873956 -165.141016
7500.0 0.872385 155.975088
7520.0 0.876345 116.239839
7540.0 0.884334 75.287894
7560.0 0.892189 33.282901
7580.0 0.896138 -9.147824
7600.0 0.893577 -51.158799
7620.0 0.886166 -92.042998
7640.0 0.878011 -131.662401
7660.0 0.872121 -170.32449
7680.0 0.871159 151.369828
7700.0 0.875048 112.700175
7720.0 0.882057 73.163362
7740.0 0.889406 32.518124
7760.0 0.892816 -9.00489
7780.0 0.890798 -50.783709
7800.0 0.884421 -92.186993
7820.0 0.876762 -132.774514
7840.0 0.87181 -172.560132
7860.0 0.8708 148.107322
7880.0 0.873818 108.794486
7900.0 0.879122 69.054247
7920.0 0.883387 28.723863
7940.0 0.884739 -12.09331
7960.0 0.881998 -53.103403
7980.0 0.876716 -93.912791
8000.0 0.871987 -134.36144
8020.0 0.869571 -174.487998
8040.0 0.870914 145.497094
8060.0 0.874924 105.286497
8080.0 0.879184 64.764368
8100.0 0.881626 23.972896
8120.0 0.8801 -16.824144
8140.0 0.875512 -57.263034
8160.0 0.870095 -97.185014
8180.0 0.866036 -136.615606
8200.0 0.86568 -175.866092
8220.0 0.868668 144.601504
8240.0 0.873745 104.422731
8260.0 0.878385 63.386333
8280.0 0.879252 21.713178
8300.0 0.87592 -20.043675
8320.0 0.869653 -61.278537
8340.0 0.863615 -101.541049
8360.0 0.861109 -140.860119
8380.0 0.86271 -179.614683
8400.0 0.868236 141.614327
8420.0 0.875089 102.16454
8440.0 0.879495 61.666327
8460.0 0.878941 20.11468
8480.0 0.872349 -22.004778
8500.0 0.863077 -63.882174
8520.0 0.855896 -104.890694
8540.0 0.853747 -144.747347
8560.0 0.85804 176.340033
8580.0 0.866594 137.805184
8600.0 0.876061 99.031929
8620.0 0.882444 59.421327
8640.0 0.881553 18.724659
8660.0 0.873371 -22.88844
8680.0 0.861125 -64.929891
8700.0 0.850641 -106.709404
8720.0 0.847222 -147.773171
8740.0 0.851557 172.005267
8760.0 0.861977 132.447242
8780.0 0.874048 93.104483
8800.0 0.882238 53.608234
8820.0 0.883191 13.70955
8840.0 0.87557 -26.612419
8860.0 0.862944 -67.139999
8880.0 0.851238 -107.685291
8900.0 0.845109 -148.072245
8920.0 0.847531 171.71155
8940.0 0.856789 131.499312
8960.0 0.868584 91.14216
8980.0 0.877565 50.488445
9000.0 0.878547 9.614117
9020.0 0.871435 -31.214911
9040.0 0.859766 -71.755388
9060.0 0.849135 -111.809162
9080.0 0.844894 -151.450474
9100.0 0.848202 169.058101
9120.0 0.857916 129.380787
9140.0 0.869636 89.118118
9160.0 0.87708 48.132218
9180.0 0.876434 6.561044
9200.0 0.867118 -35.183088
9220.0 0.854114 -76.535006
9240.0 0.844279 -117.176218
9260.0 0.841551 -157.036945
9280.0 0.847474 163.65158
9300.0 0.859136 124.402935
9320.0 0.87134 84.769272
9340.0 0.878514 44.370148
9360.0 0.875705 3.16778
9380.0 0.864009 -38.498253
9400.0 0.849138 -80.14737
9420.0 0.838354 -121.244105
9440.0 0.837376 -161.528351
9460.0 0.846176 158.942373
9480.0 0.861588 119.889765
9500.0 0.877561 80.79998
9520.0 0.886482 41.268539
9540.0 0.884014 1.065109
9560.0 0.869868 -39.804062
9580.0 0.850415 -81.045473
9600.0 0.835212 -122.349043
9620.0 0.83075 -163.372804
9640.0 0.839571 156.10278
9660.0 0.857767 116.019418
9680.0 0.877508 76.22106
9700.0 0.890581 36.428581
9720.0 0.890053 -3.540059
9740.0 0.876087 -43.720015
9760.0 0.854801 -84.175455
9780.0 0.835262 -124.881731
9800.0 0.8265 -165.822923
9820.0 0.831688 153.067331
9840.0 0.848838 111.955175
9860.0 0.870683 70.89962
9880.0 0.886735 30.025283
9900.0 0.890291 -10.519864
9920.0 0.880063 -50.652891
9940.0 0.861626 -90.334442
9960.0 0.844008 -129.773507
9980.0 0.833888 -169.246503
10000.0 0.835741 150.991958
10020.0 0.848676 110.67938
10040.0 0.866951 69.761573
10060.0 0.882467 28.302378
10080.0 0.886623 -13.40416
10100.0 0.877726 -54.88588
10120.0 0.861019 -95.844433
10140.0 0.844518 -136.150179
10160.0 0.836126 -175.932321
10180.0 0.838508 144.50923
10200.0 0.850452 104.91038
10220.0 0.867036 64.951137
10240.0 0.879953 24.50234
10260.0 0.883296 -16.352742
10280.0 0.875138 -57.407129
10300.0 0.859953 -98.324599
10320.0 0.846287 -138.939588
10340.0 0.840167 -179.20413
10360.0 0.844741 140.852791
10380.0 0.857795 101.027012
10400.0 0.872847 61.159075
10420.0 0.88301 21.065424
10440.0 0.882 -19.353807
10460.0 0.869839 -60.043449
10480.0 0.852436 -101.004246
10500.0 0.837892 -142.15032
10520.0 0.834341 176.643123
10540.0 0.844002 135.522647
10560.0 0.863557 94.724718
10580.0 0.885383 54.320949
10600.0 0.899197 14.34234
10620.0 0.899226 -25.225088
10640.0 0.885168 -64.563749
10660.0 0.862669 -103.899199
10680.0 0.841436 -143.612931
10700.0 0.829374 175.987419
10720.0 0.832207 134.879904
10740.0 0.84942 93.235462
10760.0 0.87322 51.501194
10780.0 0.893082 10.120702
10800.0 0.899158 -30.587526
10820.0 0.889511 -70.461085
10840.0 0.869738 -109.752768
10860.0 0.847846 -148.927958
10880.0 0.833071 171.466135
10900.0 0.830857 130.976221
10920.0 0.842372 89.589991
10940.0 0.86348 47.594497
10960.0 0.883727 5.582555
10980.0 0.894099 -35.770922
11000.0 0.89087 -76.097301
11020.0 0.876994 -115.345779
11040.0 0.860252 -153.913101
11060.0 0.846737 167.576549
11080.0 0.841439 128.572549
11100.0 0.846053 88.610807
11120.0 0.85764 47.623207
11140.0 0.871031 5.864056
11160.0 0.878679 -36.1765
11180.0 0.876907 -77.867411
11200.0 0.867991 -118.87972
11220.0 0.856615 -159.17422
11240.0 0.849081 161.044555
11260.0 0.848495 121.401663
11280.0 0.854675 81.674676
11300.0 0.865181 41.690894
11320.0 0.873983 1.434883
11340.0 0.876714 -38.957958
11360.0 0.871642 -79.43707
11380.0 0.860667 -119.944615
11400.0 0.849885 -160.569342
11420.0 0.844134 158.560266
11440.0 0.846805 117.505716
11460.0 0.857454 76.395291
11480.0 0.870623 35.548786
11500.0 0.880652 -4.723467
11520.0 0.882386 -44.316836
11540.0 0.874966 -83.276684
11560.0 0.862116 -122.007182
11580.0 0.848236 -161.055495
11600.0 0.839505 159.069829
11620.0 0.839781 118.026367
11640.0 0.849357 76.033472
11660.0 0.864897 33.706196
11680.0 0.878234 -8.13291
11700.0 0.883402 -48.786067
11720.0 0.878845 -88.13518
11740.0 0.866476 -126.503256
11760.0 0.851799 -164.612524
11780.0 0.839141 156.639592
11800.0 0.832998 116.590285
11820.0 0.836464 74.909789
11840.0 0.847878 32.003768
11860.0 0.862722 -11.118633
11880.0 0.873654 -53.384572
11900.0 0.876181 -94.04371
11920.0 0.871378 -133.107128
11940.0 0.861517 -171.135718
11960.0 0.850894 151.075532
11980.0 0.84273 112.608682
12000.0 0.838832 72.878909
12020.0 0.840881 31.699818
12040.0 0.846825 -10.538405
12060.0 0.853848 -52.925644
12080.0 0.859021 -94.646221
12100.0 0.860113 -135.213666
12120.0 0.858466 -174.695919
12140.0 0.85501 146.387955
12160.0 0.851077 107.49097
12180.0 0.848156 68.068171
12200.0 0.845742 27.90188
12220.0 0.844569 -12.863948
12240.0 0.844207 -53.924853
12260.0 0.844176 -94.835644
12280.0 0.84522 -135.41525
12300.0 0.846411 -175.73501
12320.0 0.84797 144.022696
12340.0 0.849488 103.564809
12360.0 0.849675 62.865126
12380.0 0.848947 22.097594
12400.0 0.846655 -18.432156
12420.0 0.843591 -58.353179
12440.0 0.841141 -97.637358
12460.0 0.839272 -136.497883
12480.0 0.839236 -175.405761
12500.0 0.840423 144.998019
12520.0 0.842049 104.317885
12540.0 0.843726 62.445591
12560.0 0.843595 19.863868
12580.0 0.84208 -22.489339
12600.0 0.839776 -63.8025
12620.0 0.837227 -103.621332
12640.0 0.836117 -142.158087
12660.0 0.83587 179.898786
12680.0 0.836575 141.72351
12700.0 0.837705 102.406861
12720.0 0.837671 61.46981
12740.0 0.836945 19.031365
12760.0 0.835405 -24.10189
12780.0 0.834285 -66.643426
12800.0 0.835074 -107.698382
12820.0 0.836834 -147.032459
12840.0 0.839431 174.935784
12860.0 0.841141 137.299579
12880.0 0.840132 99.177254
12900.0 0.836287 59.75479
12920.0 0.829294 18.666573
12940.0 0.822463 -23.759624
12960.0 0.819441 -66.697625
12980.0 0.821739 -109.018742
13000.0 0.829369 -150.023934
13020.0 0.83838 170.304713
13040.0 0.845173 131.562553
13060.0 0.847008 92.987905
13080.0 0.841459 53.93996
13100.0 0.830485 14.00636
13120.0 0.817521 -26.918735
13140.0 0.808207 -68.422869
13160.0 0.807727 -109.965199
13180.0 0.81587 -151.018318
13200.0 0.830078 168.662204
13220.0 0.844445 128.853985
13240.0 0.852531 89.264236
13260.0 0.851302 49.540236
13280.0 0.839795 9.501974
13300.0 0.822919 -30.742581
13320.0 0.807855 -71.065971
13340.0 0.800115 -111.210786
13360.0 0.803543 -151.086673
13380.0 0.815982 169.125276
13400.0 0.832503 129.15671
13420.0 0.846294 88.570053
13440.0 0.849548 47.208006
13460.0 0.840722 5.280964
13480.0 0.82368 -36.763071
13500.0 0.806807 -78.260327
13520.0 0.798565 -118.829709
13540.0 0.800983 -158.414274
13560.0 0.813052 162.731649
13580.0 0.829736 123.953952
13600.0 0.843578 84.664328
13620.0 0.848956 44.384367
13640.0 0.841775 3.028862
13660.0 0.825643 -38.916349
13680.0 0.809337 -80.78631
13700.0 0.800236 -121.831028
13720.0 0.802886 -161.646904
13740.0 0.814914 159.614258
13760.0 0.831078 121.515807
13780.0 0.845307 83.271135
13800.0 0.850006 44.190724
13820.0 0.842479 3.86268
13840.0 0.824663 -37.797611
13860.0 0.804811 -80.262403
13880.0 0.79404 -122.757996
13900.0 0.796852 -164.478507
13920.0 0.8122 155.080778
13940.0 0.833338 115.733666
13960.0 0.850645 77.024114
13980.0 0.857484 38.317351
14000.0 0.849217 -0.96563
14020.0 0.828765 -41.093977
14040.0 0.805374 -82.235041
14060.0 0.789248 -124.162269
14080.0 0.789342 -166.373394
14100.0 0.805518 151.621335
14120.0 0.830294 110.237248
14140.0 0.853039 69.454382
14160.0 0.862305 29.135644
14180.0 0.854836 -10.81196
14200.0 0.83465 -50.595478
14220.0 0.810905 -90.288293
14240.0 0.795204 -130.018593
14260.0 0.79341 -169.846734
14280.0 0.807112 150.315389
14300.0 0.831417 110.330003
14320.0 0.855283 70.089683
14340.0 0.86833 29.460171
14360.0 0.862574 -11.597121
14380.0 0.840338 -52.840964
14400.0 0.813143 -94.127341
14420.0 0.792891 -135.234885
14440.0 0.789366 -175.901823
14460.0 0.803645 143.94867
14480.0 0.829777 104.348232
14500.0 0.858349 64.981316
14520.0 0.876181 25.495944
14540.0 0.87558 -14.276615
14560.0 0.856412 -54.494128
14580.0 0.826914 -95.084533
14600.0 0.801733 -135.985934
14620.0 0.79101 -177.043001
14640.0 0.799391 142.127151
14660.0 0.823383 101.648911
14680.0 0.851441 61.530283
14700.0 0.871958 21.585847
14720.0 0.874627 -18.464384
14740.0 0.858166 -58.691972
