! File created by SignalIntegrity v1.3.3: Signal and Power Integrity Tools
! https://github.com/TeledyneLeCroy/SignalIntegrity
# MHz S MA R 50.0
0.0 0.996137 180.0
20.0 1.000642 139.45493
40.0 1.012623 98.823348
60.0 1.02618 58.046247
80.0 1.034274 17.255198
100.0 1.033051 -23.361024
120.0 1.022703 -63.628069
140.0 1.008578 -103.501969
160.0 0.997037 -143.186549
180.0 0.992614 177.032809
200.0 0.997335 136.83204
220.0 1.008213 96.009374
240.0 1.01939 54.650453
260.0 1.024226 13.071738
280.0 1.018963 -28.211395
300.0 1.006466 -68.791299
320.0 0.992615 -108.598716
340.0 0.983681 -147.852893
360.0 0.983837 172.950807
380.0 0.992822 133.286065
400.0 1.007261 92.764099
420.0 1.019637 51.269885
440.0 1.021955 9.179021
460.0 1.011663 -32.840586
480.0 0.992657 -74.135729
500.0 0.973729 -114.378644
520.0 0.962405 -153.735469
540.0 0.962087 167.364538
560.0 0.973046 128.338385
580.0 0.990765 88.633791
600.0 1.007853 47.976867
620.0 1.015886 6.440763
640.0 1.009623 -35.44738
660.0 0.992472 -76.997736
680.0 0.97288 -117.753463
700.0 0.95945 -157.595223
720.0 0.957461 163.204295
740.0 0.966748 124.187516
760.0 0.983959 84.872056
780.0 1.002013 44.841066
800.0 1.012335 4.001681
820.0 1.009797 -37.431224
840.0 0.994976 -79.015096
860.0 0.97541 -120.288679
880.0 0.960138 -161.053595
900.0 0.954596 158.693584
920.0 0.960293 118.780621
940.0 0.973432 78.946659
960.0 0.987634 39.022504
980.0 0.996404 -1.098074
1000.0 0.995203 -41.366184
1020.0 0.985332 -81.675959
1040.0 0.97174 -122.015169
1060.0 0.96074 -162.408464
1080.0 0.957456 157.031454
1100.0 0.962366 116.241072
1120.0 0.9727 75.292859
1140.0 0.98272 34.334338
1160.0 0.986683 -6.35516
1180.0 0.983102 -46.560132
1200.0 0.973845 -86.25276
1220.0 0.96388 -125.593133
1240.0 0.958223 -164.978475
1260.0 0.959241 155.183474
1280.0 0.967077 114.588425
1300.0 0.977517 73.166824
1320.0 0.984358 31.262107
1340.0 0.983154 -10.546583
1360.0 0.973384 -51.646447
1380.0 0.960082 -91.699787
1400.0 0.949263 -130.837122
1420.0 0.94531 -169.470077
1440.0 0.950614 151.782084
1460.0 0.963317 112.31275
1480.0 0.978768 71.756106
1500.0 0.989458 30.094152
1520.0 0.988561 -12.150022
1540.0 0.976132 -54.175258
1560.0 0.958039 -95.317989
1580.0 0.942723 -135.296023
1600.0 0.936428 -174.334207
1620.0 0.94066 147.08047
1640.0 0.954127 108.354041
1660.0 0.971513 68.916127
1680.0 0.985239 28.48884
1700.0 0.988566 -12.877143
1720.0 0.978635 -54.745868
1740.0 0.960488 -96.511607
1760.0 0.942912 -137.758283
1780.0 0.933204 -178.304147
1800.0 0.935083 141.743358
1820.0 0.946636 102.108767
1840.0 0.962902 62.520963
1860.0 0.977048 22.723456
1880.0 0.98245 -17.35223
1900.0 0.977248 -57.652155
1920.0 0.963938 -98.107097
1940.0 0.948931 -138.641633
1960.0 0.939215 -179.29202
1980.0 0.93822 139.927305
2000.0 0.946058 99.071033
2020.0 0.958246 58.232614
2040.0 0.968249 17.631027
2060.0 0.971509 -22.553687
2080.0 0.966416 -62.244798
2100.0 0.956155 -101.531097
2120.0 0.945748 -140.76109
2140.0 0.939533 179.655893
2160.0 0.940636 139.331229
2180.0 0.947977 98.085608
2200.0 0.957495 56.149727
2220.0 0.963596 14.059375
2240.0 0.962062 -27.469341
2260.0 0.954176 -67.918333
2280.0 0.94401 -107.239953
2300.0 0.936336 -145.759027
2320.0 0.934977 175.87808
2340.0 0.940454 136.967969
2360.0 0.951321 96.957336
2380.0 0.962596 55.593361
2400.0 0.96765 13.214534
2420.0 0.963146 -29.385184
2440.0 0.950624 -71.300451
2460.0 0.936613 -111.938169
2480.0 0.927514 -151.314692
2500.0 0.926362 170.157157
2520.0 0.934005 131.821525
2540.0 0.947493 92.97023
2560.0 0.961659 53.115571
2580.0 0.970074 12.066971
2600.0 0.967287 -29.865034
2620.0 0.954373 -72.01254
2640.0 0.937481 -113.723137
2660.0 0.924312 -154.568831
2680.0 0.920423 165.45946
2700.0 0.926216 126.09071
2720.0 0.939193 86.946222
2740.0 0.953929 47.605798
2760.0 0.963786 7.844947
2780.0 0.964681 -32.392804
2800.0 0.955796 -73.016446
2820.0 0.941544 -113.844369
2840.0 0.928671 -154.795859
2860.0 0.922267 164.199287
2880.0 0.924953 123.197924
2900.0 0.93445 82.264602
2920.0 0.945667 41.577267
2940.0 0.953406 1.287887
2960.0 0.953889 -38.48133
2980.0 0.947936 -77.743037
3000.0 0.938713 -116.76425
3020.0 0.930239 -155.922415
3040.0 0.926431 164.313434
3060.0 0.928179 123.601194
3080.0 0.93433 81.939871
3100.0 0.941004 39.688024
3120.0 0.943572 -2.418022
3140.0 0.9409 -43.650708
3160.0 0.934452 -83.643218
3180.0 0.927863 -122.462506
3200.0 0.924625 -160.635046
3220.0 0.925948 161.12886
3240.0 0.932017 122.098244
3260.0 0.939986 81.701122
3280.0 0.945286 39.870421
3300.0 0.94419 -2.900974
3320.0 0.9358 -45.64559
3340.0 0.924536 -87.39757
3360.0 0.915938 -127.725625
3380.0 0.913412 -166.735481
3400.0 0.918376 155.009178
3420.0 0.928688 116.741958
3440.0 0.940656 77.773254
3460.0 0.949037 37.595947
3480.0 0.948557 -3.814684
3500.0 0.93875 -46.010586
3520.0 0.923729 -88.280448
3540.0 0.910737 -129.922981
3560.0 0.905706 -170.629441
3580.0 0.909692 149.54439
3600.0 0.920929 110.276884
3620.0 0.934496 71.091203
3640.0 0.944397 31.639688
3660.0 0.946458 -8.286779
3680.0 0.939007 -48.684919
3700.0 0.92564 -89.391033
3720.0 0.912489 -130.279689
3740.0 0.904975 -171.214773
3760.0 0.906494 147.864527
3780.0 0.915533 106.978987
3800.0 0.927696 66.218837
3820.0 0.937339 25.664519
3840.0 0.939614 -14.528039
3860.0 0.934385 -54.254215
3880.0 0.924404 -93.601562
3900.0 0.914307 -132.787944
3920.0 0.908747 -172.222349
3940.0 0.909441 147.693518
3960.0 0.916157 106.723662
3980.0 0.92509 64.88789
4000.0 0.930712 22.655558
4020.0 0.929974 -19.279447
4040.0 0.923025 -60.291212
4060.0 0.914047 -100.083629
4080.0 0.907631 -138.882552
4100.0 0.906175 -177.210761
4120.0 0.91076 144.22688
4140.0 0.919098 104.730525
4160.0 0.927145 63.910612
4180.0 0.930216 21.800896
4200.0 0.92514 -20.960432
4220.0 0.914572 -63.409352
4240.0 0.904019 -104.784091
4260.0 0.89848 -144.76416
4280.0 0.900615 176.400667
4300.0 0.909018 138.119162
4320.0 0.920736 99.698592
4340.0 0.930825 60.458735
4360.0 0.933751 20.051589
4380.0 0.927307 -21.47494
4400.0 0.913419 -63.659562
4420.0 0.899038 -105.785914
4440.0 0.891372 -147.296526
4460.0 0.893288 172.093687
4480.0 0.904092 132.304884
4500.0 0.918885 92.958724
4520.0 0.931285 53.656616
4540.0 0.93588 14.031944
4560.0 0.929498 -26.073112
4580.0 0.914938 -66.623803
4600.0 0.898656 -107.536988
4620.0 0.887893 -148.633635
4640.0 0.887935 170.223041
4660.0 0.898308 129.142722
4680.0 0.914523 88.23683
4700.0 0.929142 47.54226
4720.0 0.934913 7.174103
4740.0 0.929824 -32.771599
4760.0 0.916344 -72.319005
4780.0 0.900798 -111.601317
4800.0 0.890007 -150.957303
4820.0 0.887822 169.265564
4840.0 0.89559 128.799228
4860.0 0.909746 87.523721
4880.0 0.923303 45.668568
4900.0 0.929487 3.702052
4920.0 0.92475 -37.775199
4940.0 0.912451 -78.307642
4960.0 0.898988 -117.874877
4980.0 0.889874 -156.759392
5000.0 0.888936 164.504848
5020.0 0.89586 125.314784
5040.0 0.907848 85.22505
5060.0 0.919364 44.011125
5080.0 0.923708 1.935957
5100.0 0.918663 -40.347884
5120.0 0.906949 -82.11814
5140.0 0.895057 -122.855344
5160.0 0.889048 -162.529972
5180.0 0.890761 158.540532
5200.0 0.899579 119.837456
5220.0 0.911425 80.737589
5240.0 0.920343 40.811294
5260.0 0.921484 -0.126604
5280.0 0.912692 -41.883446
5300.0 0.898301 -83.95087
5320.0 0.885944 -125.822006
5340.0 0.881659 -167.081142
5360.0 0.88808 152.411398
5380.0 0.902151 112.517861
5400.0 0.917945 72.997494
5420.0 0.928689 33.518708
5440.0 0.928615 -6.128449
5460.0 0.917548 -46.046564
5480.0 0.899839 -86.322044
5500.0 0.883194 -126.955365
5520.0 0.875442 -167.958171
5540.0 0.879769 150.762995
5560.0 0.894914 109.409414
5580.0 0.914129 68.159599
5600.0 0.92814 27.263628
5620.0 0.930879 -13.088511
5640.0 0.921082 -52.826289
5660.0 0.903824 -92.032595
5680.0 0.886737 -131.064398
5700.0 0.876167 -170.334955
5720.0 0.87682 149.767401
5740.0 0.888432 108.996983
5760.0 0.906274 67.442936
5780.0 0.922157 25.443582
5800.0 0.927563 -16.398303
5820.0 0.920703 -57.484558
5840.0 0.905874 -97.572238
5860.0 0.890261 -136.767795
5880.0 0.880758 -175.53511
5900.0 0.880281 145.538882
5920.0 0.889109 105.94948
5940.0 0.903477 65.325927
5960.0 0.916129 23.704476
5980.0 0.920686 -18.499094
6000.0 0.914321 -60.624715
6020.0 0.901088 -102.031495
6040.0 0.888403 -142.489158
6060.0 0.881591 177.896295
6080.0 0.883585 138.777422
6100.0 0.892888 99.673294
6120.0 0.905177 60.219523
6140.0 0.914979 20.152662
6160.0 0.916588 -20.532428
6180.0 0.90912 -61.606603
6200.0 0.896195 -102.815022
6220.0 0.88413 -143.892825
6240.0 0.879286 175.27046
6260.0 0.883462 134.680469
6280.0 0.894941 94.328458
6300.0 0.908523 54.11437
6320.0 0.917214 14.015594
6340.0 0.917023 -25.973332
6360.0 0.907394 -65.90166
6380.0 0.892682 -105.833886
6400.0 0.879835 -145.981236
6420.0 0.874239 173.483958
6440.0 0.87927 132.514969
6460.0 0.892999 91.196776
6480.0 0.909082 49.857274
6500.0 0.920149 8.862874
6520.0 0.920393 -31.461014
6540.0 0.91036 -70.9678
6560.0 0.894897 -109.885001
6580.0 0.880102 -148.641202
6600.0 0.872233 172.188707
6620.0 0.874066 132.097174
6640.0 0.885429 90.906148
6660.0 0.901685 48.773822
6680.0 0.914358 6.316642
6700.0 0.917479 -35.668509
6720.0 0.909958 -76.607046
6740.0 0.896336 -116.317709
6760.0 0.883373 -155.143405
6780.0 0.875496 166.325487
6800.0 0.875748 127.472807
6820.0 0.883708 87.762236
6840.0 0.895713 47.025567
6860.0 0.906432 5.440329
6880.0 0.909778 -36.45889
6900.0 0.904433 -77.990493
6920.0 0.89374 -118.76171
6940.0 0.882721 -158.712538
6960.0 0.876586 161.869623
6980.0 0.877094 122.519848
7000.0 0.883692 82.867485
7020.0 0.893467 42.639461
7040.0 0.901109 1.855752
7060.0 0.903143 -39.226861
7080.0 0.898439 -80.302055
7100.0 0.889608 -121.084192
7120.0 0.881707 -161.543878
7140.0 0.878005 158.192526
7160.0 0.880408 117.976253
7180.0 0.887552 77.655786
7200.0 0.895457 37.28341
7220.0 0.900517 -2.999685
7240.0 0.899679 -43.031345
7260.0 0.893606 -82.699447
7280.0 0.885477 -122.160766
7300.0 0.878607 -161.69952
7320.0 0.876605 158.321712
7340.0 0.880098 117.609974
7360.0 0.887464 76.206832
7380.0 0.895187 34.422257
7400.0 0.898461 -7.163152
7420.0 0.895857 -47.977117
7440.0 0.888629 -87.803077
7460.0 0.879949 -126.762292
7480.0 0.87392 -165.358888
7500.0 0.872391 155.752062
7520.0 0.876393 116.009178
7540.0 0.884407 75.049753
7560.0 0.892255 33.040373
7580.0 0.896164 -9.389334
7600.0 0.893558 -51.394289
7620.0 0.88612 -92.270272
7640.0 0.877964 -131.882454
7660.0 0.872098 -170.540744
7680.0 0.871172 151.153195
7700.0 0.875097 112.479404
7720.0 0.882126 72.936027
7740.0 0.889468 32.284239
7760.0 0.892845 -9.242988
7780.0 0.890783 -51.022274
7800.0 0.884377 -92.42279
7820.0 0.876716 -133.006461
7840.0 0.871786 -172.789055
7860.0 0.870813 147.879322
7880.0 0.873867 108.565151
7900.0 0.879192 68.822191
7920.0 0.883454 28.488806
7940.0 0.88478 -12.330286
7960.0 0.882006 -53.340736
7980.0 0.876697 -94.149498
8000.0 0.871962 -134.59747
8020.0 0.869561 -174.724355
8040.0 0.87093 145.259293
8060.0 0.874967 105.046797
8080.0 0.879242 64.523337
8100.0 0.881679 23.73238
8120.0 0.880135 -17.062113
8140.0 0.875526 -57.497298
8160.0 0.870096 -97.416034
8180.0 0.866038 -136.84569
8200.0 0.865692 -176.098311
8220.0 0.868698 144.364235
8240.0 0.873787 104.178892
8260.0 0.878428 63.136956
8280.0 0.879283 21.461622
8300.0 0.875933 -20.292788
8320.0 0.869654 -61.521726
8340.0 0.863618 -101.777713
8360.0 0.861124 -141.092328
8380.0 0.862744 -179.846442
8400.0 0.868286 141.378691
8420.0 0.875148 101.921844
8440.0 0.879547 61.415695
8460.0 0.878971 19.858694
8480.0 0.872358 -22.261103
8500.0 0.863077 -64.133708
8520.0 0.855904 -105.134644
8540.0 0.853775 -144.9845
8560.0 0.858088 176.106376
8580.0 0.866656 137.570461
8600.0 0.876124 98.79177
8620.0 0.882489 59.17315
8640.0 0.881569 18.468435
8660.0 0.873358 -23.149708
8680.0 0.861107 -65.191512
8700.0 0.850643 -106.96732
8720.0 0.847258 -148.025369
8740.0 0.851627 171.758083
8760.0 0.862064 132.202676
8780.0 0.874132 92.859813
8800.0 0.882296 53.361338
8820.0 0.88321 13.459901
8840.0 0.875555 -26.864116
8860.0 0.862916 -67.392527
8880.0 0.851226 -107.937692
8900.0 0.845132 -148.324672
8920.0 0.847592 171.458192
8940.0 0.856878 131.243752
8960.0 0.868676 90.88354
8980.0 0.877634 50.227373
9000.0 0.878579 9.352437
9020.0 0.871435 -31.474706
9040.0 0.859757 -72.011567
9060.0 0.849141 -112.061912
9080.0 0.844928 -151.701651
9100.0 0.848266 168.805296
9120.0 0.857997 129.123032
9140.0 0.869712 88.853394
9160.0 0.877127 47.860735
9180.0 0.876442 6.285982
9200.0 0.867104 -35.457016
9220.0 0.854107 -76.803755
9240.0 0.844304 -117.438016
9260.0 0.841615 -157.293108
9280.0 0.847566 163.397642
9300.0 0.859235 124.146926
9320.0 0.871416 84.507449
9340.0 0.878543 44.101158
9360.0 0.875684 2.893164
9380.0 0.863961 -38.774375
9400.0 0.849108 -80.420177
9420.0 0.838375 -121.510443
9440.0 0.837452 -161.787597
9460.0 0.846292 158.688024
9480.0 0.86171 119.636399
9500.0 0.877652 80.543643
9520.0 0.886511 41.006347
9540.0 0.883975 0.796529
9560.0 0.86979 -40.077417
9580.0 0.850349 -81.320717
9600.0 0.835205 -122.622949
9620.0 0.830821 -163.643362
9640.0 0.839702 155.835819
9660.0 0.857917 115.754502
9680.0 0.877625 75.955631
9700.0 0.890623 36.160722
9720.0 0.89001 -3.811269
9740.0 0.875985 -43.994465
9760.0 0.854699 -84.452474
9780.0 0.835217 -125.160663
9800.0 0.826543 -166.102783
9820.0 0.831816 152.787332
9840.0 0.849009 111.675399
9860.0 0.870836 70.620463
9880.0 0.886815 29.747368
9900.0 0.890277 -10.795282
9920.0 0.879982 -50.924893
9940.0 0.86153 -90.603419
9960.0 0.843948 -130.040945
9980.0 0.833897 -169.51488
10000.0 0.835819 150.720036
10020.0 0.848801 110.401819
10040.0 0.867075 69.47739
10060.0 0.882536 28.013023
10080.0 0.886613 -13.695166
10100.0 0.877657 -55.174281
10120.0 0.860944 -96.127101
10140.0 0.844486 -136.426463
10160.0 0.836157 -176.203487
10180.0 0.838597 144.24037
10200.0 0.850566 104.64026
10220.0 0.867133 64.676857
10240.0 0.879992 24.222464
10260.0 0.883262 -16.637206
10280.0 0.875058 -57.693408
10300.0 0.859879 -98.609695
10320.0 0.846267 -139.221117
10340.0 0.840221 -179.481369
10360.0 0.844851 140.578907
10380.0 0.857919 100.754215
10400.0 0.872933 60.884335
10420.0 0.883013 20.786535
10440.0 0.881916 -19.637797
10460.0 0.869704 -60.332135
10480.0 0.852316 -101.296025
10500.0 0.837853 -142.443033
10520.0 0.834408 176.352215
10540.0 0.844158 135.235718
10560.0 0.863739 94.442393
10580.0 0.885517 54.042707
10600.0 0.899226 14.066798
10620.0 0.899138 -25.499464
10640.0 0.885003 -64.838805
10660.0 0.862495 -104.177305
10680.0 0.841323 -143.895914
10700.0 0.82937 175.698902
10720.0 0.832316 134.587014
10740.0 0.849598 92.940728
10760.0 0.873383 51.207164
10780.0 0.893148 9.829772
10800.0 0.899098 -30.874012
10820.0 0.889354 -70.743596
10840.0 0.869555 -110.033483
10860.0 0.847707 -149.210276
10880.0 0.833025 171.179429
10900.0 0.830922 130.68408
10920.0 0.842521 89.29346
10940.0 0.863643 47.296768
10960.0 0.883826 5.287584
10980.0 0.894087 -36.059591
11000.0 0.890764 -76.378113
11020.0 0.87685 -115.62019
11040.0 0.860125 -154.184484
11060.0 0.846671 167.303872
11080.0 0.841446 128.294596
11100.0 0.846122 88.32511
11120.0 0.85773 47.329152
11140.0 0.871085 5.563781
11160.0 0.878664 -36.478895
11180.0 0.876828 -78.16764
11200.0 0.867892 -119.17482
11220.0 0.856546 -159.463654
11240.0 0.84907 160.759792
11260.0 0.848542 121.119757
11280.0 0.854751 81.393328
11300.0 0.86524 41.40823
11320.0 0.873986 1.14944
11340.0 0.876643 -39.246833
11360.0 0.871519 -79.729304
11380.0 0.860543 -120.239988
11400.0 0.849812 -160.866859
11420.0 0.844146 158.26235
11440.0 0.846895 117.20984
11460.0 0.85758 76.104073
11480.0 0.870722 35.263594
11500.0 0.880672 -5.002669
11520.0 0.882315 -44.591794
11540.0 0.874829 -83.550802
11560.0 0.861963 -122.284471
11580.0 0.848126 -161.339862
11600.0 0.839479 158.776394
11620.0 0.839854 117.725078
11640.0 0.849499 75.728595
11660.0 0.865036 33.403912
11680.0 0.878302 -8.427631
11700.0 0.883366 -49.071488
11720.0 0.878725 -88.413219
11740.0 0.866323 -126.778971
11760.0 0.851665 -164.891978
11780.0 0.839074 156.35091
11800.0 0.833024 116.289427
11820.0 0.836578 74.598434
11840.0 0.848033 31.688017
11860.0 0.862843 -11.430259
11880.0 0.873691 -53.685409
11900.0 0.876133 -94.332009
11920.0 0.87128 -133.385561
11940.0 0.861417 -171.409882
11960.0 0.850828 150.79941
11980.0 0.84272 112.32552
12000.0 0.838881 72.585866
12020.0 0.840968 31.39788
12040.0 0.846914 -10.844886
12060.0 0.8539 -53.230846
12080.0 0.859021 -94.94554
12100.0 0.860077 -135.505979
12120.0 0.858421 -174.98286
12140.0 0.854983 146.103215
12160.0 0.851082 107.205093
12180.0 0.84819 67.779136
12200.0 0.845792 27.609029
12220.0 0.844612 -13.159728
12240.0 0.84423 -54.222018
12260.0 0.844179 -95.13333
12280.0 0.845212 -135.71328
12300.0 0.846413 -176.034023
12320.0 0.847993 143.722297
12340.0 0.849537 103.263844
12360.0 0.849739 62.565438
12380.0 0.849004 21.801883
12400.0 0.846692 -18.722078
12420.0 0.843598 -58.637724
12440.0 0.841126 -97.919189
12460.0 0.839253 -136.781698
12480.0 0.839231 -175.696495
12500.0 0.84045 144.696752
12520.0 0.84211 104.005426
12540.0 0.843808 62.126006
12560.0 0.843677 19.544704
12580.0 0.842139 -22.800135
12600.0 0.839804 -64.100626
12620.0 0.837229 -103.90816
12640.0 0.836107 -142.438899
12660.0 0.835868 179.61667
12680.0 0.836594 141.432978
12700.0 0.837755 102.103327
12720.0 0.837749 61.152896
12740.0 0.837036 18.706801
12760.0 0.835494 -24.42433
12780.0 0.834355 -66.955047
12800.0 0.83512 -107.995675
12820.0 0.836861 -147.318216
12840.0 0.839447 174.655184
12860.0 0.841157 137.016671
12880.0 0.840155 98.885232
12900.0 0.836321 59.449835
12920.0 0.829345 18.349098
12940.0 0.822532 -24.084075
12960.0 0.819528 -67.020529
12980.0 0.821833 -109.333459
13000.0 0.829453 -150.328252
13020.0 0.838447 170.008377
13040.0 0.845216 131.269356
13060.0 0.84703 92.693091
13080.0 0.841466 53.639923
13100.0 0.83049 13.700144
13120.0 0.817548 -27.229431
13140.0 0.80827 -68.734729
13160.0 0.807828 -110.274724
13180.0 0.815996 -151.324179
13200.0 0.830201 168.359195
13220.0 0.844541 128.551918
13240.0 0.852582 88.961213
13260.0 0.851305 49.235931
13280.0 0.83977 9.197265
13300.0 0.822895 -31.046158
13320.0 0.807864 -71.367205
13340.0 0.800173 -111.51031
13360.0 0.803644 -151.38678
13380.0 0.816109 168.820851
13400.0 0.832625 128.844239
13420.0 0.846374 88.248148
13440.0 0.849566 46.878583
13460.0 0.840687 4.949716
13480.0 0.823636 -37.089105
13500.0 0.806799 -78.576177
13520.0 0.798612 -119.134067
13540.0 0.801079 -158.710253
13560.0 0.813174 162.438202
13580.0 0.829856 123.656706
13600.0 0.843665 84.358251
13620.0 0.848986 44.068369
13640.0 0.841753 2.706362
13660.0 0.825605 -39.238439
13680.0 0.809329 -81.100533
13700.0 0.800281 -122.133496
13720.0 0.802972 -161.938397
13740.0 0.815016 159.328767
13760.0 0.831165 121.229098
13780.0 0.845349 82.976512
13800.0 0.849986 43.883377
13820.0 0.8424 3.541767
13840.0 0.824571 -38.128339
13860.0 0.804765 -80.59586
13880.0 0.794077 -123.086077
13900.0 0.796963 -164.796491
13920.0 0.812339 154.772556
13940.0 0.833452 115.431114
13960.0 0.850691 76.721382
13980.0 0.857438 38.00959
14000.0 0.849095 -1.281578
14020.0 0.828614 -41.419107
14040.0 0.805264 -82.567684
14060.0 0.789236 -124.498974
14080.0 0.789435 -166.709625
14100.0 0.805677 151.288716
14120.0 0.830444 109.908774
14140.0 0.853108 69.129728
14160.0 0.862263 28.814428
14180.0 0.854702 -11.129401
14200.0 0.834491 -50.908643
14220.0 0.810791 -90.597482
14240.0 0.795176 -130.324397
14260.0 0.793474 -170.150857
14280.0 0.807234 150.009983
14300.0 0.831536 110.019846
14320.0 0.855329 69.771691
14340.0 0.868251 29.134102
14360.0 0.862378 -11.92858
14380.0 0.840098 -53.173477
14400.0 0.812958 -94.456134
14420.0 0.792826 -135.55658
14440.0 0.789424 -176.214878
14460.0 0.803783 143.642843
14480.0 0.829921 104.045247
14500.0 0.858418 64.676443
14520.0 0.87612 25.18562
14540.0 0.875379 -14.593379
14560.0 0.856134 -54.816035
14580.0 0.826655 -95.409471
14600.0 0.801577 -136.3108
14620.0 0.79099 -177.364983
14640.0 0.799476 141.809164
14660.0 0.823501 101.333658
14680.0 0.851505 61.214304
14700.0 0.871895 21.266303
14720.0 0.874426 -18.788677
