! File created by SignalIntegrity v1.1.10: Signal and Power Integrity Tools
! https://github.com/TeledyneLeCroy/SignalIntegrity
# MHz S MA R 50.0
0.0 0.995987 180.0
20.0 1.000439 139.460745
40.0 1.01235 98.837776
60.0 1.025853 58.066751
80.0 1.033866 17.279868
100.0 1.032579 -23.332631
120.0 1.022188 -63.597977
140.0 1.008021 -103.470523
160.0 0.996453 -143.15389
180.0 0.991993 177.06657
200.0 0.996672 136.867998
220.0 1.007508 96.047802
240.0 1.018643 54.691757
260.0 1.023455 13.115827
280.0 1.018182 -28.165607
300.0 1.00568 -68.744447
320.0 0.991823 -108.551545
340.0 0.982865 -147.805495
360.0 0.982982 172.999137
380.0 0.991911 133.335976
400.0 1.006287 92.816734
420.0 1.018618 51.325749
440.0 1.020918 9.237684
460.0 1.01064 -32.780213
480.0 0.991665 -74.075376
500.0 0.972755 -114.319265
520.0 0.961432 -153.677162
540.0 0.961085 167.422362
560.0 0.971991 128.397199
580.0 0.989646 88.694978
600.0 1.006673 48.041639
620.0 1.014677 6.50936
640.0 1.008421 -35.376224
660.0 0.991301 -76.925867
680.0 0.971738 -117.682697
700.0 0.958317 -157.526349
720.0 0.956311 163.271735
740.0 0.965555 124.254663
760.0 0.982706 84.940745
780.0 1.000702 44.912913
800.0 1.010986 4.077532
820.0 1.008442 -37.351689
840.0 0.993641 -78.933567
860.0 0.974098 -120.207091
880.0 0.958838 -160.973417
900.0 0.953288 158.771826
920.0 0.95896 118.857599
940.0 0.972067 79.023558
960.0 0.98624 39.100761
980.0 0.994997 -1.017429
1000.0 0.993797 -41.282983
1020.0 0.983934 -81.590588
1040.0 0.970344 -121.928523
1060.0 0.959328 -162.32135
1080.0 0.956011 157.118612
1100.0 0.960884 116.328173
1120.0 0.971188 75.380301
1140.0 0.981203 34.422444
1160.0 0.985184 -6.266333
1180.0 0.981634 -46.470717
1200.0 0.972401 -86.163045
1220.0 0.962435 -125.50304
1240.0 0.956746 -164.88764
1260.0 0.957706 155.275635
1280.0 0.965474 114.682661
1300.0 0.975864 73.263425
1320.0 0.982698 31.360689
1340.0 0.981535 -10.447291
1360.0 0.971831 -51.548107
1380.0 0.958586 -91.603402
1400.0 0.947792 -130.742798
1420.0 0.943818 -169.376905
1440.0 0.949063 151.87574
1460.0 0.961681 112.408715
1480.0 0.977049 71.856068
1500.0 0.987699 30.198576
1520.0 0.986823 -12.042438
1540.0 0.974464 -54.067133
1560.0 0.956447 -95.212018
1580.0 0.941181 -135.193502
1600.0 0.934893 -174.234892
1620.0 0.939089 147.17807
1640.0 0.952487 108.45231
1660.0 0.969793 69.017513
1680.0 0.983457 28.595273
1700.0 0.986768 -12.765317
1720.0 0.976867 -54.630311
1740.0 0.958773 -96.395112
1760.0 0.941238 -137.6436
1780.0 0.931543 -178.192744
1800.0 0.933406 141.851564
1820.0 0.944925 102.215033
1840.0 0.961154 62.627334
1860.0 0.975277 22.831804
1880.0 0.980682 -17.240748
1900.0 0.975502 -57.537382
1920.0 0.962216 -97.989869
1940.0 0.947215 -138.523118
1960.0 0.937479 -179.173426
1980.0 0.936445 140.04514
2000.0 0.944244 99.187932
2020.0 0.956413 58.348772
2040.0 0.966429 17.746898
2060.0 0.969731 -22.437765
2080.0 0.964688 -62.128603
2100.0 0.954457 -101.414163
2120.0 0.944046 -140.642841
2140.0 0.937785 179.776184
2160.0 0.938814 139.454121
2180.0 0.946079 98.2111
2200.0 0.955558 56.277165
2220.0 0.96168 14.187175
2240.0 0.960218 -27.34308
2260.0 0.952421 -67.794889
2280.0 0.94232 -107.119465
2300.0 0.934663 -145.640283
2320.0 0.933268 175.997077
2340.0 0.938662 137.089526
2360.0 0.949426 97.083557
2380.0 0.96062 55.725113
2400.0 0.965657 13.350766
2420.0 0.961209 -29.247564
2440.0 0.948786 -71.165116
2460.0 0.934864 -111.807335
2480.0 0.925814 -151.188543
2500.0 0.924657 170.280253
2520.0 0.932248 131.944285
2540.0 0.945653 93.095627
2560.0 0.959734 53.246245
2580.0 0.968101 12.203994
2600.0 0.965324 -29.722873
2620.0 0.952468 -71.868388
2640.0 0.935646 -113.580658
2660.0 0.922524 -154.430328
2680.0 0.918647 165.593544
2700.0 0.924421 126.221571
2720.0 0.93736 87.076163
2740.0 0.952057 47.737238
2760.0 0.961894 7.979878
2780.0 0.962796 -32.253521
2800.0 0.953934 -72.873264
2820.0 0.939703 -113.698543
2840.0 0.926831 -154.649107
2860.0 0.920404 164.345481
2880.0 0.923057 123.342626
2900.0 0.93253 82.407424
2920.0 0.943752 41.718442
2940.0 0.95153 1.42779
2960.0 0.952073 -38.342173
2980.0 0.946173 -77.603774
3000.0 0.936975 -116.623796
3020.0 0.928481 -155.779372
3040.0 0.924612 164.460212
3060.0 0.926275 123.75212
3080.0 0.932356 82.094272
3100.0 0.939009 39.843773
3120.0 0.941623 -2.263725
3140.0 0.939041 -43.500223
3160.0 0.932686 -83.497377
3180.0 0.926156 -122.320131
3200.0 0.922926 -160.49366
3220.0 0.9242 161.272471
3240.0 0.93018 122.247197
3260.0 0.938048 81.857344
3280.0 0.94328 40.03371
3300.0 0.942188 -2.733814
3320.0 0.933865 -45.479506
3340.0 0.922697 -87.236661
3360.0 0.914178 -127.571406
3380.0 0.91169 -166.586571
3400.0 0.916643 155.155911
3420.0 0.926903 116.890338
3440.0 0.938798 77.926942
3460.0 0.947116 37.757138
3480.0 0.946612 -3.64617
3500.0 0.93683 -45.837728
3520.0 0.921862 -88.107785
3540.0 0.908919 -129.754206
3560.0 0.903917 -170.466107
3580.0 0.907904 149.703115
3600.0 0.919123 110.433405
3620.0 0.932666 71.248293
3640.0 0.942555 31.799762
3660.0 0.944625 -8.122559
3680.0 0.937201 -48.516782
3700.0 0.923861 -89.220169
3720.0 0.910719 -130.107739
3740.0 0.903188 -171.042971
3760.0 0.904672 148.035537
3780.0 0.913676 107.149127
3800.0 0.925826 66.388415
3820.0 0.935492 25.833575
3840.0 0.937821 -14.359645
3860.0 0.932656 -54.086544
3880.0 0.922722 -93.434222
3900.0 0.912634 -132.619709
3920.0 0.907039 -172.051622
3940.0 0.907665 147.868297
3960.0 0.914304 106.90329
3980.0 0.923187 65.071514
4000.0 0.928817 22.840659
4020.0 0.928146 -19.096433
4040.0 0.92129 -60.113124
4060.0 0.912391 -99.911108
4080.0 0.906016 -138.714078
4100.0 0.904552 -177.043097
4120.0 0.909086 144.397628
4140.0 0.917346 104.907813
4160.0 0.925322 64.096327
4180.0 0.928366 21.993753
4200.0 0.923321 -20.764876
4220.0 0.912824 -63.216787
4240.0 0.902346 -104.598601
4260.0 0.896859 -144.586367
4280.0 0.899012 176.573011
4300.0 0.907398 138.290078
4320.0 0.919077 99.872643
4340.0 0.929123 60.639605
4360.0 0.932025 20.24104
4380.0 0.925588 -21.278269
4400.0 0.911728 -63.459799
4420.0 0.897376 -105.587944
4440.0 0.889726 -147.103864
4460.0 0.891643 172.280405
4480.0 0.902441 132.487498
4500.0 0.917227 93.140337
4520.0 0.929634 53.840463
4540.0 0.934253 14.220075
4560.0 0.927908 -25.880209
4580.0 0.913379 -66.427147
4600.0 0.897103 -107.338599
4620.0 0.886315 -148.435465
4640.0 0.886313 170.419627
4660.0 0.896644 129.337449
4680.0 0.912844 88.430331
4700.0 0.92749 47.735143
4720.0 0.933329 7.366613
4740.0 0.928325 -32.579698
4760.0 0.914913 -72.127849
4780.0 0.899394 -111.410326
4800.0 0.888583 -150.765384
4820.0 0.886336 169.459944
4840.0 0.894024 128.997442
4860.0 0.908113 87.726265
4880.0 0.921655 45.874558
4900.0 0.927889 3.908781
4920.0 0.923244 -37.571076
4940.0 0.911036 -78.108402
4960.0 0.89763 -117.680776
4980.0 0.888527 -156.568487
5000.0 0.887558 164.695768
5020.0 0.894423 125.509352
5040.0 0.906349 85.426289
5060.0 0.91783 44.2199
5080.0 0.922188 2.150206
5100.0 0.9172 -40.132811
5120.0 0.905553 -81.907223
5140.0 0.89371 -122.651332
5160.0 0.887721 -162.332727
5180.0 0.889427 158.733733
5200.0 0.898224 120.030776
5220.0 0.910046 80.935266
5240.0 0.918955 41.016529
5260.0 0.920112 0.086813
5280.0 0.91135 -41.664193
5300.0 0.896985 -83.730204
5320.0 0.884631 -125.604619
5340.0 0.880332 -166.869824
5360.0 0.886737 152.616411
5380.0 0.900801 112.71856
5400.0 0.916615 73.197067
5420.0 0.927405 33.720012
5440.0 0.927394 -5.923534
5460.0 0.916386 -45.837522
5480.0 0.898704 -86.109534
5500.0 0.88204 -126.740651
5520.0 0.874231 -167.742973
5540.0 0.87849 150.977251
5560.0 0.893591 109.62203
5580.0 0.912813 68.370412
5600.0 0.926889 27.472735
5620.0 0.929728 -12.881274
5640.0 0.920028 -52.620893
5660.0 0.902826 -91.828289
5680.0 0.885741 -130.859882
5700.0 0.875122 -170.128523
5720.0 0.875697 149.977187
5740.0 0.887229 109.210889
5760.0 0.905032 67.660737
5780.0 0.920944 25.663402
5800.0 0.926438 -16.179426
5820.0 0.919683 -57.269411
5840.0 0.90493 -97.362013
5860.0 0.889342 -136.561475
5880.0 0.879818 -175.330284
5900.0 0.879285 145.74538
5920.0 0.888049 106.160713
5940.0 0.902373 65.543743
5960.0 0.915028 23.928676
5980.0 0.919641 -18.271468
6000.0 0.913354 -60.398143
6020.0 0.900183 -101.809741
6040.0 0.887522 -142.273912
6060.0 0.880701 178.10581
6080.0 0.882669 138.983635
6100.0 0.891946 99.879421
6120.0 0.904228 60.428787
6140.0 0.914054 20.367065
6160.0 0.915711 -20.312617
6180.0 0.908295 -61.382908
6200.0 0.895397 -102.590021
6220.0 0.883323 -143.668913
6240.0 0.878445 175.491572
6260.0 0.882583 134.898269
6280.0 0.894044 94.54361
6300.0 0.907647 54.328075
6320.0 0.916395 14.229208
6340.0 0.916279 -25.758874
6360.0 0.906713 -65.685727
6380.0 0.892026 -105.615898
6400.0 0.879159 -145.760984
6420.0 0.873508 173.706256
6440.0 0.878477 132.7384
6460.0 0.89217 91.419912
6480.0 0.908272 50.078672
6500.0 0.919409 9.081163
6520.0 0.919748 -31.246431
6540.0 0.909795 -70.756252
6560.0 0.894369 -109.674572
6580.0 0.879562 -148.429046
6600.0 0.87164 172.405274
6620.0 0.8734 132.31988
6640.0 0.884702 91.135044
6660.0 0.900947 49.006693
6680.0 0.913672 6.549626
6700.0 0.916888 -35.439603
6720.0 0.909454 -76.38472
6740.0 0.89588 -116.101678
6760.0 0.882919 -154.931342
6780.0 0.875007 166.537016
6800.0 0.875207 127.687183
6820.0 0.88312 87.981839
6840.0 0.89511 47.251193
6860.0 0.905862 5.67043
6880.0 0.909277 -36.227557
6900.0 0.904005 -77.761298
6920.0 0.893355 -118.536607
6940.0 0.882339 -158.491305
6960.0 0.876176 162.088586
6980.0 0.876644 122.738744
7000.0 0.88321 83.088393
7020.0 0.892982 42.863494
7040.0 0.900654 2.082899
7060.0 0.902743 -38.997816
7080.0 0.898092 -80.072793
7100.0 0.889291 -120.855884
7120.0 0.881386 -161.317075
7140.0 0.877659 158.417908
7160.0 0.880033 118.20044
7180.0 0.887164 77.878793
7200.0 0.895085 37.505183
7220.0 0.90019 -2.779335
7240.0 0.899407 -42.812194
7260.0 0.893377 -82.480497
7280.0 0.885265 -121.940403
7300.0 0.878381 -161.475775
7320.0 0.876343 158.550136
7340.0 0.879798 117.842987
7360.0 0.887147 76.442607
7380.0 0.894889 34.657387
7400.0 0.898214 -6.932101
7420.0 0.895672 -47.75212
7440.0 0.88849 -87.58369
7460.0 0.879826 -126.545737
7480.0 0.873786 -165.141308
7500.0 0.872225 155.974569
7520.0 0.876191 116.239224
7540.0 0.884186 75.287378
7560.0 0.892047 33.282611
7580.0 0.896004 -9.147858
7600.0 0.893453 -51.158695
7620.0 0.886055 -92.042953
7640.0 0.877912 -131.662547
7660.0 0.872034 -170.324889
7680.0 0.871083 151.369234
7700.0 0.874983 112.69952
7720.0 0.882001 73.162786
7740.0 0.889359 32.517757
7760.0 0.892776 -9.005038
7780.0 0.890765 -50.783736
7800.0 0.884395 -92.187048
7820.0 0.876744 -132.774755
7840.0 0.871801 -172.560603
7860.0 0.870802 148.106664
7880.0 0.873832 108.793751
7900.0 0.879148 69.053594
7920.0 0.883425 28.723382
7940.0 0.884786 -12.093592
7960.0 0.882052 -53.103556
7980.0 0.876775 -93.912963
8000.0 0.872052 -134.361745
8020.0 0.869643 -174.488516
8040.0 0.870997 145.49638
8060.0 0.87502 105.285696
8080.0 0.879293 64.763592
8100.0 0.881747 23.97227
8120.0 0.880228 -16.824579
8140.0 0.875645 -57.263327
8160.0 0.87023 -97.185247
8180.0 0.866175 -136.615918
8200.0 0.865826 -175.866573
8220.0 0.868827 144.600825
8240.0 0.873919 104.421878
8260.0 0.878577 63.385421
8280.0 0.879458 21.712317
8300.0 0.876134 -20.044381
8320.0 0.869867 -61.279036
8340.0 0.863828 -101.541409
8360.0 0.861321 -140.860433
8380.0 0.862927 -179.61508
8400.0 0.868464 141.613747
8420.0 0.875336 102.163764
8440.0 0.879763 61.665367
8460.0 0.879227 20.113653
8480.0 0.872645 -22.005713
8500.0 0.863372 -63.882895
8520.0 0.856185 -104.891146
8540.0 0.854031 -144.747642
8560.0 0.858325 176.339736
8580.0 0.866889 137.80474
8600.0 0.876374 99.03121
8620.0 0.88278 59.420322
8640.0 0.881912 18.72343
8660.0 0.873745 -22.889706
8680.0 0.861503 -64.930919
8700.0 0.851015 -106.710047
8720.0 0.84759 -147.773441
8740.0 0.851923 172.005171
8760.0 0.862348 132.447044
8780.0 0.874431 93.103992
8800.0 0.882637 53.607324
8820.0 0.883607 13.708275
8840.0 0.875997 -26.613841
8860.0 0.863375 -67.141286
8880.0 0.85167 -107.68616
8900.0 0.845541 -148.072634
8920.0 0.847968 171.711495
8940.0 0.857237 131.49932
8960.0 0.869049 91.141892
8980.0 0.878048 50.487717
9000.0 0.879043 9.61293
9020.0 0.871935 -31.216328
9040.0 0.860262 -71.756643
9060.0 0.849625 -111.809981
9080.0 0.845382 -151.45076
9100.0 0.848697 169.0582
9120.0 0.858429 129.380925
9140.0 0.870173 89.117954
9160.0 0.877643 48.131466
9180.0 0.877014 6.559709
9200.0 0.867701 -35.184659
9220.0 0.854688 -76.536332
9240.0 0.844839 -117.176883
9260.0 0.842102 -157.036888
9280.0 0.848025 163.652098
9300.0 0.8597 124.403496
9320.0 0.871927 84.769368
9340.0 0.879128 44.369458
9360.0 0.876338 3.166294
9380.0 0.864648 -38.500133
9400.0 0.849769 -80.148927
9420.0 0.838971 -121.244803
9440.0 0.83798 -161.528051
9460.0 0.846776 158.943368
9480.0 0.862197 119.890847
9500.0 0.878189 80.800562
9520.0 0.887134 41.268153
9540.0 0.884687 1.063662
9560.0 0.870553 -39.806142
9580.0 0.8511 -81.047419
9600.0 0.835891 -122.350021
9620.0 0.831423 -163.372452
9640.0 0.840243 156.104178
9660.0 0.858447 116.02117
9680.0 0.878205 76.222292
9700.0 0.891296 36.428674
9720.0 0.890783 -3.54128
9740.0 0.876822 -43.722192
9760.0 0.855536 -84.177704
9780.0 0.835995 -124.883103
9800.0 0.827234 -165.822779
9820.0 0.83243 153.068974
9840.0 0.849593 111.957555
9860.0 0.871453 70.901714
9880.0 0.887516 30.026201
9900.0 0.891073 -10.520448
9920.0 0.880834 -50.654585
9940.0 0.862382 -90.336456
9960.0 0.844754 -129.774905
9980.0 0.834635 -169.246636
10000.0 0.836501 150.993189
10020.0 0.849464 110.681549
10040.0 0.867772 69.76375
10060.0 0.883315 28.303635
10080.0 0.887483 -13.404282
10100.0 0.878576 -54.887149
10120.0 0.861845 -95.845965
10140.0 0.84532 -136.151052
10160.0 0.836913 -175.931961
10180.0 0.839294 144.510868
10200.0 0.851252 104.912729
10220.0 0.867861 64.953385
10240.0 0.880803 24.503667
10260.0 0.884164 -16.352754
10280.0 0.876008 -57.408171
10300.0 0.860813 -98.325873
10320.0 0.847132 -138.940113
10340.0 0.841003 -179.2033
10360.0 0.845575 140.854891
10380.0 0.858637 101.029772
10400.0 0.873707 61.161512
10420.0 0.883888 21.066688
10440.0 0.882891 -19.354054
10460.0 0.870735 -60.044891
10480.0 0.85333 -101.005859
10500.0 0.838784 -142.150925
10520.0 0.835232 176.644307
10540.0 0.844897 135.525602
10560.0 0.864458 94.728507
10580.0 0.886289 54.324329
10600.0 0.900103 14.344276
10620.0 0.900124 -25.225036
10640.0 0.886055 -64.56521
10660.0 0.863548 -103.901279
10680.0 0.842317 -143.614395
10700.0 0.830268 175.987679
10720.0 0.833125 134.882264
10740.0 0.850364 93.239363
10760.0 0.874184 51.505221
10780.0 0.894051 10.123429
10800.0 0.900113 -30.58678
10820.0 0.890441 -70.462154
10840.0 0.870645 -109.754732
10860.0 0.848743 -148.929637
10880.0 0.833975 171.465838
10900.0 0.831782 130.977986
10920.0 0.843326 89.593536
10940.0 0.864458 47.5987
10960.0 0.884712 5.585968
10980.0 0.895067 -35.769281
11000.0 0.891805 -76.097419
11020.0 0.877896 -115.346999
11040.0 0.861132 -153.914451
11060.0 0.847616 167.576011
11080.0 0.842336 128.573373
11100.0 0.846984 88.613085
11120.0 0.858609 47.626313
11140.0 0.872027 5.86694
11160.0 0.879683 -36.174697
11180.0 0.877897 -77.866978
11200.0 0.868953 -118.880159
11220.0 0.857551 -159.174697
11240.0 0.850002 161.044766
11260.0 0.849414 121.402985
11280.0 0.855603 81.676917
11300.0 0.866122 41.693455
11320.0 0.874936 1.436993
11340.0 0.877672 -38.956919
11360.0 0.872599 -79.43713
11380.0 0.86162 -119.945321
11400.0 0.850836 -160.569883
11420.0 0.845088 158.560709
11440.0 0.847763 117.507439
11460.0 0.858414 76.398017
11480.0 0.871577 35.55169
11500.0 0.88159 -4.721288
11520.0 0.883302 -44.315858
11540.0 0.875863 -83.276959
11560.0 0.863005 -122.008245
11580.0 0.849135 -161.056582
11600.0 0.840429 159.06954
11620.0 0.840738 118.027539
11640.0 0.850343 76.036016
11660.0 0.865893 33.709296
11680.0 0.879214 -8.130333
11700.0 0.884347 -48.7848
11720.0 0.87975 -88.135298
11740.0 0.867355 -126.504404
11760.0 0.852674 -164.614055
11780.0 0.840036 156.638523
11800.0 0.833932 116.590394
11820.0 0.837442 74.911479
11840.0 0.848885 32.006634
11860.0 0.863728 -11.115689
11880.0 0.874626 -53.382532
11900.0 0.877105 -94.043044
11920.0 0.872256 -133.107658
11940.0 0.862371 -171.136925
11960.0 0.851746 151.074228
11980.0 0.843602 112.607945
12000.0 0.839737 72.879166
12020.0 0.841819 31.701145
12040.0 0.84778 -10.53641
12060.0 0.854797 -52.923784
12080.0 0.859945 -94.645092
12100.0 0.861006 -135.213498
12120.0 0.859337 -174.696558
12140.0 0.855873 146.386965
12160.0 0.851946 107.490058
12180.0 0.849037 68.067753
12200.0 0.846637 27.902143
12220.0 0.845469 -12.863145
12240.0 0.845102 -53.923802
12260.0 0.845061 -94.83479
12280.0 0.846094 -135.414879
12300.0 0.847283 -175.73516
12320.0 0.848847 144.022127
12340.0 0.850374 103.564151
12360.0 0.850565 62.864645
12380.0 0.849829 22.097448
12400.0 0.847517 -18.431933
12420.0 0.844426 -58.352809
12440.0 0.841953 -97.637052
12460.0 0.840076 -136.497852
12480.0 0.840051 -175.406127
12500.0 0.841267 144.997363
12520.0 0.842929 104.317085
12540.0 0.844635 62.444915
12560.0 0.844509 19.863532
12580.0 0.842969 -22.48934
12600.0 0.84062 -63.802257
12620.0 0.838024 -103.62113
12640.0 0.836884 -142.158179
12660.0 0.83663 179.898293
12680.0 0.837354 141.722577
12700.0 0.838522 102.405703
12720.0 0.838531 61.468714
12740.0 0.837831 19.030647
12760.0 0.836285 -24.101993
12780.0 0.835129 -66.643074
12800.0 0.835869 -107.697912
12820.0 0.837587 -147.032274
12840.0 0.840161 174.935361
12860.0 0.841872 137.298505
12880.0 0.840886 99.175603
12900.0 0.837075 59.752902
12920.0 0.830114 18.664978
12940.0 0.823298 -23.76046
12960.0 0.820265 -66.697466
12980.0 0.822533 -109.017955
13000.0 0.830129 -150.023189
13020.0 0.839116 170.304862
13040.0 0.845898 131.561743
13060.0 0.847738 92.98618
13080.0 0.842201 53.937632
13100.0 0.831238 14.003996
13120.0 0.818277 -26.920376
13140.0 0.808955 -68.423343
13160.0 0.808459 -109.964548
13180.0 0.816586 -151.017147
13200.0 0.830785 168.663031
13220.0 0.845151 128.853875
13240.0 0.853244 89.262901
13260.0 0.85202 49.537871
13280.0 0.84051 9.499216
13300.0 0.823621 -30.744961
13320.0 0.808538 -71.067254
13340.0 0.80078 -111.210801
13360.0 0.804198 -151.085817
13380.0 0.816641 169.126308
13400.0 0.833181 129.157087
13420.0 0.846997 88.569259
13440.0 0.850272 47.20596
13460.0 0.841448 5.278159
13480.0 0.824385 -36.765626
13500.0 0.807477 -78.261808
13520.0 0.799197 -118.829839
13540.0 0.801587 -158.413416
13560.0 0.813644 162.73271
13580.0 0.830334 123.954516
13600.0 0.844197 84.66384
13620.0 0.849598 44.38267
13640.0 0.842429 3.026378
13660.0 0.82629 -38.918799
13680.0 0.809958 -80.787783
13700.0 0.800822 -121.831164
13720.0 0.80344 -161.646076
13740.0 0.815449 159.61535
13760.0 0.831611 121.516362
13780.0 0.845855 83.27064
13800.0 0.850578 44.189004
13820.0 0.843073 3.860001
13840.0 0.825268 -37.800364
13860.0 0.80541 -80.264187
13880.0 0.794617 -122.758161
13900.0 0.797402 -164.477274
13920.0 0.812727 155.082441
13940.0 0.833852 115.734809
13960.0 0.851159 77.024052
13980.0 0.858006 38.315862
14000.0 0.84975 -0.968205
14020.0 0.829305 -41.096885
14040.0 0.805914 -82.237159
14060.0 0.789782 -124.162729
14080.0 0.789864 -166.372162
14100.0 0.806028 151.623472
14120.0 0.830795 110.239045
14140.0 0.853533 69.454922
14160.0 0.862794 29.13465
14180.0 0.855316 -10.814157
14200.0 0.835117 -50.597968
14220.0 0.811358 -90.290083
14240.0 0.795642 -130.018959
14260.0 0.793836 -169.845554
14280.0 0.807531 150.317461
14300.0 0.831835 110.33201
14320.0 0.855709 70.090674
14340.0 0.868766 29.459607
14360.0 0.863013 -11.599046
14380.0 0.840772 -52.843465
14400.0 0.813563 -94.129225
14420.0 0.793293 -135.235211
14440.0 0.789748 -175.900456
14460.0 0.804009 143.951143
14480.0 0.83013 104.350738
14500.0 0.8587 64.982908
14520.0 0.876536 25.496104
14540.0 0.87594 -14.277906
14560.0 0.856774 -54.496218
14580.0 0.827272 -95.086413
14600.0 0.802083 -135.986592
14620.0 0.791346 -177.041929
14640.0 0.799712 142.129531
14660.0 0.823691 101.651652
14680.0 0.851742 61.532357
14700.0 0.872257 21.586578
14720.0 0.874928 -18.465032
