! File created by SignalIntegrity v1.1.10: Signal and Power Integrity Tools
! https://github.com/TeledyneLeCroy/SignalIntegrity
# MHz S MA R 50.0
0.0 0.993419 180.0
20.0 0.995369 140.721394
40.0 1.000858 101.640798
60.0 1.007304 62.859552
80.0 1.011842 24.454462
100.0 1.013028 -13.637301
120.0 1.010095 -51.551825
140.0 1.004657 -89.475597
160.0 0.998688 -127.662081
180.0 0.994119 -166.271909
200.0 0.992668 154.605119
220.0 0.993789 115.047629
240.0 0.996365 75.31626
260.0 0.998337 35.709258
280.0 0.997891 -3.456909
300.0 0.995306 -42.034999
320.0 0.991246 -80.077741
340.0 0.987644 -117.775332
360.0 0.98615 -155.476232
380.0 0.987085 166.506251
400.0 0.990352 127.932822
420.0 0.993668 88.735676
440.0 0.99464 49.125987
460.0 0.991716 9.45178
480.0 0.984667 -29.861544
500.0 0.97612 -68.530633
520.0 0.968769 -106.545505
540.0 0.965089 -144.084967
560.0 0.966575 178.462325
580.0 0.97226 140.692573
600.0 0.980354 102.290871
620.0 0.98709 63.110884
640.0 0.988816 23.343835
660.0 0.984338 -16.612769
680.0 0.974768 -56.263246
700.0 0.964357 -95.22727
720.0 0.957079 -133.438132
740.0 0.955254 -171.041884
760.0 0.959849 151.59777
780.0 0.968927 114.053212
800.0 0.979602 75.981728
820.0 0.98764 37.164669
840.0 0.988957 -2.299524
860.0 0.982806 -42.079014
880.0 0.971154 -81.725034
900.0 0.958933 -120.823866
920.0 0.950864 -159.233047
940.0 0.94911 162.985357
960.0 0.954236 125.56218
980.0 0.963777 88.107585
1000.0 0.974146 50.291664
1020.0 0.981311 11.850629
1040.0 0.981542 -27.237331
1060.0 0.974744 -66.777217
1080.0 0.963404 -106.45729
1100.0 0.952223 -145.899369
1120.0 0.945784 175.120363
1140.0 0.945601 136.68356
1160.0 0.951471 98.717587
1180.0 0.960631 60.985258
1200.0 0.969379 23.25269
1220.0 0.974766 -14.737775
1240.0 0.974287 -53.147806
1260.0 0.968475 -91.999837
1280.0 0.959646 -131.238774
1300.0 0.951139 -170.652117
1320.0 0.94653 149.994617
1340.0 0.946673 110.924664
1360.0 0.950969 72.314304
1380.0 0.957109 34.161246
1400.0 0.962007 -3.613714
1420.0 0.964149 -41.212465
1440.0 0.962504 -78.906487
1460.0 0.958106 -116.93102
1480.0 0.953012 -155.518954
1500.0 0.948955 165.273812
1520.0 0.947829 125.570771
1540.0 0.949287 85.664648
1560.0 0.952011 45.999824
1580.0 0.954404 6.918895
1600.0 0.954724 -31.386785
1620.0 0.953306 -68.96442
1640.0 0.95079 -106.114621
1660.0 0.948419 -143.218602
1680.0 0.947694 179.263653
1700.0 0.948612 140.990664
1720.0 0.951087 101.850827
1740.0 0.953504 61.993461
1760.0 0.953993 21.904826
1780.0 0.952081 -17.856719
1800.0 0.947837 -56.849669
1820.0 0.943207 -94.903401
1840.0 0.940006 -132.221155
1860.0 0.939295 -169.186698
1880.0 0.942016 153.675635
1900.0 0.947051 115.869999
1920.0 0.952777 77.111371
1940.0 0.956522 37.372222
1960.0 0.955643 -2.956104
1980.0 0.95033 -43.250089
2000.0 0.942322 -82.913432
2020.0 0.935007 -121.572827
2040.0 0.931289 -159.274758
2060.0 0.931943 163.674133
2080.0 0.937097 126.791763
2100.0 0.944673 89.540271
2120.0 0.95191 51.541323
2140.0 0.955926 12.59328
2160.0 0.954105 -27.156509
2180.0 0.947184 -67.271378
2200.0 0.937832 -107.227821
2220.0 0.929898 -146.547534
2240.0 0.926703 174.948153
2260.0 0.928675 137.180434
2280.0 0.935201 99.882234
2300.0 0.943804 62.635756
2320.0 0.951233 25.086315
2340.0 0.954997 -13.060094
2360.0 0.952893 -51.909252
2380.0 0.945728 -91.332396
2400.0 0.936228 -131.079113
2420.0 0.927894 -170.765923
2440.0 0.924186 149.923626
2460.0 0.925601 111.169115
2480.0 0.93115 73.02048
2500.0 0.938413 35.316648
2520.0 0.944186 -2.156859
2540.0 0.946839 -39.676927
2560.0 0.94518 -77.528353
2580.0 0.94009 -115.88727
2600.0 0.933769 -154.870117
2620.0 0.928244 165.614823
2640.0 0.925872 125.830984
2660.0 0.926805 86.132509
2680.0 0.930002 46.922318
2700.0 0.933962 8.411127
2720.0 0.936555 -29.377422
2740.0 0.937373 -66.626725
2760.0 0.936243 -103.721929
2780.0 0.933746 -141.063103
2800.0 0.931274 -179.065804
2820.0 0.929267 142.033051
2840.0 0.928603 102.291129
2860.0 0.928955 62.043699
2880.0 0.929368 21.909084
2900.0 0.929563 -17.542938
2920.0 0.928831 -55.98816
2940.0 0.927768 -93.424772
2960.0 0.927005 -130.223469
2980.0 0.926754 -166.899823
3000.0 0.927707 155.939347
3020.0 0.929047 117.773401
3040.0 0.930063 78.390792
3060.0 0.929719 37.946033
3080.0 0.927089 -2.921711
3100.0 0.923315 -43.383302
3120.0 0.919597 -82.79484
3140.0 0.917513 -120.885296
3160.0 0.918107 -157.886457
3180.0 0.920785 165.698884
3200.0 0.925136 129.229165
3220.0 0.929347 92.048744
3240.0 0.931562 53.734229
3260.0 0.930533 14.142891
3280.0 0.92552 -26.398021
3300.0 0.918623 -67.186402
3320.0 0.91252 -107.475204
3340.0 0.909466 -146.702541
3360.0 0.910761 175.234837
3380.0 0.915253 138.07529
3400.0 0.921624 101.352465
3420.0 0.927597 64.47505
3440.0 0.930662 26.981052
3460.0 0.929681 -11.438225
3480.0 0.92411 -50.803698
3500.0 0.916168 -90.803029
3520.0 0.909098 -130.974334
3540.0 0.905388 -170.783834
3560.0 0.906593 150.10905
3580.0 0.911347 111.77069
3600.0 0.917561 74.077971
3620.0 0.922856 36.700394
3640.0 0.924791 -0.695102
3660.0 0.923017 -38.424094
3680.0 0.917772 -76.735059
3700.0 0.911046 -115.683005
3720.0 0.905628 -155.20862
3740.0 0.903113 164.952068
3760.0 0.9046 125.166613
3780.0 0.908795 85.758198
3800.0 0.913541 46.993153
3820.0 0.917165 8.908455
3840.0 0.917953 -28.617289
3860.0 0.916231 -65.834086
3880.0 0.912687 -103.128902
3900.0 0.908527 -140.844844
3920.0 0.905623 -179.30034
3940.0 0.90444 141.375267
3960.0 0.905384 101.342829
3980.0 0.907458 60.98404
4000.0 0.908978 20.892562
4020.0 0.90946 -18.434995
4040.0 0.908419 -56.764238
4060.0 0.906802 -94.146115
4080.0 0.905642 -130.970349
4100.0 0.905185 -167.741758
4120.0 0.906011 154.972664
4140.0 0.907108 116.695463
4160.0 0.907583 77.264635
4180.0 0.906628 36.857827
4200.0 0.903657 -3.906332
4220.0 0.900178 -44.24505
4240.0 0.897494 -83.57273
4260.0 0.896836 -121.646012
4280.0 0.898862 -158.697104
4300.0 0.902479 164.778787
4320.0 0.906876 128.157292
4340.0 0.91007 90.787457
4360.0 0.910212 52.257442
4380.0 0.906725 12.449233
4400.0 0.89995 -28.277812
4420.0 0.893017 -69.175297
4440.0 0.888976 -109.472327
4460.0 0.889341 -148.608929
4480.0 0.894297 173.491587
4500.0 0.901527 136.512608
4520.0 0.908751 99.937726
4540.0 0.913289 63.125127
4560.0 0.912713 25.57639
4580.0 0.906956 -13.023319
4600.0 0.897327 -52.673258
4620.0 0.887934 -92.983589
4640.0 0.883061 -133.388295
4660.0 0.884451 -173.267736
4680.0 0.891762 147.746223
4700.0 0.90153 109.659865
4720.0 0.910013 72.251109
4740.0 0.914271 35.079418
4760.0 0.912157 -2.28589
4780.0 0.904622 -40.209239
4800.0 0.894015 -78.934151
4820.0 0.884486 -118.418896
4840.0 0.88039 -158.429125
4860.0 0.883129 161.481256
4880.0 0.89189 121.787058
4900.0 0.902714 82.763421
4920.0 0.910973 44.518304
4940.0 0.913882 6.901562
4960.0 0.909974 -30.369262
4980.0 0.90107 -67.627558
5000.0 0.890307 -105.272026
5020.0 0.88138 -143.566359
5040.0 0.878167 177.348753
5060.0 0.881611 137.570983
5080.0 0.890552 97.466467
5100.0 0.901059 57.470355
5120.0 0.908185 18.044913
5140.0 0.909639 -20.549232
5160.0 0.905037 -58.321326
5180.0 0.896835 -95.4756
5200.0 0.888421 -132.452581
5220.0 0.882274 -169.710469
5240.0 0.880844 152.327134
5260.0 0.884108 113.379502
5280.0 0.890603 73.499741
5300.0 0.897485 33.000105
5320.0 0.901036 -7.528295
5340.0 0.900282 -47.470001
5360.0 0.895975 -86.467283
5380.0 0.890477 -124.435588
5400.0 0.886656 -161.648201
5420.0 0.885497 161.453294
5440.0 0.887684 124.379423
5460.0 0.891996 86.639495
5480.0 0.896128 47.981291
5500.0 0.898124 8.384974
5520.0 0.896094 -31.834781
5540.0 0.891131 -72.111946
5560.0 0.885746 -111.934208
5580.0 0.882377 -150.935718
5600.0 0.883069 170.916736
5620.0 0.887132 133.386011
5640.0 0.893136 96.123303
5660.0 0.898692 58.674919
5680.0 0.900889 20.715072
5700.0 0.898799 -17.941884
5720.0 0.892501 -57.277839
5740.0 0.884762 -97.005281
5760.0 0.87938 -136.766141
5780.0 0.878536 -176.158189
5800.0 0.883195 145.076987
5820.0 0.891226 106.950863
5840.0 0.89944 69.336913
5860.0 0.904828 31.915034
5880.0 0.904468 -5.645333
5900.0 0.898366 -43.633954
5920.0 0.88817 -82.283495
5940.0 0.877655 -121.598536
5960.0 0.871657 -161.436316
5980.0 0.87254 158.550204
6000.0 0.880542 118.802238
6020.0 0.892304 79.620826
6040.0 0.902755 41.182978
6060.0 0.908195 3.415667
6080.0 0.906093 -33.91883
6100.0 0.897493 -71.132891
6120.0 0.885443 -108.649165
6140.0 0.873923 -146.784458
6160.0 0.867761 174.26889
6180.0 0.869147 134.571677
6200.0 0.877969 94.507605
6220.0 0.890738 54.550594
6240.0 0.901678 15.190564
6260.0 0.90697 -23.304421
6280.0 0.904685 -60.97051
6300.0 0.896266 -98.040892
6320.0 0.885188 -134.985125
6340.0 0.874754 -172.280897
6360.0 0.868961 149.670444
6380.0 0.8696 110.644551
6400.0 0.876468 70.792307
6420.0 0.886962 30.504886
6440.0 0.895935 -9.632363
6460.0 0.900031 -49.090415
6480.0 0.897948 -87.653306
6500.0 0.891106 -125.366158
6520.0 0.882996 -162.589327
6540.0 0.876125 160.20007
6560.0 0.873146 122.565959
6580.0 0.874836 84.157443
6600.0 0.88007 44.944718
6620.0 0.886916 5.145469
6640.0 0.891827 -34.797438
6660.0 0.893096 -74.358974
6680.0 0.890786 -113.239588
6700.0 0.886119 -151.350423
6720.0 0.88178 171.118954
6740.0 0.878961 133.812081
6760.0 0.878597 96.394739
6780.0 0.88059 58.531001
6800.0 0.883303 20.084481
6820.0 0.885668 -18.913726
6840.0 0.885956 -58.287196
6860.0 0.88397 -97.702075
6880.0 0.880968 -136.907197
6900.0 0.878042 -175.718581
6920.0 0.877125 145.905592
6940.0 0.87846 107.841561
6960.0 0.881434 69.964278
6980.0 0.885072 32.069668
7000.0 0.887133 -5.991777
7020.0 0.886869 -44.306713
7040.0 0.883923 -82.961916
7060.0 0.879203 -121.92176
7080.0 0.875121 -161.150209
7100.0 0.87301 159.463796
7120.0 0.874209 120.119302
7140.0 0.878203 80.979516
7160.0 0.882982 42.250929
7180.0 0.887006 4.018069
7200.0 0.888163 -33.760731
7220.0 0.886239 -71.211705
7240.0 0.881994 -108.637616
7260.0 0.876536 -146.32718
7280.0 0.872333 175.440355
7300.0 0.870551 136.510164
7320.0 0.872122 97.006967
7340.0 0.876605 57.216363
7360.0 0.881614 17.608201
7380.0 0.885468 -21.406638
7400.0 0.88627 -59.65818
7420.0 0.883783 -97.182019
7440.0 0.879235 -134.318368
7460.0 0.873616 -171.507095
7480.0 0.869218 150.8005
7500.0 0.867205 112.235208
7520.0 0.868181 72.770239
7540.0 0.872043 32.664778
7560.0 0.876583 -7.512907
7580.0 0.880322 -47.1242
7600.0 0.881883 -85.802569
7620.0 0.880875 -123.464382
7640.0 0.878489 -160.405344
7660.0 0.875094 162.883294
7680.0 0.871978 125.891756
7700.0 0.869798 88.132328
7720.0 0.868659 49.413841
7740.0 0.869159 9.822289
7760.0 0.870362 -30.244047
7780.0 0.871873 -70.183022
7800.0 0.873162 -109.550984
7820.0 0.873425 -148.115378
7840.0 0.873204 174.024074
7860.0 0.872186 136.524298
7880.0 0.870753 99.020742
7900.0 0.869407 61.12473
7920.0 0.867879 22.660608
7940.0 0.866988 -16.338162
7960.0 0.866519 -55.669202
7980.0 0.866549 -94.959776
8000.0 0.867331 -133.952315
8020.0 0.868021 -172.507005
8040.0 0.86877 149.341177
8060.0 0.868903 111.375859
8080.0 0.867972 73.418007
8100.0 0.8664 35.275063
8120.0 0.863936 -3.11696
8140.0 0.861749 -41.692269
8160.0 0.860462 -80.384932
8180.0 0.8603 -119.05816
8200.0 0.861716 -157.687138
8220.0 0.863467 163.690868
8240.0 0.864957 125.038179
8260.0 0.865318 86.261684
8280.0 0.863836 47.403799
8300.0 0.861506 8.546231
8320.0 0.858784 -30.1923
8340.0 0.857029 -68.656281
8360.0 0.857108 -106.849622
8380.0 0.858549 -144.830078
8400.0 0.861277 177.216142
8420.0 0.863651 139.028632
8440.0 0.864534 100.452526
8460.0 0.863363 61.389776
8480.0 0.859717 21.984791
8500.0 0.855418 -17.457773
8520.0 0.851943 -56.618771
8540.0 0.850786 -95.195241
8560.0 0.852899 -133.154091
8580.0 0.857057 -170.647676
8600.0 0.862261 152.018505
8620.0 0.866229 114.420511
8640.0 0.866919 76.276895
8660.0 0.863909 37.423319
8680.0 0.857386 -2.026676
8700.0 0.850298 -41.70167
8720.0 0.845543 -81.196191
8740.0 0.844811 -120.111834
8760.0 0.848782 -158.327808
8780.0 0.855236 164.018088
8800.0 0.861914 126.637327
8820.0 0.866086 89.082478
8840.0 0.865317 51.023778
8860.0 0.859822 12.250385
8880.0 0.850828 -27.222774
8900.0 0.842117 -67.080673
8920.0 0.837549 -106.935585
8940.0 0.83862 -146.352926
8960.0 0.845446 174.902784
8980.0 0.855 136.782806
9000.0 0.863783 99.105348
9020.0 0.868773 61.51414
9040.0 0.867337 23.721769
9060.0 0.860245 -14.46124
9080.0 0.849701 -53.130987
9100.0 0.839771 -92.16477
9120.0 0.83481 -131.409607
9140.0 0.836195 -170.64506
9160.0 0.843704 150.31146
9180.0 0.853979 111.473605
9200.0 0.862589 72.843265
9220.0 0.866512 34.320127
9240.0 0.86368 -4.168053
9260.0 0.855832 -42.625854
9280.0 0.846286 -81.104004
9300.0 0.838613 -119.558324
9320.0 0.836285 -157.991119
9340.0 0.839472 163.579339
9360.0 0.847013 125.159889
9380.0 0.855806 86.654315
9400.0 0.861707 48.051246
9420.0 0.862728 9.350801
9440.0 0.857978 -29.412187
9460.0 0.849788 -68.11063
9480.0 0.841954 -106.715376
9500.0 0.837244 -145.184274
9520.0 0.838065 176.443385
9540.0 0.843556 138.027235
9560.0 0.851363 99.475596
9580.0 0.858333 60.646564
9600.0 0.860676 21.544704
9620.0 0.857802 -17.696465
9640.0 0.850923 -56.905809
9660.0 0.84338 -95.817257
9680.0 0.839234 -134.30767
9700.0 0.839801 -172.349328
9720.0 0.845352 149.97117
9740.0 0.853452 112.379719
9760.0 0.860412 74.632329
9780.0 0.863445 36.446856
9800.0 0.860013 -2.333744
9820.0 0.851392 -41.660642
9840.0 0.841075 -81.386173
9860.0 0.833354 -121.151725
9880.0 0.832361 -160.617133
9900.0 0.838164 160.450604
9920.0 0.848805 122.151946
9940.0 0.860321 84.29494
9960.0 0.867697 46.623208
9980.0 0.868364 8.810776
10000.0 0.861102 -29.447408
10020.0 0.848636 -68.270169
10040.0 0.836341 -107.695403
10060.0 0.829168 -147.50446
10080.0 0.831179 172.665149
10100.0 0.841487 133.150149
10120.0 0.855897 94.241124
10140.0 0.868907 55.945246
10160.0 0.874618 18.137247
10180.0 0.871221 -19.406205
10200.0 0.859656 -57.028215
10220.0 0.844103 -94.980863
10240.0 0.831069 -133.501919
10260.0 0.825305 -172.617285
10280.0 0.830117 147.90436
10300.0 0.84398 108.367751
10320.0 0.861249 69.163811
10340.0 0.875545 30.493817
10360.0 0.880602 -7.611702
10380.0 0.874978 -45.243788
10400.0 0.86099 -82.7235
10420.0 0.84335 -120.373726
10440.0 0.829031 -158.5409
10460.0 0.822864 162.563184
10480.0 0.827932 123.0329
10500.0 0.842994 83.098587
10520.0 0.861761 43.183735
10540.0 0.877209 3.665893
10560.0 0.882862 -35.241391
10580.0 0.877365 -73.444243
10600.0 0.864173 -111.153102
10620.0 0.848122 -148.687046
10640.0 0.835607 173.583993
10660.0 0.830454 135.314707
10680.0 0.834233 96.435106
10700.0 0.845719 57.007813
10720.0 0.85941 17.31892
10740.0 0.869984 -22.242375
10760.0 0.873048 -61.393839
10780.0 0.867933 -99.912589
10800.0 0.858224 -137.848984
10820.0 0.847569 -175.407239
10840.0 0.840424 147.167557
10860.0 0.839043 109.548987
10880.0 0.843229 71.570642
10900.0 0.851639 33.103378
10920.0 0.859872 -5.862771
10940.0 0.864476 -45.166681
10960.0 0.863412 -84.65607
10980.0 0.856968 -124.079601
11000.0 0.84908 -163.275994
11020.0 0.842921 157.812385
11040.0 0.841283 119.244786
11060.0 0.844849 80.923117
11080.0 0.851215 42.771561
11100.0 0.858055 4.659538
11120.0 0.861729 -33.603157
11140.0 0.860492 -72.104346
11160.0 0.855164 -110.977472
11180.0 0.847545 -150.214969
11200.0 0.84186 170.315095
11220.0 0.840562 130.804561
11240.0 0.844215 91.60636
11260.0 0.85171 52.941002
11280.0 0.85906 14.908223
11300.0 0.863606 -22.559676
11320.0 0.863109 -59.790652
11340.0 0.857091 -97.130252
11360.0 0.848056 -135.019579
11380.0 0.838631 -173.780858
11400.0 0.833295 146.558442
11420.0 0.834803 106.226448
11440.0 0.842609 65.84099
11460.0 0.854136 26.029649
11480.0 0.863824 -12.79846
11500.0 0.868049 -50.513591
11520.0 0.865527 -87.423615
11540.0 0.856664 -123.993287
11560.0 0.845175 -160.828208
11580.0 0.834404 161.478322
11600.0 0.828664 122.648417
11620.0 0.831006 82.709019
11640.0 0.840414 42.212853
11660.0 0.853713 1.948844
11680.0 0.86474 -37.451901
11700.0 0.869082 -75.643368
11720.0 0.865932 -112.817079
11740.0 0.855904 -149.459139
11760.0 0.842835 173.784074
11780.0 0.830358 136.204302
11800.0 0.822516 97.416733
11820.0 0.823137 57.369018
11840.0 0.831832 16.554758
11860.0 0.845763 -24.161911
11880.0 0.858945 -64.048983
11900.0 0.865931 -102.647112
11920.0 0.86544 -140.031163
11940.0 0.857607 -176.643444
11960.0 0.845681 146.940102
11980.0 0.833337 110.019393
12000.0 0.82383 72.143183
12020.0 0.821031 33.11912
12040.0 0.825306 -6.842269
12060.0 0.835177 -47.110679
12080.0 0.846618 -87.073898
12100.0 0.854416 -126.235994
12120.0 0.856683 -164.480824
12140.0 0.852617 157.938768
12160.0 0.844064 120.671824
12180.0 0.834245 83.227709
12200.0 0.825503 45.293124
12220.0 0.821323 6.754449
12240.0 0.822558 -32.330982
12260.0 0.828512 -71.633307
12280.0 0.83719 -110.892389
12300.0 0.844345 -149.891167
12320.0 0.847869 171.458781
12340.0 0.846297 133.037338
12360.0 0.840139 94.773083
12380.0 0.832389 56.52076
12400.0 0.825051 18.223039
12420.0 0.821107 -20.05682
12440.0 0.821518 -58.317572
12460.0 0.825348 -96.471958
12480.0 0.831644 -134.580752
12500.0 0.837227 -172.780925
12520.0 0.840409 148.826824
12540.0 0.840005 110.084332
12560.0 0.835586 71.060291
12580.0 0.829595 31.922403
12600.0 0.823626 -7.086966
12620.0 0.819989 -45.654457
12640.0 0.819902 -83.721508
12660.0 0.822281 -121.350667
12680.0 0.826695 -158.826783
12700.0 0.830703 163.409222
12720.0 0.83267 125.051494
12740.0 0.83199 85.869647
12760.0 0.828134 46.017062
12780.0 0.823614 5.957888
12800.0 0.820172 -33.765978
12820.0 0.81911 -72.614518
12840.0 0.821099 -110.468522
12860.0 0.824076 -147.525382
12880.0 0.827117 175.777262
12900.0 0.828371 138.781674
12920.0 0.826621 100.991532
12940.0 0.822792 62.042874
12960.0 0.817528 22.005245
12980.0 0.813907 -18.540125
13000.0 0.813811 -58.838894
13020.0 0.816972 -98.121874
13040.0 0.822759 -136.106135
13060.0 0.828005 -173.0064
13080.0 0.830908 150.684359
13100.0 0.829963 114.183227
13120.0 0.823961 76.83669
13140.0 0.814987 38.153491
13160.0 0.805457 -1.956868
13180.0 0.799998 -42.939556
13200.0 0.801911 -83.941397
13220.0 0.810003 -124.021835
13240.0 0.821726 -162.69046
13260.0 0.831997 159.923942
13280.0 0.837078 123.405119
13300.0 0.835474 87.035433
13320.0 0.826357 50.170401
13340.0 0.813185 12.327488
13360.0 0.800228 -26.739892
13380.0 0.792891 -66.713721
13400.0 0.795389 -106.9886
13420.0 0.806151 -146.796092
13440.0 0.821417 174.405392
13460.0 0.834913 136.610588
13480.0 0.841179 99.565626
13500.0 0.838445 62.715819
13520.0 0.826144 25.481521
13540.0 0.808533 -12.565296
13560.0 0.791637 -51.736113
13580.0 0.781734 -91.850512
13600.0 0.784168 -132.429839
13620.0 0.797506 -172.83419
13640.0 0.816663 147.51037
13660.0 0.834044 108.714879
13680.0 0.842271 70.711488
13700.0 0.839497 33.229168
13720.0 0.82654 -4.106141
13740.0 0.808775 -41.542907
13760.0 0.793308 -79.377317
13780.0 0.785167 -117.655029
13800.0 0.788421 -156.279073
13820.0 0.801342 164.863284
13840.0 0.818915 125.982787
13860.0 0.834419 87.07536
13880.0 0.840285 48.163225
13900.0 0.834729 9.275581
13920.0 0.819827 -29.63987
13940.0 0.801859 -68.490757
13960.0 0.788983 -107.269531
13980.0 0.785337 -145.88225
14000.0 0.793073 175.807427
14020.0 0.809248 137.722881
14040.0 0.827594 99.80729
14060.0 0.842005 61.83657
14080.0 0.845704 23.64315
14100.0 0.837664 -14.768393
14120.0 0.821289 -53.426191
14140.0 0.802974 -92.167628
14160.0 0.791066 -130.8792
14180.0 0.789056 -169.470988
14200.0 0.797668 152.17336
14220.0 0.813352 113.885428
14240.0 0.828879 75.505007
14260.0 0.83859 36.799132
14280.0 0.837297 -2.406956
14300.0 0.825831 -41.997488
14320.0 0.810234 -81.831455
14340.0 0.797161 -121.553014
14360.0 0.793473 -160.792792
14380.0 0.800019 160.618637
14400.0 0.813936 122.759279
14420.0 0.830424 85.301012
14440.0 0.841909 47.818441
14460.0 0.844181 9.881916
14480.0 0.834973 -28.926415
14500.0 0.817344 -68.640201
14520.0 0.799992 -109.098486
14540.0 0.790337 -149.771673
14560.0 0.793955 170.096711
14580.0 0.809422 130.964465
14600.0 0.829995 93.036937
14620.0 0.84891 56.021873
14640.0 0.858125 19.392274
14660.0 0.854509 -17.352653
14680.0 0.838882 -54.823284
14700.0 0.816079 -93.347864
14720.0 0.79638 -133.04604
14740.0 0.78772 -173.621454
