! File created by SignalIntegrity v1.3.3: Signal and Power Integrity Tools
! https://github.com/TeledyneLeCroy/SignalIntegrity
# MHz S MA R 50.0
0.0 0.993464 180.0
20.0 0.995387 140.711886
40.0 1.000845 101.625249
60.0 1.007289 62.839559
80.0 1.011831 24.430633
100.0 1.013024 -13.663921
120.0 1.0101 -51.580913
140.0 1.004665 -89.50688
160.0 0.9987 -127.695453
180.0 0.99413 -166.307584
200.0 0.992678 154.567204
220.0 0.993795 115.007475
240.0 0.996367 75.274123
260.0 0.998336 35.66562
280.0 0.997888 -3.50174
300.0 0.995303 -42.080694
320.0 0.991246 -80.124316
340.0 0.987649 -117.823057
360.0 0.986159 -155.525426
380.0 0.987099 166.455096
400.0 0.990366 127.879493
420.0 0.99368 88.680218
440.0 0.994645 49.068769
460.0 0.991715 9.393539
480.0 0.984663 -29.920226
500.0 0.976117 -68.589388
520.0 0.968771 -106.60439
540.0 0.965099 -144.144508
560.0 0.966592 178.40149
580.0 0.972282 140.629665
600.0 0.980374 102.225386
620.0 0.987104 63.042826
640.0 0.988819 23.27371
660.0 0.98433 -16.683892
680.0 0.974757 -56.334359
700.0 0.964351 -95.29775
720.0 0.957084 -133.507886
740.0 0.955271 -171.111478
760.0 0.959877 151.527526
780.0 0.968961 113.981348
800.0 0.979633 75.907464
820.0 0.98766 37.087803
840.0 0.988961 -2.378628
860.0 0.982797 -42.159337
880.0 0.971142 -81.805441
900.0 0.958927 -120.903581
920.0 0.950872 -159.311785
940.0 0.949133 162.90717
960.0 0.95427 125.483741
980.0 0.963816 88.027895
1000.0 0.974181 50.209762
1020.0 0.981332 11.766069
1040.0 0.981546 -27.324472
1060.0 0.974734 -66.866198
1080.0 0.963392 -106.547008
1100.0 0.952218 -145.988866
1120.0 0.945794 175.031756
1140.0 0.945626 136.595867
1160.0 0.951506 98.630333
1180.0 0.960668 60.897677
1200.0 0.96941 23.163835
1220.0 0.974785 -14.828574
1240.0 0.974293 -53.240915
1260.0 0.968471 -92.095153
1280.0 0.959641 -131.335681
1300.0 0.951142 -170.749812
1320.0 0.946546 149.89707
1340.0 0.946701 110.827906
1360.0 0.951002 72.2185
1380.0 0.957139 34.066169
1400.0 0.962031 -3.708773
1420.0 0.964163 -41.308338
1440.0 0.962511 -79.004038
1460.0 0.95811 -117.030974
1480.0 0.953019 -155.621536
1500.0 0.948968 165.168845
1520.0 0.947848 125.464331
1540.0 0.949311 85.558029
1560.0 0.952031 45.894197
1580.0 0.954418 6.815046
1600.0 0.954732 -31.488879
1620.0 0.95331 -69.065433
1640.0 0.950796 -106.215664
1660.0 0.94843 -143.321058
1680.0 0.947714 179.158657
1700.0 0.948639 140.88241
1720.0 0.951114 101.739423
1740.0 0.953525 61.87999
1760.0 0.954002 21.790896
1780.0 0.952079 -17.969434
1800.0 0.947829 -56.960274
1820.0 0.943201 -95.012015
1840.0 0.940011 -132.328693
1860.0 0.939314 -169.294702
1880.0 0.942049 153.565589
1900.0 0.947091 115.756597
1920.0 0.952813 76.994026
1940.0 0.956544 37.251568
1960.0 0.955644 -3.078435
1980.0 0.950314 -43.371907
2000.0 0.942301 -83.033013
2020.0 0.934995 -121.689581
2040.0 0.931295 -159.389117
2060.0 0.931969 163.560819
2080.0 0.937138 126.677798
2100.0 0.94472 89.423992
2120.0 0.95195 51.421454
2140.0 0.955947 12.469559
2160.0 0.954101 -27.283299
2180.0 0.94716 -67.399509
2200.0 0.937805 -107.355313
2220.0 0.929883 -146.673035
2240.0 0.92671 174.825164
2260.0 0.928704 137.059457
2280.0 0.935245 99.76208
2300.0 0.943851 62.514961
2320.0 0.951271 24.963355
2340.0 0.955013 -13.186205
2360.0 0.952884 -52.038822
2380.0 0.9457 -91.464875
2400.0 0.936197 -131.213156
2420.0 0.927876 -170.899976
2440.0 0.924191 149.791016
2460.0 0.925628 111.038736
2480.0 0.931191 72.892258
2500.0 0.938455 35.189862
2520.0 0.944218 -2.283539
2540.0 0.946852 -39.804945
2560.0 0.945174 -77.659025
2580.0 0.94007 -116.021499
2600.0 0.933747 -155.007908
2620.0 0.928232 165.474326
2640.0 0.925876 125.689512
2660.0 0.926826 85.992069
2680.0 0.930031 46.784365
2700.0 0.933989 8.276231
2720.0 0.936574 -29.509898
2740.0 0.937379 -66.758281
2760.0 0.936239 -103.854511
2780.0 0.933737 -141.198763
2800.0 0.931267 -179.205945
2820.0 0.929267 141.888057
2840.0 0.928612 102.14241
2860.0 0.92897 61.893758
2880.0 0.929383 21.760719
2900.0 0.929574 -17.687627
2920.0 0.928836 -56.128709
2940.0 0.927768 -93.562332
2960.0 0.927004 -130.360209
2980.0 0.926756 -167.038498
3000.0 0.927714 155.79626
3020.0 0.929059 117.624288
3040.0 0.930076 78.235646
3060.0 0.929729 37.786991
3080.0 0.927093 -3.081122
3100.0 0.923313 -43.539499
3120.0 0.919593 -82.945814
3140.0 0.917513 -121.031235
3160.0 0.918113 -158.029145
3180.0 0.920799 165.556621
3200.0 0.925156 129.084342
3220.0 0.929369 91.898855
3240.0 0.931579 53.577852
3260.0 0.930537 13.980556
3280.0 0.92551 -26.563901
3300.0 0.918606 -67.352239
3320.0 0.912507 -107.637784
3340.0 0.909465 -146.860404
3360.0 0.910773 175.081371
3380.0 0.915277 137.924437
3400.0 0.921654 101.201765
3420.0 0.927625 64.322093
3440.0 0.930679 26.823848
3460.0 0.929682 -11.600522
3480.0 0.924094 -50.970635
3500.0 0.916144 -90.972891
3520.0 0.909078 -131.144649
3540.0 0.905384 -170.952486
3560.0 0.906606 149.943321
3580.0 0.911375 111.607931
3600.0 0.917593 73.917203
3620.0 0.922884 36.540178
3640.0 0.924807 -0.856495
3660.0 0.923015 -38.588139
3680.0 0.917757 -76.902751
3700.0 0.911025 -115.854647
3720.0 0.905612 -155.38346
3740.0 0.903112 164.775526
3760.0 0.904615 124.990368
3780.0 0.908823 85.584076
3800.0 0.913572 46.822119
3820.0 0.91719 8.740562
3840.0 0.917968 -28.783085
3860.0 0.916232 -65.999577
3880.0 0.912679 -103.296228
3900.0 0.908515 -141.016177
3920.0 0.905612 -179.477038
3940.0 0.904438 141.193098
3960.0 0.90539 101.156803
3980.0 0.907473 60.797251
4000.0 0.908996 20.70828
4020.0 0.909477 -18.614419
4040.0 0.908432 -56.93834
4060.0 0.906811 -94.316293
4080.0 0.905649 -131.139187
4100.0 0.905191 -167.912545
4120.0 0.906015 154.796923
4140.0 0.907111 116.512804
4160.0 0.907584 77.07501
4180.0 0.906628 36.663746
4200.0 0.903659 -4.100699
4220.0 0.900183 -44.435462
4240.0 0.897507 -83.756776
4260.0 0.896855 -121.823913
4280.0 0.898884 -158.871052
4300.0 0.902502 164.605288
4320.0 0.906892 127.980505
4340.0 0.910077 90.604297
4360.0 0.910206 52.066303
4380.0 0.906708 12.251089
4400.0 0.899934 -28.479525
4420.0 0.893014 -69.375774
4440.0 0.888993 -109.667472
4460.0 0.889377 -148.797145
4480.0 0.894343 173.309442
4500.0 0.901572 136.333807
4520.0 0.908783 99.758748
4540.0 0.913301 62.942671
4560.0 0.912702 25.387923
4580.0 0.906927 -13.218606
4600.0 0.897297 -52.874194
4620.0 0.887921 -93.18722
4640.0 0.883077 -133.590845
4660.0 0.884497 -173.466394
4680.0 0.891823 147.552518
4700.0 0.90159 109.470284
4720.0 0.910055 72.063519
4740.0 0.914286 34.891373
4760.0 0.912144 -2.47676
4780.0 0.90459 -40.404519
4800.0 0.893982 -79.134292
4820.0 0.884473 -118.623065
4840.0 0.880409 -158.635124
4860.0 0.88318 161.276024
4880.0 0.891957 121.584771
4900.0 0.902778 82.565163
4920.0 0.911016 44.323793
4940.0 0.913895 6.709672
4960.0 0.909962 -30.560371
4980.0 0.901042 -67.819987
5000.0 0.890281 -105.467669
5020.0 0.881372 -143.766627
5040.0 0.878186 177.143693
5060.0 0.881658 137.362276
5080.0 0.890613 97.256409
5100.0 0.901115 57.26178
5120.0 0.90822 17.840004
5140.0 0.909648 -20.749426
5160.0 0.905028 -58.517306
5180.0 0.896821 -95.669236
5200.0 0.888412 -132.646458
5220.0 0.88228 -169.907542
5240.0 0.880868 152.124473
5260.0 0.884147 113.170113
5280.0 0.890646 73.284371
5300.0 0.897518 32.781725
5320.0 0.901053 -7.745658
5340.0 0.900284 -47.682687
5360.0 0.895974 -86.673427
5380.0 0.890482 -124.635652
5400.0 0.886673 -161.844291
5420.0 0.885525 161.257938
5440.0 0.887716 124.181362
5460.0 0.892024 86.43595
5480.0 0.896142 47.770834
5500.0 0.89812 8.168481
5520.0 0.896079 -32.054398
5540.0 0.891117 -72.33069
5560.0 0.885749 -112.148557
5580.0 0.882403 -151.144107
5600.0 0.883113 170.713882
5620.0 0.887184 133.186543
5640.0 0.89318 95.924174
5660.0 0.898715 58.473215
5680.0 0.900884 20.508563
5700.0 0.89877 -18.15382
5720.0 0.892465 -57.494066
5740.0 0.884741 -97.223232
5760.0 0.879391 -136.982564
5780.0 0.878582 -176.370638
5800.0 0.883262 144.869484
5820.0 0.891294 106.747541
5840.0 0.899486 69.135615
5860.0 0.904836 31.713179
5880.0 0.904435 -5.85032
5900.0 0.898304 -43.843872
5920.0 0.888104 -82.4989
5940.0 0.877615 -121.818548
5960.0 0.871664 -161.658419
5980.0 0.872597 158.329168
6000.0 0.880627 118.585017
6020.0 0.892387 79.408835
6040.0 0.902807 40.975855
6060.0 0.9082 3.211908
6080.0 0.906054 -34.121559
6100.0 0.897426 -71.337168
6120.0 0.885375 -108.857162
6140.0 0.873883 -146.997574
6160.0 0.867766 174.05088
6180.0 0.869201 134.350593
6200.0 0.878052 94.286342
6220.0 0.890817 54.332188
6240.0 0.901724 14.976858
6260.0 0.906968 -23.51305
6280.0 0.904642 -61.175251
6300.0 0.896203 -98.24414
6320.0 0.885129 -135.189635
6340.0 0.874723 -172.489358
6360.0 0.868968 149.45636
6380.0 0.869648 110.424732
6400.0 0.876538 70.568332
6420.0 0.887025 30.279851
6440.0 0.895967 -9.85523
6460.0 0.90002 -49.30883
6480.0 0.897907 -87.866686
6500.0 0.891055 -125.575756
6520.0 0.882957 -162.797349
6540.0 0.876114 159.990982
6560.0 0.873166 122.353567
6580.0 0.874881 83.940609
6600.0 0.880124 44.723635
6620.0 0.886957 4.922
6640.0 0.89184 -35.020582
6660.0 0.893079 -74.579261
6680.0 0.890753 -113.455519
6700.0 0.886089 -151.562152
6720.0 0.881765 170.910158
6740.0 0.878968 133.604205
6760.0 0.878622 96.185567
6780.0 0.880622 58.318818
6800.0 0.883328 19.868238
6820.0 0.885674 -19.133848
6840.0 0.885941 -58.50995
6860.0 0.883942 -97.925656
6880.0 0.880942 -137.129682
6900.0 0.878033 -175.938781
6920.0 0.877138 145.688087
6940.0 0.878493 107.626334
6960.0 0.881473 69.750126
6980.0 0.885101 31.855163
7000.0 0.887141 -6.208233
7020.0 0.88685 -44.526365
7040.0 0.883886 -83.185337
7060.0 0.879164 -122.148802
7080.0 0.875099 -161.379621
7100.0 0.87302 159.233935
7120.0 0.874248 119.89123
7140.0 0.878259 80.755178
7160.0 0.883035 42.031133
7180.0 0.887036 3.802509
7200.0 0.888162 -33.973591
7220.0 0.886207 -71.424226
7240.0 0.881945 -108.8523
7260.0 0.87649 -146.546311
7280.0 0.872307 175.21568
7300.0 0.870559 136.280414
7320.0 0.872161 96.774276
7340.0 0.87666 56.984091
7360.0 0.881665 17.379389
7380.0 0.885493 -21.630232
7400.0 0.886263 -59.876763
7420.0 0.883751 -97.39765
7440.0 0.87919 -134.534006
7460.0 0.873577 -171.726021
7480.0 0.8692 150.575821
7500.0 0.867217 112.003965
7520.0 0.868221 72.53372
7540.0 0.872097 32.426467
7560.0 0.876631 -7.748881
7580.0 0.880347 -47.354649
7600.0 0.881882 -86.026428
7620.0 0.880854 -123.683011
7640.0 0.878461 -160.62151
7660.0 0.875074 162.666118
7680.0 0.871974 125.670379
7700.0 0.869814 87.90474
7720.0 0.868691 49.17963
7740.0 0.869197 9.583205
7760.0 0.870393 -30.484884
7780.0 0.871885 -70.422381
7800.0 0.873156 -109.786723
7820.0 0.873408 -148.347334
7840.0 0.873186 173.794678
7860.0 0.87218 136.295425
7880.0 0.870763 98.790301
7900.0 0.869433 60.891441
7920.0 0.867917 22.424081
7940.0 0.867027 -16.577103
7960.0 0.866551 -55.909041
7980.0 0.866567 -95.199089
8000.0 0.867335 -134.190124
8020.0 0.868018 -172.74334
8040.0 0.868766 149.105703
8060.0 0.868904 111.140413
8080.0 0.867984 73.181769
8100.0 0.866421 35.037766
8120.0 0.863964 -3.355332
8140.0 0.861777 -41.9315
8160.0 0.860487 -80.624839
8180.0 0.86032 -119.299014
8200.0 0.86173 -157.929305
8220.0 0.863478 163.446904
8240.0 0.864966 124.792288
8260.0 0.86533 86.014457
8280.0 0.863853 47.156264
8300.0 0.861527 8.299834
8320.0 0.85881 -30.436511
8340.0 0.857057 -68.898162
8360.0 0.857134 -107.089964
8380.0 0.858573 -145.070716
8400.0 0.861297 176.973204
8420.0 0.863668 138.781779
8440.0 0.864548 100.201205
8460.0 0.863378 61.135155
8480.0 0.859736 21.729264
8500.0 0.855445 -17.711158
8520.0 0.85198 -56.867666
8540.0 0.85083 -95.439081
8560.0 0.852943 -133.394021
8580.0 0.857097 -170.886402
8600.0 0.862291 151.777807
8620.0 0.866247 114.175125
8640.0 0.866926 76.025271
8660.0 0.863908 37.166021
8680.0 0.857389 -2.287271
8700.0 0.850313 -41.962028
8720.0 0.845578 -81.453054
8740.0 0.844863 -120.363808
8760.0 0.848841 -158.575489
8780.0 0.855292 163.772258
8800.0 0.861955 126.390097
8820.0 0.866106 88.830937
8840.0 0.865315 50.765962
8860.0 0.859805 11.986285
8880.0 0.850815 -27.491301
8900.0 0.842125 -67.350428
8920.0 0.837589 -107.203077
8940.0 0.838689 -146.616058
8960.0 0.84553 174.644367
8980.0 0.855082 136.527763
9000.0 0.863845 98.851374
9020.0 0.868806 61.259104
9040.0 0.867342 23.463986
9060.0 0.860229 -14.722392
9080.0 0.849685 -53.39517
9100.0 0.839772 -92.431082
9120.0 0.834841 -131.676741
9140.0 0.836255 -170.912185
9160.0 0.843779 150.044655
9180.0 0.854052 111.207
9200.0 0.862643 72.576488
9220.0 0.866538 34.053288
9240.0 0.863684 -4.434593
9260.0 0.855827 -42.891503
9280.0 0.846291 -81.368195
9300.0 0.838641 -119.821103
9320.0 0.836338 -158.252928
9340.0 0.839543 163.317421
9360.0 0.847085 124.896558
9380.0 0.855862 86.3887
9400.0 0.861736 47.783023
9420.0 0.862727 9.080706
9440.0 0.857961 -29.682891
9460.0 0.849773 -68.380719
9480.0 0.841958 -106.984007
9500.0 0.837277 -145.451692
9520.0 0.838121 176.176193
9540.0 0.843625 137.758732
9560.0 0.851425 99.204259
9580.0 0.858374 60.371927
9600.0 0.86069 21.267445
9620.0 0.857797 -17.974312
9640.0 0.850917 -57.181654
9660.0 0.843393 -96.089125
9680.0 0.839272 -134.574683
9700.0 0.839862 -172.612442
9720.0 0.84542 149.709594
9740.0 0.853508 112.116591
9760.0 0.86044 74.364493
9780.0 0.863436 36.172413
9800.0 0.859975 -2.615074
9820.0 0.851348 -41.947102
9840.0 0.841057 -81.674323
9860.0 0.833383 -121.437861
9880.0 0.832437 -160.898297
9900.0 0.838267 160.175228
9920.0 0.848902 121.88095
9940.0 0.860381 84.025614
9960.0 0.867702 46.352213
9980.0 0.868312 8.535471
10000.0 0.861017 -29.728534
10020.0 0.848554 -68.557065
10040.0 0.836306 -107.986033
10060.0 0.829203 -147.795612
10080.0 0.831279 172.37707
10100.0 0.841621 132.867508
10120.0 0.856017 93.964182
10140.0 0.868973 55.672812
10160.0 0.874612 17.867026
10180.0 0.87115 -19.676647
10200.0 0.859554 -57.301029
10220.0 0.844013 -95.257651
10240.0 0.831033 -133.782845
10260.0 0.825346 -172.901226
10280.0 0.830225 147.619622
10300.0 0.844121 108.084558
10320.0 0.861371 68.883458
10340.0 0.875601 30.216742
10360.0 0.880577 -7.886172
10380.0 0.874885 -45.517158
10400.0 0.860868 -82.997755
10420.0 0.843246 -120.651182
10440.0 0.828984 -158.823079
10460.0 0.822895 162.275908
10480.0 0.828032 122.74155
10500.0 0.843128 82.805386
10520.0 0.861874 42.890998
10540.0 0.877253 3.375846
10560.0 0.882825 -35.527393
10580.0 0.877268 -73.726228
10600.0 0.864058 -111.4322
10620.0 0.848032 -148.965438
10640.0 0.835571 173.304161
10660.0 0.830482 135.031861
10680.0 0.834312 96.148519
10700.0 0.845815 56.718169
10720.0 0.859483 17.027796
10740.0 0.869998 -22.532594
10760.0 0.873002 -61.680807
10780.0 0.86785 -100.195124
10800.0 0.858136 -138.127077
10820.0 0.847509 -175.682301
10840.0 0.840404 146.893339
10860.0 0.839061 109.27319
10880.0 0.843268 71.290743
10900.0 0.851673 32.81775
10920.0 0.859877 -6.154659
10940.0 0.864439 -45.463821
10960.0 0.863345 -84.956007
10980.0 0.856896 -124.37958
11000.0 0.849032 -163.573364
11020.0 0.842913 157.519206
11040.0 0.84131 118.95597
11060.0 0.844891 80.637651
11080.0 0.851247 42.487128
11100.0 0.858051 4.373591
11120.0 0.861684 -33.892832
11140.0 0.860414 -72.399034
11160.0 0.855082 -111.27672
11180.0 0.847492 -150.516913
11200.0 0.841857 170.013754
11220.0 0.84061 130.507437
11240.0 0.844289 91.315817
11260.0 0.851772 52.657584
11280.0 0.859078 14.630083
11300.0 0.863561 -22.835889
11320.0 0.863007 -60.068896
11340.0 0.85696 -97.414473
11360.0 0.847933 -135.312271
11380.0 0.83856 -174.082411
11400.0 0.8333 146.25072
11420.0 0.834881 105.91801
11440.0 0.842723 65.537661
11460.0 0.854231 25.735598
11480.0 0.863859 -13.082471
11500.0 0.868007 -50.789916
11520.0 0.865424 -87.696431
11540.0 0.856534 -124.26779
11560.0 0.845057 -161.10897
11580.0 0.834339 161.188357
11600.0 0.828674 122.349153
11620.0 0.831088 82.404013
11640.0 0.840533 41.90769
11660.0 0.853811 1.649038
11680.0 0.864774 -37.743426
11700.0 0.869038 -75.927208
11720.0 0.865827 -113.09635
11740.0 0.855775 -149.738694
11760.0 0.842723 173.499354
11780.0 0.8303 135.910849
11800.0 0.822533 97.113503
11820.0 0.823227 57.058853
11840.0 0.831962 16.24324
11860.0 0.845875 -24.468574
11880.0 0.858996 -64.346614
11900.0 0.865907 -102.935173
11920.0 0.865359 -140.311887
11940.0 0.857504 -176.921016
11960.0 0.84559 146.661012
11980.0 0.833288 109.734955
12000.0 0.82384 71.851053
12020.0 0.821096 32.819693
12040.0 0.825406 -7.146256
12060.0 0.835273 -47.415205
12080.0 0.846675 -87.375152
12100.0 0.854419 -126.532189
12120.0 0.85664 -164.772035
12140.0 0.852554 157.650859
12160.0 0.844008 120.384729
12180.0 0.83422 82.939328
12200.0 0.82552 45.001878
12220.0 0.821378 6.459985
12240.0 0.822637 -32.628071
12260.0 0.828593 -71.932094
12280.0 0.83725 -111.191644
12300.0 0.844374 -150.190153
12320.0 0.847869 171.160663
12340.0 0.846284 132.740619
12360.0 0.840129 94.478082
12380.0 0.832397 56.228071
12400.0 0.825085 17.932862
12420.0 0.82116 -20.344766
12440.0 0.821581 -58.604227
12460.0 0.82541 -96.759254
12480.0 0.831694 -134.870639
12500.0 0.837264 -173.075085
12520.0 0.840435 148.527852
12540.0 0.840025 109.781782
12560.0 0.835611 70.756601
12580.0 0.829629 31.620912
12600.0 0.823672 -7.383699
12620.0 0.820041 -45.945794
12640.0 0.819953 -84.008858
12660.0 0.822325 -121.63752
12680.0 0.82673 -159.117146
12700.0 0.830735 163.111886
12720.0 0.832704 124.745512
12740.0 0.832033 85.556554
12760.0 0.828192 45.701145
12780.0 0.823685 5.645217
12800.0 0.820252 -34.070316
12820.0 0.819187 -72.908835
12840.0 0.821161 -110.754564
12860.0 0.824121 -147.807843
12880.0 0.827145 175.492667
12900.0 0.828392 138.489791
12920.0 0.826645 100.688988
12940.0 0.822832 61.730039
12960.0 0.817595 21.686373
12980.0 0.813998 -18.857854
13000.0 0.813916 -59.148546
13020.0 0.817071 -98.420393
13040.0 0.822832 -136.394741
13060.0 0.828046 -173.289829
13080.0 0.830919 150.399826
13100.0 0.829955 113.891664
13120.0 0.823951 76.533557
13140.0 0.814996 37.837761
13160.0 0.805508 -2.281866
13180.0 0.800098 -43.266571
13200.0 0.802046 -84.262038
13220.0 0.810141 -124.331143
13240.0 0.821832 -162.988111
13260.0 0.832057 159.634431
13280.0 0.83709 123.118266
13300.0 0.835451 86.745954
13320.0 0.826323 49.873925
13340.0 0.813168 12.022109
13360.0 0.800259 -27.052895
13380.0 0.792984 -67.030219
13400.0 0.79553 -107.302922
13420.0 0.806306 -147.104442
13440.0 0.821541 174.103683
13460.0 0.834978 136.313415
13480.0 0.841175 99.269054
13500.0 0.838383 62.415895
13520.0 0.826055 25.174711
13540.0 0.808457 -12.880941
13560.0 0.791619 -52.05999
13580.0 0.781799 -92.179598
13600.0 0.78431 -132.759112
13620.0 0.797687 -173.159371
13640.0 0.816827 147.191373
13660.0 0.834146 108.402306
13680.0 0.842295 70.40402
13700.0 0.839454 32.925265
13720.0 0.82647 -4.40822
13740.0 0.808716 -41.844868
13760.0 0.793296 -79.680239
13780.0 0.785218 -117.959928
13800.0 0.788526 -156.586586
13820.0 0.801473 164.552376
13840.0 0.819029 125.667566
13860.0 0.834477 86.755918
13880.0 0.840269 47.840515
13900.0 0.834652 8.951806
13920.0 0.819735 -29.962078
13940.0 0.8018 -68.809335
13960.0 0.788987 -107.582935
13980.0 0.785409 -146.190578
14000.0 0.793188 175.502556
14020.0 0.80937 137.418707
14040.0 0.82768 99.500491
14060.0 0.842022 61.52515
14080.0 0.845646 23.326618
14100.0 0.83755 -15.088787
14120.0 0.821165 -53.748033
14140.0 0.802888 -92.488808
14160.0 0.791041 -131.198131
14180.0 0.789092 -169.787911
14200.0 0.797736 151.85625
14220.0 0.813414 113.564917
14240.0 0.828898 75.177592
14260.0 0.838538 36.463274
14280.0 0.837183 -2.750293
14300.0 0.825691 -42.344859
14320.0 0.810124 -82.177549
14340.0 0.797121 -121.893107
14360.0 0.793504 -161.123974
14380.0 0.800092 160.295887
14400.0 0.814005 122.441042
14420.0 0.830443 84.982007
14440.0 0.841852 47.493138
14460.0 0.844039 9.546712
14480.0 0.834782 -29.272146
14500.0 0.817163 -68.993792
14520.0 0.799886 -109.453505
14540.0 0.790339 -150.120544
14560.0 0.79404 169.759806
14580.0 0.809532 130.640952
14600.0 0.830066 92.723374
14620.0 0.848891 55.712793
14640.0 0.858001 19.08161
14660.0 0.854293 -17.670046
14680.0 0.838626 -55.150529
14700.0 0.815853 -93.685736
14720.0 0.796249 -133.39125
14740.0 0.787717 -173.967556
