! File created by SignalIntegrity v1.1.10: Signal and Power Integrity Tools
! https://github.com/TeledyneLeCroy/SignalIntegrity
# MHz S MA R 50.0
0.0 0.020832 0.0 1.029802 0.0 0.993599 0.0 0.013105 0.0
20.0 0.015493 -31.659682 1.029381 -39.770734 0.993059 -39.724977 0.015249 2.136209
40.0 0.005564 -4.213357 1.028388 -79.543313 0.991704 -79.469308 0.018999 -10.292176
60.0 0.017261 27.8583 1.027055 -119.33559 0.9898 -119.260266 0.020642 -31.688202
80.0 0.027888 -5.194228 1.025472 -159.145918 0.987551 -159.094033 0.018228 -54.986261
100.0 0.027787 -43.276582 1.023975 161.033598 0.985488 161.04832 0.012161 -68.511929
120.0 0.015902 -77.575724 1.022686 121.202002 0.983955 121.179191 0.009607 -42.620224
140.0 0.006344 3.119653 1.021427 81.369145 0.982913 81.318118 0.017444 -40.498327
160.0 0.025414 -7.666827 1.020026 41.554194 0.982152 41.48819 0.025041 -69.545207
180.0 0.037706 -48.058695 1.018554 1.776628 0.981516 1.708914 0.026923 -108.869611
200.0 0.036896 -92.423235 1.017433 -37.96861 0.981113 -38.025638 0.021855 -157.050945
220.0 0.022843 -142.34262 1.016821 -77.722234 0.980869 -77.757054 0.013223 131.450785
240.0 0.005675 90.755765 1.016236 -117.51571 0.980266 -117.519501 0.014242 23.327936
260.0 0.023924 -25.159208 1.015168 -157.336642 0.978934 -157.307392 0.023578 -46.596337
280.0 0.03752 -77.492631 1.013771 162.85224 0.977227 162.906095 0.028269 -99.470158
300.0 0.037331 -128.352451 1.012751 123.062213 0.975998 123.122393 0.0245 -149.849373
320.0 0.023908 173.026252 1.012314 83.264015 0.975511 83.308737 0.013204 152.524062
340.0 0.011098 52.57446 1.011718 43.445317 0.975029 43.458737 0.006374 3.236105
360.0 0.026976 -53.496348 1.010324 3.6443 0.973887 3.623671 0.018863 -81.791452
380.0 0.040329 -113.922079 1.008506 -36.100418 0.972427 -36.144353 0.026302 -134.881949
400.0 0.041614 -173.220182 1.00709 -75.813518 0.971448 -75.863182 0.024386 172.617577
420.0 0.034101 116.048629 1.005975 -115.563441 0.970833 -115.603925 0.014384 107.379422
440.0 0.031978 26.424281 1.004102 -155.367352 0.969473 -155.392928 0.010715 -23.574661
460.0 0.041728 -53.443226 1.001118 164.836423 0.966883 164.822224 0.023944 -106.477384
480.0 0.048733 -116.808001 0.998181 125.099413 0.964066 125.089031 0.033367 -161.696329
500.0 0.043887 -176.053877 0.996595 85.387594 0.962261 85.375478 0.033188 146.264561
520.0 0.028401 115.625127 0.99607 45.630827 0.961297 45.615841 0.023256 90.038697
540.0 0.019135 4.118796 0.995149 5.835057 0.959943 5.818154 0.009752 -0.821504
560.0 0.032781 -90.472516 0.993358 -33.914801 0.957886 -33.934842 0.01642 -134.071561
580.0 0.043474 -153.640894 0.991865 -73.575222 0.956287 -73.603742 0.028223 159.868087
600.0 0.041474 146.158904 0.991686 -113.210053 0.95605 -113.254007 0.032179 100.491738
620.0 0.030156 73.61317 0.992091 -152.905433 0.956362 -152.96815 0.028802 33.700688
640.0 0.027031 -26.278321 0.991562 167.34893 0.955713 167.27159 0.026191 -49.050225
660.0 0.03954 -108.121358 0.990026 127.638666 0.954085 127.557538 0.032213 -130.433129
680.0 0.047993 -168.669941 0.989019 87.992526 0.953065 87.920057 0.039666 164.493495
700.0 0.043121 135.88521 0.98949 48.33615 0.953635 48.280632 0.039817 107.336331
720.0 0.025674 74.339043 0.990441 8.597627 0.954798 8.560868 0.030042 50.047784
740.0 0.012028 -53.149159 0.990308 -31.188998 0.954923 -31.20921 0.014292 -26.205846
760.0 0.029984 -154.083288 0.989106 -70.931904 0.953887 -70.936982 0.014866 -165.216018
780.0 0.044011 148.083012 0.988243 -110.611301 0.952994 -110.598979 0.02849 122.010338
800.0 0.045292 93.283453 0.988389 -150.300309 0.95295 -150.266312 0.034002 65.535615
820.0 0.035801 32.435677 0.988588 169.945209 0.952964 170.002169 0.028529 6.973264
840.0 0.025515 -46.848824 0.98774 130.163272 0.952086 130.237358 0.017421 -73.9384
860.0 0.026614 -134.309068 0.98617 90.42776 0.950655 90.506591 0.020629 173.158558
880.0 0.030589 160.989358 0.985107 50.746401 0.949799 50.816764 0.034366 102.402713
900.0 0.02632 111.340637 0.98494 11.061322 0.949816 11.116466 0.041319 48.032622
920.0 0.013301 76.98675 0.984865 -28.66324 0.949892 -28.619827 0.036484 -3.098624
940.0 0.007995 145.314467 0.984116 -68.401536 0.949315 -68.358671 0.020904 -58.149746
960.0 0.02181 132.231877 0.98288 -108.116592 0.948301 -108.06265 0.006446 163.561676
980.0 0.028738 96.929975 0.981756 -147.814109 0.947421 -147.744135 0.023881 60.373805
1000.0 0.025995 62.64667 0.980853 172.477471 0.946704 172.559397 0.037037 7.758766
1020.0 0.016743 38.979886 0.979933 132.755912 0.945814 132.840101 0.039031 -42.284947
1040.0 0.01023 49.768222 0.979091 93.042038 0.94479 93.119444 0.030208 -96.11495
1060.0 0.012222 56.238978 0.978741 53.341556 0.944086 53.408251 0.016802 -170.183717
1080.0 0.010566 36.498799 0.978983 13.636407 0.943941 13.693497 0.016601 76.569698
1100.0 0.003761 67.10529 0.979377 -26.082983 0.944076 -26.033048 0.026478 5.947038
1120.0 0.014158 108.171362 0.97951 -65.800501 0.944153 -65.757597 0.029527 -44.928401
1140.0 0.025793 75.93026 0.979418 -105.502874 0.944141 -105.469644 0.022557 -89.65039
1160.0 0.029425 38.224336 0.979233 -145.20318 0.944031 -145.182053 0.007851 -124.795438
1180.0 0.022051 1.708778 0.978768 175.07882 0.943532 175.089197 0.010237 -10.988722
1200.0 0.006938 -3.518643 0.977744 135.348028 0.942365 135.353566 0.02502 -46.965495
1220.0 0.016896 63.847968 0.97634 95.628463 0.940799 95.636575 0.032575 -87.412756
1240.0 0.032332 28.170916 0.975156 55.927014 0.939542 55.941997 0.031055 -128.614008
1260.0 0.037211 -17.752881 0.974546 16.223706 0.939004 16.2444 0.02168 -171.61416
1280.0 0.029878 -73.89844 0.974281 -23.498421 0.938932 -23.476446 0.008328 131.536496
1300.0 0.019638 -162.009122 0.97392 -63.228967 0.938798 -63.208067 0.00784 -26.924109
1320.0 0.028528 97.452716 0.973369 -102.943183 0.938409 -102.919276 0.017314 -80.643717
1340.0 0.042376 33.987683 0.972902 -142.635777 0.937993 -142.59873 0.020902 -117.494022
1360.0 0.044479 -19.275482 0.972666 177.670187 0.93773 177.731031 0.017873 -145.896035
1380.0 0.0309 -74.239018 0.972389 137.949331 0.937419 138.037967 0.011306 -151.095203
1400.0 0.010404 179.688248 0.971598 98.2032 0.936639 98.313136 0.013452 -121.207789
1420.0 0.030683 50.443918 0.97017 58.464 0.935258 58.580693 0.024733 -132.40019
1440.0 0.054192 -5.254937 0.968634 18.7637 0.933766 18.871963 0.034457 -162.123179
1460.0 0.062954 -55.658391 0.967803 -20.902712 0.932963 -20.810984 0.038237 161.920594
1480.0 0.053802 -108.046376 0.967989 -60.578632 0.933213 -60.501185 0.034277 121.196612
1500.0 0.03234 -173.323283 0.968578 -100.303179 0.933999 -100.230159 0.023564 71.719429
1520.0 0.022389 73.556162 0.968588 -140.063061 0.934383 -139.98337 0.012731 -10.426762
1540.0 0.038146 -13.372848 0.967781 -179.803466 0.934039 -179.710318 0.017453 -113.644052
1560.0 0.04597 -71.638294 0.966943 140.503525 0.933557 140.610876 0.025692 -171.880328
1580.0 0.036185 -128.331243 0.966833 100.818617 0.93351 100.936794 0.025377 143.102528
1600.0 0.015946 140.836147 0.967071 61.083659 0.933482 61.208024 0.014231 107.467269
1620.0 0.031522 9.007932 0.96654 21.306786 0.932488 21.432565 0.007948 -163.980798
1640.0 0.059424 -50.376124 0.964977 -18.43501 0.930466 -18.31373 0.030684 177.271784
1660.0 0.074319 -99.442999 0.963534 -58.091727 0.928706 -57.983089 0.050242 137.609929
1680.0 0.070775 -146.51481 0.963408 -97.70747 0.928437 -97.62057 0.059598 95.282431
1700.0 0.050937 165.504594 0.964313 -137.366768 0.929335 -137.307673 0.055457 51.078705
1720.0 0.023149 109.252388 0.964858 -177.089322 0.92994 -177.056807 0.039023 3.257488
1740.0 0.009245 -36.862411 0.964334 143.184902 0.929466 143.200395 0.016893 -61.107821
1760.0 0.021287 -121.850266 0.963493 103.503084 0.928602 103.515573 0.01328 156.268954
1780.0 0.020532 -176.609681 0.963298 63.833908 0.92831 63.854806 0.024904 86.544023
1800.0 0.008527 99.307409 0.963563 24.117946 0.92846 24.150114 0.024259 36.583453
1820.0 0.019035 -41.930076 0.963342 -15.644746 0.928169 -15.607822 0.009191 -13.825831
1840.0 0.038398 -94.297499 0.962384 -55.396328 0.927185 -55.365505 0.016153 131.768963
1860.0 0.04931 -135.055052 0.96145 -95.102644 0.926232 -95.085412 0.043437 84.499041
1880.0 0.048947 -169.597993 0.961165 -134.790969 0.925931 -134.786049 0.063924 38.908016
1900.0 0.04077 164.035992 0.961235 -174.498702 0.926042 -174.496299 0.070951 -7.235452
1920.0 0.032531 148.167856 0.961049 145.779346 0.926006 145.792153 0.062534 -55.318128
1940.0 0.028605 134.438205 0.960586 106.070515 0.925777 106.10304 0.04248 -109.004216
1960.0 0.023688 110.721095 0.960249 66.374611 0.925651 66.428725 0.021264 175.250236
1980.0 0.012873 73.209383 0.960081 26.667934 0.925558 26.738957 0.018983 62.3938
2000.0 0.005035 -73.064648 0.959748 -13.053756 0.925117 -12.972956 0.02422 -10.910563
2020.0 0.01805 -142.243002 0.959192 -52.771622 0.92432 -52.68667 0.017469 -73.055506
2040.0 0.025758 -173.565765 0.958727 -92.483078 0.923601 -92.396786 0.008387 138.89208
2060.0 0.027701 170.330854 0.958344 -132.210656 0.923094 -132.124327 0.033089 47.68394
2080.0 0.033937 165.536766 0.957488 -171.955215 0.922336 -171.870433 0.058707 -3.197634
2100.0 0.049063 149.064361 0.955959 148.327268 0.921086 148.408434 0.074224 -49.798141
2120.0 0.063063 118.857404 0.954556 108.670867 0.919985 108.747442 0.074591 -95.227769
2140.0 0.066372 81.089709 0.954256 69.041517 0.919851 69.115219 0.060083 -140.717998
2160.0 0.055476 37.392691 0.954927 29.368941 0.920509 29.443758 0.035888 171.840869
2180.0 0.034267 -17.174719 0.955433 -10.36457 0.920919 -10.285195 0.010801 109.267163
2200.0 0.018047 -110.962952 0.955134 -50.104504 0.920572 -50.020928 0.009938 -65.080583
2220.0 0.024448 152.109406 0.954638 -89.80652 0.920139 -89.723701 0.014982 -126.906304
2240.0 0.026028 95.3946 0.954687 -129.500977 0.92035 -129.425446 0.007309 154.434401
2260.0 0.010555 53.060191 0.954847 -169.243319 0.920727 -169.177869 0.017149 0.83875
2280.0 0.019685 173.709722 0.953996 150.979482 0.920101 151.039708 0.041492 -54.198249
2300.0 0.054531 132.215715 0.952036 111.246918 0.918306 111.313707 0.062303 -99.339037
2320.0 0.082191 88.36041 0.950354 71.601741 0.916643 71.688121 0.072761 -141.847329
2340.0 0.092913 43.619392 0.950251 31.988353 0.91637 32.100988 0.070135 177.104674
2360.0 0.082892 -2.755619 0.951447 -7.682377 0.917222 -7.548124 0.055931 137.393859
2380.0 0.056031 -53.430089 0.95251 -47.429446 0.917841 -47.288654 0.035234 99.886982
2400.0 0.02461 -123.112918 0.952559 -87.190359 0.917428 -87.062311 0.015089 69.213116
2420.0 0.018873 105.448061 0.952036 -126.907672 0.916511 -126.807775 0.003578 91.649074
2440.0 0.027805 28.584623 0.951745 -166.594876 0.915992 -166.529073 0.00304 116.052939
2460.0 0.020781 -40.881709 0.951652 153.696724 0.915947 153.732668 0.005619 -70.104992
2480.0 0.018535 -176.030015 0.951011 113.952769 0.915679 113.969769 0.022175 -111.60405
2500.0 0.049273 104.139052 0.949475 74.215286 0.914752 74.225904 0.042073 -149.048787
2520.0 0.079394 52.540737 0.947721 34.529526 0.913629 34.544013 0.059741 173.991274
2540.0 0.094694 6.128065 0.946834 -5.111477 0.913166 -5.087081 0.070589 137.266858
2560.0 0.089543 -38.444424 0.94724 -44.760564 0.913679 -44.724887 0.07192 100.609456
2580.0 0.066025 -81.99639 0.948325 -84.462718 0.914616 -84.419052 0.063395 63.818086
2600.0 0.032812 -123.820079 0.949028 -124.211819 0.915105 -124.167735 0.047131 26.517052
2620.0 0.003105 -113.186736 0.948789 -163.960404 0.914782 -163.926102 0.027376 -12.605722
2640.0 0.017372 -49.428206 0.947907 156.32917 0.914041 156.344443 0.009897 -63.797019
2660.0 0.019434 -104.594324 0.947004 116.648808 0.913478 116.641434 0.005636 172.284893
2680.0 0.016297 155.09243 0.9463 76.960815 0.913204 76.93616 0.009643 139.056158
2700.0 0.034729 65.583032 0.945526 37.245353 0.91282 37.217235 0.01789 142.000106
2720.0 0.058847 13.160844 0.944541 -2.479208 0.912079 -2.493723 0.036272 124.149434
2740.0 0.074565 -29.470152 0.943733 -42.187461 0.911301 -42.175867 0.058498 93.000908
2760.0 0.077005 -67.045394 0.943606 -81.88253 0.910979 -81.843239 0.076659 56.811841
2780.0 0.067895 -99.625391 0.944108 -121.58693 0.911115 -121.530501 0.084218 18.123056
2800.0 0.053691 -126.073978 0.944644 -161.304471 0.911217 -161.248814 0.077862 -22.374725
2820.0 0.041107 -147.428137 0.944766 158.989141 0.91096 159.027036 0.058837 -65.030823
2840.0 0.031205 -170.872564 0.944576 119.311444 0.91055 119.322897 0.033065 -112.840462
2860.0 0.020647 152.973714 0.944351 79.647553 0.910334 79.635085 0.011168 169.143299
2880.0 0.012173 80.348215 0.944095 39.969154 0.910324 39.94404 0.012118 45.42999
2900.0 0.017709 -2.563386 0.943668 0.264773 0.910303 0.241185 0.011715 1.891611
2920.0 0.027318 -41.768862 0.94313 -39.46232 0.910171 -39.473312 0.010453 53.268479
2940.0 0.036448 -63.600558 0.942579 -79.212919 0.90986 -79.206962 0.035709 44.66101
2960.0 0.049712 -82.062232 0.941773 -118.979404 0.909043 -118.959375 0.065719 7.726637
2980.0 0.066847 -106.850497 0.940466 -158.720617 0.907507 -158.69484 0.088711 -33.232943
3000.0 0.080211 -138.601758 0.939127 161.611463 0.905843 161.632042 0.096734 -75.698095
3020.0 0.081839 -175.244647 0.938762 122.005632 0.905196 122.010558 0.086928 -119.443946
3040.0 0.068345 143.943475 0.939654 82.379585 0.905965 82.361987 0.062346 -165.433543
3060.0 0.042944 96.33458 0.940665 42.666207 0.907072 42.625501 0.031282 141.509911
3080.0 0.017552 19.520746 0.940455 2.895715 0.907133 2.838921 0.009297 32.644439
3100.0 0.019439 -100.473653 0.939208 -36.848716 0.906171 -36.908235 0.016243 -84.498195
3120.0 0.023948 -157.48027 0.938372 -76.548834 0.905444 -76.595685 0.013308 -151.015781
3140.0 0.0115 178.850454 0.938581 -116.274548 0.905488 -116.29747 0.011062 48.156481
3160.0 0.022432 -101.475781 0.93864 -156.065963 0.905166 -156.06313 0.040125 -25.475988
3180.0 0.058542 -132.746517 0.937265 164.158287 0.903324 164.177688 0.070864 -74.299043
3200.0 0.088845 -173.035077 0.935227 124.51523 0.900827 124.53435 0.091587 -119.584656
3220.0 0.101957 144.82091 0.934693 84.996919 0.899889 84.998162 0.095433 -163.68582
3240.0 0.092804 101.26102 0.936469 45.45504 0.90138 45.42728 0.081124 152.548258
3260.0 0.064038 54.987169 0.938761 5.765845 0.903636 5.708602 0.053054 108.532582
3280.0 0.026362 -3.195349 0.939252 -34.033837 0.904419 -34.110927 0.020137 63.006325
3300.0 0.01547 -159.879896 0.937809 -73.814775 0.903525 -73.896406 0.007172 -152.378627
3320.0 0.031939 128.694703 0.936277 -113.526301 0.902595 -113.597368 0.020471 156.117245
3340.0 0.028419 74.878803 0.935822 -153.236767 0.902597 -153.287005 0.017266 99.15591
3360.0 0.009551 -27.824028 0.935613 166.996648 0.902613 166.970685 0.011531 -28.080208
3380.0 0.03505 -160.973406 0.934462 127.229233 0.901456 127.22471 0.034416 -116.114945
3400.0 0.06888 148.126241 0.932838 87.55848 0.899625 87.568229 0.059609 -165.891022
3420.0 0.089134 103.507527 0.932414 47.986304 0.898842 48.001052 0.075251 150.296286
3440.0 0.088474 60.766618 0.933866 8.403819 0.899871 8.414178 0.076238 108.859735
3460.0 0.067305 19.392129 0.935927 -31.284083 0.901568 -31.28593 0.062552 69.458048
3480.0 0.033467 -18.437717 0.936843 -71.060627 0.902269 -71.079487 0.039047 34.017629
3500.0 0.005209 38.33432 0.936213 -110.837801 0.901573 -110.874583 0.014698 17.396869
3520.0 0.02548 58.297461 0.935022 -150.563744 0.90041 -150.615509 0.011749 78.847339
3540.0 0.030705 18.75334 0.93419 169.74068 0.899663 169.679627 0.018753 64.181426
3560.0 0.018266 -30.334515 0.933693 130.038783 0.899322 129.975274 0.014162 35.156395
3580.0 0.009759 169.671098 0.933088 90.330754 0.89898 90.271454 0.003068 104.034874
3600.0 0.034309 101.37592 0.932333 50.639535 0.898585 50.590485 0.022066 124.670292
3620.0 0.052386 60.459787 0.931814 10.967465 0.898471 10.934255 0.041497 91.667995
3640.0 0.057478 25.312087 0.931767 -28.713322 0.898793 -28.725606 0.054407 56.674249
3660.0 0.050737 -3.399038 0.931975 -68.429755 0.899267 -68.417605 0.057474 21.827095
3680.0 0.039386 -21.96825 0.932063 -108.181602 0.89948 -108.145253 0.050307 -11.940392
3700.0 0.031829 -30.86371 0.931889 -147.947302 0.899279 -147.892997 0.035266 -42.873275
3720.0 0.027395 -41.718398 0.931571 172.294417 0.898813 172.353615 0.017141 -62.700964
3740.0 0.019166 -55.175346 0.931235 132.553662 0.898273 132.599627 0.008488 -14.567342
3760.0 0.009295 -33.816952 0.930857 92.83601 0.897727 92.849793 0.016988 -4.383957
3780.0 0.0167 5.639302 0.930388 53.14876 0.897212 53.115889 0.019532 -27.474138
3800.0 0.025916 -9.205487 0.929932 13.492901 0.89688 13.40773 0.012977 -44.699107
3820.0 0.026858 -25.851764 0.929656 -26.148815 0.896888 -26.281387 0.009606 11.019264
3840.0 0.025216 -24.898045 0.929508 -65.805766 0.897117 -65.971805 0.027186 12.036011
3860.0 0.035175 -22.302778 0.92917 -105.491868 0.897147 -105.672495 0.045156 -18.333969
3880.0 0.050577 -42.478708 0.928495 -145.190514 0.896705 -145.367072 0.055371 -54.008356
3900.0 0.05745 -74.316774 0.927872 175.119908 0.896075 174.961313 0.053458 -91.573238
3920.0 0.048773 -111.35447 0.927861 135.428597 0.895777 135.294511 0.038805 -129.811956
3940.0 0.024953 -153.304803 0.928385 95.699582 0.895797 95.589245 0.014922 -165.858825
3960.0 0.007885 15.533541 0.928594 55.927747 0.895441 55.835605 0.011701 -40.096933
3980.0 0.036601 -42.489646 0.927882 16.166366 0.894273 16.086054 0.03243 -76.287288
4000.0 0.051998 -85.207306 0.926785 -23.529561 0.892926 -23.601305 0.040906 -117.532105
4020.0 0.047559 -127.177928 0.926363 -63.178751 0.892473 -63.239816 0.03428 -161.240795
4040.0 0.024226 -169.51628 0.926723 -102.858106 0.892993 -102.901363 0.014948 144.341221
4060.0 0.010032 -28.739152 0.926755 -142.60091 0.89333 -142.6171 0.01391 -33.470415
4080.0 0.042743 -72.791061 0.925691 177.653228 0.892633 177.671245 0.037664 -90.99469
4100.0 0.061715 -115.928203 0.924376 137.974887 0.891623 138.028312 0.051271 -136.564794
4120.0 0.059705 -160.224548 0.924276 98.336099 0.891665 98.41845 0.04918 178.916764
4140.0 0.037226 150.545865 0.925369 58.635142 0.892753 58.733263 0.031446 132.51607
4160.0 0.010191 31.346034 0.925885 18.837029 0.893246 18.934366 0.00513 40.418424
4180.0 0.038125 -84.24528 0.924536 -20.963344 0.891981 -20.882522 0.027179 -117.763168
4200.0 0.061111 -133.565319 0.922298 -60.655501 0.889956 -60.602445 0.048323 -165.690202
4220.0 0.063619 -178.44293 0.9212 -100.255869 0.889129 -100.235388 0.054418 148.806337
4240.0 0.044874 136.748726 0.921736 -139.882458 0.88992 -139.893063 0.043671 101.860549
4260.0 0.012217 80.926154 0.922426 -179.596619 0.890806 -179.632493 0.020521 44.098976
4280.0 0.023763 -115.043762 0.921994 140.669867 0.89047 140.615886 0.013779 -115.045347
4300.0 0.0479 -162.250924 0.921097 101.008775 0.889507 100.942268 0.035759 175.406454
4320.0 0.052854 154.076874 0.921246 61.403193 0.889405 61.326427 0.046103 126.933506
4340.0 0.037234 109.455269 0.922544 21.752229 0.890342 21.664389 0.03951 80.058657
4360.0 0.008187 38.452167 0.923457 -17.989257 0.890934 -18.089748 0.017932 25.991418
4380.0 0.027772 -134.726948 0.922847 -57.755554 0.890159 -57.867581 0.014425 -158.142235
4400.0 0.053001 -179.07124 0.921384 -97.466768 0.888693 -97.583644 0.042764 143.5687
4420.0 0.062188 142.588895 0.92051 -137.133766 0.887903 -137.242704 0.06124 97.841977
4440.0 0.054319 109.525874 0.920591 -176.829434 0.888078 -176.914224 0.06394 53.538888
4460.0 0.036595 88.811938 0.920803 143.41771 0.888342 143.37156 0.050671 8.903674
4480.0 0.025987 95.710657 0.920532 103.654294 0.888033 103.654107 0.026683 -39.276285
4500.0 0.031086 96.918612 0.920163 63.931723 0.887483 63.974437 0.005107 -165.080676
4520.0 0.032543 75.024999 0.920336 24.243674 0.88732 24.316399 0.020919 80.217381
4540.0 0.02229 47.670063 0.920951 -15.449005 0.887517 -15.364977 0.027648 32.913809
4560.0 0.004822 57.649566 0.92136 -55.158881 0.88756 -55.082534 0.019673 -11.500393
4580.0 0.017803 140.486508 0.921231 -94.867002 0.887248 -94.812843 0.001332 -146.092643
4600.0 0.032469 117.184993 0.920775 -134.562076 0.886865 -134.537691 0.02502 92.92995
4620.0 0.039829 95.144412 0.92025 -174.256228 0.886658 -174.262336 0.046898 51.75331
