! File created by SignalIntegrity v1.1.10: Signal and Power Integrity Tools
! https://github.com/TeledyneLeCroy/SignalIntegrity
# MHz S MA R 50.0
0.0 0.005592 0.0 1.015049 0.0 0.97854 0.0 0.002313 180.0
20.0 0.00666 -106.706919 1.014726 -40.477864 0.978122 -40.436615 0.021544 48.365231
40.0 0.0093 161.345668 1.013743 -80.975752 0.976851 -80.908922 0.034608 -2.409439
60.0 0.012208 81.700869 1.012098 -121.494236 0.974736 -121.425926 0.034293 -52.75391
80.0 0.013889 7.89964 1.010302 -162.014419 0.972353 -161.966837 0.0209 -108.75905
100.0 0.013318 -66.378701 1.009073 157.451382 0.970568 157.465696 0.007091 111.94623
120.0 0.011048 -150.831944 1.008123 116.881228 0.969322 116.86128 0.025626 7.835765
140.0 0.011015 106.935479 1.006738 76.311946 0.968077 76.264951 0.039767 -47.720147
160.0 0.016039 15.389667 1.005135 35.799298 0.967037 35.735802 0.041612 -101.32433
180.0 0.022029 -58.433483 1.004099 -4.661723 0.966771 -4.73068 0.031787 -160.182653
200.0 0.025245 -126.118127 1.00368 -45.131916 0.967052 -45.194843 0.018364 117.922854
220.0 0.024136 165.249471 1.002944 -85.644203 0.966748 -85.688753 0.019212 7.133481
240.0 0.019905 88.094877 1.001427 -126.162016 0.965327 -126.177024 0.026722 -67.164592
260.0 0.017731 -4.77558 0.999999 -166.657424 0.963712 -166.637844 0.025466 -127.931144
280.0 0.021838 -95.443846 0.999421 152.830885 0.962815 152.87906 0.014641 162.751803
300.0 0.027203 -171.026912 0.999093 112.267001 0.962223 112.326131 0.010564 20.646165
320.0 0.02847 119.111037 0.998034 71.693519 0.961075 71.740146 0.024688 -64.009041
340.0 0.024587 45.122164 0.996494 31.184486 0.959621 31.199366 0.033098 -122.140245
360.0 0.020234 -45.569156 0.995559 -9.265744 0.95888 -9.288918 0.030601 -179.457289
380.0 0.02461 -143.882103 0.995134 -49.736842 0.958755 -49.789226 0.019642 110.262993
400.0 0.034969 137.10786 0.993787 -90.25575 0.957868 -90.318922 0.015339 -4.352861
420.0 0.04286 69.078447 0.990925 -130.757491 0.955618 -130.813288 0.026518 -91.120285
440.0 0.04454 3.278276 0.987847 -171.193887 0.95315 -171.232596 0.033526 -150.807979
460.0 0.040367 -65.597114 0.986009 148.380887 0.951712 148.358369 0.029779 154.055461
480.0 0.034165 -142.263819 0.985033 107.886725 0.950802 107.872822 0.016514 91.713973
500.0 0.031238 133.48241 0.983543 67.34391 0.94906 67.330585 0.008364 -52.195608
520.0 0.032249 51.220148 0.981417 26.8457 0.946486 26.828338 0.022579 -142.366617
540.0 0.032683 -25.750583 0.979869 -13.574995 0.944453 -13.598087 0.031573 161.976059
560.0 0.030359 -103.574549 0.979439 -53.979254 0.943664 -54.009989 0.030587 108.96322
580.0 0.028213 171.547124 0.979135 -94.417537 0.943227 -94.460087 0.021312 51.505948
600.0 0.030794 84.688792 0.978008 -134.856175 0.942152 -134.915428 0.010489 -30.368554
620.0 0.0365 6.520849 0.976599 -175.247054 0.940822 -175.324398 0.010359 -145.376641
640.0 0.04016 -64.440901 0.975987 144.384169 0.940175 144.29417 0.01245 146.08685
660.0 0.039144 -133.78853 0.976143 103.975532 0.940192 103.884335 0.007156 96.744996
680.0 0.034279 153.626834 0.976172 63.521554 0.940109 63.441608 0.004612 -151.354473
700.0 0.02892 74.208315 0.975799 23.073095 0.939763 23.011915 0.017481 170.408824
720.0 0.026228 -10.651389 0.975638 -17.34856 0.939767 -17.390909 0.025966 125.453414
740.0 0.025915 -95.187643 0.975896 -57.779671 0.940239 -57.807861 0.026077 80.429629
760.0 0.026445 -178.689137 0.975851 -98.242705 0.940359 -98.260331 0.017387 36.33001
780.0 0.028662 98.322501 0.975 -138.705744 0.939559 -138.711043 0.003427 5.865061
800.0 0.033343 20.534184 0.973881 -179.137675 0.938372 -179.124326 0.010363 116.376039
820.0 0.038029 -49.20851 0.973239 140.438556 0.937614 140.475872 0.017474 74.007684
840.0 0.039076 -112.834018 0.972933 99.984093 0.937253 100.04352 0.014798 29.480412
860.0 0.034379 -173.169046 0.972349 59.510662 0.936739 59.58134 0.002961 -13.988658
880.0 0.024297 126.928931 0.971525 19.061644 0.936071 19.128226 0.013391 118.089587
900.0 0.011484 59.86815 0.971014 -21.356978 0.935719 -21.306085 0.027452 72.736541
920.0 0.004663 -91.471363 0.970838 -61.780463 0.935669 -61.746613 0.032942 26.772199
940.0 0.012131 169.649604 0.970329 -102.225473 0.935302 -102.199486 0.026647 -20.062052
960.0 0.015913 106.724619 0.969125 -142.667696 0.934319 -142.635965 0.010015 -71.301697
980.0 0.014879 45.098439 0.96768 176.910216 0.933163 176.957347 0.011604 75.725576
1000.0 0.011078 -21.854897 0.966512 136.488618 0.932254 136.551625 0.03007 23.603039
1020.0 0.007464 -98.51563 0.965598 96.049343 0.931446 96.120408 0.038882 -27.218117
1040.0 0.005203 -173.491891 0.964851 55.6072 0.930559 55.675794 0.035292 -82.606868
1060.0 0.002767 152.028531 0.964564 15.18015 0.929898 15.238914 0.023575 -154.624227
1080.0 0.005102 177.064145 0.964927 -25.244456 0.929785 -25.197495 0.021276 98.72504
1100.0 0.011368 136.590188 0.965446 -65.683818 0.929934 -65.647391 0.033125 17.787048
1120.0 0.01642 84.658054 0.965495 -106.120107 0.929863 -106.093441 0.039251 -42.224182
1140.0 0.017779 28.838992 0.965178 -146.52907 0.929654 -146.513549 0.032462 -99.708053
1160.0 0.014626 -32.980582 0.964941 173.067743 0.929597 173.070463 0.015633 -175.595042
1180.0 0.008855 -114.700298 0.964571 132.62766 0.929318 132.619183 0.018094 37.50015
1200.0 0.008459 122.1992 0.96343 92.158685 0.928123 92.145478 0.038198 -33.380729
1220.0 0.014457 32.115486 0.961742 51.715772 0.926278 51.706704 0.049047 -88.811976
1240.0 0.019217 -42.093737 0.96068 11.312083 0.925052 11.313258 0.045815 -144.188017
1260.0 0.022316 -118.070353 0.960715 -29.110394 0.925026 -29.099517 0.031521 151.086385
1280.0 0.026452 163.850589 0.960788 -69.58664 0.92521 -69.572353 0.020657 52.293931
1300.0 0.032349 90.355532 0.959851 -110.058533 0.924524 -110.047215 0.029432 -43.99841
1320.0 0.036794 23.002233 0.958532 -150.453316 0.923454 -150.444858 0.037119 -108.447141
1340.0 0.036091 -41.905133 0.958236 169.197128 0.923274 169.21174 0.032179 -166.775091
1360.0 0.029089 -110.876395 0.958854 128.786587 0.923878 128.821084 0.016505 118.660339
1380.0 0.020266 160.880449 0.958689 88.287137 0.923684 88.351391 0.017997 -24.081415
1400.0 0.023043 53.282792 0.956937 47.792927 0.921969 47.88562 0.038608 -94.993699
1420.0 0.035238 -27.604782 0.954978 7.385168 0.920072 7.492888 0.051049 -147.277785
1440.0 0.04453 -94.333429 0.954483 -32.981347 0.919583 -32.877578 0.049658 164.037274
1460.0 0.046619 -159.140312 0.955135 -73.403676 0.920193 -73.318385 0.035472 115.767882
1480.0 0.042488 132.133007 0.955294 -113.886186 0.920375 -113.822168 0.01442 62.639245
1500.0 0.037113 55.900175 0.954428 -154.345805 0.919701 -154.29386 0.006454 -125.690715
1520.0 0.035249 -24.404442 0.953608 165.255638 0.919251 165.31041 0.017265 170.77825
1540.0 0.034918 -100.905082 0.953622 124.859788 0.919726 124.92965 0.016354 120.877579
1560.0 0.031043 -175.59268 0.953797 84.408853 0.920314 84.498175 0.005428 49.840044
1580.0 0.024253 98.628958 0.953243 43.930013 0.919948 44.035366 0.012991 -120.63398
1600.0 0.025843 -4.26012 0.952281 3.481239 0.918824 3.595127 0.027436 -169.019971
1620.0 0.039213 -87.870276 0.951816 -36.938689 0.917861 -36.824149 0.034346 152.82321
1640.0 0.052495 -154.04333 0.951856 -77.37157 0.91727 -77.263545 0.032847 123.967561
1660.0 0.058583 145.70788 0.951631 -117.81858 0.916555 -117.724462 0.029346 109.66596
1680.0 0.055539 86.668859 0.950918 -158.236578 0.915663 -158.164323 0.032602 99.853558
1700.0 0.045196 26.005899 0.950339 161.387572 0.915183 161.431751 0.038482 76.40806
1720.0 0.031631 -39.31896 0.95025 121.012189 0.91531 121.028036 0.037783 42.009381
1740.0 0.018996 -113.66807 0.950195 80.603701 0.915421 80.599673 0.027447 0.498194
1760.0 0.009667 151.568487 0.949765 40.178469 0.91501 40.16976 0.011119 -58.259582
1780.0 0.00883 12.951775 0.949298 -0.239265 0.914412 -0.237655 0.009861 149.065995
1800.0 0.018298 -81.780114 0.949261 -40.663698 0.91417 -40.645104 0.019514 92.608512
1820.0 0.029082 -147.66451 0.949418 -81.119593 0.914152 -81.089604 0.019807 62.18149
1840.0 0.036542 156.18595 0.949193 -121.592191 0.91385 -121.565139 0.01743 65.778171
1860.0 0.038002 105.630637 0.948581 -162.044232 0.913246 -162.033886 0.030224 67.961635
1880.0 0.033329 60.230144 0.948041 157.530219 0.912758 157.520037 0.048611 39.047998
1900.0 0.0252 22.127164 0.947699 117.105377 0.912506 117.084224 0.059546 -0.407121
1920.0 0.018339 -5.111087 0.947245 76.67041 0.912212 76.656451 0.057237 -44.768909
1940.0 0.016117 -29.559881 0.946614 36.24111 0.911811 36.251239 0.042207 -94.641337
1960.0 0.016298 -69.79028 0.946161 -4.177619 0.911588 -4.136495 0.021752 -160.68877
1980.0 0.016919 -126.798398 0.946027 -44.604745 0.911567 -44.538061 0.014444 82.706674
2000.0 0.018791 171.062892 0.945885 -85.047438 0.911342 -84.968232 0.020274 0.207357
2020.0 0.020683 116.51449 0.94553 -125.487216 0.910722 -125.408143 0.015005 -60.551258
2040.0 0.020195 75.466905 0.945161 -165.917026 0.910019 -165.844516 0.006339 122.392187
2060.0 0.019142 53.847128 0.944766 153.641833 0.909409 153.708188 0.033003 44.070689
2080.0 0.024722 40.312105 0.943823 113.185071 0.908528 113.248876 0.059225 -5.460302
2100.0 0.036367 10.796706 0.94219 72.754533 0.907235 72.818438 0.074512 -52.491449
2120.0 0.046824 -30.879735 0.940787 32.380608 0.906271 32.44488 0.073248 -98.874686
2140.0 0.051254 -79.327114 0.940614 -7.980602 0.906393 -7.916464 0.055905 -145.44517
2160.0 0.048418 -133.440274 0.94131 -48.400073 0.907121 -48.33516 0.028704 166.419766
2180.0 0.040573 165.943579 0.941575 -88.873653 0.90722 -88.805664 0.002101 72.362866
2200.0 0.031772 98.590511 0.941022 -129.324679 0.906472 -129.252544 0.016445 -103.171714
2220.0 0.023541 28.340492 0.94064 -169.720426 0.906015 -169.647055 0.019526 -164.491434
2240.0 0.012614 -42.07573 0.941009 149.874864 0.906506 149.942957 0.015614 97.094176
2260.0 0.005579 117.400025 0.941078 109.403821 0.906888 109.461006 0.031426 -2.847738
2280.0 0.027766 39.164744 0.939679 68.918068 0.905881 68.965545 0.055368 -62.187914
2300.0 0.050966 -17.301803 0.937555 28.510401 0.904034 28.558876 0.071494 -110.983397
2320.0 0.068575 -71.343072 0.936664 -11.82844 0.903145 -11.762585 0.072958 -155.484131
2340.0 0.075684 -125.330941 0.937562 -52.208062 0.903764 -52.111952 0.059553 163.938878
2360.0 0.070604 179.127415 0.938716 -92.684955 0.904486 -92.558418 0.037429 131.834819
2380.0 0.055846 119.991089 0.938709 -133.186503 0.904035 -133.045084 0.020258 127.630023
2400.0 0.037388 53.532882 0.93802 -173.620361 0.90294 -173.489489 0.021906 132.497197
2420.0 0.021828 -27.250661 0.937885 145.999128 0.90245 146.09595 0.02427 96.378757
2440.0 0.012976 -134.464127 0.938203 105.590188 0.902545 105.642407 0.02095 28.423577
2460.0 0.016166 96.217611 0.937758 65.134549 0.902143 65.148571 0.026759 -59.824179
2480.0 0.032545 6.250646 0.936229 24.693833 0.900985 24.6882 0.042674 -122.810853
2500.0 0.053228 -60.376619 0.934746 -15.697321 0.900109 -15.702042 0.055284 -169.150331
2520.0 0.070503 -118.650279 0.934294 -56.084453 0.900298 -56.074888 0.058872 153.263106
2540.0 0.07825 -173.466539 0.934531 -96.518167 0.901 -96.491789 0.055198 123.852291
2560.0 0.073591 133.078171 0.93464 -136.979734 0.901263 -136.942482 0.051031 101.914673
2580.0 0.057927 79.716585 0.934561 -177.420722 0.901023 -177.381801 0.050503 80.112626
2600.0 0.036144 25.278916 0.934665 142.162374 0.900808 142.194607 0.049064 50.565256
2620.0 0.014297 -31.238092 0.934732 101.73939 0.90066 101.758766 0.041085 11.386661
2640.0 0.003363 77.203097 0.93413 61.309438 0.900168 61.311829 0.027666 -42.128693
2660.0 0.016747 15.978123 0.932879 20.901992 0.899374 20.886007 0.019791 -124.259371
2680.0 0.029542 -50.765296 0.931759 -19.482872 0.89887 -19.513629 0.02556 162.196326
2700.0 0.043437 -112.43202 0.931258 -59.888063 0.898877 -59.923166 0.031631 121.182892
2720.0 0.055603 -167.809 0.931058 -100.339962 0.898895 -100.363817 0.036092 99.89187
2740.0 0.061913 141.956748 0.930769 -140.812509 0.898491 -140.810589 0.047109 83.94718
2760.0 0.060358 96.146919 0.930548 178.733112 0.897912 178.766105 0.063943 58.536518
2780.0 0.052311 55.026974 0.930678 138.3024 0.897593 138.357596 0.076626 24.442805
2800.0 0.041902 19.509029 0.930947 97.882154 0.897472 97.938937 0.077084 -14.710213
2820.0 0.033752 -11.25524 0.930933 57.475771 0.897216 57.511341 0.063143 -57.575839
2840.0 0.02948 -43.590886 0.930627 17.092373 0.896831 17.093468 0.039309 -105.976444
2860.0 0.027357 -84.249012 0.930319 -23.283817 0.896589 -23.313937 0.01626 -176.077803
2880.0 0.026322 -132.491693 0.930065 -63.683092 0.896537 -63.726685 0.012685 67.453771
2900.0 0.02652 179.182882 0.929708 -104.11594 0.896495 -104.150683 0.01323 16.253829
2920.0 0.027808 139.119861 0.929271 -144.572596 0.896407 -144.583373 0.012504 47.166047
2940.0 0.031627 109.142437 0.928838 174.952616 0.896223 174.966842 0.036775 41.862972
2960.0 0.040579 81.022097 0.928149 134.470426 0.89557 134.49798 0.066898 5.508315
2980.0 0.052993 46.932324 0.926962 94.022547 0.894181 94.046694 0.08902 -35.858702
3000.0 0.063341 6.715906 0.925816 53.650013 0.892674 53.657509 0.094609 -78.750137
3020.0 0.066551 -38.061048 0.925683 13.324441 0.892186 13.310088 0.081379 -122.424597
3040.0 0.060501 -87.085394 0.926567 -27.044853 0.892916 -27.078925 0.053799 -166.795928
3060.0 0.047032 -141.721216 0.927147 -67.505143 0.893658 -67.553029 0.021494 147.997584
3080.0 0.031623 154.645425 0.926418 -107.998538 0.893338 -108.053356 0.004222 -82.256059
3100.0 0.020099 80.336185 0.925117 -148.446857 0.892434 -148.501198 0.014911 -134.350397
3120.0 0.010957 6.803845 0.924653 171.135511 0.892076 171.090084 0.011844 138.067506
3140.0 0.003572 119.168094 0.92498 130.675575 0.892125 130.64737 0.02504 20.746281
3160.0 0.025972 65.346982 0.924686 90.176637 0.891297 90.169993 0.053108 -39.800599
3180.0 0.051872 12.948346 0.923282 49.739932 0.889323 49.750759 0.077008 -87.903267
3200.0 0.073755 -37.865015 0.922208 9.424352 0.887793 9.438872 0.08704 -131.920828
3220.0 0.084635 -88.300769 0.922878 -30.852217 0.888178 -30.852989 0.079922 -172.925034
3240.0 0.080675 -139.5391 0.924603 -71.217121 0.889811 -71.248492 0.059062 150.809583
3260.0 0.062927 166.700301 0.925446 -111.687038 0.890764 -111.752229 0.034469 127.344042
3280.0 0.037816 105.686824 0.924736 -152.17134 0.890332 -152.258956 0.022574 131.6427
3300.0 0.017134 16.260793 0.923611 167.387387 0.889578 167.297992 0.024422 121.78263
3320.0 0.01644 -106.02146 0.923048 126.95081 0.889427 126.87928 0.020632 78.874207
3340.0 0.019654 163.610234 0.922587 86.478974 0.889377 86.434971 0.014566 -11.739411
3360.0 0.02257 65.619669 0.921518 46.012169 0.888641 45.99285 0.027386 -102.668421
3380.0 0.037603 -21.356732 0.920323 5.611886 0.887571 5.606563 0.044271 -153.898892
3400.0 0.057981 -85.866763 0.920075 -34.735688 0.887151 -34.737677 0.053337 166.657126
3420.0 0.072208 -141.022823 0.920867 -75.103077 0.887533 -75.106955 0.053018 135.115621
3440.0 0.073455 167.484984 0.921746 -115.524287 0.887943 -115.530119 0.048466 112.283813
3460.0 0.060391 117.51156 0.922075 -155.969092 0.887923 -155.976425 0.04668 94.184794
3480.0 0.037027 67.786908 0.922084 163.590428 0.88777 163.578113 0.046598 70.812664
3500.0 0.010823 15.124487 0.922012 123.14389 0.887682 123.118996 0.040933 38.643896
3520.0 0.010419 153.46885 0.921547 82.686353 0.887268 82.641708 0.026476 -3.026388
3540.0 0.021258 96.426222 0.920508 42.250342 0.886293 42.185084 0.009028 -85.376808
3560.0 0.022013 31.769902 0.919456 1.860893 0.885316 1.783162 0.017806 145.78333
3580.0 0.021101 -51.39554 0.919021 -38.511307 0.885039 -38.587077 0.028838 98.561106
3600.0 0.028417 -131.855695 0.919029 -78.915584 0.885375 -78.974997 0.028918 67.46216
3620.0 0.037806 168.46888 0.918841 -119.359048 0.885691 -119.3934 0.023868 60.717944
3640.0 0.041279 120.859095 0.918315 -159.811121 0.885712 -159.818974 0.032017 66.033681
3660.0 0.037179 81.841667 0.917888 159.742295 0.885671 159.757603 0.048816 44.288468
3680.0 0.029081 53.247205 0.917778 119.285861 0.885646 119.319631 0.058405 9.018618
3700.0 0.023078 35.897171 0.91771 78.815517 0.88538 78.862551 0.053651 -31.83621
3720.0 0.020631 17.276489 0.917484 38.353563 0.884823 38.405738 0.034995 -77.798465
3740.0 0.016529 -13.239035 0.917239 -2.084507 0.884306 -2.041253 0.010474 -151.907439
3760.0 0.008334 -59.467318 0.917028 -42.506447 0.884014 -42.491697 0.018292 50.729375
3780.0 0.004112 154.058018 0.916617 -82.916555 0.883747 -82.949683 0.03058 -3.306838
3800.0 0.01067 84.158854 0.915985 -123.302665 0.883405 -123.394111 0.02665 -48.437333
3820.0 0.011621 51.740604 0.915532 -163.669299 0.883265 -163.814184 0.007176 -82.661783
3840.0 0.009852 59.891548 0.915412 155.947543 0.883408 155.768817 0.021557 34.610686
3860.0 0.019835 66.573764 0.915145 115.529058 0.883344 115.342747 0.048357 -6.89433
3880.0 0.034529 35.994656 0.914409 75.108795 0.882751 74.936702 0.063471 -50.501636
3900.0 0.04389 -5.013755 0.913806 34.721545 0.88217 34.573282 0.060913 -94.806935
3920.0 0.042599 -51.251619 0.914122 -5.664629 0.882297 -5.791838 0.041163 -140.349166
3940.0 0.03012 -105.612162 0.914944 -46.113757 0.882702 -46.228503 0.011136 163.454479
3960.0 0.014754 164.269629 0.914958 -86.618571 0.882173 -86.726859 0.019979 -35.74518
3980.0 0.022905 45.796342 0.913802 -127.092933 0.880517 -127.193452 0.039774 -85.136976
4000.0 0.036395 -18.445469 0.912694 -167.488544 0.879099 -167.573928 0.042731 -131.398573
4020.0 0.038319 -73.400295 0.912713 152.134735 0.87908 152.072759 0.028728 -179.829686
4040.0 0.026818 -133.271479 0.913227 111.698178 0.87983 111.664205 0.006082 84.130745
4060.0 0.012959 117.642663 0.9129 71.223107 0.879909 71.217167 0.02465 -64.266701
4080.0 0.028499 4.674175 0.911779 30.796166 0.879165 30.816148 0.042575 -112.995406
4100.0 0.045982 -55.809823 0.911249 -9.567219 0.878809 -9.522996 0.045638 -156.401702
4120.0 0.050736 -110.2412 0.911899 -49.953268 0.879428 -49.886348 0.033087 163.926384
4140.0 0.040637 -168.437632 0.912547 -90.425662 0.880005 -90.340724 0.010975 144.979634
4160.0 0.023642 110.126443 0.911899 -130.933927 0.879434 -130.842008 0.01726 -131.227078
4180.0 0.02737 -5.255158 0.910335 -171.388364 0.878135 -171.30632 0.034635 -160.691381
4200.0 0.044798 -77.144339 0.909225 148.21914 0.87737 148.274039 0.039536 163.363124
4220.0 0.052141 -133.292705 0.909014 107.825473 0.877449 107.84294 0.031532 130.996147
4240.0 0.044039 172.224475 0.908977 67.402442 0.877572 67.383585 0.017205 117.849003
4260.0 0.024206 107.605565 0.908629 26.988439 0.877253 26.943797 0.015207 150.281567
4280.0 0.014556 -25.343316 0.908411 -13.386364 0.876971 -13.444247 0.023545 141.980504
4300.0 0.031966 -113.507469 0.908759 -53.750263 0.877211 -53.814847 0.02413 117.162525
4320.0 0.041614 -170.490905 0.90928 -94.142004 0.877614 -94.215868 0.016399 102.808054
4340.0 0.036714 133.786475 0.909374 -134.55518 0.877577 -134.646085 0.013661 131.081388
4360.0 0.021645 62.202561 0.909125 -174.965013 0.877149 -175.077669 0.023641 131.79439
4380.0 0.020031 -57.879992 0.908987 144.619507 0.876788 144.4902 0.030141 109.886537
4400.0 0.037098 -132.588672 0.908942 104.169892 0.876557 104.039451 0.029254 90.562935
4420.0 0.047522 177.009658 0.908589 63.690215 0.876155 63.578648 0.02781 84.643051
4440.0 0.045181 135.035774 0.907924 23.215366 0.875596 23.138713 0.034594 77.018802
4460.0 0.032609 103.299607 0.907384 -17.238367 0.875217 -17.273699 0.04293 52.075518
4480.0 0.02039 97.643791 0.907139 -57.684028 0.875028 -57.681263 0.042901 15.756591
4500.0 0.022844 104.95158 0.906905 -98.124285 0.874634 -98.091952 0.031358 -29.829037
4520.0 0.028157 81.924073 0.906593 -138.538825 0.873943 -138.486161 0.014114 -105.15412
4540.0 0.024945 45.060715 0.906576 -178.924509 0.873446 -178.859992 0.018882 127.372356
4560.0 0.013657 -3.045572 0.907044 140.68408 0.87353 140.751005 0.032031 67.479339
4580.0 0.006025 -134.636091 0.907553 100.2563 0.873916 100.313351 0.032441 23.027005
4600.0 0.016896 147.78827 0.907562 59.803365 0.874112 59.836701 0.017945 -6.963121
4620.0 0.024737 114.120645 0.907073 19.353413 0.874009 19.35254 0.014779 62.723801
4640.0 0.030031 92.11203 0.906341 -21.087212 0.873697 -21.123961 0.0429 43.874722
