! File created by SignalIntegrity v1.1.10: Signal and Power Integrity Tools
! https://github.com/TeledyneLeCroy/SignalIntegrity
# MHz S MA R 50.0
0.0 0.022205 0.0 1.018243 0.0 1.018243 0.0 0.022205 0.0
20.0 0.01711 -36.111788 1.017587 -40.651369 1.017587 -40.651369 0.01711 -36.111788
40.0 0.006223 -32.182938 1.016147 -81.301437 1.016147 -81.301437 0.006223 -32.182938
60.0 0.014738 14.066051 1.014485 -121.986883 1.014485 -121.986883 0.014738 14.066051
80.0 0.025583 -20.509246 1.01258 -162.720279 1.01258 -162.720279 0.025583 -20.509246
100.0 0.026955 -63.742627 1.01062 156.526516 1.01062 156.526516 0.026955 -63.742627
120.0 0.017417 -110.450256 1.009087 115.779755 1.009087 115.779755 0.017417 -110.450256
140.0 0.001219 130.314608 1.008211 75.042406 1.008211 75.042406 0.001219 130.314608
160.0 0.017794 -17.070154 1.007521 34.311088 1.007521 34.311088 0.017794 -17.070154
180.0 0.029686 -68.343163 1.006383 -6.385513 1.006383 -6.385513 0.029686 -68.343163
200.0 0.031066 -122.15305 1.005121 -47.019376 1.005121 -47.019376 0.031066 -122.15305
220.0 0.022847 173.346304 1.004463 -87.630993 1.004463 -87.630993 0.022847 173.346304
240.0 0.015734 73.480884 1.004151 -128.292844 1.004151 -128.292844 0.015734 73.480884
260.0 0.023549 -24.214791 1.003205 -169.015357 1.003205 -169.015357 0.023549 -24.214791
280.0 0.030878 -90.994058 1.001509 150.261977 1.001509 150.261977 0.030878 -90.994058
300.0 0.028207 -153.366309 1.000227 109.57237 1.000227 109.57237 0.028207 -153.366309
320.0 0.01744 127.058673 0.999962 68.868863 0.999962 68.868863 0.01744 127.058673
340.0 0.018209 3.072382 0.999573 28.122445 0.999573 28.122445 0.018209 3.072382
360.0 0.033319 -77.366147 0.997955 -12.598821 0.997955 -12.598821 0.033319 -77.366147
380.0 0.042422 -139.422034 0.995914 -53.22197 0.995914 -53.22197 0.042422 -139.422034
400.0 0.040086 157.919388 0.994977 -93.797783 0.994977 -93.797783 0.040086 157.919388
420.0 0.030395 81.398973 0.994713 -134.451266 0.994713 -134.451266 0.030395 81.398973
440.0 0.029428 -17.396732 0.992988 -175.196652 0.992988 -175.196652 0.029428 -17.396732
460.0 0.041633 -99.342274 0.989284 144.092729 0.989284 144.092729 0.041633 -99.342274
480.0 0.050146 -163.762935 0.985878 103.495652 0.985878 103.495652 0.050146 -163.762935
500.0 0.046894 135.403434 0.984777 62.922438 0.984777 62.922438 0.046894 135.403434
520.0 0.03307 67.578377 0.984914 22.25172 0.984914 22.25172 0.03307 67.578377
540.0 0.020913 -31.10448 0.983844 -18.478637 0.983844 -18.478637 0.020913 -31.10448
560.0 0.028435 -135.962345 0.981435 -59.125298 0.981435 -59.125298 0.028435 -135.962345
580.0 0.038515 151.374301 0.979872 -99.657658 0.979872 -99.657658 0.038515 151.374301
600.0 0.039551 84.14037 0.980099 -140.201609 0.980099 -140.201609 0.039551 84.14037
620.0 0.034294 8.294277 0.98036 179.154598 0.98036 179.154598 0.034294 8.294277
640.0 0.03368 -78.937971 0.978997 138.48811 0.978997 138.48811 0.03368 -78.937971
660.0 0.040364 -157.322267 0.977093 97.912524 0.977093 97.912524 0.040364 -157.322267
680.0 0.043407 136.794438 0.976845 57.396488 0.976845 57.396488 0.043407 136.794438
700.0 0.036046 73.498481 0.978188 16.812688 0.978188 16.812688 0.036046 73.498481
720.0 0.02084 -4.982901 0.978914 -23.864559 0.978914 -23.864559 0.02084 -4.982901
740.0 0.01942 -130.9536 0.977947 -64.525004 0.977947 -64.525004 0.01942 -130.9536
760.0 0.035516 147.607747 0.976703 -105.092723 0.976703 -105.092723 0.035516 147.607747
780.0 0.0451 87.53511 0.976712 -145.637119 0.976712 -145.637119 0.0451 87.53511
800.0 0.042338 29.367888 0.977305 173.737578 0.977305 173.737578 0.042338 29.367888
820.0 0.030025 -37.304633 0.976828 133.043327 0.976828 133.043327 0.030025 -37.304633
840.0 0.021131 -132.098201 0.975153 92.377059 0.975153 92.377059 0.021131 -132.098201
860.0 0.028028 136.906029 0.973725 51.780913 0.973725 51.780913 0.028028 136.906029
880.0 0.034547 75.425971 0.97346 11.202481 0.97346 11.202481 0.034547 75.425971
900.0 0.030892 25.917852 0.973726 -29.410488 0.973726 -29.410488 0.030892 25.917852
920.0 0.017693 -12.573309 0.973573 -70.043676 0.973573 -70.043676 0.017693 -12.573309
940.0 0.006562 26.784156 0.9729 -110.66291 0.9729 -110.66291 0.006562 26.784156
960.0 0.018782 37.36324 0.972045 -151.270104 0.972045 -151.270104 0.018782 37.36324
980.0 0.026291 1.748789 0.971032 168.113853 0.971032 168.113853 0.026291 1.748789
1000.0 0.024212 -35.64501 0.96974 127.489374 0.96974 127.489374 0.024212 -35.64501
1020.0 0.015124 -65.147922 0.968416 86.872344 0.968416 86.872344 0.015124 -65.147922
1040.0 0.00734 -54.486078 0.967515 46.264308 0.967515 46.264308 0.00734 -54.486078
1060.0 0.009565 -38.2086 0.967189 5.656033 0.967189 5.656033 0.009565 -38.2086
1080.0 0.008603 -60.561969 0.967311 -34.953958 0.967311 -34.953958 0.008603 -60.561969
1100.0 0.002927 -14.476044 0.96771 -75.565013 0.96771 -75.565013 0.002927 -14.476044
1120.0 0.014053 10.25336 0.968094 -116.183452 0.968094 -116.183452 0.014053 10.25336
1140.0 0.025229 -26.780398 0.968025 -156.809383 0.968025 -156.809383 0.025229 -26.780398
1160.0 0.028753 -68.173479 0.96733 162.572839 0.96733 162.572839 0.028753 -68.173479
1180.0 0.021661 -109.302773 0.966372 121.968542 0.966372 121.968542 0.021661 -109.302773
1200.0 0.006091 -130.243847 0.965473 81.353768 0.965473 81.353768 0.006091 -130.243847
1220.0 0.014946 -41.466285 0.964392 40.714171 0.964392 40.714171 0.014946 -41.466285
1240.0 0.030329 -82.582097 0.962946 0.082135 0.962946 0.082135 0.030329 -82.582097
1260.0 0.03556 -132.112583 0.96179 -40.505444 0.96179 -40.505444 0.03556 -132.112583
1280.0 0.029228 168.383097 0.961741 -81.075588 0.961741 -81.075588 0.029228 168.383097
1300.0 0.020343 78.730467 0.96235 -121.691733 0.96235 -121.691733 0.020343 78.730467
1320.0 0.028941 -21.43639 0.962164 -162.349456 0.962164 -162.349456 0.028941 -21.43639
1340.0 0.042561 -87.899315 0.960793 157.033229 0.960793 157.033229 0.042561 -87.899315
1360.0 0.045472 -144.200192 0.959619 116.490453 0.959619 116.490453 0.045472 -144.200192
1380.0 0.03367 158.067151 0.959697 75.93564 0.959697 75.93564 0.03367 158.067151
1400.0 0.013799 66.300184 0.959879 35.279564 0.959879 35.279564 0.013799 66.300184
1420.0 0.026393 -72.854369 0.958403 -5.420782 0.958403 -5.420782 0.026393 -72.854369
1440.0 0.048935 -136.543259 0.955862 -46.027415 0.955862 -46.027415 0.048935 -136.543259
1460.0 0.059121 168.292757 0.954812 -86.525633 0.954812 -86.525633 0.059121 168.292757
1480.0 0.053717 111.15304 0.956202 -127.060072 0.956202 -127.060072 0.053717 111.15304
1500.0 0.037993 42.62104 0.957855 -167.730805 0.957855 -167.730805 0.037993 42.62104
1520.0 0.028798 -52.245495 0.957449 151.552097 0.957449 151.552097 0.028798 -52.245495
1540.0 0.035975 -140.49163 0.955719 110.935056 0.955719 110.935056 0.035975 -140.49163
1560.0 0.039407 152.502297 0.955135 70.404096 0.955135 70.404096 0.039407 152.502297
1580.0 0.029377 85.035853 0.956032 29.810694 0.956032 29.810694 0.029377 85.035853
1600.0 0.018016 -27.670125 0.956109 -10.895344 0.956109 -10.895344 0.018016 -27.670125
1620.0 0.038392 -131.89972 0.954037 -51.58364 0.954037 -51.58364 0.038392 -131.89972
1640.0 0.062755 167.972725 0.951629 -92.132746 0.951629 -92.132746 0.062755 167.972725
1660.0 0.074254 116.266851 0.951352 -132.606025 0.951352 -132.606025 0.074254 116.266851
1680.0 0.068079 66.505934 0.952947 -173.158738 0.952947 -173.158738 0.068079 66.505934
1700.0 0.046436 15.63698 0.95401 146.173579 0.95401 146.173579 0.046436 15.63698
1720.0 0.017991 -47.506585 0.953291 105.499969 0.953291 105.499969 0.017991 -47.506585
1740.0 0.013093 147.63824 0.95197 64.907978 0.95197 64.907978 0.013093 147.63824
1760.0 0.026666 80.064932 0.951552 24.35697 0.951552 24.35697 0.026666 80.064932
1780.0 0.025633 28.331016 0.95185 -16.236037 0.95185 -16.236037 0.025633 28.331016
1800.0 0.01111 -32.776513 0.951788 -56.876297 0.951788 -56.876297 0.01111 -32.776513
1820.0 0.013307 148.50774 0.951159 -97.510638 0.951159 -97.510638 0.013307 148.50774
1840.0 0.033823 93.0208 0.950664 -138.118384 0.950664 -138.118384 0.033823 93.0208
1860.0 0.046094 50.159393 0.950664 -178.729494 0.950664 -178.729494 0.046094 50.159393
1880.0 0.046997 12.539138 0.950748 140.634184 0.950748 140.634184 0.046997 12.539138
1900.0 0.039382 -18.005443 0.950486 99.988758 0.950486 99.988758 0.039382 -18.005443
1920.0 0.03054 -38.38655 0.949915 59.356702 0.949915 59.356702 0.03054 -38.38655
1940.0 0.025938 -54.918829 0.949231 18.743613 0.949231 18.743613 0.025938 -54.918829
1960.0 0.021872 -82.649935 0.948551 -21.8518 0.948551 -21.8518 0.021872 -82.649935
1980.0 0.013874 -131.500942 0.948017 -62.432051 0.948017 -62.432051 0.013874 -131.500942
2000.0 0.009791 124.787138 0.947784 -103.010301 0.947784 -103.010301 0.009791 124.787138
2020.0 0.01851 48.676491 0.947761 -143.607153 0.947761 -143.607153 0.01851 48.676491
2040.0 0.024715 9.031586 0.947636 175.770417 0.947636 175.770417 0.024715 9.031586
2060.0 0.026214 -11.75582 0.947232 135.129931 0.947232 135.129931 0.026214 -11.75582
2080.0 0.032224 -20.004529 0.946484 94.476406 0.946484 94.476406 0.032224 -20.004529
2100.0 0.046979 -39.786409 0.945198 53.822062 0.945198 53.822062 0.046979 -39.786409
2120.0 0.060903 -73.167523 0.943397 13.204784 0.943397 13.204784 0.060903 -73.167523
2140.0 0.064896 -114.001181 0.941866 -27.342243 0.941866 -27.342243 0.064896 -114.001181
2160.0 0.055629 -160.730618 0.941677 -67.850696 0.941677 -67.850696 0.055629 -160.730618
2180.0 0.03667 142.246031 0.942781 -108.405001 0.942781 -108.405001 0.03667 142.246031
2200.0 0.020924 55.008083 0.943779 -149.040027 0.943779 -149.040027 0.020924 55.008083
2220.0 0.0235 -42.701844 0.943659 170.305598 0.943659 170.305598 0.0235 -42.701844
2240.0 0.024202 -106.886931 0.94309 129.694364 0.94309 129.694364 0.024202 -106.886931
2260.0 0.009702 -162.418151 0.943113 89.087802 0.943113 89.087802 0.009702 -162.418151
2280.0 0.0186 -23.591255 0.943065 48.411296 0.943065 48.411296 0.0186 -23.591255
2300.0 0.051884 -73.133217 0.941325 7.706193 0.941325 7.706193 0.051884 -73.133217
2320.0 0.078784 -120.97143 0.938225 -32.888252 0.938225 -32.888252 0.078784 -120.97143
2340.0 0.090017 -168.938269 0.93645 -73.33265 0.93645 -73.33265 0.090017 -168.938269
2360.0 0.081964 141.603993 0.937727 -113.776802 0.937727 -113.776802 0.081964 141.603993
2380.0 0.057948 87.668328 0.940321 -154.381305 0.940321 -154.381305 0.057948 87.668328
2400.0 0.029093 17.291047 0.941163 164.892161 0.941163 164.892161 0.029093 17.291047
2420.0 0.019296 -101.102819 0.939853 124.215402 0.939853 124.215402 0.019296 -101.102819
2440.0 0.025469 171.365075 0.938768 83.645069 0.938768 83.645069 0.025469 171.365075
2460.0 0.019702 93.606297 0.939172 43.055943 0.939172 43.055943 0.019702 93.606297
2480.0 0.02018 -37.943457 0.939269 2.355535 0.939269 2.355535 0.02018 -37.943457
2500.0 0.049059 -119.128951 0.937172 -38.352893 0.937172 -38.352893 0.049059 -119.128951
2520.0 0.077823 -173.987055 0.934186 -78.910624 0.934186 -78.910624 0.077823 -173.987055
2540.0 0.092905 136.807798 0.93337 -119.338021 0.93337 -119.338021 0.092905 136.807798
2560.0 0.088627 89.530192 0.935461 -159.818747 0.935461 -159.818747 0.088627 89.530192
2580.0 0.066332 43.019153 0.937995 159.538789 0.937995 159.538789 0.066332 43.019153
2600.0 0.033944 -2.82003 0.938565 118.818716 0.938565 118.818716 0.033944 -2.82003
2620.0 0.003154 -31.895044 0.937473 78.156801 0.937473 78.156801 0.003154 -31.895044
2640.0 0.016358 74.587508 0.936476 37.566074 0.936476 37.566074 0.016358 74.587508
2660.0 0.019479 16.63584 0.936043 -3.034341 0.936043 -3.034341 0.019479 16.63584
2680.0 0.015921 -82.227573 0.935251 -43.67063 0.935251 -43.67063 0.015921 -82.227573
2700.0 0.032622 -177.542773 0.933795 -84.285541 0.933795 -84.285541 0.032622 -177.542773
2720.0 0.056414 126.543122 0.932689 -124.842031 0.932689 -124.842031 0.056414 126.543122
2740.0 0.072722 81.314742 0.932858 -165.384586 0.932858 -165.384586 0.072722 81.314742
2760.0 0.076157 41.270517 0.933912 154.022661 0.933912 154.022661 0.076157 41.270517
2780.0 0.067792 6.199463 0.934761 113.375169 0.934761 113.375169 0.067792 6.199463
2800.0 0.053715 -22.63852 0.934824 72.717147 0.934824 72.717147 0.053715 -22.63852
2820.0 0.040823 -45.71844 0.934259 32.085713 0.934259 32.085713 0.040823 -45.71844
2840.0 0.030688 -69.555912 0.933469 -8.511665 0.933469 -8.511665 0.030688 -69.555912
2860.0 0.019741 -104.250531 0.932768 -49.085593 0.932768 -49.085593 0.019741 -104.250531
2880.0 0.009353 -179.349756 0.932361 -89.653638 0.932361 -89.653638 0.009353 -179.349756
2900.0 0.015339 80.074629 0.932284 -130.237017 0.932284 -130.237017 0.015339 80.074629
2920.0 0.025722 38.985127 0.932352 -170.848703 0.932352 -170.848703 0.025722 38.985127
2940.0 0.034139 15.849829 0.932342 148.512653 0.932342 148.512653 0.034139 15.849829
2960.0 0.046048 -2.169239 0.932056 107.852763 0.932056 107.852763 0.046048 -2.169239
2980.0 0.063374 -26.577021 0.93119 67.185803 0.93119 67.185803 0.063374 -26.577021
3000.0 0.079153 -59.17466 0.929603 26.548904 0.929603 26.548904 0.079153 -59.17466
3020.0 0.084808 -97.440942 0.927871 -14.018483 0.927871 -14.018483 0.084808 -97.440942
3040.0 0.075938 -140.071601 0.927092 -54.531481 0.927092 -54.531481 0.075938 -140.071601
3060.0 0.054484 171.669065 0.92764 -95.070136 0.92764 -95.070136 0.054484 171.669065
3080.0 0.029227 109.161957 0.928476 -135.691999 0.928476 -135.691999 0.029227 109.161957
3100.0 0.017259 9.097802 0.928426 -176.357802 0.928426 -176.357802 0.017259 9.097802
3120.0 0.018155 -71.298612 0.927777 143.008105 0.927777 143.008105 0.018155 -71.298612
3140.0 0.007907 -103.29407 0.927673 102.399719 0.927673 102.399719 0.007907 -103.29407
3160.0 0.021164 -22.133553 0.927943 61.741537 0.927943 61.741537 0.021164 -22.133553
3180.0 0.055712 -60.552512 0.926909 21.038276 0.926909 21.038276 0.055712 -60.552512
3200.0 0.086526 -104.744363 0.924068 -19.579198 0.924068 -19.579198 0.086526 -104.744363
3220.0 0.10243 -150.013998 0.921632 -60.022331 0.921632 -60.022331 0.10243 -150.013998
3240.0 0.097732 163.739175 0.922112 -100.399352 0.922112 -100.399352 0.097732 163.739175
3260.0 0.073718 115.382823 0.92494 -140.912949 0.92494 -140.912949 0.073718 115.382823
3280.0 0.038798 60.398466 0.926965 178.387531 0.926965 178.387531 0.038798 60.398466
3300.0 0.011371 -48.473014 0.926439 137.654393 0.926439 137.654393 0.011371 -48.473014
3320.0 0.021782 -173.419906 0.924946 97.021606 0.924946 97.021606 0.021782 -173.419906
3340.0 0.023066 118.713299 0.924572 56.437239 0.924572 56.437239 0.023066 118.713299
3360.0 0.015189 9.691746 0.924745 15.786445 0.924745 15.786445 0.015189 9.691746
3380.0 0.03693 -98.029406 0.923489 -24.899453 0.923489 -24.899453 0.03693 -98.029406
3400.0 0.067586 -156.146256 0.920942 -65.475896 0.920942 -65.475896 0.067586 -156.146256
3420.0 0.087661 154.766198 0.919658 -105.906694 0.919658 -105.906694 0.087661 154.766198
3440.0 0.089007 108.542938 0.92118 -146.341137 0.92118 -146.341137 0.089007 108.542938
3460.0 0.070748 63.918296 0.923905 173.069969 0.923905 173.069969 0.070748 63.918296
3480.0 0.0392 22.001076 0.925164 132.353394 0.925164 132.353394 0.0392 22.001076
3500.0 0.006926 13.764647 0.924394 91.649972 0.924394 91.649972 0.006926 13.764647
3520.0 0.020164 91.926905 0.923159 51.027338 0.923159 51.027338 0.020164 91.926905
3540.0 0.028018 50.538859 0.922576 10.43303 0.922576 10.43303 0.028018 50.538859
3560.0 0.019052 -3.777978 0.922174 -30.184569 0.922174 -30.184569 0.019052 -3.777978
3580.0 0.010858 -139.492441 0.921304 -70.799513 0.921304 -70.799513 0.010858 -139.492441
3600.0 0.032601 136.876681 0.920368 -111.369777 0.920368 -111.369777 0.032601 136.876681
3620.0 0.051469 90.520675 0.920169 -151.913101 0.920169 -151.913101 0.051469 90.520675
3640.0 0.0588 51.30065 0.920723 167.515427 0.920723 167.515427 0.0588 51.30065
3660.0 0.054443 18.061372 0.921343 126.893093 0.921343 126.893093 0.054443 18.061372
3680.0 0.044191 -6.933015 0.921555 86.239446 0.921555 86.239446 0.044191 -6.933015
3700.0 0.035736 -23.868309 0.92136 45.577842 0.92136 45.577842 0.035736 -23.868309
3720.0 0.030204 -41.786539 0.920888 4.919934 0.920888 4.919934 0.030204 -41.786539
3740.0 0.021757 -67.040946 0.92024 -35.723968 0.92024 -35.723968 0.021757 -67.040946
3760.0 0.007897 -95.857677 0.919599 -76.344523 0.919599 -76.344523 0.007897 -95.857677
3780.0 0.007865 43.426474 0.919162 -116.944189 0.919162 -116.944189 0.007865 43.426474
3800.0 0.019344 14.159372 0.918932 -157.531884 0.918932 -157.531884 0.019344 14.159372
3820.0 0.022868 -8.968224 0.918841 161.888626 0.918841 161.888626 0.022868 -8.968224
3840.0 0.023441 -13.526122 0.918895 121.308705 0.918895 121.308705 0.023441 -13.526122
3860.0 0.033893 -16.404336 0.918918 80.710479 0.918918 80.710479 0.033893 -16.404336
3880.0 0.050256 -40.22511 0.918469 40.094602 0.918469 40.094602 0.050256 -40.22511
3900.0 0.060124 -75.481973 0.917452 -0.504729 0.917452 -0.504729 0.060124 -75.481973
3920.0 0.056158 -116.358573 0.916593 -41.064971 0.916593 -41.064971 0.056158 -116.358573
3940.0 0.037625 -162.988789 0.916657 -81.627583 0.916657 -81.627583 0.037625 -162.988789
3960.0 0.012055 119.617717 0.91719 -122.255762 0.91719 -122.255762 0.012055 119.617717
3980.0 0.022096 -33.350222 0.916929 -162.935156 0.916929 -162.935156 0.022096 -33.350222
4000.0 0.039006 -90.083729 0.915649 156.42484 0.915649 156.42484 0.039006 -90.083729
4020.0 0.039298 -139.819352 0.914686 115.866808 0.914686 115.866808 0.039298 -139.819352
4040.0 0.022178 164.822531 0.914994 75.316051 0.914994 75.316051 0.022178 164.822531
4060.0 0.01136 -2.367254 0.915517 34.69157 0.915517 34.69157 0.01136 -2.367254
4080.0 0.040299 -78.001685 0.914673 -5.959872 0.914673 -5.959872 0.040299 -78.001685
4100.0 0.060635 -128.265338 0.912924 -46.526353 0.912924 -46.526353 0.060635 -128.265338
4120.0 0.063019 -176.9696 0.912391 -87.011272 0.912391 -87.011272 0.063019 -176.9696
4140.0 0.046238 131.268796 0.913744 -127.557912 0.913744 -127.557912 0.046238 131.268796
4160.0 0.018548 55.132478 0.914911 -168.253795 0.914911 -168.253795 0.018548 55.132478
4180.0 0.025496 -93.550122 0.913863 151.005211 0.913863 151.005211 0.025496 -93.550122
4200.0 0.04876 -156.609734 0.911525 110.378587 0.911525 110.378587 0.04876 -156.609734
4220.0 0.055734 152.204903 0.910475 69.866287 0.910475 69.866287 0.055734 152.204903
4240.0 0.043235 100.589487 0.911345 29.325521 0.911345 29.325521 0.043235 100.589487
4260.0 0.017692 30.11433 0.912181 -11.313285 0.912181 -11.313285 0.017692 30.11433
4280.0 0.021782 -127.445138 0.91148 -51.955542 0.91148 -51.955542 0.021782 -127.445138
4300.0 0.045546 169.994587 0.910294 -92.496753 0.910294 -92.496753 0.045546 169.994587
4320.0 0.054491 120.568056 0.910465 -132.981199 0.910465 -132.981199 0.054491 120.568056
4340.0 0.044638 72.498223 0.911857 -173.535918 0.911857 -173.535918 0.044638 72.498223
4360.0 0.020016 18.081134 0.912657 145.807522 0.912657 145.807522 0.020016 18.081134
4380.0 0.01304 -164.100401 0.911987 105.138738 0.911987 105.138738 0.01304 -164.100401
4400.0 0.038004 135.318149 0.910877 64.529085 0.910877 64.529085 0.038004 135.318149
4420.0 0.050322 90.855981 0.91052 23.946175 0.91052 23.946175 0.050322 90.855981
4440.0 0.046614 50.79565 0.91073 -16.671536 0.91073 -16.671536 0.046614 50.79565
4460.0 0.030727 18.702337 0.910647 -57.319886 0.910647 -57.319886 0.030727 18.702337
4480.0 0.014739 20.207085 0.910121 -97.950119 0.910121 -97.950119 0.014739 20.207085
4500.0 0.018674 44.773361 0.909698 -138.544902 0.909698 -138.544902 0.018674 44.773361
4520.0 0.023679 21.772086 0.90965 -179.129639 0.90965 -179.129639 0.023679 21.772086
4540.0 0.017631 -11.746728 0.90971 140.276241 0.90971 140.276241 0.017631 -11.746728
4560.0 0.002829 -30.586518 0.909671 99.677832 0.909671 99.677832 0.002829 -30.586518
4580.0 0.014779 88.648109 0.909629 59.078183 0.909629 59.078183 0.014779 88.648109
4600.0 0.028075 57.849534 0.909635 18.467755 0.909635 18.467755 0.028075 57.849534
4620.0 0.034683 31.525745 0.90955 -22.157463 0.90955 -22.157463 0.034683 31.525745
4640.0 0.037996 12.334451 0.909271 -62.789279 0.909271 -62.789279 0.037996 12.334451
