! File created by SignalIntegrity v1.1.13: Signal and Power Integrity Tools
! https://github.com/TeledyneLeCroy/SignalIntegrity
# MHz S MA R 50.0
0.0 0.013213 0.0 0.993674 0.0 1.029878 0.0 0.020937 0.0
20.0 0.015716 2.444971 0.993091 -39.740112 1.029413 -39.785872 0.015819 -30.447645
40.0 0.019616 -11.220569 0.991687 -79.494354 1.028368 -79.568362 0.006162 -7.25845
60.0 0.021209 -33.257624 0.989778 -119.292811 1.027031 -119.368134 0.017157 25.227394
80.0 0.018677 -57.631283 0.987536 -159.132788 1.025454 -159.184671 0.02765 -7.119648
100.0 0.012174 -73.504427 0.985491 161.005369 1.023975 160.990641 0.027481 -45.393896
120.0 0.008555 -45.632972 0.983985 121.132736 1.022714 121.155527 0.015503 -81.56797
140.0 0.016272 -38.99246 0.982965 81.26843 1.021479 81.31942 0.00567 13.163327
160.0 0.023918 -67.921075 0.982224 41.434949 1.020098 41.500906 0.02522 -4.765389
180.0 0.025731 -107.23233 0.981589 1.651382 1.018628 1.719048 0.03743 -46.01563
200.0 0.020503 -155.353317 0.981169 -38.087484 1.017489 -38.030496 0.036456 -90.289761
220.0 0.011662 130.516019 0.980895 -77.822788 1.016846 -77.788 0.022096 -138.952228
240.0 0.013864 16.698343 0.980253 -117.587837 1.016221 -117.584072 0.004314 80.335749
260.0 0.023994 -50.658604 0.978897 -157.3767 1.015128 -157.405978 0.024413 -29.055853
280.0 0.029031 -102.736213 0.977191 162.836714 1.013732 162.782823 0.038361 -79.87756
300.0 0.025537 -153.359797 0.975992 123.05289 1.012743 122.992659 0.038474 -130.512986
320.0 0.014681 147.728658 0.975556 83.237699 1.012358 83.19291 0.02548 170.766813
340.0 0.007305 17.357003 0.97512 43.384151 1.011811 43.370652 0.012401 59.107569
360.0 0.01818 -76.146934 0.974003 3.543901 1.010442 3.56445 0.026155 -49.839885
380.0 0.025154 -131.249039 0.972532 -36.230058 1.008613 -36.186199 0.038835 -112.127967
400.0 0.022856 175.97971 0.971506 -75.953979 1.007148 -75.904384 0.039677 -172.353168
420.0 0.012339 110.072059 0.970826 -115.697645 1.005965 -115.657223 0.032034 115.067659
440.0 0.010326 -35.494694 0.969405 -155.486693 1.004031 -155.46118 0.031068 22.689227
460.0 0.024994 -111.196972 0.966794 164.730845 1.001024 164.744975 0.042316 -56.474721
480.0 0.034855 -164.645324 0.964008 125.000503 0.998119 125.010803 0.050134 -118.942257
500.0 0.034983 143.797215 0.962274 85.288177 0.996606 85.300196 0.045798 -177.681141
520.0 0.025373 87.81507 0.961392 45.526736 0.996167 45.541614 0.030657 115.259625
540.0 0.011887 4.00743 0.960098 5.724141 0.995308 5.74093 0.020057 10.121506
560.0 0.015419 -126.486122 0.958054 -34.035544 0.993531 -34.015614 0.031487 -87.156073
580.0 0.026288 162.752776 0.956416 -73.711197 0.991997 -73.682781 0.041406 -152.1616
600.0 0.029804 101.63979 0.956098 -113.366365 0.991735 -113.322507 0.039025 146.475757
620.0 0.026314 32.523003 0.956317 -153.082099 0.992044 -153.019475 0.02791 71.1233
640.0 0.024719 -53.989456 0.955601 167.15956 0.991444 167.236804 0.027046 -31.909118
660.0 0.032473 -135.191656 0.953964 127.449587 0.989898 127.53061 0.041264 -111.016929
680.0 0.040949 161.088483 0.952999 87.815691 0.988948 87.88804 0.050289 -170.204439
700.0 0.041687 104.566822 0.953661 48.177105 0.989515 48.23249 0.04565 135.082464
720.0 0.032364 47.543043 0.954917 8.454628 0.990562 8.491246 0.02821 75.179052
740.0 0.01695 -25.535195 0.955098 -31.321074 0.990487 -31.301004 0.011876 -40.862997
760.0 0.01447 -154.950793 0.954063 -71.055617 0.989287 -71.050677 0.027497 -152.53006
780.0 0.026582 125.927249 0.953123 -110.723715 0.988375 -110.736168 0.041317 147.844394
800.0 0.03154 67.697924 0.952997 -150.3949 0.988436 -150.429023 0.04265 92.012153
820.0 0.025705 7.792789 0.952928 169.872984 0.988549 169.815895 0.033646 29.212096
840.0 0.015021 -79.935814 0.951997 130.110463 0.987646 130.036239 0.025148 -53.479006
860.0 0.021522 165.389945 0.950568 90.383279 0.986077 90.304298 0.02848 -139.053515
880.0 0.036459 98.914231 0.949762 50.696161 0.985067 50.625634 0.033193 158.647093
900.0 0.043808 45.80462 0.949854 10.996191 0.984978 10.940872 0.029089 109.698235
920.0 0.039185 -4.901843 0.949999 -28.74233 0.984974 -28.785921 0.016014 73.369749
940.0 0.023774 -59.35887 0.949463 -68.485274 0.984269 -68.528316 0.006674 125.11561
960.0 0.00712 -172.511342 0.948454 -108.194036 0.983037 -108.24815 0.019275 128.153122
980.0 0.021341 63.951668 0.947551 -147.879861 0.981888 -147.950001 0.026059 94.199998
1000.0 0.03417 8.969181 0.946792 172.420563 0.980942 172.338471 0.023169 60.110898
1020.0 0.035991 -41.927597 0.94586 132.699776 0.979979 132.615416 0.013702 38.05486
1040.0 0.027119 -97.116511 0.944809 92.978886 0.979108 92.901298 0.008386 64.872938
1060.0 0.01456 -178.505591 0.944095 53.268041 0.978748 53.201153 0.012644 70.214026
1080.0 0.018094 67.141271 0.943954 13.553667 0.978995 13.496373 0.011946 50.481277
1100.0 0.029072 2.04206 0.944101 -26.172739 0.979401 -26.222884 0.006858 67.722332
1120.0 0.032361 -47.60965 0.944192 -65.897367 0.979549 -65.940481 0.015101 96.410115
1140.0 0.025458 -92.565062 0.944198 -105.609852 0.979476 -105.643287 0.026239 68.980525
1160.0 0.010689 -132.997858 0.944109 -145.323291 0.979313 -145.344618 0.02975 32.037396
1180.0 0.007114 -9.748536 0.943633 174.946155 0.978872 174.935581 0.022267 -6.557153
1200.0 0.02189 -46.01542 0.942488 135.20778 0.97787 135.202042 0.005788 -30.462346
1220.0 0.029394 -86.739374 0.940933 95.487233 0.976477 95.478912 0.015072 72.975457
1240.0 0.027818 -127.980378 0.939669 55.788703 0.975286 55.773499 0.030507 32.766177
1260.0 0.018383 -171.035464 0.939099 16.087617 0.974643 16.06669 0.034991 -14.218888
1280.0 0.00512 123.447232 0.938975 -23.635091 0.974324 -23.657307 0.026994 -70.991497
1300.0 0.010306 -41.403292 0.938786 -63.366243 0.973906 -63.387387 0.016655 -166.668523
1320.0 0.020064 -86.499618 0.938364 -103.074827 0.973321 -103.098975 0.028407 90.601191
1340.0 0.023489 -122.918112 0.937956 -142.750756 0.972862 -142.788038 0.043533 29.67898
1360.0 0.019997 -153.602833 0.937747 177.581592 0.972682 177.520518 0.046291 -22.905215
1380.0 0.011812 -167.29896 0.937518 137.888623 0.97249 137.799756 0.03335 -78.225612
1400.0 0.010442 -127.520307 0.936822 98.16063 0.971787 98.050457 0.013419 -174.92953
1420.0 0.021498 -131.125934 0.935495 58.422262 0.970415 58.305322 0.0295 55.968094
1440.0 0.031364 -160.207269 0.934007 18.706402 0.968882 18.597881 0.052069 -2.79604
1460.0 0.035205 163.991608 0.93315 -20.982849 0.967996 -21.074844 0.060272 -54.0483
1480.0 0.03119 123.521577 0.933307 -60.676539 0.968084 -60.754257 0.050639 -106.90497
1500.0 0.020253 73.955648 0.93399 -100.405036 0.968567 -100.478324 0.028907 -174.281576
1520.0 0.009788 -19.882206 0.934301 -140.154027 0.968502 -140.233982 0.022068 64.430538
1540.0 0.017758 -125.00937 0.93395 -179.874877 0.967687 -179.968283 0.040336 -17.438597
1560.0 0.026867 -179.071375 0.933533 140.451364 0.966916 140.343758 0.048809 -74.031227
1580.0 0.026745 136.074696 0.933597 100.778812 0.966922 100.660377 0.039361 -129.897536
1600.0 0.015429 95.041753 0.933683 61.047132 0.967278 60.9225 0.018703 146.361598
1620.0 0.005105 -147.867386 0.932764 21.26526 0.966824 21.139203 0.029642 13.742472
1640.0 0.028499 -177.954574 0.930757 -18.488826 0.965277 -18.610393 0.056654 -48.884578
1660.0 0.048016 140.38949 0.928955 -58.165233 0.963791 -58.274164 0.071192 -98.737671
1680.0 0.057206 97.496523 0.928601 -97.807337 0.963576 -97.894531 0.067405 -146.168063
1700.0 0.052832 53.308232 0.929397 -137.495573 0.964377 -137.554958 0.047415 165.412592
1720.0 0.036077 6.039533 0.929917 -177.242255 0.964833 -177.275055 0.019745 106.257652
1740.0 0.013388 -59.136596 0.929409 143.019699 0.964274 143.003924 0.011539 -52.009961
1760.0 0.013947 141.432252 0.928572 103.339494 0.96346 103.326723 0.024696 -123.650223
1780.0 0.026914 80.027619 0.92835 63.681048 0.963339 63.659863 0.023921 -176.197847
1800.0 0.026616 30.735187 0.928583 23.975541 0.963689 23.943078 0.011 112.47231
1820.0 0.011968 -24.659385 0.928358 -15.785863 0.963537 -15.823092 0.01618 -36.540467
1840.0 0.014093 141.647528 0.927408 -55.548465 0.962614 -55.5796 0.035172 -93.106001
1860.0 0.04094 87.339103 0.926453 -95.273588 0.961678 -95.291134 0.046004 -134.314877
1880.0 0.061162 40.507412 0.926118 -134.978702 0.961358 -134.983932 0.045651 -168.522622
1900.0 0.067918 -6.065644 0.926173 -174.691777 0.961371 -174.694482 0.037753 166.447567
1920.0 0.059221 -54.359967 0.926078 145.595899 0.961123 145.582795 0.030488 153.192975
1940.0 0.038914 -108.60647 0.925802 105.907784 0.960611 105.874965 0.027998 141.233315
1960.0 0.018173 169.650123 0.925653 66.235456 0.96025 66.181045 0.024002 118.834266
1980.0 0.01991 52.015902 0.925562 26.547903 0.960084 26.476577 0.013436 87.798794
2000.0 0.02668 -16.741818 0.925147 -13.162149 0.959778 -13.24326 0.001978 -100.462081
2020.0 0.020568 -77.681052 0.924398 -52.875067 0.959272 -52.960336 0.015852 -151.140439
2040.0 0.009595 158.852542 0.923739 -92.586122 0.95887 -92.672733 0.023147 -178.765999
2060.0 0.031053 52.198749 0.923288 -132.316612 0.958544 -132.403258 0.024428 168.333793
2080.0 0.056158 -1.246638 0.922564 -172.067256 0.957723 -172.152349 0.030819 167.637513
2100.0 0.071383 -48.549505 0.921315 148.206439 0.956196 148.124969 0.046676 151.729724
2120.0 0.071511 -94.195513 0.920182 108.540621 0.95476 108.463748 0.061 121.140185
2140.0 0.056797 -139.647804 0.919986 68.904957 0.954395 68.830958 0.064273 83.246389
2160.0 0.032428 173.171003 0.920563 29.232552 0.954981 29.157434 0.053079 39.805753
2180.0 0.007276 105.384751 0.920898 -10.494208 0.95541 -10.573889 0.031251 -14.347008
2200.0 0.012848 -75.280523 0.920517 -50.225255 0.955076 -50.309144 0.015005 -117.043426
2220.0 0.01826 -130.587522 0.920111 -89.923013 0.954608 -90.006149 0.024282 143.804524
2240.0 0.010537 160.079024 0.920401 -129.621886 0.954739 -129.697731 0.026803 88.025647
2260.0 0.015175 10.02958 0.920879 -169.375029 0.955003 -169.440788 0.011693 36.674212
2280.0 0.038827 -51.678363 0.92034 150.838233 0.954242 150.777707 0.018198 -177.673477
2300.0 0.059451 -97.989874 0.918588 111.105488 0.952329 111.038405 0.052777 134.904284
2320.0 0.069787 -140.820997 0.916915 71.472403 0.950635 71.385733 0.080113 89.900768
2340.0 0.067065 178.150793 0.916574 31.878991 0.950462 31.766066 0.090458 44.783788
2360.0 0.052821 138.832323 0.917317 -7.773103 0.951544 -7.907652 0.08003 -1.676797
2380.0 0.032209 102.690753 0.917823 -47.512107 0.95249 -47.6532 0.052759 -52.363258
2400.0 0.012578 79.029944 0.917341 -87.28038 0.952467 -87.408736 0.021165 -125.057784
2420.0 0.005451 129.167465 0.916429 -127.019197 0.95195 -127.119403 0.019876 95.420957
2440.0 0.006342 122.194923 0.915984 -166.735713 0.951735 -166.801822 0.030402 24.169607
2460.0 0.0029 -44.298833 0.916049 153.526905 0.951756 153.490661 0.023962 -42.725394
2480.0 0.01924 -108.128406 0.915883 113.760645 0.951222 113.743352 0.019149 -166.853947
2500.0 0.039222 -147.207227 0.915018 74.010406 0.94975 73.999498 0.047582 106.980124
2520.0 0.056967 175.371733 0.913899 34.321146 0.948 34.30637 0.077091 53.842451
2540.0 0.067878 138.539624 0.913385 -5.316255 0.94706 -5.340945 0.092012 6.961808
2560.0 0.069267 101.997627 0.913809 -44.95763 0.947374 -44.993606 0.086561 -37.734813
2580.0 0.060819 65.587304 0.91465 -84.651816 0.948359 -84.695786 0.062831 -81.149476
2600.0 0.044662 29.18072 0.915067 -124.397349 0.948988 -124.441738 0.029543 -122.03637
2620.0 0.025019 -7.568225 0.914723 -164.150993 0.948727 -164.185596 0.003624 -53.396227
2640.0 0.007327 -49.920456 0.914015 156.123608 0.947879 156.108042 0.020621 -48.204843
2660.0 0.004339 137.080865 0.913519 116.422259 0.947046 116.42935 0.022336 -101.404181
2680.0 0.007576 122.655129 0.913318 76.715717 0.946418 76.740099 0.016784 165.323042
2700.0 0.014782 142.374841 0.912988 36.993307 0.9457 37.021158 0.032613 68.976194
2720.0 0.03354 126.252244 0.91227 -2.722055 0.944738 -2.707805 0.05625 14.446113
2740.0 0.056031 94.608389 0.911487 -42.408461 0.943925 -42.42032 0.071805 -28.645051
2760.0 0.074284 58.099047 0.911137 -82.07931 0.943769 -82.118868 0.074191 -66.193399
2780.0 0.081821 19.311585 0.911231 -121.768918 0.944228 -121.825613 0.065188 -98.345047
2800.0 0.075377 -21.078423 0.911285 -161.488256 0.944714 -161.544175 0.051406 -123.78133
2820.0 0.056221 -63.327524 0.910984 158.787852 0.944791 158.749702 0.039643 -143.577775
2840.0 0.03023 -110.157707 0.910544 119.084871 0.94457 119.073174 0.030581 -165.346267
2860.0 0.008008 165.380156 0.910316 79.398694 0.944332 79.410928 0.020238 161.331866
2880.0 0.01256 30.768613 0.910315 39.7094 0.944085 39.734287 0.01024 92.062118
2900.0 0.012219 -12.68102 0.910323 0.007933 0.943689 0.031297 0.014732 -2.527724
2920.0 0.007515 53.400101 0.91024 -39.706215 0.943201 -39.69545 0.024364 -41.730669
2940.0 0.033348 47.16998 0.909985 -79.441241 0.942707 -79.447428 0.033695 -62.076757
2960.0 0.063451 9.051747 0.909213 -119.196877 0.941949 -119.217138 0.047534 -79.935175
2980.0 0.086359 -32.350599 0.907696 -158.936861 0.940661 -158.962869 0.065195 -104.954786
3000.0 0.094213 -74.977526 0.906016 161.38507 0.939306 161.364264 0.078795 -136.967155
3020.0 0.0842 -118.725672 0.905319 121.759231 0.938889 121.754088 0.080411 -173.648843
3040.0 0.059412 -164.580496 0.906007 82.108145 0.939697 82.125537 0.066725 145.830198
3060.0 0.028152 142.262895 0.907022 42.372298 0.940613 42.412809 0.040925 99.1245
3080.0 0.008109 13.353006 0.907019 2.589825 0.940337 2.64643 0.014609 21.029487
3100.0 0.018425 -91.505423 0.906055 -37.151473 0.939087 -37.092141 0.018685 -109.226196
3120.0 0.015989 -155.095346 0.905393 -76.834284 0.93832 -76.78762 0.023951 -164.53923
3140.0 0.01106 62.154332 0.905542 -116.535006 0.938637 -116.51227 0.010828 164.776994
3160.0 0.038463 -22.662914 0.905317 -156.303623 0.938796 -156.306639 0.020832 -95.940929
3180.0 0.068876 -73.087781 0.903535 163.93139 0.937483 163.911812 0.057189 -130.725103
3200.0 0.089366 -118.840432 0.901046 124.280963 0.935453 124.261678 0.087339 -171.859109
3220.0 0.092983 -163.086566 0.90006 84.737918 0.934872 84.736523 0.100168 145.727869
3240.0 0.078467 153.194132 0.901454 45.162276 0.936545 45.189895 0.090679 102.166864
3260.0 0.050255 109.510878 0.903584 5.443045 0.938707 5.500158 0.061572 56.162054
3280.0 0.017283 65.606132 0.904265 -34.372067 0.939091 -34.295103 0.023495 -1.866278
3300.0 0.009916 -159.179334 0.903344 -74.150257 0.93762 -74.068752 0.016386 -169.972632
3320.0 0.023177 154.316712 0.90247 -113.844878 0.936148 -113.773938 0.033905 125.104601
3340.0 0.019896 99.198643 0.902578 -153.532048 0.935802 -153.481936 0.030626 71.973797
3360.0 0.011888 -16.078271 0.902699 166.72366 0.935702 166.749499 0.011765 -22.203646
3380.0 0.032705 -113.328724 0.901609 126.972567 0.934622 126.976972 0.033796 -157.843395
3400.0 0.057592 -164.742841 0.899795 87.309646 0.933015 87.29979 0.067158 149.2638
3420.0 0.073066 151.041174 0.898979 47.736305 0.932557 47.721459 0.087124 104.181776
3440.0 0.073915 109.562431 0.899932 8.145112 0.93393 8.134665 0.086207 61.347898
3460.0 0.060161 70.431869 0.901533 -31.556044 0.935891 -31.554281 0.064854 20.171012
3480.0 0.036761 36.112195 0.902154 -71.347031 0.936724 -71.328252 0.03101 -16.402313
3500.0 0.013413 26.97245 0.901429 -111.137428 0.936063 -111.100727 0.007066 56.961543
3520.0 0.014244 82.310138 0.900293 -150.874064 0.934901 -150.822381 0.028069 57.814192
3540.0 0.021251 63.224456 0.899607 169.423031 0.934133 169.484004 0.033136 18.313375
3560.0 0.01645 32.276069 0.899331 129.717863 0.933702 129.781298 0.020543 -29.796743
3580.0 0.002425 55.957758 0.899031 90.011256 0.933142 90.070492 0.008578 -178.874366
3600.0 0.019846 125.613094 0.898651 50.326745 0.932401 50.37574 0.032288 102.614325
3620.0 0.039345 92.449743 0.898524 10.667228 0.93187 10.700395 0.050277 61.089486
3640.0 0.052284 57.429022 0.898818 -28.99497 0.931794 -28.982721 0.055343 26.020646
3660.0 0.055384 22.741939 0.89926 -68.688089 0.931967 -68.70027 0.04874 -2.107789
3680.0 0.048307 -10.574407 0.899446 -108.415812 0.932028 -108.45219 0.037963 -19.30924
3700.0 0.033504 -40.270838 0.899231 -148.1631 0.931839 -148.217436 0.031565 -26.818659
3720.0 0.016179 -55.258177 0.898761 172.083932 0.931518 172.024705 0.028206 -37.503161
3740.0 0.010629 -8.736523 0.898223 132.330118 0.931183 132.284128 0.020734 -50.910709
3760.0 0.0191 -7.300576 0.897677 92.580351 0.930806 92.566551 0.011388 -36.432264
3780.0 0.0212 -31.633218 0.897165 52.846623 0.93034 52.879488 0.016754 -1.723425
3800.0 0.013933 -52.83304 0.896842 13.138714 0.929893 13.22389 0.025015 -13.59266
3820.0 0.007677 6.661562 0.896868 -26.550488 0.929635 -26.417901 0.025264 -28.907412
3840.0 0.025402 13.783989 0.897121 -66.241761 0.929512 -66.075701 0.023176 -24.78847
3860.0 0.043528 -17.031272 0.897172 -105.944262 0.929197 -105.76361 0.033772 -20.076534
3880.0 0.053774 -52.877297 0.896742 -145.64147 0.928533 -145.464886 0.049658 -40.647957
3900.0 0.051837 -90.32274 0.896105 174.683871 0.927903 174.842492 0.056641 -72.689893
3920.0 0.037166 -127.892797 0.895778 135.014269 0.927863 135.148386 0.047899 -109.408566
3940.0 0.013426 -159.587828 0.895747 95.307487 0.928334 95.41786 0.023921 -149.358573
3960.0 0.013604 -45.01076 0.895334 55.554612 0.928483 55.6468 0.008311 0.978342
3980.0 0.034112 -78.620487 0.89413 15.808094 0.927735 15.888462 0.037393 -45.600905
4000.0 0.042449 -119.414514 0.892791 -23.875426 0.926645 -23.803618 0.052743 -87.394764
4020.0 0.035742 -163.276119 0.892387 -63.511433 0.926274 -63.450297 0.048232 -129.451316
4040.0 0.016525 141.523212 0.892973 -103.173099 0.926702 -103.129769 0.024893 -173.484239
4060.0 0.013377 -27.050866 0.893365 -142.89137 0.926792 -142.87511 0.009578 -19.664592
4080.0 0.036594 -89.261159 0.892699 177.393036 0.925759 177.375087 0.041997 -71.09106
4100.0 0.049983 -135.517615 0.891689 137.745696 0.924444 137.692338 0.060716 -114.945538
4120.0 0.047686 179.886553 0.891698 98.131731 0.924311 98.049448 0.058412 -159.337685
4140.0 0.029757 133.900604 0.892723 58.444016 0.925337 58.345968 0.035606 151.710825
4160.0 0.00347 26.580237 0.893137 18.645659 0.925773 18.548404 0.00914 21.628581
4180.0 0.028671 -120.399537 0.891821 -21.167524 0.924371 -21.248257 0.039258 -86.687546
4200.0 0.049799 -167.090349 0.889801 -60.882644 0.922139 -60.935605 0.062309 -134.980494
4220.0 0.055799 147.666011 0.889029 -100.51253 0.921097 -100.532913 0.064736 -179.675693
4240.0 0.04498 100.71154 0.889892 -140.17031 0.921707 -140.159607 0.045927 135.307732
4260.0 0.021867 43.078026 0.890832 -179.912366 0.922453 -179.876396 0.013399 78.192946
4280.0 0.013439 -109.890245 0.890521 140.332289 0.922048 140.386366 0.022908 -112.977896
4300.0 0.034735 176.593391 0.889558 100.654796 0.921151 100.721398 0.046796 -161.605341
4320.0 0.044837 127.562429 0.889432 61.035402 0.921274 61.112269 0.051531 154.48828
4340.0 0.03804 80.60338 0.89032 21.371014 0.922521 21.458961 0.035717 109.908145
4360.0 0.016286 26.318213 0.890851 -18.383112 0.923371 -18.282505 0.006623 34.199621
4380.0 0.015681 -162.564922 0.890035 -58.15851 0.922719 -58.046361 0.029168 -136.576599
4400.0 0.044182 142.365679 0.888569 -97.871286 0.921255 -97.754284 0.054326 179.982912
4420.0 0.062562 97.031357 0.887813 -137.528233 0.920417 -137.419168 0.063335 141.770417
4440.0 0.065123 52.829008 0.888033 -177.199715 0.920545 -177.114801 0.055248 108.573685
4460.0 0.051734 8.184278 0.888332 143.084535 0.920792 143.130806 0.037196 87.234191
4480.0 0.027694 -40.057669 0.888041 103.364891 0.92054 103.365197 0.025796 93.234822
4500.0 0.005486 -155.16624 0.887495 63.682953 0.920175 63.640359 0.030247 95.416185
4520.0 0.020007 81.437626 0.887322 24.022884 0.920338 23.950282 0.031464 74.008766
4540.0 0.026576 33.48636 0.887498 -15.659911 0.920932 -15.74381 0.021074 46.822446
4560.0 0.01848 -10.820878 0.887519 -55.377956 0.921318 -55.454169 0.003895 68.795558
4580.0 0.001686 165.047957 0.887193 -95.10801 0.921174 -95.162033 0.018946 141.681664
4600.0 0.026216 91.736539 0.886807 -134.832442 0.920715 -134.85669 0.033605 117.282294
4620.0 0.048014 51.007151 0.886605 -174.556939 0.920196 -174.550696 0.040887 94.801393
