! File created by SignalIntegrity v1.3.3: Signal and Power Integrity Tools
! https://github.com/TeledyneLeCroy/SignalIntegrity
# MHz S MA R 50.0
0.0 0.022207 0.0 1.018318 0.0 1.018318 0.0 0.022207 0.0
20.0 0.017106 -36.137468 1.017618 -40.666816 1.017618 -40.666816 0.017106 -36.137468
40.0 0.006212 -32.153088 1.016126 -81.32686 1.016126 -81.32686 0.006212 -32.153088
60.0 0.014743 14.086393 1.014464 -122.019821 1.014464 -122.019821 0.014743 14.086393
80.0 0.025583 -20.515369 1.01257 -162.759715 1.01257 -162.759715 0.025583 -20.515369
100.0 0.026942 -63.753543 1.010626 156.482417 1.010626 156.482417 0.026942 -63.753543
120.0 0.017389 -110.447087 1.009108 115.731755 1.009108 115.731755 0.017389 -110.447087
140.0 0.001192 128.794504 1.008235 74.991146 1.008235 74.991146 0.001192 128.794504
160.0 0.017829 -17.202531 1.007543 34.256936 1.007543 34.256936 0.017829 -17.202531
180.0 0.029713 -68.450512 1.006397 -6.442712 1.006397 -6.442712 0.029713 -68.450512
200.0 0.031082 -122.264243 1.005126 -47.079562 1.005126 -47.079562 0.031082 -122.264243
220.0 0.022857 173.217334 1.004465 -87.694441 1.004465 -87.694441 0.022857 173.217334
240.0 0.015753 73.377082 1.00415 -128.359626 1.00415 -128.359626 0.015753 73.377082
260.0 0.023553 -24.271995 1.003208 -169.085147 1.003208 -169.085147 0.023553 -24.271995
280.0 0.030854 -91.066401 1.001518 150.189416 1.001518 150.189416 0.030854 -91.066401
300.0 0.028157 -153.47387 1.000242 109.49737 1.000242 109.49737 0.028157 -153.47387
320.0 0.017391 126.803233 0.999981 68.791507 0.999981 68.791507 0.017391 126.803233
340.0 0.018247 2.778682 0.999589 28.042846 0.999589 28.042846 0.018247 2.778682
360.0 0.033368 -77.519715 0.997965 -12.68035 0.997965 -12.68035 0.033368 -77.519715
380.0 0.042448 -139.554466 0.995921 -53.305521 0.995921 -53.305521 0.042448 -139.554466
400.0 0.040087 157.775413 0.994984 -93.883642 0.994984 -93.883642 0.040087 157.775413
420.0 0.030393 81.216433 0.99472 -134.539669 0.99472 -134.539669 0.030393 81.216433
440.0 0.02945 -17.568474 0.992992 -175.287465 0.992992 -175.287465 0.02945 -17.568474
460.0 0.041645 -99.470779 0.98929 144.000009 0.98929 144.000009 0.041645 -99.470779
480.0 0.050121 -163.889719 0.985891 103.401098 0.985891 103.401098 0.050121 -163.889719
500.0 0.04683 135.252356 0.984796 62.825831 0.984796 62.825831 0.04683 135.252356
520.0 0.032992 67.343985 0.984931 22.153047 0.984931 22.153047 0.032992 67.343985
540.0 0.020911 -31.532471 0.983853 -18.579082 0.983853 -18.579082 0.020911 -31.532471
560.0 0.02851 -136.202941 0.981439 -59.227151 0.981439 -59.227151 0.02851 -136.202941
580.0 0.03857 151.215353 0.979878 -99.761151 0.979878 -99.761151 0.03857 151.215353
600.0 0.039571 83.989903 0.980107 -140.307205 0.980107 -140.307205 0.039571 83.989903
620.0 0.034293 8.124254 0.980367 179.046912 0.980367 179.046912 0.034293 8.124254
640.0 0.03368 -79.118301 0.979002 138.378688 0.979002 138.378688 0.03368 -79.118301
660.0 0.040352 -157.488133 0.977101 97.801654 0.977101 97.801654 0.040352 -157.488133
680.0 0.043361 136.625966 0.976862 57.283965 0.976862 57.283965 0.043361 136.625966
700.0 0.035964 73.288882 0.978205 16.698252 0.978205 16.698252 0.035964 73.288882
720.0 0.020769 -5.397139 0.978924 -23.980635 0.978924 -23.980635 0.020769 -5.397139
740.0 0.019502 -131.37198 0.97795 -64.642353 0.97795 -64.642353 0.019502 -131.37198
760.0 0.035611 147.420604 0.976707 -105.211328 0.976707 -105.211328 0.035611 147.420604
780.0 0.045154 87.383525 0.97672 -145.757374 0.97672 -145.757374 0.045154 87.383525
800.0 0.042344 29.215623 0.977315 173.615382 0.977315 173.615382 0.042344 29.215623
820.0 0.030002 -37.489059 0.976835 132.919442 0.976835 132.919442 0.030002 -37.489059
840.0 0.021123 -132.352071 0.975161 92.251797 0.975161 92.251797 0.021123 -132.352071
860.0 0.028029 136.705644 0.973737 51.654312 0.973737 51.654312 0.028029 136.705644
880.0 0.034514 75.253216 0.973474 11.074407 0.973474 11.074407 0.034514 75.253216
900.0 0.030815 25.749415 0.973739 -29.540104 0.973739 -29.540104 0.030815 25.749415
920.0 0.017583 -12.712593 0.973582 -70.174662 0.973582 -70.174662 0.017583 -12.712593
940.0 0.006547 27.684301 0.972907 -110.795195 0.972907 -110.795195 0.006547 27.684301
960.0 0.018851 37.473159 0.972051 -151.403794 0.972051 -151.403794 0.018851 37.473159
980.0 0.026336 1.763931 0.971039 167.978693 0.971039 167.978693 0.026336 1.763931
1000.0 0.024226 -35.626731 0.969747 127.352724 0.969747 127.352724 0.024226 -35.626731
1020.0 0.015131 -65.046006 0.968425 86.734288 0.968425 86.734288 0.015131 -65.046006
1040.0 0.007387 -54.383597 0.967525 46.124917 0.967525 46.124917 0.007387 -54.383597
1060.0 0.009596 -38.528783 0.9672 5.515347 0.9672 5.515347 0.009596 -38.528783
1080.0 0.008594 -60.982435 0.967322 -35.095842 0.967322 -35.095842 0.008594 -60.982435
1100.0 0.00288 -14.065073 0.967719 -75.708124 0.967719 -75.708124 0.00288 -14.065073
1120.0 0.014058 10.354746 0.968102 -116.327859 0.968102 -116.327859 0.014058 10.354746
1140.0 0.025213 -26.787131 0.968033 -156.955109 0.968033 -156.955109 0.025213 -26.787131
1160.0 0.028696 -68.196583 0.967338 162.425754 0.967338 162.425754 0.028696 -68.196583
1180.0 0.021562 -109.273553 0.966382 121.820068 0.966382 121.820068 0.021562 -109.273553
1200.0 0.006004 -129.325927 0.965483 81.203861 0.965483 81.203861 0.006004 -129.325927
1220.0 0.015083 -41.674557 0.9644 40.562976 0.9644 40.562976 0.015083 -41.674557
1240.0 0.03043 -82.797168 0.962953 -0.07004 0.962953 -0.07004 0.03043 -82.797168
1260.0 0.035612 -132.332064 0.961799 -40.65855 0.961799 -40.65855 0.035612 -132.332064
1280.0 0.029242 168.131611 0.961753 -81.229869 0.961753 -81.229869 0.029242 168.131611
1300.0 0.020367 78.437139 0.962361 -121.847409 0.962361 -121.847409 0.020367 78.437139
1320.0 0.02897 -21.622923 0.962171 -162.506395 0.962171 -162.506395 0.02897 -21.622923
1340.0 0.042535 -88.065025 0.960799 156.875294 0.960799 156.875294 0.042535 -88.065025
1360.0 0.045369 -144.379005 0.959632 116.331311 0.959632 116.331311 0.045369 -144.379005
1380.0 0.033498 157.822626 0.959714 75.774827 0.959714 75.774827 0.033498 157.822626
1400.0 0.013681 65.341778 0.95989 35.117115 0.95989 35.117115 0.013681 65.341778
1420.0 0.02658 -73.283559 0.958404 -5.584164 0.958404 -5.584164 0.02658 -73.283559
1440.0 0.049097 -136.789074 0.95586 -46.191125 0.95586 -46.191125 0.049097 -136.789074
1460.0 0.059212 168.075391 0.95482 -86.690011 0.95482 -86.690011 0.059212 168.075391
1480.0 0.053738 110.933476 0.956217 -127.225901 0.956217 -127.225901 0.053738 110.933476
1500.0 0.037974 42.373232 0.957866 -167.898234 0.957866 -167.898234 0.037974 42.373232
1520.0 0.028784 -52.522116 0.957454 151.383585 0.957454 151.383585 0.028784 -52.522116
1540.0 0.035936 -140.73831 0.955726 110.765757 0.955726 110.765757 0.035936 -140.73831
1560.0 0.039298 152.234361 0.955152 70.233493 0.955152 70.233493 0.039298 152.234361
1580.0 0.029217 84.610889 0.956048 29.638261 0.956048 29.638261 0.029217 84.610889
1600.0 0.018055 -28.644479 0.956113 -11.069148 0.956113 -11.069148 0.018055 -28.644479
1620.0 0.038614 -132.248504 0.95403 -51.757852 0.95403 -51.757852 0.038614 -132.248504
1640.0 0.06294 167.743676 0.951626 -92.307063 0.951626 -92.307063 0.06294 167.743676
1660.0 0.074352 116.064249 0.951362 -132.781166 0.951362 -132.781166 0.074352 116.064249
1680.0 0.068081 66.310915 0.952964 -173.335486 0.952964 -173.335486 0.068081 66.310915
1700.0 0.046368 15.441417 0.954021 145.995291 0.954021 145.995291 0.046368 15.441417
1720.0 0.017902 -47.763866 0.953298 105.320651 0.953298 105.320651 0.017902 -47.763866
1740.0 0.01312 147.171639 0.951978 64.727796 0.951978 64.727796 0.01312 147.171639
1760.0 0.026644 79.760806 0.951564 24.175636 0.951564 24.175636 0.026644 79.760806
1780.0 0.025539 27.988002 0.951863 -16.418697 0.951863 -16.418697 0.025539 27.988002
1800.0 0.010987 -33.591406 0.951795 -57.059988 0.951795 -57.059988 0.010987 -33.591406
1820.0 0.013499 148.296159 0.951163 -97.695039 0.951163 -97.695039 0.013499 148.296159
1840.0 0.033989 92.910994 0.950669 -138.303521 0.950669 -138.303521 0.033989 92.910994
1860.0 0.046207 50.050332 0.950671 -178.915595 0.950671 -178.915595 0.046207 50.050332
1880.0 0.047055 12.442834 0.950756 140.446956 0.950756 140.446956 0.047055 12.442834
1900.0 0.039413 -18.07516 0.950494 99.800428 0.950494 99.800428 0.039413 -18.07516
1920.0 0.030579 -38.446899 0.949922 59.167312 0.949922 59.167312 0.030579 -38.446899
1940.0 0.025985 -55.0526 0.949239 18.553184 0.949239 18.553184 0.025985 -55.0526
1960.0 0.021901 -82.895878 0.948559 -22.043179 0.948559 -22.043179 0.021901 -82.895878
1980.0 0.013896 -131.914705 0.948025 -62.624333 0.948025 -62.624333 0.013896 -131.914705
2000.0 0.009871 124.551924 0.947793 -103.203492 0.947793 -103.203492 0.009871 124.551924
2020.0 0.018574 48.697132 0.94777 -143.801291 0.94777 -143.801291 0.018574 48.697132
2040.0 0.024756 9.095373 0.947644 175.575289 0.947644 175.575289 0.024756 9.095373
2060.0 0.026281 -11.645244 0.94724 134.933787 0.94724 134.933787 0.026281 -11.645244
2080.0 0.032364 -20.006592 0.94649 94.279204 0.94649 94.279204 0.032364 -20.006592
2100.0 0.047138 -39.925348 0.945201 53.623914 0.945201 53.623914 0.047138 -39.925348
2120.0 0.061017 -73.360826 0.943397 13.005957 0.943397 13.005957 0.061017 -73.360826
2140.0 0.064937 -114.220053 0.941871 -27.541699 0.941871 -27.541699 0.064937 -114.220053
2160.0 0.0556 -160.975914 0.941689 -68.051087 0.941689 -68.051087 0.0556 -160.975914
2180.0 0.03661 141.942366 0.942797 -108.606667 0.942797 -108.606667 0.03661 141.942366
2200.0 0.020911 54.600269 0.943791 -149.242856 0.943791 -149.242856 0.020911 54.600269
2220.0 0.023493 -42.956335 0.943666 170.102007 0.943666 170.102007 0.023493 -42.956335
2240.0 0.024106 -107.068688 0.943099 129.48998 0.943099 129.48998 0.024106 -107.068688
2260.0 0.009508 -162.547078 0.943125 88.882142 0.943125 88.882142 0.009508 -162.547078
2280.0 0.018849 -23.958961 0.94307 48.204258 0.94307 48.204258 0.018849 -23.958961
2300.0 0.052129 -73.39946 0.941318 7.498526 0.941318 7.498526 0.052129 -73.39946
2320.0 0.078958 -121.220419 0.938216 -33.095769 0.938216 -33.095769 0.078958 -121.220419
2340.0 0.090081 -169.184515 0.936456 -73.540379 0.936456 -73.540379 0.090081 -169.184515
2360.0 0.081915 141.349575 0.937751 -113.985915 0.937751 -113.985915 0.081915 141.349575
2380.0 0.057824 87.383957 0.940344 -154.592304 0.940344 -154.592304 0.057824 87.383957
2400.0 0.028975 16.875346 0.941173 164.67998 0.941173 164.67998 0.028975 16.875346
2420.0 0.019295 -101.643404 0.939856 124.002855 0.939856 124.002855 0.019295 -101.643404
2440.0 0.025426 170.965158 0.938779 83.43186 0.938779 83.43186 0.025426 170.965158
2460.0 0.019598 92.962263 0.939187 42.841235 0.939187 42.841235 0.019598 92.962263
2480.0 0.02034 -38.724004 0.939273 2.139451 0.939273 2.139451 0.02034 -38.724004
2500.0 0.049305 -119.461721 0.937161 -38.569255 0.937161 -38.569255 0.049305 -119.461721
2520.0 0.078016 -174.250261 0.934178 -79.126631 0.934178 -79.126631 0.078016 -174.250261
2540.0 0.092984 136.563647 0.933382 -119.554431 0.933382 -119.554431 0.092984 136.563647
2560.0 0.088578 89.292451 0.935487 -160.036753 0.935487 -160.036753 0.088578 89.292451
2580.0 0.066181 42.784834 0.938017 159.31902 0.938017 159.31902 0.066181 42.784834
2600.0 0.033756 -3.041078 0.938575 118.597952 0.938575 118.597952 0.033756 -3.041078
2620.0 0.003016 -30.938045 0.937478 77.935579 0.937478 77.935579 0.003016 -30.938045
2640.0 0.016425 74.258839 0.936485 37.344105 0.936485 37.344105 0.016425 74.258839
2660.0 0.01946 16.164982 0.936053 -3.257477 0.936053 -3.257477 0.01946 16.164982
2680.0 0.015982 -83.010412 0.935254 -43.894706 0.935254 -43.894706 0.015982 -83.010412
2700.0 0.032809 -177.893255 0.933794 -84.510037 0.933794 -84.510037 0.032809 -177.893255
2720.0 0.056586 126.299985 0.932692 -125.066842 0.932692 -125.066842 0.056586 126.299985
2740.0 0.07282 81.101824 0.932869 -165.610104 0.932869 -165.610104 0.07282 81.101824
2760.0 0.076162 41.078166 0.933928 153.796049 0.933928 153.796049 0.076162 41.078166
2780.0 0.067724 6.034378 0.934775 113.147454 0.934775 113.147454 0.067724 6.034378
2800.0 0.053618 -22.762705 0.934835 72.488495 0.934835 72.488495 0.053618 -22.762705
2820.0 0.040737 -45.80529 0.934269 31.856223 0.934269 31.856223 0.040737 -45.80529
2840.0 0.030615 -69.651689 0.933478 -8.74196 0.933478 -8.74196 0.030615 -69.651689
2860.0 0.019665 -104.431034 0.932777 -49.316693 0.932777 -49.316693 0.019665 -104.431034
2880.0 0.009324 -179.966608 0.932371 -89.885532 0.932371 -89.885532 0.009324 -179.966608
2900.0 0.015404 79.816465 0.932295 -130.469703 0.932295 -130.469703 0.015404 79.816465
2920.0 0.025784 38.891155 0.932362 -171.082181 0.932362 -171.082181 0.025784 38.891155
2940.0 0.034217 15.801965 0.932351 148.278397 0.932351 148.278397 0.034217 15.801965
2960.0 0.046168 -2.257689 0.932062 107.617719 0.932062 107.617719 0.046168 -2.257689
2980.0 0.063499 -26.730883 0.931193 66.950077 0.931193 66.950077 0.063499 -26.730883
3000.0 0.07922 -59.369669 0.929606 26.312714 0.929606 26.312714 0.07922 -59.369669
3020.0 0.084773 -97.66052 0.927879 -14.255134 0.927879 -14.255134 0.084773 -97.66052
3040.0 0.075797 -140.314703 0.927111 -54.769016 0.927111 -54.769016 0.075797 -140.314703
3060.0 0.054275 171.378521 0.927664 -95.309083 0.927664 -95.309083 0.054275 171.378521
3080.0 0.029036 108.687802 0.928495 -135.932311 0.928495 -135.932311 0.029036 108.687802
3100.0 0.017237 8.31956 0.928436 -176.598839 0.928436 -176.598839 0.017237 8.31956
3120.0 0.018145 -71.745074 0.927784 142.766719 0.927784 142.766719 0.018145 -71.745074
3140.0 0.007813 -103.212564 0.927683 102.157643 0.927683 102.157643 0.007813 -103.212564
3160.0 0.021343 -22.267838 0.92795 61.498402 0.92795 61.498402 0.021343 -22.267838
3180.0 0.055904 -60.795896 0.926905 20.794547 0.926905 20.794547 0.055904 -60.795896
3200.0 0.086639 -105.00156 0.924062 -19.8227 0.924062 -19.8227 0.086639 -105.00156
3220.0 0.102404 -150.278123 0.921644 -60.265815 0.921644 -60.265815 0.102404 -150.278123
3240.0 0.097549 163.462669 0.922147 -100.644193 0.922147 -100.644193 0.097549 163.462669
3260.0 0.073412 115.074357 0.92498 -141.160134 0.92498 -141.160134 0.073412 115.074357
3280.0 0.03846 59.95324 0.926986 178.13865 0.926986 178.13865 0.03846 59.95324
3300.0 0.011328 -50.29896 0.926441 137.405287 0.926441 137.405287 0.011328 -50.29896
3320.0 0.021955 -173.894914 0.924947 96.772709 0.924947 96.772709 0.021955 -173.894914
3340.0 0.023108 118.347456 0.924582 56.187718 0.924582 56.187718 0.023108 118.347456
3360.0 0.01521 9.040849 0.924754 15.535771 0.924754 15.535771 0.01521 9.040849
3380.0 0.037061 -98.412861 0.923487 -25.150658 0.923487 -25.150658 0.037061 -98.412861
3400.0 0.067683 -156.457085 0.920942 -65.726898 0.920942 -65.726898 0.067683 -156.457085
3420.0 0.087643 154.473553 0.919677 -106.157995 0.919677 -106.157995 0.087643 154.473553
3440.0 0.088838 108.253631 0.921216 -146.594042 0.921216 -146.594042 0.088838 108.253631
3460.0 0.070445 63.625122 0.923939 172.815004 0.923939 172.815004 0.070445 63.625122
3480.0 0.038826 21.709731 0.925179 132.097231 0.925179 132.097231 0.038826 21.709731
3500.0 0.006629 15.129574 0.924396 91.393663 0.924396 91.393663 0.006629 15.129574
3520.0 0.020388 92.02485 0.923161 50.770978 0.923161 50.770978 0.020388 92.02485
3540.0 0.028115 50.45117 0.922583 10.176058 0.922583 10.176058 0.028115 50.45117
3560.0 0.019019 -3.900649 0.922182 -30.442374 0.922182 -30.442374 0.019019 -3.900649
3580.0 0.010853 -140.251972 0.921311 -71.057922 0.921311 -71.057922 0.010853 -140.251972
3600.0 0.032659 136.496929 0.920378 -111.62868 0.920378 -111.62868 0.032659 136.496929
3620.0 0.051469 90.216798 0.920186 -152.172756 0.920186 -152.172756 0.051469 90.216798
3640.0 0.058705 51.034712 0.920742 167.254739 0.920742 167.254739 0.058705 51.034712
3660.0 0.05426 17.845303 0.92136 126.631446 0.92136 126.631446 0.05426 17.845303
3680.0 0.043971 -7.049934 0.921568 85.977069 0.921568 85.977069 0.043971 -7.049934
3700.0 0.035541 -23.844108 0.921371 45.314848 0.921371 45.314848 0.035541 -23.844108
3720.0 0.030045 -41.669876 0.920899 4.656312 0.920899 4.656312 0.030045 -41.669876
3740.0 0.021603 -66.810241 0.920251 -35.98829 0.920251 -35.98829 0.021603 -66.810241
3760.0 0.007751 -94.872707 0.919611 -76.609612 0.919611 -76.609612 0.007751 -94.872707
3780.0 0.008001 42.27017 0.919173 -117.210078 0.919173 -117.210078 0.008001 42.27017
3800.0 0.019402 13.599453 0.918942 -157.798506 0.918942 -157.798506 0.019402 13.599453
3820.0 0.022837 -9.359153 0.918849 161.621418 0.918849 161.621418 0.022837 -9.359153
3840.0 0.023369 -13.686789 0.918904 121.040935 0.918904 121.040935 0.023369 -13.686789
3860.0 0.033855 -16.4964 0.918927 80.442106 0.918927 80.442106 0.033855 -16.4964
3880.0 0.050195 -40.377169 0.918479 39.825681 0.918479 39.825681 0.050195 -40.377169
3900.0 0.059968 -75.671946 0.917465 -0.774169 0.917465 -0.774169 0.059968 -75.671946
3920.0 0.055879 -116.573648 0.916615 -41.335234 0.916615 -41.335234 0.055879 -116.573648
3940.0 0.037243 -163.261282 0.916684 -81.899256 0.916684 -81.899256 0.037243 -163.261282
3960.0 0.01172 118.131253 0.91721 -122.52896 0.91721 -122.52896 0.01172 118.131253
3980.0 0.022403 -34.184606 0.916932 -163.209096 0.916932 -163.209096 0.022403 -34.184606
4000.0 0.039239 -90.545837 0.915643 156.151052 0.915643 156.151052 0.039239 -90.545837
4020.0 0.0394 -140.230753 0.914686 115.593152 0.914686 115.593152 0.0394 -140.230753
4040.0 0.022176 164.34621 0.915003 75.041738 0.915003 75.041738 0.022176 164.34621
4060.0 0.011441 -2.727081 0.915526 34.416268 0.915526 34.416268 0.011441 -2.727081
4080.0 0.040328 -78.277766 0.914678 -6.235606 0.914678 -6.235606 0.040328 -78.277766
4100.0 0.060537 -128.561884 0.912936 -46.802219 0.912936 -46.802219 0.060537 -128.561884
4120.0 0.062763 -177.29683 0.91242 -87.288117 0.91242 -87.288117 0.062763 -177.29683
4140.0 0.045849 130.842165 0.913778 -127.836841 0.913778 -127.836841 0.045849 130.842165
4160.0 0.018219 53.756917 0.914927 -168.534527 0.914927 -168.534527 0.018219 53.756917
4180.0 0.025884 -94.36245 0.913854 150.724292 0.913854 150.724292 0.025884 -94.36245
4200.0 0.049086 -157.00152 0.91151 110.098507 0.91151 110.098507 0.049086 -157.00152
4220.0 0.055906 151.875172 0.910475 69.58639 0.910475 69.58639 0.055906 151.875172
4240.0 0.043258 100.275258 0.911357 29.044622 0.911357 29.044622 0.043258 100.275258
4260.0 0.01763 29.717877 0.91219 -11.595319 0.91219 -11.595319 0.01763 29.717877
4280.0 0.021813 -127.92288 0.911485 -52.237979 0.911485 -52.237979 0.021813 -127.92288
4300.0 0.045498 169.61393 0.910308 -92.779477 0.910308 -92.779477 0.045498 169.61393
4320.0 0.0543 120.182638 0.910492 -133.265118 0.910492 -133.265118 0.0543 120.182638
4340.0 0.044306 72.0496 0.911883 -173.821675 0.911883 -173.821675 0.044306 72.0496
4360.0 0.019622 17.182594 0.912666 145.520528 0.912666 145.520528 0.019622 17.182594
4380.0 0.013481 -164.839325 0.91198 104.851681 0.91198 104.851681 0.013481 -164.839325
4400.0 0.03838 135.099341 0.910869 64.24238 0.910869 64.24238 0.03838 135.099341
4420.0 0.050568 90.658686 0.91052 23.659286 0.91052 23.659286 0.050568 90.658686
4440.0 0.046734 50.628107 0.910737 -16.959168 0.910737 -16.959168 0.046734 50.628107
4460.0 0.030778 18.614929 0.910654 -57.608345 0.910654 -57.608345 0.030778 18.614929
4480.0 0.014834 20.141783 0.910129 -98.239312 0.910129 -98.239312 0.014834 20.141783
4500.0 0.018721 44.209413 0.909709 -138.834906 0.909709 -138.834906 0.018721 44.209413
4520.0 0.023607 21.168509 0.909659 -179.420553 0.909659 -179.420553 0.023607 21.168509
4540.0 0.017453 -12.511929 0.909715 139.984584 0.909715 139.984584 0.017453 -12.511929
4560.0 0.00255 -32.61913 0.909674 99.385686 0.909674 99.385686 0.00255 -32.61913
4580.0 0.015012 89.140812 0.909632 58.785611 0.909632 58.785611 0.015012 89.140812
4600.0 0.028294 57.982793 0.909638 18.174653 0.909638 18.174653 0.028294 57.982793
4620.0 0.034889 31.572755 0.909555 -22.451226 0.909555 -22.451226 0.034889 31.572755
