! File created by SignalIntegrity v1.1.10: Signal and Power Integrity Tools
! https://github.com/TeledyneLeCroy/SignalIntegrity
# MHz S MA R 50.0
0.0 0.005764 0.0 1.015058 0.0 0.978548 0.0 0.002133 180.0
20.0 0.006694 -104.046329 1.014737 -40.47747 0.978133 -40.436222 0.021655 47.557646
40.0 0.009073 163.74803 1.013759 -80.97519 0.976866 -80.908363 0.03473 -3.153079
60.0 0.011735 82.727733 1.01212 -121.493635 0.974757 -121.425328 0.034479 -53.604602
80.0 0.013262 7.433904 1.010329 -162.013958 0.972379 -161.966381 0.021289 -110.228873
100.0 0.012783 -68.591548 1.009104 157.451456 0.970598 157.465765 0.007679 115.788398
120.0 0.011048 -155.023197 1.008155 116.880803 0.969352 116.86085 0.025393 9.65593
140.0 0.011796 104.812979 1.006766 76.311036 0.968105 76.264035 0.039276 -46.584056
160.0 0.016907 16.578189 1.005157 35.798102 0.967058 35.734597 0.04092 -100.378379
180.0 0.022586 -56.359224 1.004114 -4.662859 0.966785 -4.731824 0.030866 -159.381954
200.0 0.025385 -123.816801 1.003691 -45.132641 0.967063 -45.195577 0.017338 116.967579
220.0 0.02377 167.633722 1.002956 -85.644253 0.966759 -85.688814 0.019158 3.831065
240.0 0.018971 89.882396 1.001448 -126.161359 0.965347 -126.176379 0.027302 -69.300224
260.0 0.016648 -6.13257 1.000033 -166.656296 0.963745 -166.636729 0.026382 -129.675724
280.0 0.021467 -98.47938 0.999468 152.832066 0.96286 152.880226 0.015873 161.744585
300.0 0.027571 -173.543947 0.999149 112.267751 0.962277 112.326866 0.010679 27.707079
320.0 0.029408 117.33927 0.998089 71.693513 0.961129 71.740123 0.023795 -61.619391
340.0 0.025901 44.578168 0.996539 31.183698 0.959664 31.198561 0.031897 -120.913337
360.0 0.021303 -43.223355 0.995587 -9.267016 0.958907 -9.290208 0.029217 -178.839498
380.0 0.024459 -140.649972 0.995143 -49.738056 0.958763 -49.790459 0.01826 108.9359
400.0 0.033952 138.767451 0.993783 -90.256345 0.957865 -90.319537 0.015428 -9.881639
420.0 0.04147 69.636109 0.990921 -130.757117 0.955614 -130.812936 0.027635 -93.281827
440.0 0.043079 2.957405 0.987856 -171.192574 0.953159 -171.231304 0.034941 -151.858536
460.0 0.039181 -66.957429 0.986042 148.382712 0.951744 148.360172 0.031341 153.547034
480.0 0.033783 -144.793032 0.985092 107.888391 0.950859 107.874466 0.0181 92.745781
500.0 0.032023 130.989738 0.98362 67.344752 0.949134 67.331404 0.007813 -41.165039
520.0 0.033768 50.302384 0.981498 26.845355 0.946563 26.827968 0.020974 -141.147223
540.0 0.034244 -24.944439 0.979937 -13.576418 0.944518 -13.599536 0.029879 161.986612
560.0 0.031343 -101.108175 0.979482 -53.981215 0.943706 -54.011976 0.028907 108.241934
580.0 0.027991 174.925721 0.97915 -94.41924 0.943241 -94.461818 0.019805 49.061454
600.0 0.029404 86.543691 0.978001 -134.856878 0.942146 -134.91616 0.010026 -39.931369
620.0 0.034783 6.340117 0.976587 -175.246372 0.94081 -175.323746 0.011864 -150.434367
640.0 0.038733 -65.901508 0.975986 144.386117 0.940174 144.296088 0.014258 145.11676
660.0 0.038387 -136.161161 0.976166 103.978144 0.940215 103.886916 0.009009 96.975048
680.0 0.034514 150.653953 0.976225 63.523963 0.940161 63.443985 0.003098 -168.229433
700.0 0.030246 71.771549 0.975876 23.074496 0.939837 23.013283 0.015801 167.34202
720.0 0.028078 -10.663809 0.975724 -17.348622 0.939849 -17.391005 0.024335 123.134629
740.0 0.027287 -92.458227 0.975974 -57.781141 0.940315 -57.809366 0.024518 77.80398
760.0 0.026601 -174.629519 0.975907 -98.245061 0.940413 -98.262724 0.015901 31.891295
780.0 0.02748 101.359942 0.97503 -138.708182 0.939587 -138.713519 0.001928 -23.469901
800.0 0.031471 21.287585 0.973886 -179.139395 0.938377 -179.126085 0.01157 124.757694
820.0 0.036176 -50.105902 0.973232 140.438087 0.937607 140.475364 0.0186 79.364926
840.0 0.037603 -114.76922 0.972929 99.985001 0.937249 100.044388 0.015837 36.086342
860.0 0.033446 -176.125969 0.972362 59.512646 0.936751 59.583284 0.004252 12.349103
880.0 0.024034 122.224607 0.971564 19.064089 0.936109 19.13063 0.012939 109.219702
900.0 0.012228 50.785447 0.971081 -21.354801 0.935784 -21.303949 0.027093 68.385128
920.0 0.006391 -80.144142 0.970928 -61.779211 0.935756 -61.745403 0.032764 23.085151
940.0 0.012068 179.352459 0.970429 -102.225567 0.935399 -102.199623 0.026715 -24.650111
960.0 0.015013 113.598991 0.969221 -142.669224 0.934413 -142.637536 0.010605 -82.834867
980.0 0.013342 50.753469 0.96776 176.907519 0.93324 176.954605 0.011719 86.371526
1000.0 0.009053 -18.968364 0.966566 136.485321 0.932307 136.548284 0.029626 27.69868
1020.0 0.005602 -107.22529 0.965625 96.0462 0.931473 96.117221 0.038042 -24.197481
1040.0 0.004475 162.701195 0.964856 55.60498 0.930565 55.673529 0.033951 -79.702251
1060.0 0.00225 102.976868 0.964561 15.179419 0.929895 15.238138 0.021493 -152.629068
1080.0 0.00304 -174.113831 0.964932 -25.243533 0.92979 -25.196618 0.019798 94.024609
1100.0 0.009267 139.430218 0.965476 -65.681583 0.929963 -65.645204 0.033075 13.887047
1120.0 0.014247 84.747786 0.965559 -106.117383 0.929925 -106.090765 0.039944 -45.351338
1140.0 0.01568 26.775207 0.965275 -146.526953 0.929748 -146.51148 0.03376 -102.959927
1160.0 0.012929 -38.798246 0.965061 173.06823 0.929712 173.0709 0.017787 -178.344699
1180.0 0.00867 -129.154753 0.964691 132.625927 0.929434 132.6174 0.018466 44.650116
1200.0 0.010583 118.229233 0.963528 92.154881 0.928218 92.141622 0.037296 -30.144588
1220.0 0.016419 36.077772 0.9618 51.710817 0.926335 51.701698 0.047604 -86.654433
1240.0 0.020281 -36.372417 0.960693 11.3074 0.925065 11.308523 0.04394 -142.415837
1260.0 0.022023 -112.303243 0.960694 -29.113359 0.925006 -29.102533 0.029226 151.997529
1280.0 0.024813 167.335445 0.960757 -69.586947 0.925181 -69.572712 0.019117 47.144284
1300.0 0.03011 91.003775 0.95984 -110.05617 0.924514 -110.044905 0.030025 -48.408827
1320.0 0.034647 21.80915 0.958566 -150.449286 0.923488 -150.440882 0.038569 -111.289825
1340.0 0.034468 -44.504111 0.958326 169.20112 0.923362 169.215677 0.034137 -169.130219
1360.0 0.028469 -115.274071 0.958991 128.788709 0.92401 128.823152 0.018901 118.386012
1380.0 0.021515 155.544567 0.958846 88.286098 0.923836 88.350298 0.017747 -16.404384
1400.0 0.025344 53.933929 0.95708 47.788529 0.922107 47.881168 0.037107 -92.149965
1420.0 0.036838 -24.935923 0.955077 7.378416 0.920167 7.486083 0.049178 -145.548611
1440.0 0.045214 -91.502554 0.954524 -32.988633 0.919622 -32.884919 0.047579 165.484115
1460.0 0.046313 -156.296872 0.955124 -73.409496 0.920183 -73.324259 0.033237 117.343102
1480.0 0.04111 134.718521 0.955257 -113.889063 0.92034 -113.8251 0.012026 64.591377
1500.0 0.034879 57.002558 0.954399 -154.345345 0.919674 -154.293458 0.008426 -136.873147
1520.0 0.033113 -26.016118 0.953618 165.258616 0.919261 165.313331 0.019592 168.438922
1540.0 0.033797 -104.34834 0.953688 124.863588 0.919791 124.933392 0.018778 119.599712
1560.0 0.031308 -179.904814 0.953918 84.411514 0.92043 84.500778 0.007783 56.206759
1580.0 0.026108 95.258342 0.953396 43.930009 0.920097 44.035303 0.010917 -114.213047
1600.0 0.02806 -2.429251 0.952437 3.478001 0.918975 3.59183 0.025164 -166.925417
1620.0 0.04026 -84.792765 0.951945 -36.944655 0.917986 -36.830174 0.032111 154.631493
1640.0 0.052493 -151.451465 0.95194 -77.378969 0.917352 -77.271003 0.030877 126.663894
1660.0 0.057759 147.899199 0.951668 -117.825828 0.916592 -117.731769 0.028278 114.115072
1680.0 0.054032 88.58951 0.950921 -158.242351 0.915667 -158.170156 0.032829 104.180722
1700.0 0.043135 27.549362 0.950329 161.383943 0.915174 161.428062 0.03941 79.797935
1720.0 0.029255 -38.983992 0.950248 121.010631 0.915309 121.026418 0.038954 45.287376
1740.0 0.01697 -117.702085 0.950217 80.603547 0.915443 80.599459 0.02861 5.006739
1760.0 0.009734 137.412941 0.949816 40.178759 0.91506 40.16999 0.011705 -46.062394
1780.0 0.011223 13.572037 0.949375 -0.239451 0.914487 -0.237901 0.007475 144.201906
1800.0 0.019697 -75.894124 0.949354 -40.665023 0.91426 -40.646487 0.017411 88.419743
1820.0 0.029474 -143.031124 0.949515 -81.122375 0.914247 -81.092444 0.017486 59.321246
1840.0 0.036254 159.933906 0.949285 -121.596425 0.913939 -121.569431 0.015174 69.5981
1860.0 0.037288 109.110227 0.948657 -162.049652 0.91332 -162.039365 0.029325 72.455355
1880.0 0.032419 64.089152 0.948095 157.524091 0.912811 157.51385 0.048172 41.961186
1900.0 0.024399 27.343326 0.947728 117.099192 0.912535 117.077979 0.059145 1.974247
1920.0 0.018114 2.388711 0.947251 76.664929 0.912218 76.65091 0.056676 -42.320047
1940.0 0.016566 -21.301858 0.946604 36.237047 0.911803 36.247116 0.041275 -91.458805
1960.0 0.016745 -61.620008 0.94615 -4.179834 0.911578 -4.138769 0.019935 -155.965964
1980.0 0.016665 -118.660832 0.946032 -44.605191 0.911572 -44.538566 0.01248 76.117907
2000.0 0.017639 177.677851 0.94592 -85.046828 0.911377 -84.967681 0.019858 -6.830329
2020.0 0.019026 121.499084 0.945603 -125.4868 0.910793 -125.407786 0.015511 -69.746469
2040.0 0.018516 80.504866 0.945268 -165.918243 0.910123 -165.845792 0.008079 136.771779
2060.0 0.018127 60.493909 0.944887 153.637861 0.909527 153.704156 0.033053 48.398462
2080.0 0.024767 45.828809 0.943933 113.178039 0.908635 113.241784 0.058852 -3.076107
2100.0 0.036817 14.450951 0.942261 72.745212 0.907305 72.809057 0.073856 -50.64891
2120.0 0.047195 -28.027597 0.940804 32.370681 0.906289 32.434894 0.07235 -97.065581
2140.0 0.051277 -76.68109 0.94058 -7.989091 0.906362 -7.925012 0.054775 -143.172716
2160.0 0.047873 -130.695334 0.941246 -48.405449 0.907061 -48.340596 0.027329 170.621283
2180.0 0.039263 168.777463 0.941515 -88.875287 0.907164 -88.807357 0.000368 -112.519111
2200.0 0.029705 100.729987 0.941002 -129.323341 0.906454 -129.251265 0.018249 -108.724366
2220.0 0.021186 28.110859 0.940681 -169.718066 0.906055 -169.644755 0.021781 -167.233188
2240.0 0.0107 -48.83561 0.941109 149.875807 0.906604 149.943841 0.017735 101.395508
2260.0 0.007895 121.116434 0.941215 109.401313 0.907022 109.458437 0.031443 1.631477
2280.0 0.029321 42.70234 0.939814 68.911305 0.906012 68.958721 0.054563 -59.784297
2300.0 0.051943 -14.937101 0.937648 28.500173 0.904125 28.548585 0.070358 -109.250947
2320.0 0.069001 -69.439634 0.936692 -11.840085 0.903173 -11.774292 0.071672 -153.859868
2340.0 0.075542 -123.576022 0.937524 -52.218582 0.903728 -52.122535 0.05827 165.934512
2360.0 0.069853 -179.078822 0.938634 -92.692231 0.904409 -92.565757 0.036492 135.296909
2380.0 0.054432 121.903255 0.938622 -133.189649 0.903953 -133.048293 0.020895 134.121283
2400.0 0.035313 55.141274 0.937967 -173.620056 0.902891 -173.489246 0.023971 135.591281
2420.0 0.019616 -29.010221 0.937891 146.000968 0.902457 146.097728 0.026414 98.829464
2440.0 0.012867 -144.648603 0.938269 105.59117 0.90261 105.643327 0.022401 33.473038
2460.0 0.018437 95.130478 0.937865 65.132695 0.902246 65.146654 0.026332 -54.749293
2480.0 0.034308 8.745145 0.936342 24.688305 0.901094 24.68261 0.041352 -120.119985
2500.0 0.054152 -58.160874 0.934831 -15.705994 0.900192 -15.710777 0.053765 -167.251217
2520.0 0.070727 -116.825502 0.934331 -56.094716 0.900334 -56.08521 0.057449 155.110468
2540.0 0.077893 -171.834685 0.934516 -96.528082 0.900987 -96.501761 0.054174 126.066563
2560.0 0.072734 134.706397 0.934587 -136.987695 0.901213 -136.950499 0.050746 104.533085
2580.0 0.056629 81.546766 0.934495 -177.425987 0.900961 -177.38712 0.050981 82.69491
2600.0 0.034452 27.647712 0.934611 142.159566 0.900756 142.191745 0.049967 53.049963
2620.0 0.012286 -27.123516 0.934704 101.738062 0.900635 101.757385 0.042048 14.301081
2640.0 0.005565 80.37568 0.934135 61.308333 0.900175 61.310672 0.028168 -37.493798
2660.0 0.018707 19.255868 0.93291 20.900029 0.899406 20.883992 0.018698 -118.229111
2680.0 0.03084 -47.400835 0.931805 -19.486313 0.898914 -19.517122 0.02352 164.613163
2700.0 0.043984 -109.657667 0.931304 -59.893097 0.898923 -59.92825 0.029588 123.062943
2720.0 0.05557 -165.567513 0.931096 -100.346336 0.898932 -100.370242 0.034513 102.533382
2740.0 0.061501 143.927298 0.93079 -140.819798 0.898513 -140.817928 0.046358 86.556244
2760.0 0.059743 98.113352 0.93055 178.725374 0.897916 178.758316 0.063765 60.544613
2780.0 0.051672 57.27904 0.930659 138.294684 0.897576 138.349829 0.076696 26.112323
2800.0 0.041445 22.372077 0.930906 97.87498 0.897434 97.93171 0.077208 -13.060421
2820.0 0.033658 -7.649804 0.930873 57.469697 0.897161 57.505213 0.063184 -55.566002
2840.0 0.029687 -39.518977 0.930559 17.087863 0.896767 17.088903 0.039074 -102.769217
2860.0 0.027551 -79.879908 0.930256 -23.286602 0.896529 -23.316777 0.015034 -169.404836
2880.0 0.026226 -127.933567 0.930023 -63.684501 0.896497 -63.728149 0.010712 62.870834
2900.0 0.026132 -176.36903 0.9297 -104.116889 0.896489 -104.151685 0.011488 10.244082
2920.0 0.027425 143.336635 0.929299 -144.574379 0.896435 -144.585208 0.010881 54.154569
2940.0 0.031607 112.866258 0.928891 174.948741 0.896275 174.962916 0.036216 45.114948
2960.0 0.040974 83.83499 0.928204 134.463759 0.895624 134.491262 0.066473 7.300707
2980.0 0.053585 49.013649 0.92699 94.013343 0.89421 94.037441 0.088563 -34.529242
3000.0 0.06392 8.44602 0.925796 53.639532 0.892656 53.646979 0.094066 -77.521811
3020.0 0.066964 -36.386416 0.925607 13.314571 0.892115 13.30017 0.080727 -121.024862
3040.0 0.06061 -85.206815 0.926448 -27.052245 0.892802 -27.086364 0.053031 -164.723115
3060.0 0.046654 -139.340239 0.927014 -67.508931 0.893531 -67.556864 0.020633 153.114528
3080.0 0.030525 157.665032 0.926307 -107.998881 0.893233 -108.053744 0.005689 -99.063341
3100.0 0.018285 82.501604 0.925058 -148.445233 0.892378 -148.499618 0.016481 -139.070777
3120.0 0.009077 4.136001 0.924656 171.136844 0.89208 171.091375 0.013857 138.820298
3140.0 0.005196 132.929451 0.925032 130.674409 0.892175 130.646162 0.025404 25.233834
3160.0 0.027153 68.58483 0.924753 90.171661 0.891362 90.164975 0.052745 -37.681915
3180.0 0.052683 14.819717 0.923326 49.731284 0.889366 49.742067 0.076385 -86.508238
3200.0 0.07422 -36.463 0.922197 9.413552 0.887784 9.428027 0.086303 -130.727393
3220.0 0.084756 -87.047334 0.922802 -30.862877 0.888106 -30.863695 0.079168 -171.637561
3240.0 0.080436 -138.231562 0.924473 -71.225404 0.889687 -71.256821 0.058455 152.599456
3260.0 0.062275 168.283979 0.925293 -111.691587 0.890618 -111.756823 0.03446 130.53775
3280.0 0.036615 107.824725 0.924598 -152.172204 0.8902 -152.259866 0.023915 134.972174
3300.0 0.015319 16.153127 0.923517 167.388844 0.889489 167.299403 0.026239 122.925896
3320.0 0.016318 -112.285711 0.923009 126.952537 0.88939 126.880962 0.022414 80.385828
3340.0 0.02091 160.050199 0.922592 86.479041 0.889383 86.434993 0.015348 -5.283576
3360.0 0.024304 66.399361 0.921542 46.009463 0.888665 45.990098 0.026554 -99.185449
3380.0 0.038567 -19.168472 0.920337 5.606457 0.887585 5.601088 0.043141 -152.031164
3400.0 0.058247 -84.18435 0.920055 -34.742795 0.887133 -34.744829 0.052239 168.207376
3420.0 0.072016 -139.670135 0.920806 -75.110332 0.887475 -75.114256 0.052165 136.826364
3440.0 0.072933 168.754672 0.921651 -115.530301 0.887853 -115.536178 0.04814 114.350841
3460.0 0.059613 118.946405 0.921964 -155.973109 0.887817 -155.980486 0.047045 96.286066
3480.0 0.036033 69.904805 0.921976 163.588368 0.887667 163.576011 0.047445 72.666201
3500.0 0.009619 21.52899 0.921921 123.143143 0.887595 123.118208 0.041986 40.534874
3520.0 0.011737 148.43242 0.921477 82.686056 0.887202 82.641371 0.027508 -0.129534
3540.0 0.022766 94.888044 0.920456 42.249788 0.886244 42.184491 0.009007 -74.604866
3560.0 0.023613 31.925767 0.919414 1.859743 0.885277 1.781973 0.016136 145.333854
3580.0 0.022243 -48.490499 0.918982 -38.51304 0.885003 -38.588849 0.027214 97.895359
3600.0 0.028579 -128.716161 0.918989 -78.917717 0.885338 -78.977169 0.02728 67.37002
3620.0 0.037431 170.765407 0.9188 -119.361437 0.885652 -119.395828 0.022516 62.923654
3640.0 0.040716 122.858146 0.918272 -159.813765 0.885671 -159.821657 0.03173 68.864187
3660.0 0.036657 84.056391 0.91784 159.739313 0.885626 159.754585 0.049037 46.123651
3680.0 0.02887 56.187453 0.917722 119.282556 0.885593 119.316291 0.058762 10.509265
3700.0 0.023468 39.423409 0.917641 78.81215 0.885315 78.859148 0.053999 -30.228331
3720.0 0.021508 20.472594 0.917401 38.350649 0.884745 38.402789 0.035212 -75.318336
3740.0 0.01758 -9.886964 0.917147 -2.08638 0.884218 -2.043162 0.009888 -144.016393
3760.0 0.0093 -52.573199 0.916937 -42.506918 0.883928 -42.492202 0.017436 46.777893
3780.0 0.002857 165.039374 0.916542 -82.91575 0.883675 -82.948912 0.030024 -5.895973
3800.0 0.009284 83.09726 0.915936 -123.301272 0.883357 -123.392754 0.026217 -51.450602
3820.0 0.010242 51.838704 0.915509 -163.668379 0.883244 -163.813299 0.006694 -93.864663
3840.0 0.00902 66.431839 0.915408 155.946975 0.883405 155.768214 0.021677 38.355602
3860.0 0.02002 70.392912 0.915141 115.526479 0.883342 115.340133 0.048429 -5.239534
3880.0 0.034909 38.081871 0.914385 75.104477 0.882728 74.932349 0.063463 -49.256041
3900.0 0.04424 -3.383029 0.913747 34.716526 0.882113 34.568229 0.060813 -93.527776
3920.0 0.042811 -49.548538 0.914025 -5.668903 0.882204 -5.796147 0.040954 -138.490111
3940.0 0.030024 -103.190425 0.914823 -46.11598 0.882586 -46.230762 0.010634 169.957746
3960.0 0.013739 167.271798 0.914835 -86.61813 0.882056 -86.726456 0.020106 -39.476722
3980.0 0.022019 43.590558 0.913703 -127.090218 0.880423 -127.190776 0.04007 -86.932234
4000.0 0.035943 -20.230623 0.912635 -167.484802 0.879043 -167.570225 0.043142 -132.989851
4020.0 0.038173 -75.174333 0.912696 152.137899 0.879064 152.075885 0.029297 177.988093
4040.0 0.027082 -135.705542 0.913237 111.699412 0.87984 111.665401 0.007297 82.716914
4060.0 0.014101 116.871476 0.912913 71.221831 0.879923 71.215854 0.024484 -61.478135
4080.0 0.029028 6.676434 0.911772 30.7928 0.879158 30.812746 0.042234 -111.459438
4100.0 0.046118 -54.430793 0.911206 -9.571459 0.878768 -9.527271 0.045243 -155.01556
4120.0 0.050593 -109.004989 0.91182 -49.956872 0.879352 -49.889988 0.032718 165.827673
4140.0 0.040171 -167.040832 0.912445 -90.427412 0.879908 -90.342509 0.011076 150.851619
4160.0 0.022658 111.189009 0.911796 -130.933363 0.879335 -130.841479 0.018163 -133.322057
4180.0 0.026734 -7.024841 0.910253 -171.38593 0.878056 -171.303921 0.035373 -161.997401
4200.0 0.044695 -78.450354 0.909174 148.222366 0.877321 148.277231 0.040193 162.15979
4220.0 0.052316 -134.376934 0.908994 107.828258 0.87743 107.845692 0.032058 129.366459
4240.0 0.044446 171.063472 0.908975 67.403868 0.877571 67.38498 0.017268 114.438814
4260.0 0.024934 106.125159 0.908629 26.988215 0.877254 26.943543 0.014256 148.973323
4280.0 0.015171 -22.569008 0.908398 -13.38787 0.876959 -13.445783 0.022583 142.562747
4300.0 0.031834 -111.856288 0.908725 -53.752266 0.877178 -53.81688 0.023286 118.323754
4320.0 0.041224 -169.348548 0.909226 -94.143661 0.877563 -94.217555 0.015876 105.630972
4340.0 0.036128 134.854157 0.909309 -134.555923 0.877515 -134.646859 0.014204 134.189119
4360.0 0.020808 62.924602 0.90906 -174.964713 0.877087 -175.0774 0.024521 132.328819
4380.0 0.019648 -60.093073 0.90893 144.620597 0.876734 144.491259 0.031027 109.769056
4400.0 0.037206 -133.86419 0.908897 104.171343 0.876514 104.040871 0.03004 89.851285
4420.0 0.047764 176.076705 0.908555 63.691643 0.876122 63.580046 0.028241 83.148153
4440.0 0.045439 134.088973 0.907896 23.216572 0.875569 23.13989 0.034556 75.644794
4460.0 0.032753 101.967842 0.907359 -17.237384 0.875193 -17.272745 0.042675 51.046416
4480.0 0.020089 95.682861 0.907114 -57.683175 0.875005 -57.680439 0.042597 14.778769
4500.0 0.022145 104.361862 0.906883 -98.123503 0.874612 -98.0912 0.031128 -31.174895
4520.0 0.027439 81.900411 0.906573 -138.538163 0.873923 -138.485528 0.014347 -108.011415
4540.0 0.024246 45.128962 0.906557 -178.924098 0.873429 -178.85961 0.019588 127.876718
4560.0 0.012982 -3.339656 0.907025 140.684142 0.873512 140.751038 0.032624 68.154476
4580.0 0.00614 -140.753504 0.90753 100.256058 0.873895 100.313079 0.032992 23.741401
4600.0 0.017347 146.276456 0.907532 59.803058 0.874083 59.836364 0.018546 -6.055372
4620.0 0.025119 113.001254 0.907035 19.353406 0.873972 19.352505 0.014858 60.23318
