! File created by SignalIntegrity v1.3.3: Signal and Power Integrity Tools
! https://github.com/TeledyneLeCroy/SignalIntegrity
# MHz S MA R 50.0
0.0 0.020833 0.0 1.02988 0.0 0.993674 0.0 0.013106 0.0
20.0 0.015489 -31.687132 1.029413 -39.786129 0.99309 -39.740374 0.015247 2.119805
40.0 0.005555 -4.137364 1.028367 -79.568645 0.991684 -79.494645 0.018993 -10.308984
60.0 0.017267 27.872695 1.027034 -119.368448 0.989779 -119.293137 0.02063 -31.700818
80.0 0.027888 -5.199743 1.02546 -159.185295 0.98754 -159.133427 0.01821 -54.982118
100.0 0.027773 -43.281798 1.023978 160.989486 0.985492 161.004195 0.012145 -68.437505
120.0 0.015877 -77.535405 1.022706 121.153908 0.983975 121.131097 0.009624 -42.492898
140.0 0.006384 3.177259 1.02145 81.317803 0.982936 81.266789 0.017475 -40.51897
160.0 0.025451 -7.75137 1.02005 41.500009 0.982175 41.434023 0.025068 -69.60207
180.0 0.037729 -48.144919 1.01857 1.719448 0.981532 1.65175 0.026941 -108.942228
200.0 0.036899 -92.518602 1.01744 -38.028762 0.98112 -38.085787 0.021865 -157.138534
220.0 0.022831 -142.469233 1.016824 -77.785646 0.980872 -77.820475 0.013231 131.350299
240.0 0.005696 90.487057 1.016235 -117.582402 0.980265 -117.58621 0.014248 23.272602
260.0 0.023936 -25.206482 1.01517 -157.406346 0.978936 -157.377115 0.023568 -46.656971
280.0 0.037504 -77.557523 1.013778 162.77969 0.977234 162.833531 0.02824 -99.544202
300.0 0.037284 -128.435238 1.012764 122.987161 0.976011 123.047338 0.024451 -149.943831
320.0 0.023839 172.884951 1.012332 83.186592 0.975529 83.231323 0.013146 152.341756
340.0 0.011103 52.061919 1.011735 43.365685 0.975045 43.379122 0.006411 2.693963
360.0 0.027038 -53.66625 1.010336 3.562708 0.973899 3.542094 0.018911 -81.926199
380.0 0.040369 -114.052629 1.008515 -36.18406 0.972436 -36.227987 0.02633 -134.997692
400.0 0.041627 -173.355896 1.007096 -75.899356 0.971454 -75.949024 0.024392 172.490117
420.0 0.034104 115.88823 1.005981 -115.651681 0.970839 -115.69218 0.014381 107.197674
440.0 0.031993 26.265689 1.004107 -155.457983 0.969477 -155.483578 0.010736 -23.718071
460.0 0.041733 -53.571018 1.001123 164.743714 0.966889 164.729499 0.023951 -106.562213
480.0 0.048701 -116.934863 0.998192 125.004714 0.964077 124.994327 0.033343 -161.79047
500.0 0.043816 -176.207651 0.996611 85.290904 0.962277 85.278795 0.033131 146.151392
520.0 0.02832 115.359338 0.996087 45.532173 0.961313 45.517202 0.023176 89.867732
540.0 0.019168 3.667911 0.995161 5.734619 0.959954 5.717734 0.009709 -1.436774
560.0 0.032865 -90.666936 0.993365 -34.01672 0.957893 -34.036749 0.016494 -134.347582
580.0 0.043523 -153.783196 0.991872 -73.67874 0.956294 -73.707258 0.028283 159.70974
600.0 0.041479 146.014933 0.991694 -113.315496 0.956057 -113.359459 0.03221 100.342818
620.0 0.030139 73.424895 0.992099 -153.012946 0.956369 -153.075678 0.028812 33.535637
640.0 0.027041 -26.499772 0.991567 167.239507 0.955718 167.162152 0.026203 -49.226006
660.0 0.039549 -108.289034 0.990032 127.527687 0.954092 127.446551 0.03222 -130.582665
680.0 0.047962 -168.825448 0.989031 87.87998 0.953078 87.807515 0.039645 164.355186
700.0 0.043041 135.711611 0.989507 48.221826 0.953651 48.166323 0.039756 107.188846
720.0 0.025569 74.056536 0.990456 8.48155 0.954813 8.444811 0.029948 49.855177
740.0 0.012081 -53.879097 0.990316 -31.306576 0.954931 -31.326771 0.014211 -26.696024
760.0 0.030097 -154.267438 0.98911 -71.05071 0.953891 -71.055778 0.014955 -165.63905
780.0 0.044082 147.943559 0.98825 -110.731488 0.953 -110.719166 0.028574 121.826126
800.0 0.045313 93.145498 0.988397 -150.422238 0.952958 -150.388249 0.034046 65.379364
820.0 0.035785 32.280175 0.988597 169.821482 0.952972 169.878432 0.028535 6.807783
840.0 0.025492 -47.050911 0.987747 130.03794 0.952093 130.112022 0.017415 -74.166848
860.0 0.026596 -134.513333 0.986179 90.301068 0.950664 90.379904 0.020645 172.962308
880.0 0.030546 160.805038 0.98512 50.618321 0.949812 50.6887 0.03436 102.246802
900.0 0.026237 111.158871 0.984956 10.931693 0.94983 10.986861 0.041267 47.877089
920.0 0.013187 76.859871 0.984878 -28.794339 0.949904 -28.750901 0.036381 -3.27348
940.0 0.008039 145.977248 0.984125 -68.533957 0.949323 -68.491072 0.02077 -58.427121
960.0 0.021882 132.298538 0.982885 -108.250264 0.948306 -108.196312 0.006508 162.165664
980.0 0.028782 96.932878 0.981762 -147.949139 0.947427 -147.879163 0.024016 60.179048
1000.0 0.02601 62.658232 0.980859 172.340931 0.946711 172.422855 0.037132 7.609191
1020.0 0.016755 39.062242 0.97994 132.617923 0.945821 132.702113 0.039076 -42.42983
1040.0 0.010278 49.790422 0.979099 92.902685 0.944799 92.9801 0.030211 -96.265622
1060.0 0.012253 55.991867 0.978751 53.200878 0.944097 53.267593 0.016787 -170.371954
1080.0 0.010557 36.158626 0.978995 13.494429 0.943953 13.551548 0.016594 76.360544
1100.0 0.003711 67.185128 0.979389 -26.226242 0.944088 -26.176274 0.026446 5.767908
1120.0 0.014161 108.271677 0.979521 -65.944953 0.944163 -65.902019 0.02945 -45.105371
1140.0 0.025777 75.923118 0.979428 -105.648568 0.944151 -105.615315 0.022438 -89.835527
1160.0 0.029368 38.204958 0.979242 -145.350253 0.94404 -145.329112 0.007706 -124.898682
1180.0 0.021956 1.756617 0.978775 174.930346 0.943539 174.940732 0.010373 -10.842054
1200.0 0.006888 -2.544068 0.977749 135.198233 0.94237 135.20378 0.025137 -47.032627
1220.0 0.017035 63.700888 0.976345 95.4775 0.940804 95.485628 0.032653 -87.512239
1240.0 0.032434 27.973634 0.975164 55.774909 0.93955 55.789918 0.031092 -128.723723
1260.0 0.037261 -17.962451 0.974557 16.070377 0.939015 16.091106 0.021687 -171.723997
1280.0 0.029887 -74.142954 0.974293 -23.652955 0.938944 -23.630938 0.008322 131.446228
1300.0 0.019659 -162.309859 0.973931 -63.384644 0.938808 -63.363702 0.007827 -27.077189
1320.0 0.028556 97.265923 0.973379 -103.099949 0.938418 -103.076006 0.017273 -80.768019
1340.0 0.042348 33.822963 0.972912 -142.793722 0.938003 -142.756646 0.020825 -117.580363
1360.0 0.044371 -19.451343 0.972677 177.510863 0.937741 177.571728 0.017767 -145.869279
1380.0 0.030722 -74.482457 0.972398 137.788578 0.937428 137.877234 0.011233 -150.589586
1400.0 0.01034 178.327066 0.971604 98.041153 0.936644 98.151113 0.013552 -120.833461
1420.0 0.030881 50.106133 0.970173 58.300937 0.93526 58.417662 0.024869 -132.413947
1440.0 0.054346 -5.480139 0.968638 18.599816 0.93377 18.708121 0.034573 -162.230768
1460.0 0.063027 -55.867008 0.967812 -21.067521 0.932971 -20.975742 0.038316 161.778014
1480.0 0.053796 -108.263724 0.968001 -60.744584 0.933225 -60.667083 0.034315 121.032618
1500.0 0.032296 -173.600188 0.968591 -100.470407 0.934011 -100.397337 0.023575 71.532167
1520.0 0.022402 73.20452 0.968597 -140.231461 0.934391 -140.151726 0.012741 -10.619414
1540.0 0.038139 -13.61104 0.967788 -179.972869 0.934047 -179.879685 0.017444 -113.756225
1560.0 0.045878 -71.875342 0.966953 140.332993 0.933567 140.440376 0.025633 -171.988396
1580.0 0.036011 -128.64962 0.966846 100.646671 0.933523 100.764882 0.025258 143.019155
1600.0 0.015855 139.787207 0.967081 60.910237 0.933492 61.034642 0.014066 107.583322
1620.0 0.031761 8.622388 0.966542 21.13228 0.93249 21.25811 0.008137 -163.501683
1640.0 0.059633 -50.597182 0.964975 -18.61006 0.930464 -18.488721 0.030889 177.108015
1660.0 0.074439 -99.635906 0.963537 -58.267283 0.928709 -58.158581 0.050404 137.422606
1680.0 0.070794 -146.698428 0.963419 -97.883984 0.928448 -97.797022 0.059691 95.087387
1700.0 0.050878 165.326161 0.964328 -137.544664 0.929349 -137.485512 0.055478 50.874005
1720.0 0.023058 109.063228 0.964869 -177.26857 0.92995 -177.236005 0.038992 3.030682
1740.0 0.009236 -37.53865 0.964341 143.004644 0.929472 143.020182 0.016857 -61.439245
1760.0 0.021267 -122.225606 0.9635 103.321889 0.928609 103.334422 0.013302 156.026182
1780.0 0.020453 -177.051107 0.963309 63.651541 0.92832 63.672486 0.024864 86.377353
1800.0 0.008499 97.994039 0.963573 23.934286 0.928471 23.96651 0.024136 36.420858
1820.0 0.019219 -42.135431 0.963349 -15.829473 0.928175 -15.792485 0.008997 -14.046309
1840.0 0.038553 -94.422874 0.962388 -55.581764 0.927189 -55.55087 0.016379 131.458325
1860.0 0.049409 -135.1706 0.961455 -95.288757 0.926237 -95.271452 0.04365 84.274892
1880.0 0.048992 -169.697042 0.961173 -134.978009 0.925939 -134.973019 0.064078 38.694619
1900.0 0.04079 163.964178 0.961244 -174.686821 0.92605 -174.684356 0.071021 -7.448562
1920.0 0.03256 148.099343 0.961057 145.59017 0.926013 145.603033 0.062521 -55.537496
1940.0 0.028634 134.300082 0.960594 105.88034 0.925785 105.912918 0.042417 -109.245685
1960.0 0.023687 110.48763 0.960259 66.183351 0.92566 66.23752 0.021208 174.910887
1980.0 0.012848 72.769605 0.960091 26.475517 0.925568 26.5466 0.018964 62.047235
2000.0 0.005123 -73.225987 0.959757 -13.247201 0.925126 -13.166332 0.024145 -11.207782
2020.0 0.018111 -142.176173 0.959201 -52.965968 0.924328 -52.88094 0.017323 -73.497415
2040.0 0.025796 -173.493512 0.958736 -92.678333 0.923609 -92.591963 0.008514 137.442395
2060.0 0.027764 170.444005 0.958351 -132.406878 0.923101 -132.320471 0.033322 47.397252
2080.0 0.034076 165.543594 0.957491 -172.15229 0.922338 -172.067436 0.058905 -3.423994
2100.0 0.049219 148.93514 0.955959 148.129577 0.921086 148.210807 0.074343 -50.012098
2120.0 0.063171 118.672109 0.95456 108.472492 0.91999 108.549125 0.074615 -95.437698
2140.0 0.066401 80.876682 0.954268 68.842064 0.919862 68.915824 0.060027 -140.926795
2160.0 0.055431 37.150487 0.954941 29.168131 0.920523 29.243009 0.035792 171.630331
2180.0 0.034194 -17.489639 0.955444 -10.566573 0.92093 -10.487131 0.010717 108.97189
2200.0 0.018045 -111.430893 0.955142 -50.307292 0.92058 -50.22364 0.009946 -65.552326
2220.0 0.024449 151.869994 0.954648 -90.010041 0.920149 -89.927141 0.014919 -127.319363
2240.0 0.025932 95.230636 0.9547 -129.70556 0.920362 -129.629948 0.00723 153.149055
2260.0 0.010362 53.163715 0.954856 -169.449105 0.920736 -169.383579 0.017349 0.466112
2280.0 0.019944 173.470413 0.953996 150.772853 0.920101 150.833148 0.041698 -54.419253
2300.0 0.054779 131.974763 0.952031 111.039952 0.9183 111.106803 0.062462 -99.543174
2320.0 0.082361 88.123896 0.950355 71.394403 0.916644 71.480842 0.072842 -142.045525
2340.0 0.092963 43.380968 0.950263 31.780057 0.916382 31.892752 0.070132 176.911841
2360.0 0.082822 -3.003732 0.951465 -7.892087 0.91724 -7.757769 0.055864 137.210727
2380.0 0.055885 -53.710039 0.952525 -47.640475 0.917856 -47.499612 0.035142 99.729781
2400.0 0.024482 -123.579169 0.952569 -87.402261 0.917438 -87.274137 0.015021 69.155476
2420.0 0.018906 104.913782 0.952046 -127.12025 0.91652 -127.020275 0.003589 91.821303
2440.0 0.027768 28.217079 0.951757 -166.808344 0.916003 -166.742467 0.003006 115.051395
2460.0 0.020663 -41.465538 0.951661 153.482184 0.915956 153.518195 0.005739 -70.118394
2480.0 0.0187 -176.853141 0.951013 113.737313 0.915681 113.754373 0.022338 -111.732968
2500.0 0.049525 103.821536 0.949471 73.9993 0.914749 74.009971 0.042244 -149.213967
2520.0 0.079586 52.28539 0.947719 34.313173 0.913628 34.327713 0.059881 173.812135
2540.0 0.094766 5.889005 0.946841 -5.328487 0.913173 -5.304035 0.070671 137.081385
2560.0 0.089482 -38.676785 0.947256 -44.978671 0.913694 -44.942934 0.07193 100.420951
2580.0 0.065863 -82.221949 0.948344 -84.682146 0.914634 -84.638414 0.063339 63.628563
2600.0 0.032617 -124.015737 0.949043 -124.432391 0.91512 -124.388238 0.047032 26.327312
2620.0 0.003042 -110.734095 0.948799 -164.181764 0.914792 -164.147396 0.02727 -12.8035
2640.0 0.01744 -49.731771 0.947915 156.107154 0.914049 156.122486 0.009826 -64.125068
2660.0 0.019418 -105.060968 0.947012 116.426013 0.913486 116.418689 0.00565 171.991367
2680.0 0.01637 154.357748 0.946308 76.737084 0.913211 76.712473 0.009661 139.253392
2700.0 0.034913 65.256452 0.94553 37.020761 0.912824 36.992683 0.017997 142.07173
2720.0 0.059009 12.92361 0.944542 -2.70441 0.91208 -2.718884 0.036435 124.030245
2740.0 0.074649 -29.679675 0.943738 -42.413205 0.911306 -42.401566 0.058656 92.819891
2760.0 0.076996 -67.233538 0.943617 -82.109012 0.91099 -82.069672 0.076759 56.607416
2780.0 0.067815 -99.783542 0.944124 -121.814406 0.91113 -121.757924 0.084223 17.906446
2800.0 0.053588 -126.187663 0.94466 -161.532993 0.911233 -161.477285 0.077767 -22.601245
2820.0 0.041019 -147.502906 0.94478 158.75972 0.910973 158.797662 0.058668 -65.273544
2840.0 0.03113 -170.956503 0.944588 119.081202 0.910561 119.092694 0.032876 -113.142812
2860.0 0.020572 152.805463 0.944362 79.416461 0.910344 79.404024 0.011067 168.310092
2880.0 0.012143 79.883066 0.944104 39.737203 0.910333 39.712113 0.012157 44.953451
2900.0 0.017751 -2.837181 0.943676 0.032008 0.91031 0.008442 0.011674 1.794793
2920.0 0.027365 -41.891545 0.943137 -39.695857 0.910178 -39.706825 0.010556 53.601416
2940.0 0.036515 -63.677903 0.942585 -79.447247 0.909867 -79.441262 0.0359 44.484563
2960.0 0.049811 -82.173768 0.941778 -119.214401 0.909047 -119.19434 0.06589 7.502848
2980.0 0.066935 -107.012424 0.94047 -158.956005 0.90751 -158.930197 0.088794 -33.468905
3000.0 0.080229 -138.796417 0.939137 161.375712 0.905852 161.396319 0.096689 -75.940937
3020.0 0.08175 -175.461066 0.938783 121.769055 0.905216 121.774001 0.086755 -119.696361
3040.0 0.068151 143.701752 0.939681 82.141547 0.905991 82.12396 0.062086 -165.710205
3060.0 0.042695 96.018864 0.940686 42.426635 0.907092 42.385931 0.03101 141.117222
3080.0 0.017393 18.667318 0.940464 2.655249 0.907142 2.598453 0.009253 31.014269
3100.0 0.019532 -101.103025 0.939212 -37.08952 0.906175 -37.149041 0.016333 -85.035171
3120.0 0.023957 -157.813063 0.93838 -76.790129 0.905451 -76.836979 0.013294 -151.530788
3140.0 0.011408 178.90569 0.938592 -116.516818 0.905499 -116.539736 0.011183 47.554407
3160.0 0.022612 -101.572601 0.938644 -156.309116 0.90517 -156.306278 0.040297 -25.760192
3180.0 0.058725 -132.979633 0.937263 163.914994 0.903322 163.934397 0.070994 -74.562224
3200.0 0.088934 -173.285705 0.935231 124.27211 0.900831 124.291225 0.091607 -119.842989
3220.0 0.101892 144.560784 0.934717 84.753175 0.899911 84.754405 0.095312 -163.944582
3240.0 0.092575 100.98532 0.936506 45.209483 0.901416 45.181702 0.080872 152.284046
3260.0 0.063693 54.666958 0.938792 5.518221 0.903665 5.46095 0.052721 108.253894
3280.0 0.026021 -3.83012 0.939263 -34.282551 0.904429 -34.359671 0.019801 62.652466
3300.0 0.015708 -160.872041 0.937809 -74.06358 0.903525 -74.145241 0.007437 -152.729341
3320.0 0.032099 128.358424 0.936281 -113.775217 0.902599 -113.846311 0.020615 155.882098
3340.0 0.028418 74.57438 0.935833 -153.486442 0.902607 -153.536704 0.017287 98.86651
3360.0 0.009512 -28.834912 0.935622 166.746026 0.902621 166.720038 0.011573 -28.671989
3380.0 0.035209 -161.342272 0.934465 126.978201 0.901458 126.973648 0.034516 -116.427312
3400.0 0.068987 147.827872 0.932843 87.3074 0.89963 87.31711 0.059666 -166.163464
3420.0 0.089109 103.22301 0.932434 47.734666 0.89886 47.749367 0.075207 150.035888
3440.0 0.088285 60.484032 0.933896 8.150737 0.899899 8.161041 0.07607 108.606609
3460.0 0.066979 19.10679 0.935955 -31.538905 0.901594 -31.540811 0.062275 69.218556
3480.0 0.033077 -18.702852 0.936858 -71.316599 0.902282 -71.33552 0.038714 33.836679
3500.0 0.005262 41.940839 0.936217 -111.094172 0.901577 -111.131012 0.014415 17.81966
3520.0 0.025703 58.291078 0.935026 -150.820319 0.900414 -150.87214 0.011921 79.588698
3540.0 0.030792 18.645027 0.934198 169.483632 0.89967 169.422523 0.018897 64.211715
3560.0 0.018226 -30.436911 0.933703 129.781024 0.899332 129.717455 0.01422 35.129993
3580.0 0.009786 168.853988 0.933098 90.072331 0.898988 90.012964 0.003112 103.776196
3600.0 0.034364 101.019021 0.932343 50.380542 0.898595 50.331417 0.022105 124.380671
3620.0 0.052366 60.165576 0.931827 10.707784 0.898483 10.67449 0.041501 91.414208
3640.0 0.057353 25.055514 0.931784 -28.973909 0.898809 -28.986283 0.054337 56.435993
3660.0 0.050526 -3.592829 0.931992 -68.691347 0.899283 -68.679288 0.057312 21.605354
3680.0 0.039154 -22.01894 0.932078 -108.444091 0.899494 -108.407832 0.050062 -12.130722
3700.0 0.031653 -30.720218 0.931901 -148.21051 0.899291 -148.156292 0.034972 -42.975074
3720.0 0.027279 -41.463827 0.931583 172.030556 0.898824 172.089668 0.016873 -62.349576
3740.0 0.019092 -54.702394 0.931247 132.289136 0.898284 132.335014 0.008626 -13.116054
3760.0 0.009411 -32.854571 0.930867 92.57082 0.897736 92.584511 0.017199 -4.439844
3780.0 0.016876 5.262169 0.930396 52.882959 0.89722 52.849987 0.019661 -27.717731
3800.0 0.025991 -9.605243 0.929939 13.226529 0.896887 13.141249 0.013016 -45.032334
3820.0 0.026829 -26.181513 0.929664 -26.415831 0.896895 -26.548519 0.009597 10.864352
3840.0 0.025142 -25.037137 0.929517 -66.073496 0.897126 -66.239654 0.027188 11.855914
3860.0 0.035131 -22.382804 0.92918 -105.760263 0.897156 -105.941009 0.04511 -18.539466
3880.0 0.050497 -42.616221 0.928507 -145.459495 0.896717 -145.63617 0.055231 -54.221047
3900.0 0.057264 -74.483386 0.92789 174.85022 0.896092 174.691511 0.053208 -91.780705
3920.0 0.048459 -111.525629 0.927885 135.157815 0.895799 135.023615 0.038458 -129.988442
3940.0 0.024543 -153.469837 0.928406 95.427474 0.895817 95.317019 0.014531 -165.779415
3960.0 0.008246 13.620703 0.928603 55.65467 0.895449 55.562405 0.012085 -40.341612
3980.0 0.036941 -42.925914 0.927879 15.893034 0.894269 15.812591 0.032732 -76.612095
4000.0 0.052201 -85.570043 0.92678 -23.802801 0.892921 -23.874682 0.041087 -117.855157
4020.0 0.047606 -127.530703 0.926366 -63.452308 0.892476 -63.513515 0.03434 -161.579205
4040.0 0.024154 -169.913825 0.926732 -103.132568 0.893002 -103.175967 0.014934 143.889485
4060.0 0.010137 -28.84131 0.926763 -142.87626 0.893338 -142.892589 0.013962 -33.717113
4080.0 0.042778 -73.046435 0.925698 177.37746 0.89264 177.395341 0.037649 -91.247915
4100.0 0.0616 -116.210672 0.924392 137.698752 0.891638 137.752044 0.051136 -136.832222
4120.0 0.059415 -160.539458 0.924304 98.058848 0.891692 98.141065 0.048904 178.632299
4140.0 0.036804 150.094277 0.925397 58.356105 0.89278 58.454088 0.031057 132.168037
4160.0 0.010212 28.293205 0.925894 18.556662 0.893255 18.653854 0.004887 35.914137
4180.0 0.038547 -84.711949 0.924526 -21.243803 0.89197 -21.163132 0.02758 -118.206256
4200.0 0.061402 -133.899632 0.922285 -60.935393 0.889942 -60.882493 0.048622 -166.020257
4220.0 0.063733 -178.750001 0.9212 -100.535805 0.889128 -100.515481 0.054575 148.493054
4240.0 0.044837 136.451517 0.921747 -140.163409 0.889931 -140.174169 0.043697 101.542318
4260.0 0.012107 80.551367 0.922437 -179.878698 0.890816 -179.914722 0.020474 43.712825
4280.0 0.023833 -115.448132 0.922001 140.387267 0.890476 140.333138 0.013817 -115.4984
4300.0 0.047847 -162.607944 0.921109 100.725867 0.889519 100.659215 0.035724 175.084912
4320.0 0.052635 153.702066 0.92127 61.119311 0.889428 61.042396 0.045931 126.607088
4340.0 0.03687 108.982484 0.922568 21.4667 0.890365 21.378709 0.039192 79.687896
4360.0 0.007878 35.697997 0.923466 -18.276078 0.890942 -18.376725 0.017527 25.229791
4380.0 0.028218 -135.000668 0.922838 -58.042611 0.89015 -58.154799 0.014859 -159.035858
4400.0 0.053341 -179.291548 0.921371 -97.753471 0.888681 -97.870509 0.043167 143.236711
4420.0 0.062381 142.381589 0.920506 -137.420508 0.887899 -137.529608 0.061522 97.547241
4440.0 0.054386 109.350408 0.920597 -177.116923 0.888084 -177.20187 0.064074 53.254352
4460.0 0.036617 88.709307 0.920811 143.129287 0.88835 143.082986 0.050676 8.627165
4480.0 0.026058 95.567379 0.92054 103.365181 0.888041 103.364846 0.026619 -39.536847
4500.0 0.031108 96.574115 0.920174 63.642017 0.887493 63.684584 0.00507 -165.953924
4520.0 0.032445 74.606956 0.92035 23.953148 0.887333 24.025725 0.020873 79.79065
4540.0 0.022074 47.167132 0.920963 -15.740526 0.887528 -15.65665 0.027483 32.506451
4560.0 0.004551 58.885693 0.921366 -55.451214 0.887566 -55.375023 0.019389 -11.999765
4580.0 0.018033 140.893318 0.921231 -95.159853 0.887249 -95.105851 0.001472 -160.440672
4600.0 0.032689 117.261027 0.920774 -134.855361 0.886864 -134.831132 0.0254 92.718676
4620.0 0.040033 95.143219 0.92025 -174.550031 0.886658 -174.55629 0.047221 51.519058
