! File created by SignalIntegrity v1.1.10: Signal and Power Integrity Tools
! https://github.com/TeledyneLeCroy/SignalIntegrity
# MHz S MA R 50.0
0.0 0.013284 0.0 0.993609 0.0 1.029812 0.0 0.021012 0.0
20.0 0.015545 1.647428 0.993072 -39.724738 1.029394 -39.770495 0.015812 -31.418607
40.0 0.019184 -11.577718 0.99172 -79.469171 1.028404 -79.543178 0.005742 -8.531379
60.0 0.020634 -33.195444 0.989813 -119.26006 1.027069 -119.335387 0.016826 26.82214
80.0 0.018024 -56.989867 0.987565 -159.09356 1.025486 -159.145446 0.027315 -5.853503
100.0 0.011607 -71.07425 0.985509 161.048952 1.023996 161.034228 0.027113 -43.977887
120.0 0.008835 -40.52371 0.983986 121.179738 1.022717 121.202546 0.015142 -78.808985
140.0 0.017066 -37.690922 0.982953 81.318104 1.021468 81.369127 0.006501 11.167695
160.0 0.024822 -67.36778 0.982196 41.487245 1.020071 41.553246 0.025958 -5.893884
180.0 0.026702 -106.740311 0.981553 1.707073 1.018592 1.774782 0.038241 -46.756738
200.0 0.021503 -154.386566 0.981134 -38.02791 1.017454 -37.970886 0.037373 -90.965293
220.0 0.01238 134.656597 0.980872 -77.758863 1.016823 -77.724049 0.023149 -139.723584
240.0 0.013232 20.937752 0.980257 -117.519964 1.016226 -117.516179 0.004593 95.022485
260.0 0.022942 -49.128734 0.978929 -157.306065 1.015163 -157.335322 0.023335 -27.665873
280.0 0.027852 -101.892267 0.977244 162.90894 1.013788 162.855078 0.03717 -79.315431
300.0 0.024287 -152.886567 0.976047 123.125705 1.012801 123.065518 0.03723 -130.328658
320.0 0.01342 146.785252 0.975589 83.311123 1.012395 83.266393 0.024277 169.980223
340.0 0.007657 7.67898 0.97512 43.459029 1.011812 43.4456 0.01247 53.267494
360.0 0.01941 -77.854726 0.973965 3.621503 1.010404 3.642123 0.027413 -50.673251
380.0 0.026544 -131.783538 0.972468 -36.148234 1.008548 -36.104308 0.040223 -111.885222
400.0 0.024335 176.10489 0.971443 -75.867211 1.007083 -75.817557 0.041001 -171.371829
420.0 0.013737 112.95985 0.970791 -115.606306 1.00593 -115.565833 0.03285 117.452403
440.0 0.009378 -28.066742 0.969421 -155.392426 1.004048 -155.366863 0.030525 25.536345
460.0 0.023458 -110.119735 0.966858 164.825641 1.001091 164.839827 0.040939 -55.306987
480.0 0.033267 -164.460426 0.964093 125.094138 0.998209 125.104506 0.048576 -118.668065
500.0 0.033421 143.461226 0.962348 85.380224 0.996685 85.392326 0.044307 -178.094134
520.0 0.023944 86.326109 0.961426 45.618202 0.996204 45.633174 0.029565 113.291053
540.0 0.011388 -3.387792 0.960078 5.817027 0.995289 5.833915 0.020664 6.172829
560.0 0.016948 -128.433916 0.957987 -33.93911 0.993462 -33.919085 0.033071 -87.54939
580.0 0.027958 163.375891 0.956325 -73.609429 0.991904 -73.580926 0.043023 -151.44123
600.0 0.03135 103.308901 0.956022 -113.258755 0.991657 -113.214817 0.040426 148.11716
620.0 0.027341 35.841969 0.956292 -152.969906 0.992018 -152.907206 0.02848 74.752671
640.0 0.024383 -49.605316 0.955642 167.273708 0.991488 167.351032 0.025728 -28.978548
660.0 0.031009 -132.981529 0.954056 127.562796 0.989994 127.643908 0.03943 -110.760835
680.0 0.039155 161.876704 0.953103 87.926438 0.989057 87.998891 0.048571 -170.750266
700.0 0.039853 104.603701 0.953738 48.285657 0.989596 48.341157 0.0442 133.864091
720.0 0.030641 46.584052 0.954941 8.562572 0.990588 8.599315 0.027288 72.134402
740.0 0.015871 -30.557866 0.955063 -31.211438 0.990452 -31.191243 0.013223 -46.26955
760.0 0.015939 -159.07564 0.953984 -70.942176 0.989205 -70.937115 0.029144 -150.68969
780.0 0.028482 125.994529 0.953027 -110.605043 0.988276 -110.617383 0.042613 149.892276
800.0 0.033431 68.7979 0.952923 -150.270918 0.988359 -150.304933 0.043545 94.483006
820.0 0.027385 10.407422 0.952905 170.000672 0.988526 169.943693 0.03381 32.764661
840.0 0.015439 -72.131363 0.952033 130.239345 0.987684 130.165238 0.023885 -49.614656
860.0 0.019631 168.004856 0.950643 90.511065 0.986157 90.432213 0.026457 -138.697315
880.0 0.034387 98.931178 0.949844 50.821883 0.985152 50.751498 0.031332 157.440046
900.0 0.041835 45.223087 0.949913 11.120323 0.98504 11.065156 0.027429 107.586046
920.0 0.037374 -6.093131 0.950019 -28.618507 0.984995 -28.661944 0.014338 69.412831
940.0 0.022272 -62.518419 0.949441 -68.36011 0.984246 -68.403 0.005916 142.237202
960.0 0.00811 174.403758 0.948401 -108.066106 0.982983 -108.120074 0.01979 134.037135
980.0 0.023317 65.449621 0.947485 -147.748347 0.98182 -147.818348 0.026749 98.533789
1000.0 0.036009 10.770797 0.946734 172.555661 0.980882 172.473707 0.024063 64.814685
1020.0 0.037685 -39.694772 0.945822 132.837614 0.97994 132.753396 0.015155 44.282171
1040.0 0.028491 -93.4 0.944793 93.118403 0.979092 93.040967 0.010456 61.805064
1060.0 0.014584 -169.559254 0.944096 53.408395 0.978749 53.341671 0.013868 62.650167
1080.0 0.015919 69.042174 0.943966 13.694382 0.979007 13.637262 0.012596 40.872711
1100.0 0.026908 1.196385 0.944119 -26.031808 0.979419 -26.081773 0.00559 51.142234
1120.0 0.030337 -48.98788 0.944213 -65.756277 0.97957 -65.799212 0.013055 99.938889
1140.0 0.02354 -94.774568 0.944216 -105.46848 0.979494 -105.501742 0.024407 71.874411
1160.0 0.008814 -139.183843 0.94412 -145.181383 0.979324 -145.202543 0.027988 34.723374
1180.0 0.00883 0.053378 0.94363 175.088899 0.978868 175.078489 0.020553 -2.909752
1200.0 0.023658 -42.553312 0.942463 135.351859 0.977844 135.346287 0.004734 -9.739153
1220.0 0.031194 -84.049137 0.940883 95.633321 0.976425 95.625174 0.017185 71.522951
1240.0 0.029651 -125.093072 0.939597 55.937624 0.975211 55.922605 0.032674 32.191616
1260.0 0.020212 -166.609366 0.939023 16.239936 0.974565 16.219205 0.037257 -14.188295
1280.0 0.006466 142.838781 0.93892 -23.479645 0.974266 -23.501658 0.029242 -69.558102
1300.0 0.008 -44.05321 0.938771 -63.208825 0.973891 -63.229764 0.017503 -159.062385
1320.0 0.017816 -88.215756 0.938396 -102.917194 0.973354 -102.94114 0.026747 94.281164
1340.0 0.021227 -123.916364 0.938023 -142.594524 0.972931 -142.631612 0.041392 31.064351
1360.0 0.017718 -153.586247 0.937819 177.73563 0.972756 177.674745 0.044064 -22.286497
1380.0 0.009824 -161.401112 0.937562 138.040757 0.972535 137.952079 0.031177 -78.596402
1400.0 0.011285 -116.302386 0.93681 98.312314 0.971775 98.202334 0.012692 176.287876
1420.0 0.023361 -127.663971 0.935417 58.575656 0.970334 58.458919 0.031512 54.579452
1440.0 0.033463 -158.404698 0.933875 18.863689 0.968745 18.755381 0.054301 -2.73484
1460.0 0.037414 165.368919 0.932999 -20.820209 0.967839 -20.911984 0.062565 -53.504912
1480.0 0.03345 125.063958 0.933181 -60.508592 0.967953 -60.586086 0.052865 -105.67207
1500.0 0.022419 77.093818 0.93393 -100.233524 0.968504 -100.306591 0.030512 -170.45034
1520.0 0.010429 -6.285276 0.934322 -139.981925 0.968523 -140.061663 0.02045 69.675596
1540.0 0.015802 -119.900681 0.934034 -179.705134 0.967773 -179.79833 0.037927 -17.005312
1560.0 0.024646 -176.939573 0.933633 140.61727 0.967019 140.509871 0.04656 -74.554966
1580.0 0.024511 137.80031 0.933664 100.94134 0.966991 100.823114 0.037483 -131.548792
1600.0 0.013242 97.987274 0.933682 61.208266 0.967277 61.083851 0.018378 139.809334
1620.0 0.007364 -145.854613 0.932686 21.427586 0.966743 21.301756 0.03183 13.408285
1640.0 0.030762 -178.108073 0.930615 -18.322968 0.965129 -18.4443 0.058819 -48.084603
1660.0 0.05032 140.425571 0.928779 -57.994177 0.963607 -58.102868 0.073283 -97.73153
1680.0 0.059583 97.660318 0.928433 -97.630632 0.963401 -97.717585 0.06942 -144.854262
1700.0 0.055287 53.640521 0.92928 -137.314371 0.964254 -137.373521 0.049271 167.563529
1720.0 0.038566 6.871304 0.929875 -177.059107 0.964788 -177.091677 0.021027 112.487002
1740.0 0.015557 -53.666174 0.929433 143.201922 0.964297 143.186372 0.009076 -52.258425
1760.0 0.011763 147.199881 0.928626 103.519099 0.963515 103.506551 0.022777 -126.948628
1780.0 0.024478 80.838522 0.928396 63.858008 0.963385 63.837051 0.022493 179.401233
1800.0 0.024244 30.670935 0.928592 24.150997 0.963697 24.118768 0.010988 100.613938
1820.0 0.009792 -28.555041 0.928316 -15.610305 0.963492 -15.647291 0.018416 -34.6009
1840.0 0.016343 140.584327 0.927316 -55.371239 0.962518 -55.402125 0.037164 -91.05683
1860.0 0.043219 87.791526 0.926325 -95.093327 0.961543 -95.110624 0.047989 -132.606277
1880.0 0.063465 41.114091 0.925977 -134.794612 0.96121 -134.799597 0.047783 -167.0249
1900.0 0.07025 -5.291275 0.926045 -174.504008 0.961236 -174.506475 0.040116 167.403633
1920.0 0.061528 -53.205937 0.925982 145.786401 0.961022 145.773529 0.032874 152.44896
1940.0 0.040993 -106.245333 0.925745 106.099737 0.960551 106.067146 0.029949 138.488815
1960.0 0.018888 177.467586 0.925631 66.427737 0.960226 66.373556 0.025521 114.570325
1980.0 0.01768 55.724324 0.925566 26.739622 0.960087 26.66853 0.014784 79.7057
2000.0 0.024263 -16.816778 0.925162 -12.971692 0.959792 -13.052561 0.003148 -50.06127
2020.0 0.018456 -80.38283 0.924403 -52.686061 0.959275 -52.771082 0.015586 -142.315728
2040.0 0.010492 147.120804 0.923713 -92.398055 0.958842 -92.484416 0.023318 -172.82688
2060.0 0.033296 51.977139 0.923219 -132.12837 0.958471 -132.214769 0.025595 173.058442
2080.0 0.058433 -0.7811 0.92245 -171.877502 0.957604 -171.962354 0.032926 169.372081
2100.0 0.073683 -47.927438 0.921166 148.398953 0.956039 148.317716 0.04896 151.923034
2120.0 0.073843 -93.412946 0.920014 108.736997 0.954583 108.660351 0.063308 121.058518
2140.0 0.059138 -138.528318 0.919826 69.105745 0.954227 69.031971 0.066654 83.174334
2160.0 0.0347 175.357207 0.920445 29.437104 0.954858 29.362215 0.055555 39.907271
2180.0 0.008973 118.932122 0.920846 -10.287934 0.955354 -10.367381 0.033714 -13.167544
2200.0 0.010491 -78.587998 0.920527 -50.019958 0.955085 -50.103607 0.015781 -107.933843
2220.0 0.01626 -134.62995 0.920152 -89.720611 0.954649 -89.803503 0.022586 148.300767
2240.0 0.0096 148.316197 0.920433 -129.422752 0.954771 -129.498356 0.024757 90.727074
2260.0 0.017398 8.957407 0.920867 -169.178183 0.954989 -169.243706 0.00956 40.408128
2280.0 0.041032 -50.859182 0.920261 151.034679 0.954159 150.974381 0.020248 -179.519224
2300.0 0.061635 -97.176936 0.918439 111.303908 0.952172 111.237047 0.054899 134.709947
2320.0 0.072006 -140.028669 0.916711 71.675252 0.950421 71.5888 0.082325 90.024015
2340.0 0.069355 178.980724 0.916356 32.087902 0.950234 31.975196 0.092784 45.088187
2360.0 0.055191 139.765738 0.917137 -7.558417 0.951356 -7.692742 0.082445 -1.131082
2380.0 0.034652 103.733173 0.917723 -47.294084 0.952385 -47.434948 0.055124 -51.148602
2400.0 0.015038 78.38919 0.917328 -87.06259 0.952452 -87.190711 0.022721 -119.580772
2420.0 0.005748 104.707931 0.916472 -126.804536 0.951993 -126.904507 0.017681 99.006531
2440.0 0.005224 101.877782 0.916035 -166.525231 0.951787 -166.591108 0.028103 23.772558
2460.0 0.005166 -44.945207 0.916062 153.734003 0.951768 153.697983 0.022237 -45.844928
2480.0 0.021318 -105.746713 0.915829 113.966453 0.951164 113.949376 0.020359 -171.612084
2500.0 0.041294 -145.97659 0.914889 74.217547 0.949614 74.206851 0.049636 106.822931
2520.0 0.059089 176.170753 0.913711 34.532056 0.947803 34.517489 0.079215 54.215139
2540.0 0.070081 139.12807 0.913174 -5.100018 0.946839 -5.124497 0.094195 7.497891
2560.0 0.071563 102.453711 0.913617 -44.73603 0.947174 -44.771791 0.088812 -37.036363
2580.0 0.063197 65.925119 0.914515 -84.426435 0.948218 -84.470187 0.065123 -80.136691
2600.0 0.047086 29.353651 0.915004 -124.170837 0.94892 -124.21501 0.03184 -120.11152
2620.0 0.027436 -7.745519 0.914717 -163.925916 0.948719 -163.960308 0.004518 -85.25864
2640.0 0.009706 -50.29337 0.914031 156.345928 0.947893 156.330564 0.019281 -53.349662
2660.0 0.003349 168.976365 0.913521 116.642041 0.947046 116.649325 0.021598 -106.548555
2680.0 0.007356 139.850769 0.913281 76.93428 0.946378 76.958844 0.01803 159.96588
2700.0 0.016393 147.7514 0.912906 37.212255 0.945612 37.240282 0.034679 69.302158
2720.0 0.035519 127.562762 0.912147 -2.501402 0.944608 -2.486979 0.058243 15.268847
2740.0 0.058086 95.178075 0.911335 -42.18516 0.943766 -42.196846 0.073811 -27.854532
2760.0 0.076407 58.478998 0.910975 -81.85286 0.943599 -81.892242 0.076294 -65.478528
2780.0 0.084035 19.639003 0.911076 -121.53934 0.944066 -121.59586 0.067419 -97.80137
2800.0 0.077685 -20.740125 0.911155 -161.256128 0.944577 -161.311873 0.053697 -123.7285
2820.0 0.058592 -62.879526 0.910885 159.021595 0.944687 158.983612 0.041779 -144.550138
2840.0 0.032579 -109.080348 0.910477 119.319338 0.944498 119.307799 0.032403 -167.599495
2860.0 0.009535 177.291454 0.910275 79.633125 0.944288 79.645506 0.021944 157.641452
2880.0 0.01069 37.11607 0.910291 39.9431 0.944058 39.968129 0.012385 90.363166
2900.0 0.01039 -7.03834 0.910303 0.240384 0.943666 0.263887 0.016309 2.909242
2920.0 0.009025 62.820683 0.910205 -39.475086 0.943162 -39.46418 0.025889 -38.365478
2940.0 0.035254 48.047465 0.909918 -79.210809 0.942636 -79.216853 0.035543 -60.552136
2960.0 0.065377 9.563762 0.909104 -118.966002 0.941834 -118.986119 0.049522 -79.643208
2980.0 0.08835 -31.887134 0.907545 -158.70417 0.940503 -158.730035 0.067156 -105.086906
3000.0 0.096301 -74.482681 0.905834 161.621055 0.939116 161.600386 0.080756 -137.182602
3020.0 0.086379 -118.116047 0.905129 121.999729 0.938691 121.994713 0.082446 -173.877805
3040.0 0.061618 -163.634995 0.905846 82.353384 0.939529 82.370891 0.068878 145.591541
3060.0 0.030182 144.778911 0.906927 42.62071 0.940513 42.661325 0.043189 99.02927
3080.0 0.007299 29.352976 0.907001 2.838319 0.940316 2.895022 0.016559 25.473182
3100.0 0.016307 -91.659785 0.90609 -36.90581 0.939121 -36.846383 0.017608 -103.059773
3120.0 0.014256 -158.433175 0.905434 -76.592626 0.93836 -76.545867 0.022492 -160.846885
3140.0 0.012339 55.766238 0.905546 -116.296569 0.938639 -116.273739 0.009764 173.672155
3160.0 0.040269 -22.640294 0.905259 -156.066558 0.938734 -156.069482 0.022594 -96.475465
3180.0 0.070707 -72.708204 0.903406 164.169295 0.937348 164.149804 0.058908 -130.87791
3200.0 0.09126 -118.382114 0.900853 124.522237 0.935251 124.503029 0.089142 -171.811376
3220.0 0.094977 -162.556973 0.899833 84.984982 0.934634 84.983653 0.102124 145.885884
3240.0 0.08056 153.854321 0.901245 45.416154 0.936326 45.443829 0.092802 102.433811
3260.0 0.052396 110.498004 0.903452 5.702028 0.938569 5.759189 0.063799 56.67801
3280.0 0.01939 68.108542 0.904236 -34.112082 0.939061 -34.035073 0.025558 0.586463
3300.0 0.008022 -165.158758 0.903393 -73.893304 0.93767 -73.811754 0.014467 -165.933618
3320.0 0.021496 151.846724 0.90254 -113.592686 0.936219 -113.521699 0.031904 125.377219
3340.0 0.018676 95.30917 0.902617 -153.283849 0.935841 -153.23369 0.028868 71.324016
3360.0 0.012918 -22.392921 0.90268 166.969927 0.93568 166.995812 0.011327 -30.011317
3380.0 0.03442 -113.083891 0.901523 127.219238 0.93453 127.223683 0.035393 -158.099087
3400.0 0.059303 -164.184606 0.899648 87.55908 0.932861 87.549254 0.06882 149.602423
3420.0 0.074835 151.615869 0.898798 47.990554 0.932368 47.975729 0.088882 104.625669
3440.0 0.07579 110.148937 0.899761 8.404985 0.933751 8.39455 0.088096 61.873336
3460.0 0.062147 71.033171 0.901417 -31.291791 0.935768 -31.290022 0.066859 20.830969
3480.0 0.038822 36.570066 0.902112 -71.081335 0.936679 -71.062551 0.033083 -15.531421
3500.0 0.015253 23.674057 0.901447 -110.873227 0.93608 -110.836521 0.006906 40.417649
3520.0 0.013288 75.423303 0.900334 -150.612758 0.934941 -150.56107 0.026589 55.494307
3540.0 0.019805 60.24419 0.899634 169.681779 0.934159 169.742756 0.031815 16.466451
3560.0 0.014945 29.327498 0.899324 129.975406 0.933694 130.038839 0.019576 -33.391001
3580.0 0.00143 97.689205 0.898987 90.269131 0.933095 90.328356 0.010116 178.876569
3600.0 0.021188 128.326211 0.898576 50.586238 0.932322 50.635212 0.033748 103.925437
3620.0 0.040795 93.695143 0.898434 10.929174 0.931775 10.96231 0.051763 62.077126
3640.0 0.053848 58.260623 0.898729 -28.730406 0.9317 -28.718196 0.056952 26.804605
3660.0 0.057072 23.360657 0.899186 -68.421398 0.931889 -68.433621 0.050488 -1.64906
3680.0 0.050098 -10.165286 0.899393 -108.14785 0.931972 -108.184272 0.039692 -19.767222
3700.0 0.035333 -40.354207 0.899195 -147.894618 0.931801 -147.948996 0.03284 -28.822929
3720.0 0.017775 -58.109598 0.898736 172.352618 0.93149 172.293348 0.028807 -40.601103
3740.0 0.009919 -17.687209 0.898204 132.599001 0.931163 132.552963 0.02066 -55.433179
3760.0 0.017517 -9.036251 0.897665 92.849456 0.930792 92.835601 0.010037 -41.403328
3780.0 0.01961 -31.790129 0.897159 53.11582 0.930332 53.148621 0.015577 2.334144
3800.0 0.012493 -50.88059 0.896838 13.407782 0.929887 13.492884 0.024523 -10.022356
3820.0 0.008375 15.754697 0.896859 -26.281592 0.929625 -26.149088 0.025453 -25.401176
3840.0 0.026743 14.898458 0.897099 -65.972813 0.929488 -65.80684 0.024299 -22.448192
3860.0 0.044949 -16.573119 0.89713 -105.674762 0.929152 -105.494199 0.035184 -20.050805
3880.0 0.05528 -52.581143 0.896677 -145.370656 0.928465 -145.194161 0.051012 -41.021034
3900.0 0.053439 -90.112074 0.896022 174.956934 0.927816 175.115467 0.058025 -73.11053
3920.0 0.038845 -127.824621 0.895694 135.290374 0.927774 135.4244 0.049376 -109.972726
3940.0 0.015104 -160.8272 0.895688 95.586561 0.928272 95.69684 0.025497 -150.589677
3960.0 0.011957 -46.328609 0.895322 55.835261 0.928471 55.927348 0.006927 8.750699
3980.0 0.032536 -78.550364 0.894168 16.088155 0.927773 16.168413 0.035943 -44.215485
4000.0 0.04102 -119.290999 0.892856 -23.597594 0.926712 -23.525903 0.051421 -86.436519
4020.0 0.034464 -163.288649 0.892446 -63.236002 0.926334 -63.174987 0.047057 -128.535323
4040.0 0.015436 140.103277 0.893002 -102.899077 0.926732 -102.855869 0.023815 -172.231265
4060.0 0.014396 -28.993791 0.893355 -142.617466 0.92678 -142.601325 0.010515 -22.650712
4080.0 0.037778 -89.199662 0.892646 177.668108 0.925704 177.650043 0.043073 -71.288661
4100.0 0.051273 -135.262053 0.891601 138.023377 0.924352 137.969905 0.061946 -114.883573
4120.0 0.049098 -179.747219 0.891597 98.413416 0.924205 98.331018 0.05982 -159.142781
4140.0 0.031258 134.55919 0.892647 58.729917 0.925258 58.63175 0.037141 152.268189
4160.0 0.00418 47.660293 0.893124 18.933896 0.925758 18.836514 0.009089 31.910806
4180.0 0.027183 -120.064533 0.891873 -20.880031 0.924424 -20.960899 0.0378 -85.801959
4200.0 0.048452 -166.941579 0.889885 -60.598044 0.922224 -60.651144 0.060977 -134.545704
4220.0 0.054634 147.734466 0.889103 -100.230778 0.921173 -100.251303 0.0636 -179.370575
4240.0 0.043998 100.5892 0.889932 -139.889929 0.921749 -139.879367 0.044967 135.46247
4260.0 0.021117 41.855786 0.890835 -179.631892 0.922455 -179.59606 0.012618 76.715015
4280.0 0.014248 -111.478664 0.890488 140.613914 0.922013 140.667855 0.023806 -112.691819
4300.0 0.035727 176.957163 0.889494 100.93866 0.921084 101.005127 0.047788 -161.11418
4320.0 0.045934 128.095699 0.889355 61.322655 0.921194 61.399383 0.052659 155.073578
4340.0 0.039244 81.358412 0.890261 21.661885 0.92246 21.749688 0.036953 110.812762
4360.0 0.017486 28.572066 0.89084 -18.090119 0.923359 -17.989664 0.007513 42.854285
4380.0 0.014354 -161.683221 0.890074 -57.865807 0.922758 -57.753815 0.027854 -136.534941
4400.0 0.042941 142.433292 0.888633 -97.580482 0.921321 -97.463638 0.053155 -179.980313
4420.0 0.061484 97.0862 0.887872 -137.23928 0.920478 -137.130373 0.062332 141.83267
4440.0 0.064231 52.846575 0.888071 -176.911567 0.920585 -176.826806 0.054381 108.668551
4460.0 0.05101 8.075657 0.888347 143.372863 0.920808 143.418985 0.036408 87.594702
4480.0 0.02711 -40.692614 0.888036 103.654051 0.920534 103.654211 0.025316 94.824868
4500.0 0.005801 -161.59958 0.887474 63.973498 0.920153 63.930759 0.030337 97.161859
4520.0 0.020782 82.236333 0.887295 24.315256 0.92031 24.242506 0.031882 75.619044
4540.0 0.027429 34.356596 0.887479 -15.36573 0.920911 -15.449781 0.021726 48.838662
4560.0 0.019419 -9.565486 0.887516 -55.082584 0.921315 -55.158954 0.004833 65.958422
4580.0 0.000773 -168.890401 0.887206 -94.812195 0.921186 -94.866375 0.018403 139.480511
4600.0 0.025212 91.472281 0.886828 -134.536563 0.920737 -134.560967 0.032944 116.391011
4620.0 0.047086 50.99841 0.886628 -174.261005 0.92022 -174.254915 0.040144 94.350514
