! File created by SignalIntegrity v1.1.10: Signal and Power Integrity Tools
! https://github.com/TeledyneLeCroy/SignalIntegrity
# MHz S MA R 50.0
0.0 0.00313 180.0 0.990624 0.0 0.989905 0.0 0.003378 180.0
20.0 0.00389 99.240449 0.990129 -39.568782 0.989411 -39.569007 0.021898 54.044215
40.0 0.005085 37.022516 0.988972 -79.142185 0.988258 -79.142657 0.034469 5.408634
60.0 0.005425 -18.088674 0.987509 -118.745409 0.986799 -118.746222 0.032717 -41.52878
80.0 0.004249 -76.854297 0.985848 -158.386203 0.985142 -158.387518 0.016966 -93.225387
100.0 0.00222 -177.220902 0.984157 161.945867 0.983453 161.943919 0.008797 81.769206
120.0 0.005198 59.931184 0.982506 122.27314 0.9818 122.270599 0.031742 17.439421
140.0 0.010782 -3.224847 0.981108 82.628467 0.980396 82.625583 0.045612 -30.211684
160.0 0.016018 -58.119637 0.980315 43.01859 0.979599 43.01569 0.044721 -77.25424
180.0 0.019331 -112.56513 0.980036 3.420923 0.979323 3.418149 0.029637 -127.920364
200.0 0.019744 -169.601427 0.979699 -36.183432 0.978995 -36.186305 0.009007 142.027067
220.0 0.017494 126.72448 0.978748 -75.787628 0.978053 -75.791083 0.020825 -0.619817
240.0 0.014941 50.221247 0.977299 -115.369664 0.976609 -115.374086 0.034804 -55.385808
260.0 0.016012 -34.303356 0.976071 -154.937889 0.975376 -154.94321 0.03508 -103.016613
280.0 0.020232 -108.0324 0.975388 165.465768 0.974681 165.460086 0.021614 -149.949629
300.0 0.023319 -171.243999 0.974811 125.819839 0.974096 125.814437 0.000961 67.596805
320.0 0.022407 129.503987 0.973814 86.154028 0.973103 86.149132 0.021735 -56.735675
340.0 0.016799 68.497289 0.972535 46.517462 0.971839 46.512645 0.035046 -105.02189
360.0 0.008452 -12.102359 0.971539 6.918452 0.97086 6.912892 0.035863 -155.510193
380.0 0.009014 -150.940732 0.970802 -32.675837 0.970128 -32.682723 0.02585 144.83935
400.0 0.018303 130.331809 0.969635 -72.27872 0.96895 -72.286759 0.016059 51.418437
420.0 0.025083 69.172648 0.967683 -111.863901 0.966982 -111.872219 0.02255 -47.228222
440.0 0.026946 9.410778 0.965488 -151.412002 0.964777 -151.419667 0.029487 -110.336998
460.0 0.024118 -54.278086 0.963778 169.046092 0.963075 169.039313 0.026198 -165.694161
480.0 0.019228 -128.118845 0.962419 129.462612 0.961739 129.456006 0.013579 127.506604
500.0 0.01693 144.837136 0.960695 89.843568 0.960036 89.835976 0.011397 -19.292198
520.0 0.018794 60.084698 0.958497 50.244905 0.957843 50.23562 0.02636 -92.188609
540.0 0.020752 -15.266546 0.956579 10.700582 0.95591 10.689967 0.034382 -143.065491
560.0 0.020449 -89.909358 0.955551 -28.816041 0.954859 -28.826753 0.031268 169.117401
580.0 0.019676 -171.711984 0.955035 -68.346356 0.954331 -68.355983 0.018707 118.979718
600.0 0.022238 103.295781 0.954268 -107.88443 0.953576 -107.892814 0.004285 16.192601
620.0 0.027911 26.989362 0.953221 -147.395351 0.952557 -147.403548 0.013285 -117.876556
640.0 0.032959 -41.219032 0.952522 173.122316 0.951884 173.11281 0.018657 -165.123939
660.0 0.034838 -106.566564 0.952455 133.628614 0.951818 133.61705 0.014103 160.038151
680.0 0.03326 -172.962002 0.952538 94.09737 0.951879 94.084395 0.006337 -173.164658
700.0 0.02975 117.090877 0.952291 54.551489 0.951602 54.538716 0.017552 -151.725309
720.0 0.026245 43.346473 0.95194 15.022364 0.951239 15.011142 0.028744 175.250106
740.0 0.023174 -32.142795 0.951899 -24.498922 0.951216 -24.508602 0.031436 136.297193
760.0 0.019513 -109.939573 0.951971 -64.040722 0.951323 -64.0503 0.024336 96.918831
780.0 0.015984 162.009825 0.951567 -103.599754 0.950947 -103.611016 0.010734 64.278729
800.0 0.017521 64.141851 0.950627 -143.141994 0.950005 -143.15565 0.005287 148.275015
820.0 0.024875 -17.961982 0.949783 177.342208 0.949132 177.327155 0.01356 127.339173
840.0 0.032317 -85.281019 0.949416 137.818255 0.948731 137.803799 0.013103 80.752803
860.0 0.035673 -146.803595 0.949108 98.260372 0.948413 98.247958 0.005649 -8.043159
880.0 0.033235 152.502911 0.948357 58.692523 0.947687 58.681878 0.013745 -141.390839
900.0 0.025772 87.692941 0.947389 19.153779 0.946762 19.143053 0.026095 163.573146
920.0 0.017121 7.712683 0.946802 -20.360504 0.946204 -20.373333 0.030496 116.919537
940.0 0.015432 -95.226128 0.946533 -59.890395 0.945927 -59.905907 0.023402 72.38364
960.0 0.021189 178.721668 0.945838 -99.444509 0.945195 -99.461304 0.006164 32.8166
980.0 0.025998 109.074167 0.944436 -138.982846 0.943756 -138.99857 0.015621 158.226376
1000.0 0.027214 42.3266 0.943043 -178.478519 0.942359 -178.491704 0.03385 114.186388
1020.0 0.026068 -27.277894 0.942472 142.0343 0.941821 142.023033 0.041777 67.338023
1040.0 0.025162 -100.365997 0.942528 102.501446 0.941925 102.489813 0.036585 15.783767
1060.0 0.025468 -172.135272 0.942332 62.925803 0.941757 62.91161 0.022359 -52.594306
1080.0 0.025128 121.063866 0.941634 23.365477 0.941045 23.348377 0.019083 -166.352339
1100.0 0.022008 57.573293 0.941143 -16.145228 0.94051 -16.16338 0.032757 114.460398
1120.0 0.015787 -8.37491 0.941457 -55.640098 0.940784 -55.656633 0.039512 58.343614
1140.0 0.009033 -94.661107 0.942093 -95.171946 0.941419 -95.185475 0.032307 4.538254
1160.0 0.009638 148.929684 0.94202 -134.739758 0.941387 -134.751316 0.014166 -68.528617
1180.0 0.015396 70.069255 0.940952 -174.294548 0.940374 -174.306846 0.018543 137.851454
1200.0 0.019187 7.287919 0.939621 146.19052 0.939069 146.175199 0.039905 73.503386
1220.0 0.019787 -53.573314 0.938787 106.68669 0.938212 106.668322 0.050855 21.825956
1240.0 0.018352 -117.668769 0.938398 67.151326 0.937771 67.132244 0.046877 -30.265239
1260.0 0.017085 174.033294 0.93789 27.583713 0.937224 27.566842 0.031054 -91.640981
1280.0 0.017118 107.371859 0.937052 -11.977517 0.936393 -11.990961 0.018814 168.169718
1300.0 0.017146 48.421973 0.936254 -51.503452 0.935646 -51.514977 0.028728 71.466259
1320.0 0.015274 -2.406326 0.935896 -91.003455 0.935346 -91.01618 0.036665 10.392527
1340.0 0.010717 -44.755699 0.935896 -130.507528 0.935367 -130.523743 0.030929 -45.264282
1360.0 0.004504 -59.152072 0.935782 -170.03175 0.935222 -170.051067 0.014411 -122.20352
1380.0 0.006737 -4.08278 0.935205 150.433022 0.934586 150.413439 0.020425 95.035744
1400.0 0.014842 -30.588344 0.93426 110.902959 0.933604 110.886219 0.042205 32.523373
1420.0 0.021718 -70.550752 0.933342 71.380146 0.932701 71.367183 0.054135 -15.477189
1440.0 0.025693 -114.777744 0.932742 31.849531 0.932161 31.838312 0.05097 -59.883195
1460.0 0.026009 -163.219828 0.932373 -7.702091 0.931852 -7.715036 0.034111 -101.967469
1480.0 0.02316 141.765201 0.931943 -47.264795 0.931438 -47.281662 0.01024 -135.647668
1500.0 0.019552 76.108852 0.931392 -86.810743 0.930847 -86.830666 0.012374 -20.060754
1520.0 0.018759 1.742991 0.931028 -126.324524 0.930419 -126.344175 0.024687 -55.307132
1540.0 0.020688 -67.526148 0.931141 -165.824982 0.930496 -165.841145 0.023515 -93.435848
1560.0 0.021042 -128.077719 0.931511 154.653385 0.93089 154.641267 0.010464 -124.553978
1580.0 0.016603 174.087419 0.931555 115.100639 0.931002 115.089971 0.009475 -14.035443
1600.0 0.007291 100.578531 0.930982 75.539256 0.93049 75.526275 0.026521 -40.646453
1620.0 0.009586 -64.440985 0.930084 35.99071 0.929601 35.973428 0.03555 -72.793872
1640.0 0.0241 -131.430197 0.929272 -3.550583 0.928738 -3.570762 0.035079 -99.123054
1660.0 0.03648 174.294649 0.92853 -43.097708 0.927929 -43.117001 0.030957 -112.850466
1680.0 0.043459 121.050465 0.927634 -82.638177 0.927002 -82.653352 0.032774 -119.832934
1700.0 0.044004 66.358276 0.926733 -122.145372 0.926136 -122.156325 0.038436 -139.371234
1720.0 0.039288 8.568166 0.926307 -161.620578 0.925787 -161.63048 0.038484 -171.338352
1740.0 0.031901 -53.453675 0.926484 158.900073 0.926024 158.887218 0.029441 147.592177
1760.0 0.023936 -119.060896 0.926767 119.388768 0.926306 119.371279 0.015264 87.623974
1780.0 0.015046 173.862042 0.926677 79.856347 0.926155 79.836243 0.011774 -24.793825
1800.0 0.003678 84.962935 0.926345 40.322523 0.925752 40.304007 0.018591 -88.671352
1820.0 0.012869 -105.627724 0.926106 0.776385 0.925489 0.762577 0.018881 -116.073699
1840.0 0.030169 -165.767165 0.92574 -38.802273 0.92517 -38.811816 0.020149 -110.290792
1860.0 0.045528 139.617661 0.924716 -78.389676 0.924229 -78.398684 0.035336 -116.572158
1880.0 0.054954 86.120289 0.923224 -117.925586 0.922796 -117.938199 0.053318 -145.749055
1900.0 0.056192 31.977899 0.922354 -157.390997 0.921915 -157.408493 0.062572 177.00912
1920.0 0.049695 -24.79831 0.922812 163.152834 0.922302 163.133111 0.057648 135.85463
1940.0 0.038672 -87.184886 0.92387 123.634391 0.923286 123.617009 0.039345 90.184711
1960.0 0.028082 -158.589848 0.924165 84.062516 0.923566 84.050386 0.015225 25.358437
1980.0 0.021029 122.54709 0.923394 44.509158 0.922853 44.501211 0.014107 -124.271066
2000.0 0.014921 40.4738 0.922554 5.004448 0.922103 4.99641 0.024263 172.536376
2020.0 0.009562 -73.698899 0.922349 -34.505553 0.92195 -34.51785 0.018876 123.156674
2040.0 0.019733 170.666983 0.922089 -74.07259 0.921667 -74.089917 0.003168 -52.992426
2060.0 0.037269 103.146351 0.920765 -113.657566 0.920264 -113.676617 0.032276 -134.899627
2080.0 0.052516 46.920357 0.918759 -153.174275 0.918188 -153.190199 0.060202 -179.769352
2100.0 0.06064 -5.969682 0.917633 167.390152 0.917057 167.379942 0.076236 136.881144
2120.0 0.059544 -58.188097 0.918169 127.948069 0.917662 127.941823 0.074616 93.874555
2140.0 0.050017 -111.536387 0.919345 88.420637 0.918931 88.413577 0.055899 50.849593
2160.0 0.035485 -168.086179 0.919656 48.833118 0.919287 48.821157 0.026936 7.760637
2180.0 0.020713 128.788931 0.918934 9.270472 0.91853 9.253446 0.001611 129.520531
2200.0 0.009143 53.293595 0.918268 -30.238268 0.917776 -30.2564 0.019275 95.245976
2220.0 0.002318 -114.882745 0.918285 -69.747073 0.917724 -69.761281 0.020689 41.378645
2240.0 0.012889 121.015767 0.918313 -109.301516 0.917759 -109.309645 0.013319 -58.46882
2260.0 0.027907 58.338535 0.917517 -148.8686 0.917044 -148.873121 0.031153 -163.889327
2280.0 0.043363 4.226635 0.916222 171.615604 0.915845 171.609482 0.057279 141.573973
2300.0 0.055061 -46.045592 0.915574 132.154357 0.915234 132.142746 0.074358 96.66965
2320.0 0.059774 -94.336429 0.91606 92.681345 0.915671 92.664763 0.075573 55.633652
2340.0 0.056358 -141.625723 0.916919 53.142787 0.916436 53.125815 0.061052 18.777824
2360.0 0.046147 171.591371 0.91711 13.556332 0.916563 13.544067 0.038122 -8.158144
2380.0 0.032487 125.287919 0.916433 -26.02082 0.915906 -26.026768 0.022393 -6.3124
2400.0 0.019439 81.114181 0.915487 -65.55944 0.915052 -65.56227 0.025055 -4.140672
2420.0 0.010677 48.632718 0.914787 -105.076712 0.914447 -105.081989 0.025798 -38.203206
2440.0 0.01003 35.691625 0.914301 -144.597268 0.913987 -144.608571 0.01936 -104.648126
2460.0 0.017146 3.487746 0.913824 175.877517 0.913449 175.861448 0.024649 159.560577
2480.0 0.028229 -40.296743 0.913416 136.357008 0.912942 136.341342 0.042588 98.457626
2500.0 0.040431 -84.822461 0.913294 96.8368 0.912762 96.826595 0.05647 55.503689
2520.0 0.050791 -128.426381 0.913436 57.299328 0.912938 57.29555 0.060548 20.98246
2540.0 0.056806 -171.367985 0.913486 17.738624 0.913089 17.737338 0.056974 -5.61793
2560.0 0.057095 145.838867 0.913114 -21.826179 0.912811 -21.830784 0.052926 -25.168007
2580.0 0.051786 102.606462 0.912369 -61.367152 0.912079 -61.378219 0.05228 -45.091268
2600.0 0.042434 58.230254 0.911619 -100.874068 0.911255 -100.889563 0.050224 -72.726397
2620.0 0.031619 12.120242 0.911172 -140.363628 0.910705 -140.377863 0.041338 -109.911229
2640.0 0.022178 -34.815177 0.910981 -179.860958 0.910467 -179.869031 0.027167 -161.956381
2660.0 0.016229 -75.816267 0.910799 140.623851 0.910333 140.622182 0.019611 115.807154
2680.0 0.015878 -101.306327 0.91052 101.095818 0.910163 101.095891 0.026165 45.586454
2700.0 0.023443 -126.011167 0.910242 61.557005 0.909974 61.552865 0.032519 8.185621
2720.0 0.036819 -161.266248 0.909968 21.999512 0.9097 21.988574 0.037657 -10.513992
2740.0 0.051574 157.832152 0.909407 -17.573385 0.909052 -17.588268 0.049448 -25.445774
2760.0 0.063179 114.397441 0.908368 -57.12905 0.907909 -57.141761 0.066194 -49.759451
2780.0 0.068091 69.362428 0.907248 -96.63079 0.906754 -96.636718 0.077923 -82.274367
2800.0 0.064803 22.705875 0.906804 -136.084279 0.906373 -136.083973 0.077116 -119.634729
2820.0 0.054331 -26.080348 0.907287 -175.542134 0.906971 -175.540936 0.062342 -160.772106
2840.0 0.039897 -77.655191 0.908032 144.952438 0.907798 144.948539 0.038584 152.263171
2860.0 0.025502 -131.285445 0.908227 105.41369 0.907978 105.402767 0.016621 84.905779
2880.0 0.013792 -176.721027 0.907881 65.882691 0.907533 65.868433 0.011607 -19.61022
2900.0 0.010113 -171.876798 0.907606 26.360642 0.907155 26.34951 0.010105 -60.028286
2920.0 0.023287 172.18675 0.90747 -13.192676 0.906996 -13.196504 0.016134 -21.727281
2940.0 0.042674 128.730436 0.906688 -52.783115 0.90629 -52.78105 0.042736 -42.087323
2960.0 0.061439 81.406299 0.904854 -92.342478 0.904579 -92.340473 0.07121 -78.947148
2980.0 0.073958 33.426775 0.903008 -131.804641 0.902806 -131.808568 0.089518 -118.852211
3000.0 0.076292 -15.171104 0.902717 -171.205166 0.902484 -171.216202 0.090241 -159.72584
3020.0 0.067446 -65.279488 0.904137 149.339637 0.903796 149.325992 0.072321 158.856561
3040.0 0.049984 -118.819712 0.905614 109.765508 0.905173 109.755946 0.041385 117.001226
3060.0 0.029802 179.219373 0.905571 70.136246 0.90512 70.134407 0.00817 75.274729
3080.0 0.014988 94.689075 0.904315 30.557094 0.903955 30.560675 0.015514 -149.256951
3100.0 0.010382 -14.892471 0.903334 -8.957426 0.903098 -8.95492 0.021547 164.717933
3120.0 0.00983 -135.248093 0.903149 -48.481033 0.902975 -48.485234 0.009764 92.430535
3140.0 0.021172 116.951195 0.902773 -88.050503 0.902553 -88.061748 0.02275 -64.06782
3160.0 0.041877 49.89607 0.901425 -127.60186 0.901088 -127.614877 0.054183 -116.36955
3180.0 0.062444 -4.738711 0.89996 -167.060283 0.899531 -167.068281 0.078406 -159.422488
3200.0 0.075674 -55.210231 0.899901 153.544622 0.899477 153.54462 0.086569 160.400701
3220.0 0.076982 -104.254371 0.90141 114.102334 0.901089 114.107113 0.076375 123.007153
3240.0 0.065459 -153.369138 0.902987 74.552145 0.90279 74.554767 0.052671 91.403174
3260.0 0.044376 155.646032 0.903244 34.94601 0.903095 34.94123 0.027932 78.988695
3280.0 0.020434 96.264643 0.902367 -4.630337 0.902156 -4.641941 0.022309 97.871969
3300.0 0.006825 -37.634851 0.901462 -44.160759 0.901127 -44.173191 0.025901 85.225555
3320.0 0.014588 -145.732753 0.900969 -83.690094 0.900549 -83.696606 0.018139 48.713503
3340.0 0.016369 138.212206 0.900414 -123.238582 0.900017 -123.236967 0.005752 -85.16943
3360.0 0.018724 42.893661 0.899498 -162.772354 0.899216 -162.766726 0.027134 -174.893313
3380.0 0.032204 -37.224594 0.898729 157.739236 0.898569 157.741622 0.046578 145.484652
3400.0 0.048842 -95.627124 0.898737 118.27266 0.898611 118.267076 0.055678 112.113322
3420.0 0.059993 -145.858066 0.89938 78.778934 0.899175 78.766914 0.05428 85.158735
3440.0 0.061119 167.3655 0.89994 39.243342 0.899608 39.231519 0.04877 66.656727
3460.0 0.05165 122.585544 0.899989 -0.308609 0.899582 -0.313674 0.046588 52.440613
3480.0 0.034574 79.721731 0.899679 -39.853957 0.899311 -39.850925 0.045791 32.241506
3500.0 0.015211 42.101853 0.899252 -79.395615 0.899009 -79.389465 0.038534 3.449493
3520.0 0.003476 100.864683 0.898653 -118.939235 0.898527 -118.937411 0.02202 -33.447196
3540.0 0.011039 102.59864 0.897824 -158.471282 0.897716 -158.477869 0.003905 -155.435442
3560.0 0.011783 50.468257 0.897045 162.022927 0.896844 162.010435 0.020826 97.658517
3580.0 0.009618 -37.871084 0.896697 122.532306 0.896366 122.52109 0.031063 60.947102
3600.0 0.016995 -129.356394 0.896771 83.027461 0.896378 83.023761 0.029144 35.507752
3620.0 0.028783 174.382489 0.896837 43.494906 0.8965 43.499111 0.023279 36.406041
3640.0 0.037526 128.877595 0.896557 3.951522 0.896355 3.957832 0.033032 44.956933
3660.0 0.03996 87.167341 0.896071 -35.580172 0.895977 -35.579241 0.049339 24.038061
3680.0 0.035294 47.360967 0.895771 -75.101526 0.895678 -75.109289 0.056088 -8.972218
3700.0 0.024755 8.938887 0.895801 -114.636094 0.895601 -114.64907 0.047227 -46.509363
3720.0 0.011078 -26.884544 0.895858 -154.199818 0.895529 -154.210416 0.024458 -87.567517
3740.0 0.002539 86.463063 0.895536 166.222461 0.895159 166.220013 0.005009 80.505041
3760.0 0.011918 65.878519 0.894813 126.665639 0.89451 126.670747 0.029119 21.251493
3780.0 0.014948 27.484545 0.894116 87.149701 0.893952 87.155829 0.0396 -19.645593
3800.0 0.010444 -15.695002 0.893861 47.658991 0.893796 47.658754 0.031917 -57.674783
3820.0 0.002361 -160.041313 0.893953 8.161027 0.89387 8.151973 0.009475 -73.725303
3840.0 0.016121 103.478576 0.893879 -31.35302 0.893678 -31.366458 0.023671 18.715677
3860.0 0.030154 59.08512 0.893389 -70.858334 0.893062 -70.868276 0.050027 -15.11369
3880.0 0.03867 16.424202 0.892888 -110.335303 0.892529 -110.336581 0.062175 -54.37226
3900.0 0.03819 -26.890635 0.892946 -149.809595 0.892676 -149.803822 0.054839 -94.751078
3920.0 0.027877 -73.131014 0.893422 170.667168 0.893295 170.672815 0.029971 -135.610257
3940.0 0.010825 -138.086369 0.893446 131.084504 0.893405 131.082879 0.003982 5.386599
3960.0 0.013673 60.524801 0.892487 91.498741 0.892411 91.488338 0.035113 -36.981859
3980.0 0.03028 1.410123 0.891157 51.971435 0.890952 51.957602 0.052573 -77.642706
4000.0 0.038485 -46.569669 0.890545 12.49448 0.890221 12.485254 0.050743 -117.600688
4020.0 0.03498 -94.762129 0.890862 -26.996498 0.890522 -26.996679 0.031061 -155.485319
4040.0 0.021108 -150.894579 0.891206 -66.533677 0.89097 -66.527475 0.003513 -127.086727
4060.0 0.009672 86.300228 0.890822 -106.075017 0.89073 -106.07014 0.028159 -68.82271
4080.0 0.024927 -12.879665 0.890126 -145.568075 0.890107 -145.571262 0.045318 -105.236411
4100.0 0.037421 -67.247863 0.890066 174.968794 0.889992 174.95706 0.045092 -142.409156
4120.0 0.038254 -117.94503 0.890698 135.463327 0.890487 135.449235 0.028333 -175.348648
4140.0 0.026878 -174.376069 0.891003 95.884834 0.890681 95.876422 0.007196 -140.706597
4160.0 0.013008 85.021594 0.890226 56.285073 0.889907 56.285933 0.027615 -101.412313
4180.0 0.026364 -28.262998 0.888855 16.730133 0.888655 16.736579 0.044465 -131.671787
4200.0 0.043974 -86.702043 0.88793 -22.778286 0.887871 -22.774365 0.046984 -163.475504
4220.0 0.051028 -136.823851 0.88774 -62.287098 0.887738 -62.291902 0.03675 170.928607
4240.0 0.044427 173.535301 0.887727 -101.816164 0.887653 -101.829115 0.023581 166.148268
4260.0 0.026813 117.881365 0.887495 -141.336946 0.887278 -141.351115 0.023437 -179.189628
4280.0 0.010333 9.327687 0.887328 179.173734 0.887011 179.166235 0.028599 170.610524
4300.0 0.022623 -105.762174 0.887566 139.694332 0.88727 139.696165 0.025239 150.314564
4320.0 0.032887 -164.138256 0.887941 100.190571 0.887775 100.197063 0.014299 147.253307
4340.0 0.030452 140.113817 0.887941 60.66332 0.887913 60.666098 0.015741 -166.770898
4360.0 0.018478 64.593229 0.887556 21.136716 0.887567 21.130254 0.028948 -172.53817
4380.0 0.021812 -56.25143 0.887193 -18.388182 0.887115 -18.402221 0.036218 167.841796
4400.0 0.042802 -126.148612 0.886934 -57.934134 0.88671 -57.948172 0.037084 153.358274
4420.0 0.058718 -177.159984 0.886402 -97.501182 0.886091 -97.507637 0.039905 146.284692
4440.0 0.061941 136.597466 0.885478 -137.051684 0.885208 -137.048911 0.048769 132.886625
4460.0 0.051177 92.510787 0.884699 -176.55842 0.884568 -176.552023 0.055242 107.904401
4480.0 0.030002 50.570567 0.884603 143.95496 0.884602 143.956491 0.050724 75.568485
4500.0 0.005631 27.864229 0.884957 104.446087 0.884977 104.438021 0.033139 38.333309
4520.0 0.015712 129.578424 0.885067 64.912831 0.884983 64.897919 0.007463 -17.242547
4540.0 0.025867 88.346608 0.884755 25.390776 0.884524 25.377126 0.019084 157.39622
4560.0 0.023467 39.352709 0.884562 -14.107359 0.884258 -14.112622 0.034481 115.633208
4580.0 0.012787 -36.760472 0.884857 -53.618859 0.884612 -53.615171 0.03356 80.290242
4600.0 0.018598 -160.173357 0.885153 -93.179606 0.885055 -93.173423 0.017756 65.156138
4620.0 0.03706 139.186102 0.884688 -132.766559 0.884712 -132.766322 0.022014 123.77219
