! File created by SignalIntegrity v1.3.3: Signal and Power Integrity Tools
! https://github.com/TeledyneLeCroy/SignalIntegrity
# MHz S MA R 50.0
0.0 0.005593 0.0 1.015125 0.0 0.978613 0.0 0.002311 180.0
20.0 0.006666 -106.75883 1.014757 -40.493299 0.978152 -40.452055 0.021546 48.342611
40.0 0.00931 161.312689 1.013722 -81.001171 0.97683 -80.934351 0.034603 -2.442932
60.0 0.012215 81.687639 1.012077 -121.527166 0.974716 -121.458871 0.034275 -52.798265
80.0 0.013888 7.890029 1.010291 -162.053834 0.972343 -162.006267 0.020869 -108.834439
100.0 0.013306 -66.403959 1.009078 157.407264 0.970573 157.421571 0.007108 111.587288
120.0 0.011028 -150.922042 1.008143 116.833172 0.969341 116.81323 0.025666 7.764906
140.0 0.011004 106.734012 1.00676 76.260697 0.968099 76.213718 0.039796 -47.781235
160.0 0.016049 15.208694 1.005157 35.745255 0.967058 35.681777 0.041624 -101.387318
180.0 0.022049 -58.578851 1.004115 -4.718839 0.966786 -4.787785 0.031783 -160.251283
200.0 0.025267 -126.243924 1.003688 -45.19216 0.967059 -45.255088 0.018352 117.832383
220.0 0.024156 165.139675 1.002946 -85.707758 0.966749 -85.752322 0.019202 7.014453
240.0 0.019918 88.0081 1.001426 -126.228789 0.965326 -126.243815 0.026703 -67.286999
260.0 0.017729 -4.848934 1.000002 -166.727148 0.963715 -166.707582 0.025433 -128.081725
280.0 0.021822 -95.550589 0.99943 152.758261 0.962824 152.806431 0.014611 162.47361
300.0 0.027179 -171.164936 0.999106 112.191854 0.962236 112.25099 0.010616 20.415837
320.0 0.028442 118.943032 0.998049 71.616189 0.96109 71.662831 0.024731 -64.07237
340.0 0.024564 44.904283 0.996509 31.105129 0.959635 31.120026 0.033112 -122.204898
360.0 0.020241 -45.845602 0.995573 -9.347156 0.958894 -9.370319 0.030586 -179.533674
380.0 0.024654 -144.085556 0.995145 -49.820619 0.958765 -49.873002 0.019609 110.139135
400.0 0.035015 136.968483 0.993791 -90.341866 0.957872 -90.405047 0.015333 -4.596199
420.0 0.04289 68.960833 0.990927 -130.845784 0.955619 -130.901597 0.026522 -91.292349
440.0 0.044542 3.166539 0.987851 -171.284377 0.953155 -171.323098 0.033509 -150.967792
460.0 0.040339 -65.719084 0.986019 148.288176 0.951722 148.265655 0.029738 153.868892
480.0 0.034118 -142.429751 0.985047 107.791786 0.950816 107.777892 0.016468 91.389612
500.0 0.031199 133.246737 0.983554 67.247085 0.949072 67.233778 0.008434 -52.563825
520.0 0.032237 50.955191 0.981428 26.747334 0.946496 26.729992 0.022638 -142.41738
540.0 0.032692 -26.011995 0.979881 -13.674998 0.944464 -13.698074 0.031596 161.920944
560.0 0.030382 -103.826169 0.97945 -54.081091 0.943675 -54.11182 0.030572 108.900661
580.0 0.028248 171.323177 0.979143 -94.521344 0.943234 -94.563897 0.021271 51.430057
600.0 0.03083 84.512649 0.978011 -134.96185 0.942156 -135.021113 0.010443 -30.580061
620.0 0.036521 6.371711 0.976604 -175.354474 0.940827 -175.431827 0.010348 -145.730084
640.0 0.040155 -64.585533 0.975996 144.274882 0.940184 144.184882 0.012435 145.795151
660.0 0.03911 -133.946201 0.976154 103.864406 0.940203 103.77322 0.007122 96.341118
680.0 0.034225 153.428422 0.976184 63.408778 0.940121 63.328853 0.004639 -150.860703
700.0 0.028869 73.931524 0.975811 22.958849 0.939775 22.897695 0.017504 170.443977
720.0 0.02621 -10.996798 0.97565 -17.464247 0.939778 -17.506573 0.025963 125.436256
740.0 0.025936 -95.532418 0.975907 -57.89699 0.94025 -57.925164 0.026041 80.406628
760.0 0.026493 -178.984127 0.975858 -98.361663 0.940365 -98.379283 0.017323 36.347366
780.0 0.028719 98.099542 0.975005 -138.826226 0.939563 -138.831524 0.003365 6.693046
800.0 0.03339 20.367831 0.973886 -179.259703 0.938377 -179.246352 0.010431 116.126371
820.0 0.03805 -49.348365 0.973247 140.314914 0.937622 140.352238 0.017514 73.797882
840.0 0.039062 -112.964444 0.972944 99.858789 0.937264 99.918234 0.014806 29.247091
860.0 0.034326 -173.299361 0.97236 59.383868 0.936749 59.454574 0.002948 -14.676681
880.0 0.024213 126.780394 0.971536 18.933544 0.936082 19.000161 0.013401 118.08914
900.0 0.011387 59.565144 0.971027 -21.486451 0.935732 -21.435523 0.027436 72.666206
920.0 0.004715 -92.704237 0.97085 -61.911387 0.93568 -61.877508 0.03288 26.68371
940.0 0.01222 169.434565 0.970337 -102.357854 0.93531 -102.331847 0.026539 -20.155905
960.0 0.015981 106.61506 0.96913 -142.80147 0.934325 -142.769725 0.009875 -71.42902
980.0 0.01492 45.050813 0.967686 176.775069 0.933168 176.822213 0.011742 75.431876
1000.0 0.011092 -21.811785 0.966519 136.35199 0.932261 136.415016 0.030183 23.42737
1020.0 0.007448 -98.353155 0.965606 95.911286 0.931454 95.982381 0.038948 -27.384082
1040.0 0.005161 -173.259206 0.96486 55.467852 0.930568 55.536486 0.035311 -82.780162
1060.0 0.00273 153.001503 0.964575 15.039551 0.929908 15.098362 0.023568 -154.831932
1080.0 0.005147 177.533343 0.964939 -25.38633 0.929797 -25.33932 0.021278 98.502986
1100.0 0.011412 136.695761 0.965458 -65.827013 0.929945 -65.790542 0.033104 17.596358
1120.0 0.016442 84.695181 0.965504 -106.264559 0.929872 -106.237855 0.039178 -42.423892
1140.0 0.017765 28.859752 0.965186 -146.674794 0.929662 -146.659241 0.032338 -99.964399
1160.0 0.01457 -32.970286 0.96495 172.920562 0.929605 172.923312 0.015522 -176.245818
1180.0 0.008767 -114.915446 0.964578 132.479017 0.929324 132.470574 0.018244 37.052882
1200.0 0.008441 121.365118 0.963434 92.008814 0.928127 91.99565 0.038335 -33.572935
1220.0 0.014498 31.578733 0.961747 51.564915 0.926283 51.5559 0.049122 -88.97735
1240.0 0.019276 -42.493214 0.96069 11.160161 0.925063 11.161398 0.045823 -144.35305
1260.0 0.022386 -118.382343 0.960729 -29.263686 0.925039 -29.252743 0.031482 150.894248
1280.0 0.026522 163.628006 0.960799 -69.741272 0.925221 -69.726921 0.020625 51.985048
1300.0 0.032392 90.190942 0.959858 -110.214204 0.92453 -110.202828 0.029413 -44.277307
1320.0 0.036788 22.85549 0.958539 -150.609961 0.923461 -150.601452 0.037056 -108.712638
1340.0 0.036025 -42.065288 0.958248 169.03915 0.923286 169.05381 0.032066 -167.100133
1360.0 0.028971 -111.113105 0.958866 128.626918 0.92389 128.661467 0.016409 117.933644
1380.0 0.020165 160.342874 0.958694 88.126056 0.923689 88.190369 0.018171 -24.52439
1400.0 0.023089 52.679392 0.956937 47.631027 0.92197 47.72379 0.038769 -95.162931
1420.0 0.035343 -27.992242 0.954982 7.222593 0.920076 7.330393 0.051145 -147.418089
1440.0 0.044624 -94.638323 0.954495 -33.144974 0.919594 -33.041122 0.049681 163.91107
1460.0 0.046683 -159.416157 0.955149 -73.568704 0.920206 -73.48333 0.035437 115.669138
1480.0 0.042526 131.870117 0.955303 -114.05244 0.920384 -113.988344 0.014354 62.646402
1500.0 0.037132 55.657733 0.954434 -154.512966 0.919707 -154.460949 0.006462 -126.569333
1520.0 0.035235 -24.620689 0.953617 165.087448 0.91926 165.142289 0.017256 170.335359
1540.0 0.034851 -101.131844 0.953633 124.690224 0.919738 124.760157 0.016304 120.370466
1560.0 0.030927 -175.906354 0.953808 84.237838 0.920323 84.327237 0.005405 48.255801
1580.0 0.024157 98.05932 0.953248 43.757867 0.919954 43.863306 0.013118 -120.515818
1600.0 0.025907 -4.900163 0.952286 3.308249 0.918829 3.422233 0.027531 -168.997423
1620.0 0.039363 -88.266527 0.951823 -37.112603 0.917868 -36.997962 0.034405 152.832632
1640.0 0.052636 -154.332742 0.951864 -77.546522 0.917277 -77.438395 0.03289 124.007534
1660.0 0.058679 145.46108 0.951637 -117.994498 0.916561 -117.900282 0.029422 109.710213
1680.0 0.055579 86.443733 0.950924 -158.413389 0.915668 -158.341042 0.032709 99.775589
1700.0 0.045187 25.797405 0.950347 161.209732 0.915191 161.254 0.038564 76.236972
1720.0 0.031583 -39.508052 0.950261 120.833059 0.915321 120.848995 0.037815 41.78806
1740.0 0.018911 -113.858857 0.950204 80.423286 0.91543 80.419353 0.027438 0.21211
1760.0 0.009564 151.027315 0.949772 39.997005 0.915017 39.988398 0.011117 -58.802656
1780.0 0.008877 11.880727 0.949306 -0.42167 0.91442 -0.419948 0.009919 149.139602
1800.0 0.018429 -82.216647 0.949271 -40.8471 0.914179 -40.828387 0.019518 92.684922
1820.0 0.029216 -147.931101 0.949426 -81.304039 0.91416 -81.273931 0.019784 62.376781
1840.0 0.036649 155.977095 0.9492 -121.77756 0.913856 -121.750392 0.017508 66.107273
1860.0 0.03807 105.452543 0.948587 -162.230424 0.913251 -162.219968 0.030397 67.907874
1880.0 0.033365 60.081308 0.948048 157.343079 0.912764 157.333003 0.048765 38.885139
1900.0 0.025224 22.016623 0.947706 116.917158 0.912513 116.896109 0.059638 -0.59778
1920.0 0.018376 -5.204877 0.947252 76.481122 0.912218 76.46727 0.057255 -44.97376
1940.0 0.016171 -29.737007 0.946621 36.050824 0.911819 36.061068 0.042171 -94.86508
1960.0 0.016357 -70.046495 0.946171 -4.368906 0.911597 -4.327659 0.021707 -160.972698
1980.0 0.016986 -127.041715 0.946039 -44.797107 0.911578 -44.730294 0.014432 82.395676
2000.0 0.01886 170.905472 0.945895 -85.240803 0.911352 -85.161465 0.020208 -0.03196
2020.0 0.020738 116.44221 0.945539 -125.681471 0.91073 -125.60227 0.014858 -60.877829
2040.0 0.020243 75.476496 0.945169 -166.112222 0.910027 -166.039588 0.006505 120.984041
2060.0 0.019221 53.883817 0.944771 153.445632 0.909414 153.512105 0.033231 43.810056
2080.0 0.024845 40.190119 0.943825 112.987977 0.908529 113.051898 0.059416 -5.680243
2100.0 0.036491 10.577048 0.94219 72.55678 0.907236 72.620803 0.074619 -52.701822
2120.0 0.04692 -31.129261 0.940793 32.182141 0.906277 32.246536 0.073256 -99.080446
2140.0 0.05131 -79.590005 0.940627 -8.180204 0.906406 -8.115937 0.055833 -145.645657
2160.0 0.048437 -133.713096 0.941324 -48.601014 0.907135 -48.535966 0.028597 166.236896
2180.0 0.040568 165.66809 0.941585 -89.075633 0.90723 -89.007506 0.002022 70.976822
2200.0 0.031749 98.336391 0.941029 -129.527315 0.906479 -129.455044 0.016457 -103.593375
2220.0 0.023483 28.140663 0.940651 -169.92384 0.906026 -169.850338 0.019477 -165.017441
2240.0 0.0125 -42.209138 0.941021 149.670208 0.906518 149.738426 0.015666 96.221119
2260.0 0.005694 115.904855 0.941083 109.19795 0.906893 109.255255 0.031625 -3.213885
2280.0 0.027944 38.764677 0.939675 68.711584 0.905877 68.759181 0.055552 -62.428318
2300.0 0.051136 -17.617785 0.937552 28.303668 0.904031 28.352266 0.071603 -111.192362
2320.0 0.068699 -71.634174 0.936672 -12.035829 0.903154 -11.969845 0.072972 -155.674287
2340.0 0.075738 -125.615188 0.937579 -52.416786 0.90378 -52.320542 0.059488 163.777576
2360.0 0.070586 178.839952 0.938731 -92.895044 0.904501 -92.768371 0.037339 131.756399
2380.0 0.055778 119.691099 0.938718 -133.397427 0.904044 -133.255875 0.020253 127.736674
2400.0 0.037299 53.206115 0.938029 -173.831888 0.902948 -173.700887 0.021961 132.345982
2420.0 0.021739 -27.645856 0.937897 145.786664 0.902462 145.883608 0.024284 96.039338
2440.0 0.012905 -135.177623 0.938213 105.376472 0.902555 105.428807 0.020979 27.900497
2460.0 0.016233 95.4252 0.937761 64.91986 0.902145 64.933995 0.026885 -60.211015
2480.0 0.032699 5.789018 0.936228 24.478663 0.900983 24.473145 0.042811 -123.044728
2500.0 0.053393 -60.722044 0.934748 -15.912959 0.900111 -15.917562 0.055377 -169.330951
2520.0 0.070628 -118.95219 0.934303 -56.300932 0.900307 -56.291244 0.05891 153.118918
2540.0 0.0783 -173.750194 0.934543 -96.7357 0.901012 -96.709196 0.055207 123.746668
2560.0 0.073557 132.801516 0.934651 -137.198184 0.901274 -137.160808 0.051049 101.826918
2580.0 0.057828 79.440387 0.934573 -177.639972 0.901035 -177.600933 0.050527 79.992206
2600.0 0.036013 25.00037 0.934679 141.942158 0.90082 141.974501 0.049058 50.392496
2620.0 0.01417 -31.495587 0.934743 101.518098 0.900671 101.537576 0.041035 11.154365
2640.0 0.003472 76.893506 0.934137 61.087246 0.900175 61.089735 0.027608 -42.478273
2660.0 0.016849 15.585922 0.932883 20.679117 0.899379 20.66323 0.01981 -124.722147
2680.0 0.029657 -51.120715 0.931766 -19.706454 0.898876 -19.737111 0.025619 161.956585
2700.0 0.043555 -112.742409 0.931266 -60.112531 0.898885 -60.14753 0.031673 121.077555
2720.0 0.055696 -168.085814 0.931066 -100.56528 0.898902 -100.589031 0.036156 99.850929
2740.0 0.061954 141.703826 0.930775 -141.038476 0.898497 -141.036453 0.047222 83.857064
2760.0 0.060341 95.91537 0.930557 178.506517 0.897921 178.539608 0.064053 58.378601
2780.0 0.05225 54.821734 0.93069 138.074981 0.897605 138.130267 0.076671 24.248086
2800.0 0.041825 19.34094 0.93096 97.653738 0.897485 97.7106 0.077032 -14.926468
2820.0 0.033689 -11.390748 0.930945 57.246385 0.897228 57.282029 0.063004 -57.814421
2840.0 0.029437 -43.73597 0.930638 16.862111 0.896842 16.863276 0.039133 -106.271424
2860.0 0.027326 -84.436233 0.93033 -23.514968 0.896599 -23.545016 0.016143 -176.695273
2880.0 0.026302 -132.707583 0.930075 -63.915114 0.896547 -63.958633 0.012721 66.911525
2900.0 0.026514 178.985737 0.929718 -104.348742 0.896504 -104.383409 0.01321 16.148783
2920.0 0.027819 138.973146 0.92928 -144.806129 0.896415 -144.816832 0.012591 47.414642
2940.0 0.031667 109.017287 0.928846 174.71835 0.896229 174.732644 0.036957 41.692144
2960.0 0.040645 80.859268 0.928153 134.235518 0.895574 134.263131 0.067058 5.28599
2980.0 0.05305 46.723944 0.926965 93.787225 0.894184 93.811421 0.089087 -36.092888
3000.0 0.063351 6.476503 0.925826 53.414237 0.892683 53.421774 0.094543 -78.989274
3020.0 0.066492 -38.326153 0.925703 13.087665 0.892206 13.073349 0.081188 -122.668506
3040.0 0.060376 -87.383777 0.926592 -27.283152 0.892939 -27.317188 0.053532 -167.04768
3060.0 0.046871 -142.078855 0.927164 -67.744814 0.893675 -67.792664 0.021229 147.725774
3080.0 0.031483 154.173761 0.926425 -108.238874 0.893345 -108.293655 0.00441 -82.263438
3100.0 0.020019 79.736085 0.925124 -148.687487 0.89244 -148.741794 0.014981 -134.606646
3120.0 0.010898 6.165599 0.924664 170.894222 0.892087 170.848824 0.011847 137.505103
3140.0 0.003663 119.349716 0.92499 130.433295 0.892134 130.40511 0.025159 20.342214
3160.0 0.026096 65.066742 0.924688 89.933725 0.891298 89.927092 0.05324 -40.092369
3180.0 0.051985 12.653171 0.923282 49.49696 0.889323 49.507787 0.077068 -88.166805
3200.0 0.073804 -38.163618 0.92222 9.181125 0.887804 9.195639 0.086981 -132.169874
3220.0 0.084582 -88.607938 0.922905 -31.096664 0.888204 -31.097445 0.079739 -173.157299
3240.0 0.080511 -139.867281 0.924632 -71.463357 0.889839 -71.494737 0.058798 150.622519
3260.0 0.062683 166.321017 0.925464 -111.934592 0.890782 -111.999791 0.034218 127.345249
3280.0 0.037569 105.14639 0.924745 -152.419398 0.89034 -152.507024 0.0225 131.988561
3300.0 0.017059 15.122261 0.923619 167.139023 0.889586 167.049612 0.024423 121.906699
3320.0 0.016582 -106.697251 0.923059 126.70176 0.889437 126.630206 0.020572 78.822107
3340.0 0.01973 163.241041 0.922595 86.229123 0.889384 86.185086 0.0145 -12.251455
3360.0 0.022604 65.206924 0.921522 45.761836 0.888645 45.742472 0.027415 -103.094881
3380.0 0.037658 -21.754509 0.92033 5.361197 0.887577 5.355822 0.044279 -154.205191
3400.0 0.058018 -86.225735 0.92009 -34.987104 0.887165 -34.989149 0.053276 166.410036
3420.0 0.072171 -141.365838 0.920886 -75.355646 0.887552 -75.35958 0.05289 134.931798
3440.0 0.073313 167.140495 0.921764 -115.777961 0.887961 -115.78385 0.048317 112.187082
3460.0 0.060154 117.145065 0.922091 -156.223558 0.887938 -156.230951 0.046552 94.146709
3480.0 0.03674 67.34525 0.922099 163.335243 0.887784 163.322865 0.046467 70.768321
3500.0 0.010556 14.152944 0.922026 122.887897 0.887695 122.862932 0.040755 38.584374
3520.0 0.010633 153.67956 0.921556 82.42964 0.887277 82.384913 0.026244 -3.09585
3540.0 0.02136 96.396512 0.920515 41.993148 0.886299 41.927798 0.008814 -86.422332
3560.0 0.022005 31.644683 0.919464 1.603233 0.885324 1.525402 0.017899 144.958371
3580.0 0.021039 -51.730769 0.919033 -38.769743 0.885051 -38.845618 0.02888 98.078571
3600.0 0.028373 -132.282404 0.919042 -79.174978 0.885388 -79.234499 0.028865 67.100507
3620.0 0.037748 168.079209 0.918852 -119.619229 0.885701 -119.653689 0.023772 60.597405
3640.0 0.041169 120.504779 0.918325 -160.071865 0.885722 -160.079827 0.031992 66.00647
3660.0 0.037012 81.529222 0.9179 159.48096 0.885683 159.496157 0.048782 44.16559
3680.0 0.028881 53.035405 0.917793 119.023744 0.885661 119.057395 0.058282 8.848942
3700.0 0.022892 35.879688 0.917725 78.552564 0.885395 78.599469 0.053412 -32.028695
3720.0 0.020473 17.383342 0.917498 38.089824 0.884837 38.14186 0.034669 -78.028482
3740.0 0.016366 -13.072474 0.917253 -2.349068 0.884318 -2.305962 0.010175 -153.159355
3760.0 0.008147 -59.207514 0.917038 -42.771845 0.884024 -42.757247 0.018529 49.915452
3780.0 0.004107 151.239895 0.916624 -83.182631 0.883753 -83.215914 0.030738 -3.768862
3800.0 0.010722 83.179101 0.91599 -123.569209 0.883409 -123.660811 0.026687 -48.867019
3820.0 0.011614 50.992516 0.915539 -163.93633 0.883272 -164.081371 0.007113 -83.295381
3840.0 0.00978 59.557038 0.915422 155.679841 0.883417 155.500957 0.021624 34.484908
3860.0 0.019788 66.452007 0.915155 115.260713 0.883354 115.074238 0.048365 -7.117579
3880.0 0.034457 35.79597 0.914421 74.839957 0.882762 74.667693 0.063353 -50.748531
3900.0 0.043741 -5.261279 0.913826 34.452008 0.882188 34.303565 0.060646 -95.068503
3920.0 0.042351 -51.556643 0.914147 -5.935445 0.882321 -6.062842 0.040777 -140.640943
3940.0 0.029803 -106.095001 0.914963 -46.386091 0.88272 -46.501032 0.010717 162.567989
3960.0 0.014599 162.670915 0.914961 -86.891778 0.882176 -87.000263 0.020368 -36.195271
3980.0 0.023156 44.936494 0.913795 -127.366125 0.88051 -127.466841 0.040054 -85.437299
4000.0 0.036621 -18.914668 0.912692 -167.761636 0.879097 -167.847216 0.042868 -131.678209
4020.0 0.038444 -73.785857 0.912721 151.861078 0.879088 151.798905 0.028744 179.898408
4040.0 0.026847 -133.644424 0.913238 111.423548 0.87984 111.389376 0.006052 83.577355
4060.0 0.012962 117.17875 0.912908 70.947841 0.879916 70.941696 0.024657 -64.608357
4080.0 0.028497 4.298098 0.911789 30.520598 0.879174 30.540367 0.042489 -113.308945
4100.0 0.045896 -56.187098 0.911269 -9.843543 0.878828 -9.79954 0.045424 -156.710453
4120.0 0.050535 -110.665524 0.911924 -50.231072 0.879451 -50.164378 0.032759 163.636269
4140.0 0.040353 -169.020539 0.912562 -90.704901 0.88002 -90.62019 0.01062 145.479083
4160.0 0.023488 108.897775 0.911899 -131.213739 0.879434 -131.122047 0.017563 -130.820705
4180.0 0.027654 -6.133988 0.91033 -171.668101 0.87813 -171.586282 0.034891 -160.734016
4200.0 0.045089 -77.577405 0.909225 147.939259 0.87737 147.993934 0.039692 163.267295
4220.0 0.052312 -133.627127 0.909021 107.544943 0.877455 107.562185 0.031609 130.92884
4240.0 0.044078 171.929812 0.908985 67.12118 0.877579 67.102095 0.017279 117.85808
4260.0 0.024145 107.327422 0.908637 26.706624 0.877261 26.661748 0.015281 149.826523
4280.0 0.01451 -26.010959 0.908424 -13.668823 0.876983 -13.726947 0.02351 141.491641
4300.0 0.031924 -114.029418 0.908775 -54.033737 0.877226 -54.098566 0.023981 116.714167
4320.0 0.041484 -171.010489 0.909292 -94.426576 0.877626 -94.500686 0.01616 102.614133
4340.0 0.036505 133.140161 0.90938 -134.840514 0.877583 -134.931663 0.01357 131.92379
4360.0 0.021503 60.984248 0.909128 -175.250823 0.877152 -175.36372 0.023699 132.203249
4380.0 0.020331 -58.838659 0.90899 144.333205 0.876792 144.20366 0.030211 110.141517
4400.0 0.037417 -132.921658 0.908945 103.883007 0.87656 103.75233 0.029353 90.831596
4420.0 0.047735 176.775996 0.908592 63.402827 0.876157 63.291022 0.028017 84.797331
4440.0 0.045284 134.857301 0.907928 22.927533 0.8756 22.850637 0.034846 76.846363
4460.0 0.032654 103.211641 0.907391 -17.526841 0.875223 -17.562419 0.043116 51.751417
4480.0 0.020483 97.608446 0.907145 -57.973322 0.875035 -57.970807 0.042986 15.360677
4500.0 0.022949 104.574035 0.906909 -98.414286 0.874637 -98.382203 0.031367 -30.328824
4520.0 0.02818 81.418569 0.906596 -138.829303 0.873945 -138.776886 0.014167 -105.942795
4540.0 0.024886 44.427192 0.906581 -179.215489 0.873452 -179.151213 0.018979 127.272495
4560.0 0.013576 -4.176054 0.907054 140.39232 0.873539 140.45901 0.032006 67.403804
4580.0 0.006256 -135.62954 0.907563 99.963636 0.873927 100.020454 0.03228 23.016981
4600.0 0.017111 147.905317 0.907571 59.50992 0.87412 59.543024 0.017719 -6.436361
4620.0 0.024933 114.183302 0.907079 19.059289 0.874014 19.058183 0.015152 62.984363
4640.0 0.030243 92.082976 0.906343 -21.381987 0.873699 -21.418971 0.043275 43.543318
