! File created by SignalIntegrity v1.1.10: Signal and Power Integrity Tools
! https://github.com/TeledyneLeCroy/SignalIntegrity
# MHz S MA R 50.0
0.0 0.022385 0.0 1.018254 0.0 1.018254 0.0 0.022385 0.0
20.0 0.017425 -35.852313 1.017602 -40.651279 1.017602 -40.651279 0.017425 -35.852313
40.0 0.006559 -35.087647 1.016163 -81.301659 1.016163 -81.301659 0.006559 -35.087647
60.0 0.014343 12.597356 1.014492 -121.987034 1.014492 -121.987034 0.014343 12.597356
80.0 0.025052 -21.418568 1.012585 -162.719865 1.012585 -162.719865 0.025052 -21.418568
100.0 0.026352 -64.763634 1.010633 156.527521 1.010633 156.527521 0.026352 -64.763634
120.0 0.016835 -112.489207 1.009116 115.781061 1.009116 115.781061 0.016835 -112.489207
140.0 0.001905 106.769179 1.00826 75.043247 1.00826 75.043247 0.001905 106.769179
160.0 0.018414 -14.692428 1.007582 34.310705 1.007582 34.310705 0.018414 -14.692428
180.0 0.030165 -66.612949 1.006441 -6.387349 1.006441 -6.387349 0.030165 -66.612949
200.0 0.031349 -120.26243 1.00516 -47.022227 1.00516 -47.022227 0.031349 -120.26243
220.0 0.022694 176.099967 1.004473 -87.633711 1.004473 -87.633711 0.022694 176.099967
240.0 0.014662 75.164306 1.004139 -128.294143 1.004139 -128.294143 0.014662 75.164306
260.0 0.022564 -25.958882 1.003192 -169.01447 1.003192 -169.01447 0.022564 -25.958882
280.0 0.030287 -93.072919 1.00152 150.264866 1.00152 150.264866 0.030287 -93.072919
300.0 0.028071 -156.019163 1.000279 109.575976 1.000279 109.575976 0.028071 -156.019163
320.0 0.018189 123.439996 1.000053 68.87138 1.000053 68.87138 0.018189 123.439996
340.0 0.019479 4.827944 0.999682 28.122339 0.999682 28.122339 0.019479 4.827944
360.0 0.033948 -75.190462 0.998046 -12.602015 0.998046 -12.602015 0.033948 -75.190462
380.0 0.042536 -137.477261 0.995955 -53.227219 0.995955 -53.227219 0.042536 -137.477261
400.0 0.039641 159.950458 0.994955 -93.802992 0.994955 -93.802992 0.039641 159.950458
420.0 0.029181 83.142444 0.994643 -134.454103 0.994643 -134.454103 0.029181 83.142444
440.0 0.027995 -18.590081 0.992907 -175.195601 0.992907 -175.195601 0.027995 -18.590081
460.0 0.040941 -101.316041 0.989241 144.097506 0.989241 144.097506 0.040941 -101.316041
480.0 0.050093 -165.598798 0.985907 103.502352 0.985907 103.502352 0.050093 -165.598798
500.0 0.047422 133.509237 0.984883 62.928328 0.984883 62.928328 0.047422 133.509237
520.0 0.034276 65.587046 0.985071 22.254279 0.985071 22.254279 0.034276 65.587046
540.0 0.022579 -30.148911 0.984002 -18.480526 0.984002 -18.480526 0.022579 -30.148911
560.0 0.028876 -132.633995 0.981542 -59.13078 0.981542 -59.13078 0.028876 -132.633995
580.0 0.037984 153.852709 0.979897 -99.66425 0.979897 -99.66425 0.037984 153.852709
600.0 0.038303 85.986281 0.980048 -140.206313 0.980048 -140.206313 0.038303 85.986281
620.0 0.032518 8.804629 0.98027 179.154013 0.98027 179.154013 0.032518 8.804629
640.0 0.032247 -80.899069 0.978923 138.492091 0.978923 138.492091 0.032247 -80.899069
660.0 0.039929 -159.884102 0.977084 97.919441 0.977084 97.919441 0.039929 -159.884102
680.0 0.043793 134.387006 0.976921 57.403408 0.976921 57.403408 0.043793 134.387006
700.0 0.037134 71.04642 0.978333 16.816616 0.978333 16.816616 0.037134 71.04642
720.0 0.022678 -6.559403 0.979083 -23.865409 0.979083 -23.865409 0.022678 -6.559403
740.0 0.020278 -125.911044 0.978083 -64.530341 0.978083 -64.530341 0.020278 -125.911044
760.0 0.034984 150.672915 0.976766 -105.100387 0.976766 -105.100387 0.034984 150.672915
780.0 0.043941 89.599628 0.976693 -145.644096 0.976693 -145.644096 0.043941 89.599628
800.0 0.040723 31.010117 0.977228 173.733892 0.977228 173.733892 0.040723 31.010117
820.0 0.028026 -36.600635 0.976741 133.044033 0.976741 133.044033 0.028026 -36.600635
840.0 0.01972 -136.256952 0.975103 92.38138 0.975103 92.38138 0.01972 -136.256952
860.0 0.028279 132.734573 0.973741 51.786677 0.973741 51.786677 0.028279 132.734573
880.0 0.035506 72.397072 0.973539 11.207193 0.973539 11.207193 0.035506 72.397072
900.0 0.032141 22.83486 0.973844 -29.40853 0.973844 -29.40853 0.032141 22.83486
920.0 0.018923 -17.998964 0.973693 -70.044751 0.973693 -70.044751 0.018923 -17.998964
940.0 0.005195 10.640593 0.972991 -110.665924 0.972991 -110.665924 0.005195 10.640593
960.0 0.01666 38.468811 0.972097 -151.27333 0.972097 -151.27333 0.01666 38.468811
980.0 0.024194 2.960823 0.971057 168.111819 0.971057 168.111819 0.024194 2.960823
1000.0 0.022136 -34.0055 0.969759 127.488979 0.969759 127.488979 0.022136 -34.0055
1020.0 0.013225 -60.674797 0.968449 86.872968 0.968449 86.872968 0.013225 -60.674797
1040.0 0.007261 -37.082305 0.967568 46.264787 0.967568 46.264787 0.007261 -37.082305
1060.0 0.011275 -30.337415 0.967253 5.655442 0.967253 5.655442 0.011275 -30.337415
1080.0 0.010667 -55.344241 0.967369 -34.955701 0.967369 -34.955701 0.010667 -55.344241
1100.0 0.004477 -40.596289 0.967747 -75.567035 0.967747 -75.567035 0.004477 -40.596289
1120.0 0.01284 2.071953 0.968113 -116.184444 0.968113 -116.184444 0.01284 2.071953
1140.0 0.023828 -30.985 0.968043 -156.80843 0.968043 -156.80843 0.023828 -30.985
1160.0 0.027363 -71.895148 0.967373 162.575583 0.967373 162.575583 0.027363 -71.895148
1180.0 0.020299 -114.388576 0.966457 121.971698 0.966457 121.971698 0.020299 -114.388576
1200.0 0.004292 -146.691715 0.965598 81.355318 0.965598 81.355318 0.004292 -146.691715
1220.0 0.015438 -32.862133 0.964531 40.712474 0.964531 40.712474 0.015438 -32.862133
1240.0 0.030718 -78.25514 0.96306 0.076915 0.96306 0.076915 0.030718 -78.25514
1260.0 0.035571 -128.340219 0.961842 -40.512695 0.961842 -40.512695 0.035571 -128.340219
1280.0 0.028484 172.815655 0.961721 -81.082121 0.961721 -81.082121 0.028484 172.815655
1300.0 0.018143 81.324337 0.962277 -121.694683 0.962277 -121.694683 0.018143 81.324337
1320.0 0.02714 -24.603308 0.962089 -162.347212 0.962089 -162.347212 0.02714 -24.603308
1340.0 0.041609 -90.86757 0.960775 157.04005 0.960775 157.04005 0.041609 -90.86757
1360.0 0.045153 -147.18871 0.959697 116.499084 0.959697 116.499084 0.045153 -147.18871
1380.0 0.034091 154.064109 0.959874 75.942193 0.959874 75.942193 0.034091 154.064109
1400.0 0.015924 61.811997 0.960116 35.280626 0.960116 35.280626 0.015924 61.811997
1420.0 0.027421 -68.178334 0.95863 -5.426524 0.95863 -5.426524 0.027421 -68.178334
1440.0 0.048981 -133.717362 0.956011 -46.03842 0.956011 -46.03842 0.048981 -133.717362
1460.0 0.058535 170.571656 0.954846 -86.538121 0.954846 -86.538121 0.058535 170.571656
1480.0 0.052471 113.401879 0.956129 -127.06959 0.956129 -127.06959 0.052471 113.401879
1500.0 0.035902 44.585674 0.95773 -167.734012 0.95773 -167.734012 0.035902 44.585674
1520.0 0.026576 -54.376415 0.95735 151.555927 0.95735 151.555927 0.026576 -54.376415
1540.0 0.035273 -144.262554 0.955716 110.943599 0.955716 110.943599 0.035273 -144.262554
1560.0 0.039826 149.004637 0.955257 70.413016 0.955257 70.413016 0.039826 149.004637
1580.0 0.030863 81.26907 0.956258 29.815391 0.956258 29.815391 0.030863 81.26907
1600.0 0.02041 -25.663917 0.956376 -10.89786 0.956376 -10.89786 0.02041 -25.663917
1620.0 0.038897 -128.30491 0.954264 -51.593378 0.954264 -51.593378 0.038897 -128.30491
1640.0 0.062388 170.202205 0.951754 -92.146826 0.951754 -92.146826 0.062388 170.202205
1660.0 0.0734 118.058542 0.951357 -132.620085 0.951357 -132.620085 0.0734 118.058542
1680.0 0.066853 68.333935 0.952858 -173.16869 0.952858 -173.16869 0.066853 68.333935
1700.0 0.044854 18.050427 0.953887 146.17 0.953887 146.17 0.044854 18.050427
1720.0 0.015812 -43.410496 0.953205 105.502378 0.953205 105.502378 0.015812 -43.410496
1740.0 0.013635 137.208927 0.951966 64.913706 0.951966 64.913706 0.013635 137.208927
1760.0 0.028149 75.875359 0.951639 24.362424 0.951639 24.362424 0.028149 75.875359
1780.0 0.027475 24.676777 0.952001 -16.233819 0.952001 -16.233819 0.027475 24.676777
1800.0 0.013436 -37.139486 0.951953 -56.878528 0.951953 -56.878528 0.013436 -37.139486
1820.0 0.012503 159.038851 0.951293 -97.516497 0.951293 -97.516497 0.012503 159.038851
1840.0 0.032315 96.470469 0.950742 -138.125733 0.950742 -138.125733 0.032315 96.470469
1860.0 0.04449 52.582205 0.950693 -178.736086 0.950693 -178.736086 0.04449 52.582205
1880.0 0.045494 15.014992 0.950753 140.629675 0.950753 140.629675 0.045494 15.014992
1900.0 0.038269 -14.697787 0.950496 99.986288 0.950496 99.986288 0.038269 -14.697787
1920.0 0.030303 -33.695439 0.949948 59.355176 0.949948 59.355176 0.030303 -33.695439
1940.0 0.026747 -49.768917 0.949286 18.741704 0.949286 18.741704 0.026747 -49.768917
1960.0 0.023194 -77.249369 0.948612 -21.854824 0.948612 -21.854824 0.023194 -77.249369
1980.0 0.014947 -122.520869 0.948066 -62.435928 0.948066 -62.435928 0.014947 -122.520869
2000.0 0.008319 137.612767 0.947815 -103.014046 0.947815 -103.014046 0.008319 137.612767
2020.0 0.01608 50.555708 0.947783 -143.609804 0.947783 -143.609804 0.01608 50.555708
2040.0 0.022294 10.490999 0.94767 175.769035 0.94767 175.769035 0.022294 10.490999
2060.0 0.024163 -8.532011 0.947299 135.128862 0.947299 135.128862 0.024163 -8.532011
2080.0 0.031273 -15.852193 0.946587 94.47393 0.946587 94.47393 0.031273 -15.852193
2100.0 0.046889 -36.755486 0.945319 53.816607 0.945319 53.816607 0.046889 -36.755486
2120.0 0.061112 -70.852351 0.943498 13.195928 0.943498 13.195928 0.061112 -70.852351
2140.0 0.065086 -111.835831 0.941912 -27.353245 0.941912 -27.353245 0.065086 -111.835831
2160.0 0.055554 -158.195109 0.941651 -67.861248 0.941651 -67.861248 0.055554 -158.195109
2180.0 0.035921 145.953338 0.942697 -108.412194 0.942697 -108.412194 0.035921 145.953338
2200.0 0.018695 58.072769 0.94368 -149.041989 0.94368 -149.041989 0.018695 58.072769
2220.0 0.021479 -46.288595 0.943603 170.308594 0.943603 170.308594 0.021479 -46.288595
2240.0 0.022947 -112.016835 0.943123 129.699758 0.943123 129.699758 0.022947 -112.016835
2260.0 0.00923 -177.048205 0.943247 89.091655 0.943247 89.091655 0.00923 -177.048205
2280.0 0.019498 -16.708507 0.943267 48.40988 0.943267 48.40988 0.019498 -16.708507
2300.0 0.052336 -70.492164 0.941531 7.697707 0.941531 7.697707 0.052336 -70.492164
2320.0 0.078911 -119.21584 0.938362 -32.902693 0.938362 -32.902693 0.078911 -119.21584
2340.0 0.089813 -167.413891 0.936473 -73.349416 0.936473 -73.349416 0.089813 -167.413891
2360.0 0.081376 143.240267 0.937634 -113.791227 0.937634 -113.791227 0.081376 143.240267
2380.0 0.056843 89.814735 0.940155 -154.38946 0.940155 -154.38946 0.056843 89.814735
2400.0 0.02708 20.021622 0.941001 164.891782 0.941001 164.891782 0.02708 20.021622
2420.0 0.017691 -106.647794 0.93977 124.221076 0.93977 124.221076 0.017691 -106.647794
2440.0 0.025682 166.029492 0.938807 83.652613 0.938807 83.652613 0.025682 166.029492
2460.0 0.02131 88.650364 0.939327 43.06046 0.939327 43.06046 0.02131 88.650364
2480.0 0.022058 -33.919859 0.939485 2.353348 0.939485 2.353348 0.022058 -33.919859
2500.0 0.049503 -116.419476 0.93737 -38.362657 0.93737 -38.362657 0.049503 -116.419476
2520.0 0.077657 -172.263368 0.934296 -78.925722 0.934296 -78.925722 0.077657 -172.263368
2540.0 0.092369 138.209971 0.933363 -119.354262 0.933363 -119.354262 0.092369 138.209971
2560.0 0.087816 90.952333 0.93535 -159.83175 0.93535 -159.83175 0.087816 90.952333
2580.0 0.065307 44.854138 0.937834 159.531947 0.937834 159.531947 0.065307 44.854138
2600.0 0.032773 0.656406 0.938422 118.818367 0.938422 118.818367 0.032773 0.656406
2620.0 0.003209 10.92001 0.937405 78.160681 0.937405 78.160681 0.003209 10.92001
2640.0 0.01826 70.23278 0.936503 37.570516 0.936503 37.570516 0.01826 70.23278
2660.0 0.021665 14.602344 0.936146 -3.0328 0.936146 -3.0328 0.021665 14.602344
2680.0 0.017772 -77.605207 0.935385 -43.673924 0.935385 -43.673924 0.017772 -77.605207
2700.0 0.032572 -173.541413 0.933908 -84.293459 0.933908 -84.293459 0.032572 -173.541413
2720.0 0.055732 128.744465 0.932747 -124.852627 0.932747 -124.852627 0.055732 128.744465
2740.0 0.071856 82.960125 0.932852 -165.395299 0.932852 -165.395299 0.071856 82.960125
2760.0 0.075308 42.842566 0.93386 154.013879 0.93386 154.013879 0.075308 42.842566
2780.0 0.067156 8.02321 0.934691 113.36912 0.934691 113.36912 0.067156 8.02321
2800.0 0.053545 -20.262559 0.934763 72.71335 0.934763 72.71335 0.053545 -20.262559
2820.0 0.041342 -42.709425 0.934221 32.082974 0.934221 32.082974 0.041342 -42.709425
2840.0 0.031809 -66.071462 0.933449 -8.514456 0.933449 -8.514456 0.031809 -66.071462
2860.0 0.021064 -99.338938 0.932756 -49.088878 0.932756 -49.088878 0.021064 -99.338938
2880.0 0.009608 -166.234016 0.932347 -89.657139 0.932347 -89.657139 0.009608 -166.234016
2900.0 0.013508 84.695758 0.932272 -130.240167 0.932272 -130.240167 0.013508 84.695758
2920.0 0.023871 41.547043 0.932352 -170.851269 0.932352 -170.851269 0.023871 41.547043
2940.0 0.032719 18.607084 0.932368 148.510148 0.932368 148.510148 0.032719 18.607084
2960.0 0.045358 0.360721 0.932109 107.849142 0.932109 107.849142 0.045358 0.360721
2980.0 0.063267 -24.662603 0.931256 67.179834 0.931256 67.179834 0.063267 -24.662603
3000.0 0.079335 -57.662449 0.929655 26.540092 0.929655 26.540092 0.079335 -57.662449
3020.0 0.085064 -96.048882 0.927876 -14.029355 0.927876 -14.029355 0.085064 -96.048882
3040.0 0.076114 -138.520374 0.927033 -54.54246 0.927033 -54.54246 0.076114 -138.520374
3060.0 0.054391 173.833465 0.927523 -95.078787 0.927523 -95.078787 0.054391 173.833465
3080.0 0.028404 112.900878 0.928334 -135.696467 0.928334 -135.696467 0.028404 112.900878
3100.0 0.015231 9.801229 0.928306 -176.357814 0.928306 -176.357814 0.015231 9.801229
3120.0 0.016529 -75.264448 0.927723 143.01089 0.927723 143.01089 0.016529 -75.264448
3140.0 0.006165 -111.467604 0.927702 102.402262 0.927702 102.402262 0.006165 -111.467604
3160.0 0.021464 -16.826532 0.928039 61.740629 0.928039 61.740629 0.021464 -16.826532
3180.0 0.056035 -58.550364 0.927024 21.031921 0.927024 21.031921 0.056035 -58.550364
3200.0 0.086712 -103.459924 0.924143 -19.590789 0.924143 -19.590789 0.086712 -103.459924
3220.0 0.10244 -148.937821 0.921622 -60.036751 0.921622 -60.036751 0.10244 -148.937821
3240.0 0.097534 164.857086 0.922003 -100.412989 0.922003 -100.412989 0.097534 164.857086
3260.0 0.073265 116.835938 0.924755 -140.922337 0.924755 -140.922337 0.073265 116.835938
3280.0 0.037925 62.943462 0.926758 178.384317 0.926758 178.384317 0.037925 62.943462
3300.0 0.00949 -49.71626 0.926275 137.656788 0.926275 137.656788 0.00949 -49.71626
3320.0 0.02188 -178.321889 0.924869 97.026807 0.924869 97.026807 0.02188 -178.321889
3340.0 0.023992 114.799573 0.924589 56.441473 0.924589 56.441473 0.023992 114.799573
3360.0 0.017022 10.373474 0.924827 15.786476 0.924827 15.786476 0.017022 10.373474
3380.0 0.037496 -95.362076 0.92358 -24.905032 0.92358 -24.905032 0.037496 -95.362076
3400.0 0.067584 -154.624639 0.920986 -65.486119 0.920986 -65.486119 0.067584 -154.624639
3420.0 0.087379 155.911587 0.919621 -105.918794 0.919621 -105.918794 0.087379 155.911587
3440.0 0.088544 109.641956 0.921061 -146.351784 0.921061 -146.351784 0.088544 109.641956
3460.0 0.070173 65.273208 0.923734 173.063383 0.923734 173.063383 0.070173 65.273208
3480.0 0.038616 24.433642 0.924989 132.351757 0.924989 132.351757 0.038616 24.433642
3500.0 0.007479 26.851881 0.92426 91.652178 0.92426 91.652178 0.007479 26.851881
3520.0 0.021487 88.951781 0.923089 51.030969 0.923089 51.030969 0.021487 88.951781
3540.0 0.029335 48.422492 0.922565 10.435518 0.922565 10.435518 0.029335 48.422492
3560.0 0.020568 -5.832647 0.922197 -30.184926 0.922197 -30.184926 0.020568 -5.832647
3580.0 0.011555 -131.814325 0.921325 -70.802987 0.921325 -70.802987 0.011555 -131.814325
3600.0 0.032022 139.585445 0.920359 -111.37534 0.920359 -111.37534 0.032022 139.585445
3620.0 0.050731 92.131739 0.920122 -151.919107 0.920122 -151.919107 0.050731 92.131739
3640.0 0.0581 52.710885 0.920646 167.510417 0.920646 167.510417 0.0581 52.710885
3660.0 0.053942 19.652048 0.921255 126.889719 0.921255 126.889719 0.053942 19.652048
3680.0 0.044124 -4.899129 0.921473 86.237445 0.921473 86.237445 0.044124 -4.899129
3700.0 0.036302 -21.570255 0.921294 45.57641 0.921294 45.57641 0.036302 -21.570255
3720.0 0.031269 -39.73101 0.920833 4.918305 0.920833 4.918305 0.031269 -39.73101
3740.0 0.02306 -65.064717 0.920187 -35.726059 0.920187 -35.726059 0.02306 -65.064717
3760.0 0.009317 -92.722151 0.919539 -76.346758 0.919539 -76.346758 0.009317 -92.722151
3780.0 0.006498 38.958819 0.919095 -116.94595 0.919095 -116.94595 0.006498 38.958819
3800.0 0.017904 13.451708 0.918866 -157.532742 0.918866 -157.532742 0.017904 13.451708
3820.0 0.021448 -8.382081 0.918789 161.888515 0.918789 161.888515 0.021448 -8.382081
3840.0 0.022458 -10.974327 0.918864 121.308561 0.918864 121.308561 0.022458 -10.974327
3860.0 0.03374 -14.045446 0.918905 80.709251 0.918905 80.709251 0.03374 -14.045446
3880.0 0.0505 -38.678789 0.918459 40.091551 0.918459 40.091551 0.0505 -38.678789
3900.0 0.060483 -74.234456 0.917423 -0.509528 0.917423 -0.509528 0.060483 -74.234456
3920.0 0.056502 -115.038602 0.916528 -41.070516 0.916528 -41.070516 0.056502 -115.038602
3940.0 0.037832 -160.998565 0.916552 -81.632279 0.916552 -81.632279 0.037832 -160.998565
3960.0 0.011482 125.369776 0.917059 -122.258088 0.917059 -122.258088 0.011482 125.369776
3980.0 0.021303 -36.044578 0.9168 -162.934408 0.9168 -162.934408 0.021303 -36.044578
4000.0 0.038524 -91.815063 0.915552 156.428114 0.915552 156.428114 0.038524 -91.815063
4020.0 0.039015 -141.590282 0.914639 115.870963 0.914639 115.870963 0.039015 -141.590282
4040.0 0.022231 161.666608 0.914996 75.31902 0.914996 75.31902 0.022231 161.666608
4060.0 0.012341 1.043103 0.915547 34.691705 0.915547 34.691705 0.012341 1.043103
4080.0 0.040675 -76.407501 0.914698 -5.963073 0.914698 -5.963073 0.040675 -76.407501
4100.0 0.060804 -127.178736 0.912913 -46.53198 0.912913 -46.53198 0.060804 -127.178736
4120.0 0.063016 -175.928084 0.912327 -87.017397 0.912327 -87.017397 0.063016 -175.928084
4140.0 0.046016 132.648275 0.913631 -127.562373 0.913631 -127.562373 0.046016 132.648275
4160.0 0.017742 57.582956 0.914775 -168.255051 0.914775 -168.255051 0.017742 57.582956
4180.0 0.02505 -95.81749 0.91374 151.00739 0.91374 151.00739 0.02505 -95.81749
4200.0 0.048719 -157.861789 0.911444 110.383032 0.911444 110.383032 0.048719 -157.861789
4220.0 0.055889 151.146431 0.910446 69.871023 0.910446 69.871023 0.055889 151.146431
4240.0 0.043583 99.315486 0.911359 29.328597 0.911359 29.328597 0.043583 99.315486
4260.0 0.018466 28.059069 0.912212 -11.313049 0.912212 -11.313049 0.018466 28.059069
4280.0 0.022043 -124.949778 0.911498 -51.958116 0.911498 -51.958116 0.022043 -124.949778
4300.0 0.045419 171.202045 0.910277 -92.500994 0.910277 -92.500994 0.045419 171.202045
4320.0 0.054216 121.525085 0.910406 -132.985423 0.910406 -132.985423 0.054216 121.525085
4340.0 0.044254 73.594391 0.911767 -173.53861 0.911767 -173.53861 0.044254 73.594391
4360.0 0.019461 20.190947 0.912557 145.807134 0.912557 145.807134 0.019461 20.190947
4380.0 0.013066 -168.013848 0.911901 105.140434 0.911901 105.140434 0.013066 -168.013848
4400.0 0.038303 134.095193 0.910819 64.531879 0.910819 64.531879 0.038303 134.095193
4420.0 0.050666 89.977817 0.910492 23.948861 0.910492 23.948861 0.050666 89.977817
4440.0 0.046944 49.864621 0.910721 -16.669865 0.910721 -16.669865 0.046944 49.864621
4460.0 0.03094 17.250666 0.910641 -57.31952 0.910641 -57.31952 0.03094 17.250666
4480.0 0.014391 17.414612 0.910106 -97.950722 0.910106 -97.950722 0.014391 17.414612
4500.0 0.017906 44.881815 0.909669 -138.545791 0.909669 -138.545791 0.017906 44.881815
4520.0 0.022976 22.411297 0.909608 -179.130161 0.909608 -179.130161 0.022976 22.411297
4540.0 0.016986 -10.625961 0.909664 140.276401 0.909664 140.276401 0.016986 -10.625961
4560.0 0.002425 -17.882926 0.90963 99.678578 0.90963 99.678578 0.002425 -17.882926
4580.0 0.015383 87.412993 0.909596 59.079158 0.909596 59.079158 0.015383 87.412993
4600.0 0.028597 57.012733 0.909608 18.468596 0.909608 18.468596 0.028597 57.012733
4620.0 0.035076 30.680199 0.909526 -22.1569 0.909526 -22.1569 0.035076 30.680199
4640.0 0.038169 11.424753 0.909244 -62.788861 0.909244 -62.788861 0.038169 11.424753
