! File created by SignalIntegrity v1.1.13: Signal and Power Integrity Tools
! https://github.com/TeledyneLeCroy/SignalIntegrity
# MHz S MA R 50.0
0.0 0.005695 0.0 1.015123 0.0 0.978611 0.0 0.002205 180.0
20.0 0.006449 -103.239437 1.014753 -40.493069 0.978148 -40.451825 0.021936 47.621207
40.0 0.008678 162.643392 1.013717 -81.000439 0.976826 -80.93362 0.035177 -3.084279
60.0 0.0115 80.206222 1.012078 -121.526036 0.974717 -121.457742 0.035017 -53.340638
80.0 0.013389 4.586648 1.0103 -162.05254 0.972351 -162.004976 0.021831 -109.223174
100.0 0.013326 -70.837024 1.009097 157.408459 0.970591 157.422763 0.007207 120.173391
120.0 0.011843 -154.859838 1.008172 116.833884 0.969369 116.813938 0.024619 9.007634
140.0 0.012196 108.287769 1.006793 76.26073 0.968131 76.213746 0.038544 -47.368512
160.0 0.016601 19.34271 1.005189 35.744645 0.967088 35.68116 0.04027 -101.409508
180.0 0.021832 -55.005708 1.004139 -4.719807 0.966809 -4.788759 0.030425 -161.146671
200.0 0.024404 -123.546138 1.003701 -45.192928 0.967071 -45.255863 0.017646 113.565738
220.0 0.022776 166.67312 1.002948 -85.707761 0.966752 -85.752333 0.020264 3.612366
240.0 0.018373 86.904357 1.001424 -126.227612 0.965324 -126.242647 0.028298 -68.217696
260.0 0.017109 -9.852495 1.000005 -166.724733 0.963718 -166.705177 0.027144 -127.836815
280.0 0.022621 -99.443913 0.999446 152.761502 0.962839 152.809661 0.01614 165.906638
300.0 0.02874 -172.874596 0.999138 112.19519 0.962266 112.254316 0.009431 28.53151
320.0 0.030265 118.984159 0.998094 71.618769 0.961133 71.665399 0.022835 -63.888212
340.0 0.026138 47.230129 0.996557 31.106334 0.959681 31.121219 0.03123 -123.152546
360.0 0.020509 -40.485698 0.995612 -9.347429 0.958931 -9.370605 0.028905 178.363236
380.0 0.023114 -141.126785 0.995164 -49.821915 0.958783 -49.874313 0.018725 104.584671
400.0 0.032995 136.89229 0.993787 -90.34325 0.957868 -90.406446 0.016904 -9.598869
420.0 0.0411 67.572119 0.990906 -130.846203 0.955599 -130.902031 0.028668 -91.169888
440.0 0.043354 0.903643 0.987828 -171.283078 0.953132 -171.321814 0.03557 -149.716711
460.0 0.040137 -68.756873 0.98601 148.291362 0.951714 148.268825 0.031594 156.207011
480.0 0.035251 -145.519745 0.985067 107.796304 0.950835 107.782393 0.017813 97.560545
500.0 0.033348 132.162809 0.983606 67.251851 0.949122 67.238526 0.006295 -45.385549
520.0 0.034297 52.5871 0.981504 26.751143 0.94657 26.733783 0.020619 -145.636425
540.0 0.033827 -22.557584 0.979962 -13.673005 0.944543 -13.696099 0.029939 158.699601
560.0 0.030077 -99.436383 0.979516 -54.08107 0.943738 -54.111817 0.029318 104.907973
580.0 0.026359 174.321239 0.979176 -94.522702 0.943267 -94.565275 0.020721 44.852242
600.0 0.028472 83.59602 0.978007 -134.963434 0.942151 -135.022718 0.011733 -41.740568
620.0 0.034963 3.367658 0.97657 -175.35501 0.940794 -175.432385 0.012861 -143.822183
640.0 0.039782 -68.088356 0.975951 144.27628 0.940141 144.186258 0.014561 152.009769
660.0 0.039984 -137.350988 0.976123 103.867932 0.940173 103.776724 0.009123 108.348651
680.0 0.036239 150.908463 0.976186 63.413832 0.940123 63.333884 0.004625 175.902424
700.0 0.031449 73.965444 0.975853 22.964267 0.939816 22.903089 0.016833 161.760881
720.0 0.028116 -7.232962 0.975727 -17.459735 0.939852 -17.502086 0.025426 119.500113
740.0 0.026104 -89.729469 0.976001 -57.894329 0.94034 -57.922529 0.025714 74.362493
760.0 0.024774 -174.423614 0.975945 -98.361135 0.940449 -98.378781 0.017232 27.113901
780.0 0.026041 98.607981 0.975065 -138.827377 0.939622 -138.832702 0.003677 -40.069572
800.0 0.031134 17.670805 0.97391 -179.261532 0.938401 -179.248208 0.010204 131.88789
820.0 0.036842 -53.123191 0.973238 140.313617 0.937614 140.350915 0.017043 83.183166
840.0 0.03894 -117.035459 0.972914 99.859045 0.937235 99.918463 0.014178 40.43267
860.0 0.035178 -177.700117 0.972329 59.38622 0.93672 59.4569 0.00331 40.626104
880.0 0.025943 121.67499 0.971524 18.937923 0.936071 19.004512 0.015008 108.114334
900.0 0.013973 54.098241 0.971048 -21.480686 0.935752 -21.429785 0.029155 67.759479
920.0 0.00577 -62.981275 0.970909 -61.905227 0.935737 -61.871375 0.034815 22.807108
940.0 0.010109 179.663087 0.97043 -102.352401 0.9354 -102.326421 0.028736 -24.461014
960.0 0.013199 110.057564 0.969243 -142.797647 0.934434 -142.765928 0.012495 -79.46405
980.0 0.012005 43.695457 0.967802 176.776761 0.933281 176.823878 0.009708 87.75484
1000.0 0.008737 -32.204156 0.96662 136.351595 0.932359 136.414595 0.02759 26.736411
1020.0 0.006934 -121.889528 0.965677 95.909445 0.931523 95.980513 0.036068 -25.625443
1040.0 0.00653 160.218456 0.964894 55.46568 0.930602 55.534287 0.03221 -82.193169
1060.0 0.004296 108.793607 0.964575 15.038367 0.929909 15.097151 0.020773 -158.555063
1080.0 0.003027 145.59901 0.96492 -25.385365 0.929779 -25.338384 0.021591 90.080618
1100.0 0.008987 126.188003 0.965441 -65.823302 0.929929 -65.78686 0.035306 13.741115
1120.0 0.014399 76.145259 0.965513 -106.258333 0.929881 -106.231659 0.042017 -44.531555
1140.0 0.01643 19.513662 0.96524 -146.667161 0.929714 -146.651637 0.035503 -101.038531
1160.0 0.014438 -45.261512 0.965053 172.92788 0.929705 172.9306 0.018544 -172.203287
1180.0 0.010797 -128.964201 0.964719 132.484209 0.929462 132.475738 0.016354 45.894747
1200.0 0.011342 128.467722 0.963588 92.010625 0.928276 91.997432 0.035285 -31.725429
1220.0 0.015568 42.917951 0.96188 51.563203 0.926412 51.554159 0.045856 -88.586764
1240.0 0.018445 -33.209531 0.960774 11.156057 0.925144 11.157266 0.042576 -145.077874
1260.0 0.019848 -113.183653 0.96075 -29.268095 0.92506 -29.25718 0.02878 147.240207
1280.0 0.023333 163.188202 0.960765 -69.743595 0.925189 -69.729272 0.020995 42.861492
1300.0 0.029872 86.547191 0.9598 -110.212635 0.924476 -110.201287 0.032277 -47.470652
1320.0 0.035469 18.209461 0.958499 -150.60402 0.923424 -150.595539 0.040375 -109.4302
1340.0 0.036073 -47.187437 0.958264 169.048376 0.923303 169.06301 0.035399 -166.233175
1360.0 0.030591 -116.52371 0.958961 128.637067 0.923982 128.67159 0.019015 124.975523
1380.0 0.023339 158.321564 0.958862 88.134274 0.923852 88.198562 0.015505 -17.316669
1400.0 0.025211 58.603954 0.957147 47.635046 0.922172 47.727785 0.035386 -94.692323
1420.0 0.035324 -22.679073 0.955186 7.221637 0.920274 7.329412 0.047774 -147.908405
1440.0 0.043108 -90.843558 0.95465 -33.149922 0.919744 -33.046094 0.046398 162.812331
1460.0 0.044065 -156.90913 0.955228 -73.575261 0.920284 -73.489911 0.032305 113.31365
1480.0 0.039258 132.498815 0.955307 -114.057629 0.920389 -113.993558 0.011708 52.916227
1500.0 0.03426 53.029414 0.954391 -154.514319 0.919666 -154.462328 0.009905 -125.304342
1520.0 0.034159 -29.792117 0.953571 165.090982 0.919217 165.145797 0.020415 174.61805
1540.0 0.035845 -106.268522 0.953631 124.697973 0.919736 124.767881 0.019234 126.386514
1560.0 0.033533 -179.615736 0.953878 84.24768 0.920393 84.337055 0.007486 73.582224
1580.0 0.0275 98.684182 0.953396 43.767023 0.920098 43.872438 0.009796 -125.820875
1600.0 0.027361 1.621019 0.95249 3.314314 0.919027 3.428275 0.024362 -172.193227
1620.0 0.038307 -83.562407 0.952045 -37.110865 0.918084 -36.996246 0.031165 150.575874
1640.0 0.050259 -151.699003 0.952065 -77.54888 0.917473 -77.440775 0.029441 122.962775
1660.0 0.055622 146.837117 0.951789 -117.999491 0.916709 -117.905296 0.026105 112.021853
1680.0 0.052235 86.742097 0.951017 -158.418944 0.91576 -158.346618 0.030484 104.692107
1700.0 0.041962 24.549299 0.950392 161.205544 0.915236 161.249792 0.037232 81.147272
1720.0 0.02912 -43.849443 0.950279 120.831439 0.91534 120.847356 0.036843 46.975171
1740.0 0.01833 -124.101891 0.950223 80.424486 0.91545 80.420534 0.026467 7.414047
1760.0 0.012015 138.567591 0.949813 40.000414 0.915059 39.991791 0.00937 -41.56612
1780.0 0.011394 24.799428 0.949381 -0.417175 0.914494 -0.415469 0.008679 128.663402
1800.0 0.017995 -71.630834 0.949381 -40.842742 0.914287 -40.824044 0.018936 82.304494
1820.0 0.02726 -142.313698 0.949566 -81.300846 0.914297 -81.270751 0.018574 52.453611
1840.0 0.033976 159.350677 0.949357 -121.776205 0.914009 -121.749051 0.014255 61.093719
1860.0 0.03506 107.869976 0.948748 -162.231187 0.913408 -162.220744 0.02715 70.684457
1880.0 0.030228 62.355814 0.948199 157.340293 0.912911 157.330203 0.045861 41.318194
1900.0 0.022149 25.433109 0.947833 116.91283 0.912637 116.891769 0.056767 1.425647
1920.0 0.015763 2.03813 0.947344 76.476125 0.912309 76.462262 0.054254 -43.065717
1940.0 0.01432 -19.052551 0.946675 36.046341 0.911873 36.056575 0.038908 -92.962843
1960.0 0.014498 -59.51152 0.946193 -4.371623 0.911621 -4.330385 0.018188 -161.759111
1980.0 0.014337 -119.302121 0.946047 -44.797125 0.911588 -44.730321 0.014257 68.289999
2000.0 0.015583 173.708331 0.945916 -85.237916 0.911375 -85.158586 0.022276 -7.750217
2020.0 0.017363 116.21307 0.945602 -125.676473 0.910793 -125.597279 0.017775 -67.86142
2040.0 0.016872 75.098334 0.945293 -166.106845 0.910148 -166.03422 0.00686 151.432823
2060.0 0.016026 57.366689 0.944955 153.449178 0.909593 153.515642 0.030792 48.363138
2080.0 0.02252 46.08129 0.944048 112.987759 0.908746 113.051672 0.056583 -3.633383
2100.0 0.034628 15.078679 0.942411 72.551965 0.907451 72.615981 0.071572 -51.358312
2120.0 0.044962 -27.742944 0.94097 32.173472 0.90645 32.237862 0.070054 -97.978513
2140.0 0.048966 -76.863008 0.94073 -8.190537 0.906507 -8.126274 0.052501 -144.557864
2160.0 0.045577 -131.594351 0.941346 -48.610036 0.907158 -48.544991 0.025158 167.495848
2180.0 0.037278 166.554204 0.941549 -89.08064 0.907198 -89.012517 0.002519 -28.654167
2200.0 0.028577 96.372049 0.940985 -129.526974 0.906438 -129.454706 0.019934 -103.693072
2220.0 0.021358 21.596738 0.940651 -169.918794 0.906028 -169.845296 0.022767 -161.987766
2240.0 0.012205 -57.607913 0.941104 149.677488 0.9066 149.745702 0.016716 107.967528
2260.0 0.007943 136.891337 0.941259 109.203996 0.907066 109.261298 0.029184 1.436021
2280.0 0.027821 45.582652 0.939918 68.71323 0.906114 68.760823 0.052434 -60.864655
2300.0 0.050016 -14.099039 0.93781 28.299332 0.904283 28.347927 0.068319 -110.389483
2320.0 0.066846 -69.342962 0.936888 -12.045552 0.903364 -11.97957 0.069635 -155.085318
2340.0 0.073278 -123.950445 0.937711 -52.429399 0.903909 -52.333156 0.05615 164.502102
2360.0 0.067633 -179.978465 0.938766 -92.90703 0.904537 -92.780356 0.034163 133.777291
2380.0 0.052525 120.089091 0.938681 -133.405563 0.904011 -133.264009 0.018636 136.591602
2400.0 0.034247 51.364081 0.93797 -173.834505 0.902894 -173.703501 0.022941 140.654763
2420.0 0.020329 -35.623794 0.937872 145.789131 0.90244 145.886079 0.025475 103.355921
2440.0 0.015106 -144.948678 0.938263 105.381747 0.902605 105.434088 0.020626 37.180644
2460.0 0.018925 101.304832 0.937896 64.924732 0.902278 64.938873 0.024092 -55.955752
2480.0 0.033079 11.372962 0.936429 24.480241 0.901179 24.474732 0.039512 -122.215643
2500.0 0.052263 -57.464692 0.934973 -15.91619 0.90033 -15.92078 0.052053 -169.074193
2520.0 0.068607 -116.92063 0.934505 -56.308709 0.900504 -56.299005 0.055614 153.532629
2540.0 0.075717 -172.371707 0.934688 -96.746274 0.901154 -96.719753 0.052068 124.880964
2560.0 0.070619 133.7541 0.934726 -137.209086 0.901349 -137.17169 0.048444 104.17055
2580.0 0.054702 79.939658 0.934592 -177.648974 0.901055 -177.609914 0.048743 83.190369
2600.0 0.032877 24.477127 0.934669 141.936298 0.900813 141.968662 0.04785 54.006408
2620.0 0.011313 -37.375823 0.934737 101.515401 0.900667 101.534902 0.039926 15.520587
2640.0 0.005904 101.918293 0.934159 61.086737 0.900199 61.089248 0.025878 -36.543841
2660.0 0.017951 25.18895 0.932946 20.679345 0.899441 20.66348 0.01667 -122.129604
2680.0 0.029245 -45.140583 0.931866 -19.706844 0.898975 -19.737478 0.022598 159.246474
2700.0 0.042002 -109.170349 0.931393 -60.114441 0.89901 -60.149417 0.028668 118.916312
2720.0 0.05349 -165.845985 0.931206 -100.569085 0.899039 -100.592812 0.032957 99.823425
2740.0 0.059419 143.304243 0.930914 -141.044151 0.898634 -141.042105 0.044344 85.554308
2760.0 0.057665 97.302034 0.930684 178.499201 0.898045 178.532314 0.061644 60.251339
2780.0 0.049568 56.380399 0.930795 138.06637 0.897708 138.121676 0.074517 25.991176
2800.0 0.039288 21.617378 0.931034 97.644339 0.897559 97.701221 0.074944 -13.160676
2820.0 0.031484 -7.829124 0.930983 57.236973 0.897267 57.272636 0.060837 -55.729291
2840.0 0.027561 -39.080458 0.930642 16.853704 0.896848 16.854889 0.036703 -103.331479
2860.0 0.025444 -79.454784 0.930311 -23.521343 0.896584 -23.551371 0.013079 -174.954091
2880.0 0.024121 -128.186307 0.930055 -63.918815 0.89653 -63.962312 0.011937 53.03848
2900.0 0.024078 -177.307578 0.929724 -104.349925 0.896513 -104.384567 0.012956 2.770574
2920.0 0.025402 142.489849 0.929336 -144.805936 0.896471 -144.816612 0.009577 45.295031
2940.0 0.029602 112.817921 0.92896 174.717988 0.896343 174.73231 0.034326 44.086405
2960.0 0.039058 84.309203 0.928315 134.23248 0.895733 134.260122 0.064552 6.721791
2980.0 0.051728 49.488153 0.927141 93.780042 0.894356 93.804268 0.086574 -35.053978
3000.0 0.062025 8.759823 0.925974 53.402797 0.892828 53.410364 0.091982 -78.086989
3020.0 0.064967 -36.266627 0.925785 13.073413 0.892288 13.059129 0.078558 -121.725266
3040.0 0.058506 -85.369836 0.926591 -27.297591 0.89294 -27.331594 0.050831 -165.793229
3060.0 0.044545 -140.132783 0.927092 -67.756511 0.893607 -67.804328 0.018474 150.494385
3080.0 0.028745 155.081485 0.92632 -108.245751 0.893246 -108.300497 0.007281 -85.649426
3100.0 0.017555 75.98273 0.925038 -148.689231 0.89236 -148.743502 0.017841 -134.094932
3120.0 0.009733 -7.595233 0.924645 170.895971 0.89207 170.850609 0.013831 146.638501
3140.0 0.004758 153.89049 0.925059 130.435514 0.892203 130.407364 0.023567 25.846041
3160.0 0.025836 70.976238 0.924834 89.933104 0.891441 89.926503 0.050922 -38.356232
3180.0 0.051111 15.448887 0.923463 49.491209 0.889499 49.502067 0.074582 -87.236684
3200.0 0.072471 -36.384423 0.92238 9.16987 0.887961 9.184414 0.084443 -131.464804
3220.0 0.082857 -87.260513 0.922998 -31.111819 0.888295 -31.112572 0.077202 -172.412304
3240.0 0.078437 -138.721433 0.924633 -71.479432 0.889842 -71.510784 0.056358 151.831762
3260.0 0.0603 167.305939 0.925383 -111.948324 0.890706 -112.013495 0.032303 130.642345
3280.0 0.034985 105.352085 0.92462 -152.428525 0.890222 -152.516123 0.022598 138.799559
3300.0 0.015423 8.181172 0.923502 167.134931 0.889475 167.045551 0.025824 127.053269
3320.0 0.018259 -112.918946 0.922992 126.7013 0.889374 126.629777 0.021885 84.989213
3340.0 0.022233 163.04386 0.922598 86.229731 0.88939 86.185725 0.013665 -2.160515
3360.0 0.02408 70.105327 0.921589 45.760828 0.888711 45.741494 0.024941 -101.433475
3380.0 0.037196 -18.060423 0.920429 5.356786 0.887675 5.351441 0.041731 -153.859898
3400.0 0.056587 -84.25967 0.920182 -34.995249 0.887256 -34.997263 0.050756 166.744332
3420.0 0.07028 -140.158702 0.92094 -75.366484 0.887605 -75.370388 0.05047 135.705182
3440.0 0.071172 168.002175 0.921764 -115.78965 0.887963 -115.795507 0.046255 113.895873
3460.0 0.057876 117.826631 0.922042 -156.234256 0.887893 -156.241614 0.04522 96.749202
3480.0 0.0344 67.850068 0.922023 163.326688 0.887712 163.314345 0.045825 73.703932
3500.0 0.008236 12.619267 0.921945 122.881685 0.887619 122.856756 0.040481 41.98822
3520.0 0.012929 154.672501 0.92149 82.42519 0.887215 82.3805 0.025969 2.15093
3540.0 0.023479 98.531899 0.92047 41.989535 0.886258 41.924221 0.007095 -74.4508
3560.0 0.023595 35.656011 0.919439 1.599645 0.885302 1.52185 0.016478 138.681988
3580.0 0.021143 -45.676865 0.91902 -38.773736 0.885041 -38.849576 0.027651 94.059912
3600.0 0.026983 -128.72626 0.919034 -79.179438 0.885382 -79.238924 0.027332 63.582381
3620.0 0.035866 169.815538 0.918846 -119.624069 0.885697 -119.658494 0.021552 59.281164
3640.0 0.039177 121.712655 0.918322 -160.077094 0.88572 -160.08502 0.030138 68.367409
3660.0 0.035065 82.934454 0.917898 159.475148 0.885683 159.490381 0.047451 46.290023
3680.0 0.027188 55.620655 0.917788 119.0171 0.885658 119.050787 0.05713 10.710664
3700.0 0.02188 40.551285 0.917708 78.545065 0.88538 78.592006 0.052267 -30.019324
3720.0 0.020234 23.145632 0.91746 38.081902 0.884802 38.133973 0.033382 -75.112163
3740.0 0.016502 -5.983744 0.917189 -2.356542 0.884258 -2.313402 0.008164 -148.652648
3760.0 0.0082 -45.057395 0.916953 -42.777837 0.883944 -42.763208 0.018965 43.603232
3780.0 0.002449 131.219052 0.916533 -83.186426 0.883668 -83.219677 0.03157 -7.274541
3800.0 0.009659 73.852279 0.915916 -123.570839 0.883339 -123.662411 0.027659 -52.671176
3820.0 0.010327 43.392743 0.9155 -163.936729 0.883236 -164.08174 0.00804 -96.920747
3840.0 0.007872 60.521517 0.915424 155.679085 0.883421 155.50023 0.020346 38.661241
3860.0 0.018663 70.960996 0.91519 115.257949 0.883389 115.071503 0.047049 -5.364234
3880.0 0.033588 38.55579 0.914463 74.834178 0.882804 74.66194 0.061975 -49.503426
3900.0 0.042849 -3.149112 0.913843 34.443348 0.882206 34.29493 0.059197 -93.873043
3920.0 0.041305 -49.539494 0.914115 -5.94566 0.882292 -6.073034 0.039244 -139.046811
3940.0 0.028442 -103.809137 0.914874 -46.39578 0.882636 -46.510699 0.008969 166.491169
3960.0 0.01287 161.112898 0.91483 -86.898887 0.882051 -87.007352 0.02179 -39.387905
3980.0 0.023183 40.634083 0.913651 -127.369502 0.880373 -127.470198 0.041588 -86.777169
4000.0 0.037305 -21.339435 0.912572 -167.761527 0.878983 -167.847088 0.044458 -132.705862
4020.0 0.039481 -75.723942 0.912651 151.863153 0.879021 151.801 0.030401 178.839558
4040.0 0.028245 -135.47031 0.913225 111.425375 0.879829 111.391224 0.007499 91.48986
4060.0 0.014311 120.98579 0.912938 70.947367 0.879947 70.941244 0.023302 -62.183561
4080.0 0.028035 7.387647 0.911832 30.516747 0.879216 30.536539 0.041021 -112.234843
4100.0 0.044932 -54.631476 0.911289 -9.850482 0.878849 -9.806458 0.043939 -155.82211
4120.0 0.049307 -109.589423 0.911898 -50.239624 0.879427 -50.172908 0.031306 164.90837
4140.0 0.03891 -168.296664 0.912484 -90.713007 0.879946 -90.628275 0.009627 152.538215
4160.0 0.022108 107.385477 0.911784 -131.219588 0.879324 -131.127876 0.019112 -130.200541
4180.0 0.027883 -9.138395 0.910206 -171.670851 0.878011 -171.589011 0.036414 -160.862787
4200.0 0.046003 -78.977043 0.90912 147.939246 0.87727 147.993943 0.041172 162.993929
4220.0 0.053467 -134.500389 0.908953 107.546378 0.877391 107.563642 0.033021 130.236584
4240.0 0.045368 171.303179 0.908957 67.12242 0.877554 67.103357 0.018351 114.770355
4260.0 0.025496 107.498813 0.908637 26.706329 0.877262 26.661474 0.014716 144.881151
4280.0 0.014425 -20.777395 0.908431 -13.671216 0.87699 -13.72932 0.022342 139.622131
4300.0 0.030879 -112.619295 0.908769 -54.037917 0.877221 -54.102727 0.022676 115.766407
4320.0 0.040278 -170.418817 0.909262 -94.431616 0.877597 -94.505709 0.01485 103.545174
4340.0 0.035251 133.260851 0.909324 -134.845327 0.87753 -134.93646 0.013412 137.425853
4360.0 0.02043 59.33867 0.909055 -175.254615 0.877083 -175.367498 0.02438 134.767904
4380.0 0.020734 -61.996201 0.908913 144.330701 0.876718 144.201169 0.031168 111.623886
4400.0 0.038343 -133.999992 0.908874 103.881575 0.876493 103.75091 0.030502 91.577172
4420.0 0.048742 176.146925 0.908531 63.402001 0.8761 63.290209 0.029161 84.170938
4440.0 0.046278 134.247844 0.907877 22.926879 0.875552 22.849996 0.035625 75.453272
4460.0 0.033544 102.153284 0.907347 -17.52755 0.875181 -17.563117 0.043624 50.416594
4480.0 0.02087 94.894586 0.907104 -57.974093 0.874996 -57.971567 0.043409 14.007397
4500.0 0.022501 102.240305 0.906871 -98.415033 0.874601 -98.382941 0.031871 -32.051515
4520.0 0.027492 79.914703 0.906562 -138.830017 0.873913 -138.777592 0.015101 -107.790624
4540.0 0.024179 42.852111 0.906553 -179.21632 0.873425 -179.152038 0.019527 129.816867
4560.0 0.013005 -7.450621 0.907031 140.391114 0.873518 140.457809 0.032225 69.11712
4580.0 0.007011 -140.198549 0.907541 99.961857 0.873906 100.01868 0.032431 24.689202
4600.0 0.018002 147.853531 0.907542 59.507607 0.874092 59.540715 0.018051 -3.659101
4620.0 0.025788 113.927993 0.907037 19.056789 0.873975 19.055688 0.015856 60.898475
4640.0 0.030995 91.408068 0.906288 -21.384107 0.873646 -21.421088 0.043705 42.536878
