! File created by SignalIntegrity v1.1.10: Signal and Power Integrity Tools
! https://github.com/TeledyneLeCroy/SignalIntegrity
# MHz S MA R 50.0
0.0 0.002957 180.0 0.990631 0.0 0.989911 0.0 0.003199 180.0
20.0 0.00374 95.136362 0.990138 -39.568239 0.98942 -39.568466 0.021991 53.230049
40.0 0.004922 32.255117 0.988989 -79.141263 0.988274 -79.141738 0.03456 4.658007
60.0 0.005323 -23.527106 0.987536 -118.744452 0.986825 -118.745269 0.032853 -42.430988
80.0 0.004346 -85.27003 0.985884 -158.385683 0.985177 -158.387003 0.017271 -95.168711
100.0 0.002895 176.157685 0.984196 161.945567 0.983491 161.943612 0.008945 86.54466
120.0 0.005678 66.78613 0.98254 122.271955 0.981833 122.269404 0.031496 18.8759
140.0 0.010961 1.355857 0.981129 82.626706 0.980416 82.623812 0.045199 -29.184636
160.0 0.015954 -54.785359 0.98032 43.016832 0.979604 43.013921 0.044161 -76.24774
180.0 0.019008 -109.796676 0.980031 3.41978 0.979317 3.416992 0.028881 -126.596576
200.0 0.019146 -167.140536 0.979694 -36.183577 0.978989 -36.186465 0.007964 140.75719
220.0 0.016583 128.563008 0.978752 -75.786769 0.978058 -75.790241 0.021283 -3.328368
240.0 0.013834 49.756266 0.977321 -115.36817 0.976631 -115.37261 0.035535 -56.826214
260.0 0.015286 -37.602325 0.976112 -154.93632 0.975415 -154.941661 0.03596 -104.308473
280.0 0.020124 -111.44369 0.97544 165.466905 0.974732 165.461203 0.022645 -151.744811
300.0 0.023696 -174.170061 0.974864 125.820296 0.974148 125.814872 0.001873 107.529385
320.0 0.023176 126.881398 0.973858 86.153892 0.973146 86.148973 0.020546 -55.115223
340.0 0.017921 66.112337 0.972565 46.517071 0.971869 46.512229 0.033728 -104.371855
360.0 0.00981 -11.233624 0.971556 6.918203 0.970876 6.912616 0.034461 -155.328126
380.0 0.00876 -142.105396 0.970813 -32.67568 0.970138 -32.682594 0.024476 143.877972
400.0 0.017184 133.182983 0.969648 -72.278131 0.968962 -72.2862 0.015642 46.320861
420.0 0.023694 70.15337 0.967706 -111.863076 0.967004 -111.871425 0.023551 -49.990062
440.0 0.025466 9.221567 0.965525 -151.411235 0.964813 -151.418932 0.030878 -111.545917
460.0 0.02277 -55.982465 0.963827 169.046559 0.963124 169.039746 0.027742 -166.197347
480.0 0.018508 -132.281585 0.962476 129.462676 0.961795 129.456034 0.015095 129.474823
500.0 0.017459 139.864574 0.960753 89.843272 0.960093 89.835642 0.010503 -12.173479
520.0 0.02022 57.910685 0.958552 50.244369 0.957897 50.235046 0.024805 -90.947591
540.0 0.022372 -14.776655 0.956627 10.699914 0.955957 10.689259 0.032716 -142.722861
560.0 0.021723 -87.044049 0.955589 -28.816789 0.954896 -28.827541 0.029567 168.982166
580.0 0.019961 -166.946467 0.955063 -68.347151 0.954358 -68.356822 0.017036 117.596574
600.0 0.021253 106.939331 0.954284 -107.88518 0.953591 -107.893608 0.004269 -7.435844
620.0 0.026269 28.074317 0.953227 -147.395838 0.952563 -147.404081 0.015044 -118.722603
640.0 0.031249 -41.842595 0.952523 173.122405 0.951884 173.112852 0.020455 -165.014344
660.0 0.033424 -108.369483 0.952458 133.629562 0.95182 133.61795 0.015927 159.713493
680.0 0.03247 -175.779988 0.952553 94.099244 0.951893 94.086219 0.007226 173.057531
700.0 0.029881 113.592699 0.952328 54.553994 0.951638 54.54117 0.016445 -156.846152
720.0 0.027369 40.211938 0.952002 15.024845 0.9513 15.01357 0.027451 172.41295
740.0 0.024949 -33.52637 0.951982 -24.497286 0.951298 -24.50702 0.030132 133.666848
760.0 0.021311 -108.31937 0.952061 -64.040591 0.951413 -64.050223 0.023042 93.405458
780.0 0.01684 167.947073 0.951647 -103.601279 0.951026 -103.612598 0.009325 56.446448
800.0 0.016527 69.677214 0.95068 -143.14464 0.950057 -143.158354 0.005401 169.617164
820.0 0.023 -16.768013 0.949802 177.339541 0.94915 177.324429 0.014063 135.370209
840.0 0.030408 -86.100552 0.949408 137.816828 0.948722 137.802311 0.013353 89.437009
860.0 0.034048 -148.674607 0.949093 98.261066 0.948397 98.24859 0.004379 10.437073
880.0 0.032116 149.596238 0.948362 58.695378 0.947691 58.684669 0.012573 -148.768327
900.0 0.025473 83.232768 0.947437 19.157852 0.946809 19.14706 0.025389 159.223777
920.0 0.018194 2.096127 0.9469 -20.356859 0.9463 -20.369754 0.030055 113.044525
940.0 0.017483 -95.038826 0.946668 -59.888909 0.946061 -59.904489 0.023193 67.211308
960.0 0.022643 -177.437158 0.945982 -99.446265 0.945338 -99.463129 0.006249 13.069645
980.0 0.026559 113.429061 0.944553 -138.987728 0.943873 -139.003523 0.015468 166.095095
1000.0 0.026819 46.666643 0.943107 -178.485156 0.942421 -178.498414 0.033422 117.773246
1020.0 0.024695 -23.684313 0.942474 142.028052 0.941822 142.016712 0.041038 70.149749
1040.0 0.023117 -99.043682 0.942483 102.497706 0.941879 102.485997 0.035407 18.703695
1060.0 0.023432 -173.656134 0.942276 62.925808 0.9417 62.911538 0.020412 -49.851783
1080.0 0.023614 117.478351 0.941608 23.369028 0.941018 23.351851 0.017696 -171.725356
1100.0 0.021251 52.216993 0.941178 -16.139734 0.940543 -16.157965 0.032796 110.571429
1120.0 0.016032 -16.162274 0.94156 -55.635054 0.940885 -55.65167 0.040207 55.278748
1140.0 0.010772 -102.394688 0.942246 -95.169613 0.94157 -95.183223 0.033544 1.244774
1160.0 0.01152 155.160896 0.942184 -134.741355 0.94155 -134.752995 0.016264 -71.844892
1180.0 0.016179 77.581632 0.941085 -174.299739 0.940505 -174.312121 0.018675 144.858724
1200.0 0.019098 13.923378 0.939693 146.18347 0.93914 146.168064 0.038965 76.525707
1220.0 0.018904 -47.506026 0.938792 106.680183 0.938216 106.661729 0.049453 23.897458
1240.0 0.016693 -112.737276 0.938355 67.147479 0.937728 67.128309 0.04508 -28.463712
1260.0 0.014888 175.798672 0.937838 27.583538 0.937171 27.566578 0.028824 -90.41445
1280.0 0.014942 105.183583 0.93703 -11.974483 0.93637 -11.988017 0.017275 162.615565
1300.0 0.015304 43.752993 0.936288 -51.4989 0.935678 -51.510517 0.029378 67.039292
1320.0 0.013729 -9.017112 0.935989 -90.999579 0.935438 -91.012397 0.038102 7.542768
1340.0 0.00928 -54.974783 0.936031 -130.506156 0.935502 -130.522465 0.032848 -47.738966
1360.0 0.002481 -77.795227 0.935927 -170.03368 0.935366 -170.053092 0.016781 -122.049936
1380.0 0.006539 15.836154 0.935328 150.428237 0.934708 150.408558 0.019946 101.634698
1400.0 0.014979 -21.720047 0.93434 110.896701 0.933683 110.879863 0.040764 35.12913
1420.0 0.021808 -64.455054 0.933377 71.374085 0.932735 71.361022 0.052392 -13.732474
1440.0 0.025603 -109.590649 0.932745 31.844963 0.932163 31.833644 0.049068 -58.226608
1460.0 0.025585 -158.131879 0.932366 -7.704632 0.931844 -7.717678 0.032129 -99.627717
1480.0 0.022168 147.114755 0.931945 -47.265558 0.931439 -47.282527 0.008484 -125.52156
1500.0 0.017737 80.647162 0.931415 -86.810446 0.930868 -86.830473 0.014737 -22.118203
1520.0 0.016419 2.129731 0.931073 -126.323924 0.930463 -126.34368 0.027018 -56.740863
1540.0 0.01861 -70.737906 0.931203 -165.824548 0.930557 -165.840817 0.025845 -95.00011
1560.0 0.019499 -133.124408 0.931585 154.653523 0.930963 154.641298 0.012715 -129.125057
1580.0 0.01572 166.290912 0.931638 115.100506 0.931083 115.08973 0.007057 -16.09054
1600.0 0.007955 83.365149 0.931073 75.538759 0.930581 75.525669 0.024099 -40.014073
1620.0 0.01146 -56.429744 0.930186 35.989479 0.929701 35.972086 0.033174 -71.849919
1640.0 0.025059 -126.345178 0.92938 -3.55311 0.928845 -3.573401 0.032887 -97.29535
1660.0 0.036854 177.968285 0.928635 -43.101963 0.928032 -43.121368 0.029458 -109.173575
1680.0 0.043284 124.184084 0.92772 -82.644079 0.927087 -82.659368 0.032537 -115.548929
1700.0 0.043237 69.31375 0.926787 -122.152127 0.926189 -122.163194 0.039001 -135.839161
1720.0 0.037871 11.406963 0.926325 -161.626837 0.925804 -161.636855 0.039325 -167.941423
1740.0 0.029864 -51.150301 0.926476 158.895717 0.926015 158.882745 0.030212 152.076227
1760.0 0.021556 -118.523803 0.926756 119.387133 0.926294 119.369526 0.015241 96.88084
1780.0 0.012858 169.861505 0.926691 79.857148 0.926168 79.836926 0.009369 -21.848514
1800.0 0.003666 46.858314 0.926407 40.324303 0.925812 40.305668 0.016208 -90.751064
1820.0 0.014766 -99.503372 0.926218 0.776978 0.9256 0.76305 0.016415 -116.43393
1840.0 0.031414 -161.93872 0.925884 -38.804883 0.925312 -38.814547 0.018396 -105.105362
1860.0 0.04621 142.49022 0.924854 -78.396427 0.924366 -78.405558 0.034774 -112.640972
1880.0 0.055082 88.604641 0.923317 -117.935774 0.922888 -117.948509 0.053141 -143.104303
1900.0 0.055735 34.374149 0.922376 -157.40241 0.921935 -157.420029 0.062448 179.258747
1920.0 0.048583 -22.333066 0.922762 163.143129 0.92225 163.123282 0.057418 138.294936
1940.0 0.036836 -84.843592 0.923776 123.628924 0.923191 123.611417 0.038845 93.727505
1960.0 0.025707 -157.859007 0.924075 84.062334 0.923475 84.050078 0.013792 33.320127
1980.0 0.01901 118.853548 0.923358 44.513251 0.922816 44.505178 0.013053 -133.701631
2000.0 0.014391 31.338511 0.922603 5.010067 0.92215 5.001902 0.024154 166.709076
2020.0 0.011638 -80.198344 0.922482 -34.501869 0.922082 -34.514294 0.019257 115.826846
2040.0 0.021578 174.921875 0.922271 -74.073696 0.921848 -74.091152 0.005068 -30.287329
2060.0 0.038195 106.493228 0.920944 -113.664528 0.920442 -113.683708 0.032142 -130.526754
2080.0 0.052781 49.488234 0.91888 -153.185893 0.918307 -153.201948 0.059768 -177.4693
2100.0 0.060366 -3.744879 0.917666 167.376819 0.917089 167.366479 0.075595 138.654558
2120.0 0.058777 -56.019547 0.918116 127.936533 0.917609 127.930156 0.073794 95.64661
2140.0 0.04876 -109.199658 0.919242 88.413663 0.918826 88.406471 0.054918 53.165659
2160.0 0.033721 -165.451539 0.919555 48.831656 0.919185 48.819562 0.025841 12.509659
2180.0 0.018474 131.051682 0.918885 9.273291 0.91848 9.256132 0.003796 104.221021
2200.0 0.006924 47.447443 0.918299 -30.234 0.917806 -30.252266 0.021034 90.458018
2220.0 0.004466 -132.371697 0.918392 -69.744614 0.917829 -69.758956 0.022809 38.221319
2240.0 0.014542 128.062956 0.918462 -109.303286 0.917907 -109.31155 0.015478 -53.983788
2260.0 0.028743 62.787993 0.91766 -148.875275 0.917186 -148.87993 0.030982 -159.43182
2280.0 0.043619 7.291222 0.916316 171.605253 0.915937 171.598995 0.056419 143.841199
2300.0 0.054889 -43.622536 0.915598 132.142801 0.915257 132.131054 0.07325 98.320963
2320.0 0.059268 -92.148406 0.916021 92.671238 0.915631 92.65452 0.074375 57.221249
2340.0 0.055577 -139.379568 0.916845 53.135967 0.91636 53.118858 0.059933 20.78905
2360.0 0.045132 174.221028 0.917037 13.55321 0.916488 13.540808 0.0375 -4.65153
2380.0 0.03128 128.848493 0.916393 -26.021257 0.915864 -26.027342 0.023464 -0.971029
2400.0 0.018141 86.949737 0.915493 -65.559034 0.915057 -65.562002 0.027231 -2.01438
2420.0 0.00976 60.511091 0.914834 -105.077302 0.914493 -105.082717 0.028036 -36.513794
2440.0 0.010211 48.676091 0.914369 -144.599996 0.914054 -144.611438 0.021019 -99.849762
2460.0 0.017537 10.945117 0.913892 175.872496 0.913515 175.856287 0.02415 164.972175
2480.0 0.028423 -35.69999 0.913466 136.350355 0.91299 136.334549 0.041211 101.056454
2500.0 0.040425 -81.601848 0.913321 96.829506 0.912788 96.819161 0.054951 57.332833
2520.0 0.050639 -125.872425 0.913445 57.292207 0.912946 57.288289 0.059169 22.782633
2540.0 0.056543 -169.100535 0.913486 17.732036 0.913088 17.730609 0.056034 -3.460086
2560.0 0.056735 148.075354 0.91311 -21.832288 0.912805 -21.837033 0.052749 -22.661595
2580.0 0.051318 105.041988 0.912361 -61.372972 0.91207 -61.384179 0.052858 -42.654305
2600.0 0.04182 61.147332 0.911604 -100.879621 0.911239 -100.895257 0.051217 -70.383406
2620.0 0.030806 15.918281 0.911147 -140.368645 0.910679 -140.38302 0.042391 -107.127782
2640.0 0.021156 -29.619756 0.91095 -179.865022 0.910435 -179.873236 0.027758 -157.356891
2660.0 0.015216 -68.668211 0.910772 140.620956 0.910305 140.619146 0.018553 121.850388
2680.0 0.015415 -93.436276 0.910511 101.093781 0.910154 101.093713 0.024188 48.092862
2700.0 0.023524 -120.675651 0.910263 61.5549 0.909994 61.55062 0.030576 10.253269
2720.0 0.037055 -157.906402 0.910016 21.996065 0.909747 21.984987 0.03624 -7.819342
2740.0 0.051769 160.223614 0.909468 -17.579253 0.909112 -17.594277 0.048858 -22.937673
2760.0 0.063247 116.345319 0.908416 -57.137637 0.907957 -57.150488 0.066152 -47.84068
2780.0 0.067974 71.157823 0.907258 -96.641293 0.906763 -96.647362 0.078114 -80.663969
2800.0 0.064443 24.562425 0.90676 -136.094959 0.906327 -136.094793 0.077353 -118.019983
2820.0 0.053666 -23.943638 0.907192 -175.550911 0.906876 -175.549853 0.062492 -158.77298
2840.0 0.038861 -74.970242 0.907913 144.94715 0.907677 144.943112 0.038447 155.49797
2860.0 0.024088 -127.675745 0.908119 105.412227 0.907869 105.401164 0.015524 91.58328
2880.0 0.012287 -170.316243 0.90782 65.883844 0.907472 65.869447 0.009487 -21.718624
2900.0 0.010181 -160.119624 0.90761 26.362041 0.907158 26.35077 0.008012 -62.934449
2920.0 0.024084 176.808718 0.907531 -13.193667 0.907055 -13.197634 0.015399 -14.449725
2940.0 0.043329 131.326671 0.906772 -52.788335 0.906374 -52.786408 0.042596 -39.248843
2960.0 0.061833 83.262147 0.904917 -92.352146 0.904641 -92.350278 0.071124 -77.260089
2980.0 0.074068 34.984372 0.90301 -131.817192 0.902807 -131.821257 0.089379 -117.52559
3000.0 0.076096 -13.671923 0.902639 -171.217841 0.902406 -171.229014 0.090016 -158.421185
3020.0 0.066908 -63.634518 0.903991 149.329784 0.903649 149.316002 0.072003 160.474309
3040.0 0.049028 -116.785284 0.905436 109.760504 0.904994 109.750806 0.040986 119.811797
3060.0 0.028285 -178.243823 0.90541 70.136336 0.904958 70.134362 0.007885 89.770805
3080.0 0.013027 93.915487 0.904214 30.560607 0.903854 30.564053 0.016344 -155.906713
3100.0 0.010039 -25.681467 0.903311 -8.953375 0.903075 -8.951004 0.022563 160.213695
3120.0 0.011611 -139.339255 0.903195 -48.479423 0.90302 -48.483758 0.01156 87.716108
3140.0 0.022637 120.220007 0.902851 -88.053314 0.902631 -88.064693 0.022865 -59.091959
3160.0 0.042603 52.286025 0.901489 -127.609347 0.901152 -127.622497 0.053789 -114.328832
3180.0 0.06269 -3.027883 0.899972 -167.070964 0.899542 -167.079095 0.077859 -158.057056
3200.0 0.07557 -53.795936 0.899842 153.533271 0.899418 153.533138 0.085969 161.617344
3220.0 0.076584 -102.894811 0.901288 114.092908 0.900967 114.097555 0.07582 124.392233
3240.0 0.06479 -151.839741 0.902831 74.546401 0.902633 74.548892 0.052367 93.465366
3260.0 0.043415 157.712434 0.903092 34.944275 0.902943 34.939365 0.028528 82.652037
3280.0 0.01904 99.722433 0.902251 -4.629159 0.90204 -4.640892 0.024125 99.087143
3300.0 0.005967 -52.000174 0.901398 -44.158594 0.901063 -44.171155 0.027737 84.533347
3320.0 0.01563 -151.274126 0.900951 -83.688882 0.900531 -83.695521 0.019948 47.550474
3340.0 0.018036 136.141587 0.900423 -123.239591 0.900026 -123.238103 0.006263 -68.298288
3360.0 0.020216 45.654623 0.899508 -162.775847 0.899226 -162.770344 0.025921 -171.972498
3380.0 0.032742 -34.295724 0.89872 157.733909 0.898559 157.73617 0.045342 147.112026
3400.0 0.048819 -93.59777 0.898698 118.266625 0.898572 118.260917 0.054576 113.569108
3420.0 0.059662 -144.244807 0.899313 78.773289 0.899108 78.761146 0.053498 86.844529
3440.0 0.0606 168.894769 0.899854 39.238784 0.899522 39.226838 0.048594 68.709315
3460.0 0.051015 124.334761 0.899896 -0.311912 0.899488 -0.317099 0.04715 54.450106
3480.0 0.033888 82.278913 0.899589 -39.856227 0.89922 -39.853316 0.046834 33.934053
3500.0 0.014651 48.090245 0.899167 -79.397206 0.898925 -79.391176 0.039788 5.140711
3520.0 0.005082 105.231903 0.898576 -118.940414 0.89845 -118.938709 0.02331 -30.689369
3540.0 0.012489 99.069021 0.897755 -158.47217 0.897647 -158.478875 0.003255 -130.467455
3560.0 0.013328 48.522157 0.896984 162.022267 0.896783 162.009658 0.019216 96.558683
3580.0 0.010998 -33.514381 0.896646 122.531725 0.896316 122.520394 0.029457 60.351271
3600.0 0.017254 -124.172366 0.896731 83.026647 0.896338 83.022832 0.027528 35.65778
3620.0 0.028577 177.459366 0.896805 43.49344 0.896468 43.497532 0.022122 39.195028
3640.0 0.037173 131.172052 0.896526 3.949084 0.896323 3.955282 0.033061 47.697632
3660.0 0.039572 89.282977 0.896029 -35.583573 0.895935 -35.582754 0.049832 25.751775
3680.0 0.034924 49.735936 0.895709 -75.105426 0.895615 -75.113298 0.056717 -7.538044
3700.0 0.024449 12.325653 0.895715 -114.639649 0.895515 -114.652734 0.047882 -44.842104
3720.0 0.010944 -19.265315 0.895754 -154.202101 0.895425 -154.212808 0.025072 -84.357353
3740.0 0.003581 67.155522 0.895429 166.222058 0.895052 166.219503 0.003994 66.310594
3760.0 0.012382 59.479101 0.894721 126.667071 0.894417 126.672073 0.028432 18.638801
3780.0 0.015349 22.353537 0.894054 87.152195 0.89389 87.158219 0.038963 -21.55884
3800.0 0.010932 -22.714714 0.893834 47.661289 0.893769 47.660949 0.031278 -60.009995
3820.0 0.003612 -148.685021 0.893952 8.161851 0.89387 8.152695 0.008433 -79.903416
3840.0 0.016242 108.275209 0.893887 -31.354452 0.893686 -31.367991 0.023749 22.094856
3860.0 0.030149 61.631257 0.893381 -70.861949 0.893054 -70.871991 0.050201 -13.547328
3880.0 0.0386 18.379791 0.892846 -110.340156 0.892487 -110.341532 0.062329 -53.126618
3900.0 0.038049 -24.940271 0.892864 -149.814194 0.892593 -149.808518 0.054952 -93.350008
3920.0 0.027612 -70.520029 0.893308 170.664311 0.893181 170.669861 0.030049 -133.066669
3940.0 0.010095 -132.345612 0.893321 131.084303 0.893281 131.082584 0.004148 -13.112854
3960.0 0.013268 55.462666 0.892377 91.501157 0.892301 91.490662 0.035166 -39.090498
3980.0 0.030252 -0.924146 0.891082 51.975491 0.890877 51.961565 0.052658 -79.021141
4000.0 0.038619 -48.359736 0.890513 12.498659 0.890188 12.489343 0.050856 -119.000698
4020.0 0.035278 -96.646856 0.890864 -26.993673 0.890524 -26.993943 0.031163 -157.740684
4040.0 0.021709 -153.597903 0.891222 -66.533128 0.890986 -66.527013 0.002486 -139.578631
4060.0 0.010754 88.598746 0.890829 -106.076791 0.890737 -106.072 0.027788 -66.502229
4080.0 0.025132 -10.321776 0.890107 -145.571376 0.890087 -145.574649 0.04499 -103.807836
4100.0 0.037338 -65.537889 0.890012 174.96525 0.889939 174.953433 0.044798 -140.98492
4120.0 0.037971 -116.340223 0.890616 135.460823 0.890405 135.446649 0.028165 -173.061702
4140.0 0.026321 -172.35978 0.890907 95.884198 0.890585 95.875705 0.008218 -137.272187
4160.0 0.011938 84.846882 0.890136 56.286414 0.889817 56.287195 0.028303 -103.168554
4180.0 0.02611 -30.482966 0.888787 16.732876 0.888586 16.739244 0.045001 -132.865163
4200.0 0.044042 -88.033003 0.887889 -22.775103 0.88783 -22.771259 0.047394 -164.65187
4220.0 0.051265 -137.916761 0.887723 -62.284441 0.887721 -62.289319 0.036929 169.346018
4240.0 0.044813 172.372438 0.887724 -101.814681 0.887651 -101.827707 0.023172 163.871784
4260.0 0.027416 116.288163 0.887493 -141.336803 0.887277 -141.351044 0.022463 -179.703876
4280.0 0.011245 10.67268 0.887316 179.172833 0.886999 179.165263 0.027665 171.198837
4300.0 0.022623 -103.409563 0.887537 139.692965 0.887242 139.694728 0.024463 151.613281
4320.0 0.032594 -162.624905 0.887896 100.189367 0.88773 100.19579 0.014021 150.89017
4340.0 0.029948 141.518262 0.887885 60.66276 0.887857 60.665471 0.016584 -165.466339
4360.0 0.017655 65.556788 0.887497 21.13703 0.887508 21.130502 0.029837 -172.800297
4380.0 0.021405 -58.251499 0.887136 -18.387016 0.887059 -18.401119 0.036996 167.205879
4400.0 0.042814 -127.26491 0.886886 -57.932317 0.886662 -57.946418 0.037614 152.326514
4420.0 0.058878 -177.935924 0.886366 -97.499013 0.886055 -97.50553 0.04 145.092213
4440.0 0.062176 135.900347 0.885454 -137.049488 0.885184 -137.046775 0.048501 131.977227
4460.0 0.051458 91.707813 0.884685 -176.5565 0.884554 -176.55016 0.054807 107.208299
4480.0 0.0303 49.25379 0.884597 143.956361 0.884596 143.957836 0.05023 74.885629
4500.0 0.005744 20.528035 0.884954 104.446817 0.884974 104.438696 0.032644 37.330686
4520.0 0.015228 131.545963 0.885062 64.912872 0.884978 64.897907 0.00719 -22.62227
4540.0 0.025383 89.47379 0.884743 25.390277 0.884512 25.376574 0.019696 158.512428
4560.0 0.022926 40.367394 0.88454 -14.108095 0.884237 -14.113409 0.035052 116.292465
4580.0 0.012127 -36.71321 0.884824 -53.61943 0.88458 -53.615792 0.034137 80.891604
4600.0 0.018521 -162.134155 0.885112 -93.179629 0.885015 -93.173494 0.018408 65.447524
4620.0 0.037197 138.254163 0.884645 -132.765795 0.884669 -132.765605 0.02203 122.109436
