! File created by SignalIntegrity v1.1.13: Signal and Power Integrity Tools
! https://github.com/TeledyneLeCroy/SignalIntegrity
# MHz S MA R 50.0
0.0 0.003026 180.0 0.990696 0.0 0.989975 0.0 0.003273 180.0
20.0 0.003945 92.626535 0.990152 -39.583894 0.989432 -39.584123 0.022268 53.249762
40.0 0.005307 30.132952 0.988942 -79.166348 0.988226 -79.16683 0.035 4.67391
60.0 0.005865 -24.543065 0.98749 -118.77643 0.986778 -118.777256 0.033396 -42.25333
80.0 0.00499 -83.715081 0.985853 -158.423695 0.985145 -158.425027 0.017853 -94.209734
100.0 0.003199 -171.357922 0.984193 161.903055 0.983487 161.901086 0.008226 87.445374
120.0 0.005075 72.238277 0.982568 122.225139 0.981859 122.222571 0.030737 18.327365
140.0 0.010136 2.319339 0.98117 82.575948 0.980456 82.573034 0.044431 -29.777894
160.0 0.015061 -55.067225 0.980363 42.962368 0.979646 42.959434 0.043404 -77.040659
180.0 0.018107 -110.794905 0.980058 3.361622 0.979342 3.358808 0.028197 -128.146581
200.0 0.018326 -168.988307 0.979694 -36.244776 0.978988 -36.247692 0.008203 133.363873
220.0 0.016043 125.273872 0.97873 -75.850597 0.978034 -75.8541 0.022292 -2.230147
240.0 0.013991 45.126513 0.977284 -115.434162 0.976592 -115.438635 0.036421 -55.766024
260.0 0.016223 -40.171703 0.976077 -155.004254 0.975379 -155.009632 0.036737 -103.011329
280.0 0.02132 -111.741237 0.975418 165.396693 0.974709 165.390951 0.023296 -149.297038
300.0 0.024861 -173.344627 0.974857 125.747632 0.97414 125.742165 0.001632 148.328371
320.0 0.024176 128.61648 0.973865 86.078469 0.973152 86.073505 0.020025 -58.538219
340.0 0.018616 69.393362 0.972576 46.438752 0.971879 46.433862 0.033386 -106.670837
360.0 0.009753 -3.647754 0.971564 6.837112 0.970883 6.831475 0.03437 -157.717048
380.0 0.007419 -143.500001 0.970812 -32.759412 0.970135 -32.766378 0.024906 140.638623
400.0 0.016348 129.257875 0.969633 -72.363963 0.968947 -72.372087 0.017042 44.90172
420.0 0.023329 66.659963 0.967685 -111.950543 0.966982 -111.958949 0.024662 -47.798574
440.0 0.025603 5.824 0.965505 -151.50015 0.964792 -151.507907 0.031519 -109.175065
460.0 0.023513 -59.313457 0.963816 168.956198 0.963111 168.949323 0.027971 -163.222545
480.0 0.019879 -134.322637 0.962475 129.370586 0.961793 129.363879 0.01466 135.077329
500.0 0.01889 141.434302 0.960759 89.749388 0.960098 89.741692 0.009208 -17.512908
520.0 0.020956 61.557617 0.958562 50.148642 0.957907 50.13925 0.024347 -94.647468
540.0 0.022251 -10.900532 0.95664 10.602115 0.95597 10.591388 0.032572 -145.695554
560.0 0.020756 -83.750157 0.955603 -28.91687 0.954909 -28.927696 0.029669 165.656103
580.0 0.018356 -166.110079 0.955075 -68.449779 0.954369 -68.459525 0.017513 112.097383
600.0 0.019897 104.027544 0.954292 -107.990339 0.953598 -107.998844 0.005969 -4.777125
620.0 0.025826 24.27644 0.953229 -147.503351 0.952564 -147.511673 0.015363 -112.370398
640.0 0.031672 -45.077037 0.952517 173.012718 0.951877 173.003083 0.020494 -160.159077
660.0 0.034543 -110.815869 0.952441 133.518201 0.951803 133.506505 0.016069 166.059789
680.0 0.03408 -177.18476 0.952523 93.986886 0.951862 93.973776 0.008762 -179.771963
700.0 0.031641 113.73916 0.952288 54.441386 0.951597 54.428474 0.018051 -160.061828
720.0 0.02877 42.268209 0.951963 14.912357 0.951261 14.900994 0.028896 169.911142
740.0 0.025532 -29.850394 0.951958 -24.610064 0.951273 -24.619888 0.03156 131.332086
760.0 0.020824 -103.728271 0.95206 -64.154504 0.951411 -64.164229 0.024493 90.474101
780.0 0.015236 171.063491 0.95167 -103.717414 0.951048 -103.728826 0.010782 49.60194
800.0 0.014925 65.889584 0.950718 -143.263926 0.950095 -143.277736 0.003592 176.999551
820.0 0.022615 -21.653428 0.949842 177.216703 0.949189 177.201494 0.012239 138.120132
840.0 0.030957 -89.742184 0.94943 137.690737 0.948744 137.676122 0.011405 91.194917
860.0 0.035236 -151.392012 0.949081 98.13302 0.948385 98.120444 0.002797 -10.675266
880.0 0.033763 147.650024 0.948316 58.567154 0.947645 58.556344 0.014384 -152.994308
900.0 0.027387 82.585885 0.947373 19.030839 0.946745 19.019946 0.02735 157.839282
920.0 0.019815 5.056243 0.946844 -20.482259 0.946245 -20.495257 0.032047 112.300273
940.0 0.017541 -88.874579 0.946646 -60.01356 0.94604 -60.029244 0.025185 66.859288
960.0 0.021327 -173.814395 0.946008 -99.571796 0.945365 -99.588764 0.008197 15.967019
980.0 0.024654 114.591985 0.944627 -139.116068 0.943947 -139.131968 0.01347 165.816614
1000.0 0.024816 45.669379 0.94321 -178.617997 0.942525 -178.63136 0.031416 116.946802
1020.0 0.023149 -27.180164 0.942575 141.89006 0.941923 141.878613 0.039054 68.977988
1040.0 0.022665 -104.368762 0.942546 102.355363 0.941942 102.343547 0.033569 16.600432
1060.0 0.024199 -178.575833 0.942277 62.78138 0.941701 62.767002 0.019423 -55.756067
1080.0 0.025195 114.039221 0.941551 23.225259 0.940961 23.207973 0.01954 -175.77828
1100.0 0.023244 50.441629 0.941092 -16.281015 0.940457 -16.299355 0.035001 110.574297
1120.0 0.01808 -15.184566 0.941483 -55.773546 0.940808 -55.790271 0.04225 56.101988
1140.0 0.01205 -94.325504 0.942211 -95.306567 0.941535 -95.320287 0.035294 3.08783
1160.0 0.010675 164.881359 0.942208 -134.878941 0.941574 -134.890692 0.017086 -65.341034
1180.0 0.014269 80.823852 0.941164 -174.440289 0.940585 -174.452781 0.016566 145.310474
1200.0 0.016954 13.754953 0.939804 146.038122 0.939251 146.022606 0.037009 74.968395
1220.0 0.016893 -50.361134 0.938897 106.529528 0.938323 106.510963 0.047707 22.089765
1240.0 0.015249 -118.904179 0.938421 66.992597 0.937794 66.973317 0.043644 -30.956257
1260.0 0.014557 167.068759 0.937844 27.426762 0.937177 27.409691 0.028204 -95.125259
1280.0 0.015744 97.270958 0.936983 -12.130548 0.936324 -12.144192 0.019131 157.940355
1300.0 0.016762 37.640012 0.936217 -51.652641 0.935609 -51.664367 0.03159 68.106278
1320.0 0.01549 -14.344594 0.935931 -91.150853 0.93538 -91.16378 0.039886 9.412187
1340.0 0.011164 -61.380534 0.936012 -130.656175 0.935483 -130.672593 0.034118 -44.791335
1360.0 0.004207 -101.77703 0.935958 -170.184378 0.935398 -170.203899 0.016802 -114.70016
1380.0 0.004368 18.153797 0.935402 150.275071 0.934783 150.255283 0.017781 100.09006
1400.0 0.012807 -20.610719 0.934438 110.73991 0.933782 110.722965 0.039027 32.909256
1420.0 0.019603 -64.0931 0.933475 71.213487 0.932834 71.200318 0.050861 -15.807235
1440.0 0.023362 -109.806259 0.932823 31.681267 0.932242 31.669841 0.047643 -60.612452
1460.0 0.023343 -159.171715 0.932412 -7.870215 0.931891 -7.883367 0.030754 -103.348912
1480.0 0.020079 144.32946 0.931962 -47.431706 0.931457 -47.44878 0.006817 -138.638886
1500.0 0.016326 74.28067 0.931413 -86.976336 0.930867 -86.996467 0.015409 -13.603411
1520.0 0.016477 -6.133181 0.931066 -126.489452 0.930456 -126.509311 0.027723 -52.19909
1540.0 0.019851 -76.721377 0.931199 -165.990132 0.930554 -166.006504 0.026515 -90.262659
1560.0 0.02133 -137.145094 0.931586 154.487368 0.930965 154.475042 0.013611 -119.924197
1580.0 0.01787 163.798552 0.931641 114.933666 0.931088 114.922791 0.00782 -33.230306
1600.0 0.010026 88.370109 0.931082 75.37141 0.930591 75.358221 0.024006 -45.696496
1620.0 0.010389 -46.466341 0.930207 35.821724 0.929725 35.804234 0.032725 -75.960053
1640.0 0.023088 -124.142914 0.929424 -3.72149 0.928891 -3.741877 0.031878 -101.139
1660.0 0.034653 178.409344 0.928707 -43.271603 0.928105 -43.291103 0.027583 -112.071646
1680.0 0.041013 123.768011 0.927816 -82.815763 0.927185 -82.831145 0.030208 -115.879402
1700.0 0.041045 68.083302 0.926896 -122.32661 0.9263 -122.33777 0.036737 -135.009336
1720.0 0.03599 9.008404 0.926429 -161.804528 0.925909 -161.814637 0.037108 -166.758293
1740.0 0.028661 -55.352428 0.92655 158.715253 0.926091 158.702191 0.027935 153.562558
1760.0 0.021434 -125.005248 0.926786 119.205264 0.926326 119.187569 0.012802 97.224101
1780.0 0.013989 160.98739 0.926681 79.675763 0.92616 79.655453 0.009136 -37.032541
1800.0 0.005879 53.306727 0.926382 40.144797 0.925789 40.126076 0.017045 -98.641211
1820.0 0.013641 -91.856681 0.926213 0.59947 0.925597 0.585457 0.016697 -124.65292
1840.0 0.029568 -159.769476 0.925929 -38.981517 0.925359 -38.991263 0.016765 -110.587278
1860.0 0.044061 143.147273 0.924962 -78.574174 0.924476 -78.583386 0.032525 -113.586386
1880.0 0.052789 88.521642 0.923479 -118.116858 0.923051 -118.129672 0.050822 -143.414743
1900.0 0.053432 33.66687 0.922562 -157.588605 0.922123 -157.606302 0.060064 178.991615
1920.0 0.046463 -23.918937 0.922926 162.9513 0.922417 162.931377 0.05496 137.905294
1940.0 0.035286 -88.047122 0.923872 123.432985 0.92329 123.415404 0.036358 92.834671
1960.0 0.025432 -163.475812 0.924082 83.865508 0.923485 83.85318 0.011696 26.631984
1980.0 0.020405 113.044959 0.923295 44.318928 0.922756 44.310783 0.015412 -137.182721
2000.0 0.016669 29.778828 0.92252 4.82008 0.92207 4.811845 0.026562 166.523515
2020.0 0.012851 -71.535495 0.922433 -34.687931 0.922035 -34.700424 0.021525 116.972812
2040.0 0.020316 179.683188 0.922294 -74.257861 0.921873 -74.275383 0.004385 -4.192993
2060.0 0.036187 107.690725 0.921051 -113.84962 0.920552 -113.868864 0.029917 -130.883785
2080.0 0.050564 49.553283 0.91906 -153.374804 0.918489 -153.390921 0.057551 -178.074308
2100.0 0.0581 -4.237593 0.917881 167.181931 0.917306 167.171531 0.073349 137.973573
2120.0 0.05656 -57.010344 0.918311 127.735141 0.917806 127.728705 0.071497 94.814818
2140.0 0.046721 -110.942107 0.919365 88.207616 0.918952 88.200367 0.052591 51.956719
2160.0 0.032095 -168.779142 0.919585 48.624581 0.919217 48.612432 0.023523 9.934316
2180.0 0.017743 123.651028 0.918845 9.068695 0.918442 9.051482 0.005145 131.401173
2200.0 0.008077 31.71709 0.918239 -30.434437 0.917748 -30.452755 0.022724 94.7371
2220.0 0.00561 -110.106921 0.918362 -69.941483 0.917803 -69.955875 0.023971 42.925879
2240.0 0.013184 135.081621 0.918496 -109.498634 0.917943 -109.506946 0.014593 -46.301902
2260.0 0.026742 64.394193 0.917765 -149.071649 0.917294 -149.076351 0.028768 -159.978918
2280.0 0.041445 7.441528 0.916478 171.405476 0.916103 171.399173 0.054353 142.743593
2300.0 0.052671 -44.014216 0.915786 131.93809 0.915447 131.9263 0.07123 97.250201
2320.0 0.057046 -92.857381 0.916193 92.461461 0.915805 92.444702 0.072304 56.113393
2340.0 0.053378 -140.407856 0.916965 52.922648 0.916483 52.9055 0.057733 19.571658
2360.0 0.042992 172.707723 0.917096 13.338891 0.91655 13.326451 0.035089 -5.588554
2380.0 0.029235 126.404454 0.916407 -26.234375 0.915881 -26.240496 0.021434 2.24905
2400.0 0.016169 82.591837 0.915495 -65.770033 0.915061 -65.773035 0.02644 2.580626
2420.0 0.007597 55.462819 0.914852 -105.286654 0.914514 -105.292102 0.027355 -32.114536
2440.0 0.008043 51.718222 0.914419 -144.808929 0.914107 -144.820402 0.019458 -95.341094
2460.0 0.015426 12.680712 0.913975 175.662723 0.913602 175.646485 0.021958 163.480832
2480.0 0.026283 -35.339982 0.913575 136.138813 0.913102 136.12298 0.039452 98.879827
2500.0 0.038274 -81.76225 0.913441 96.615808 0.912911 96.605438 0.053273 55.554114
2520.0 0.048474 -126.233202 0.913565 57.076472 0.913069 57.07253 0.057327 21.297913
2540.0 0.054357 -169.567399 0.913598 17.514695 0.913203 17.513245 0.053912 -4.512109
2560.0 0.054525 147.508 0.913214 -22.050778 0.912912 -22.055545 0.05046 -22.886216
2580.0 0.049098 104.31646 0.912461 -61.592495 0.912173 -61.603723 0.050666 -42.065879
2600.0 0.039618 60.108047 0.911701 -101.100392 0.911339 -101.116047 0.049166 -69.34757
2620.0 0.02867 14.213451 0.911237 -140.590895 0.910773 -140.605288 0.040341 -105.792262
2640.0 0.019131 -32.584268 0.911025 179.911398 0.910512 179.903168 0.025519 -156.192653
2660.0 0.013217 -72.564615 0.910827 140.396775 0.910362 140.394951 0.016538 118.031211
2680.0 0.013292 -94.809249 0.910551 100.869939 0.910196 100.869857 0.02319 43.026284
2700.0 0.021442 -120.346891 0.910303 61.332014 0.910036 61.327721 0.029511 6.42796
2720.0 0.035013 -157.644168 0.910076 21.774055 0.90981 21.762965 0.034568 -10.133164
2740.0 0.049719 160.251704 0.909564 -17.80124 0.909212 -17.816274 0.046815 -23.696226
2760.0 0.06116 116.185722 0.908555 -57.36097 0.908099 -57.373831 0.064042 -48.004664
2780.0 0.065844 70.821593 0.907431 -96.867568 0.906938 -96.873645 0.075959 -80.689954
2800.0 0.062288 23.992874 0.906943 -136.325433 0.906513 -136.325274 0.075118 -118.028082
2820.0 0.051543 -24.922754 0.90735 -175.785706 0.907036 -175.784655 0.06017 -158.827614
2840.0 0.036886 -76.810721 0.908012 144.709509 0.90778 144.705465 0.03609 155.093324
2860.0 0.022413 -131.466119 0.908152 105.174425 0.907905 105.163357 0.013507 86.802905
2880.0 0.010755 -178.009636 0.907809 65.648364 0.907463 65.633963 0.010165 -34.332893
2900.0 0.008161 -157.889998 0.907595 26.129881 0.907146 26.118607 0.008743 -76.696691
2920.0 0.022322 178.848275 0.907553 -13.423203 0.90708 -13.427172 0.013485 -17.016925
2940.0 0.041504 132.023136 0.906856 -53.017105 0.906461 -53.015181 0.040643 -39.576267
2960.0 0.059916 83.391309 0.905069 -92.582514 0.904796 -92.580648 0.069149 -77.534931
2980.0 0.072063 34.809306 0.903216 -132.0516 0.903015 -132.055666 0.087322 -117.836837
3000.0 0.074022 -14.096478 0.902861 -171.458141 0.902631 -171.469315 0.087843 -158.792668
3020.0 0.064818 -64.400586 0.904175 149.083505 0.903836 149.069722 0.069725 159.992361
3040.0 0.047062 -118.280158 0.905535 109.510596 0.905096 109.500898 0.038665 119.050394
3060.0 0.026828 178.039374 0.905415 69.886713 0.904967 69.884739 0.005577 89.802152
3080.0 0.013335 84.458729 0.904161 30.314513 0.903804 30.317959 0.01833 -153.10664
3100.0 0.012051 -27.156982 0.903254 -9.195013 0.903021 -9.192642 0.02431 162.546716
3120.0 0.012495 -131.511504 0.903179 -48.717757 0.903007 -48.722091 0.012422 95.631947
3140.0 0.021561 123.803819 0.9029 -88.290473 0.902682 -88.301851 0.021032 -59.004322
3160.0 0.040959 53.012345 0.901607 -127.847659 0.901272 -127.860808 0.052001 -115.015738
3180.0 0.060888 -3.083147 0.900145 -167.312689 0.899718 -167.320818 0.076045 -158.713396
3200.0 0.073684 -54.164737 0.90004 153.286346 0.899618 153.286213 0.084055 160.975205
3220.0 0.07464 -103.49339 0.901463 113.840477 0.901145 113.845126 0.07377 123.75283
3240.0 0.062836 -152.759256 0.902943 74.290236 0.902748 74.292728 0.050194 93.003344
3260.0 0.041567 156.033444 0.90313 34.68743 0.902983 34.682521 0.026539 84.250862
3280.0 0.017632 94.594596 0.902237 -4.884107 0.902029 -4.895839 0.023746 103.814515
3300.0 0.007855 -58.125713 0.90137 -44.41078 0.901038 -44.423341 0.028134 88.338388
3320.0 0.017205 -147.812037 0.900941 -83.938901 0.900523 -83.94554 0.020334 52.654093
3340.0 0.01874 141.020057 0.900446 -123.488673 0.900051 -123.487186 0.004581 -60.392767
3360.0 0.019382 49.733405 0.899569 -163.025361 0.899289 -163.019859 0.024654 -175.129594
3380.0 0.03114 -33.608902 0.898812 157.482683 0.898654 157.484943 0.044073 145.239565
3400.0 0.047108 -93.925553 0.898806 118.012742 0.898682 118.007032 0.053124 112.165058
3420.0 0.057925 -144.866139 0.899417 78.516585 0.899214 78.504439 0.051785 85.835492
3440.0 0.058834 168.097124 0.899939 38.979919 0.899609 38.96797 0.046707 68.455915
3460.0 0.049226 123.303197 0.899959 -0.572021 0.899554 -0.577211 0.045405 55.173294
3480.0 0.032088 80.78121 0.899635 -40.116961 0.899269 -40.114054 0.045372 35.247165
3500.0 0.012805 45.701299 0.899204 -79.658377 0.898963 -79.652352 0.038502 7.004526
3520.0 0.005188 125.743608 0.898604 -119.201937 0.89848 -119.200237 0.022073 -27.222342
3540.0 0.013365 105.649476 0.897776 -158.733848 0.89767 -158.74056 0.001491 -148.164592
3560.0 0.013853 55.048176 0.897002 161.760593 0.896803 161.747977 0.019827 91.268835
3580.0 0.010325 -25.779198 0.896664 122.270084 0.896336 122.258744 0.029875 56.838176
3600.0 0.015684 -123.348197 0.896753 82.764929 0.896362 82.761105 0.027445 31.942828
3620.0 0.026989 176.7625 0.896836 43.231452 0.896501 43.235535 0.020929 36.049029
3640.0 0.035586 130.329924 0.896571 3.686474 0.89637 3.692661 0.031468 47.796668
3660.0 0.037951 88.426881 0.896091 -35.847485 0.895999 -35.846677 0.048318 26.242178
3680.0 0.033257 48.847527 0.895783 -75.371436 0.895691 -75.379321 0.055174 -7.022214
3700.0 0.02274 11.376193 0.895786 -114.908208 0.895588 -114.921307 0.046255 -44.159367
3720.0 0.009216 -19.581963 0.895803 -154.472854 0.895475 -154.483575 0.023375 -82.842904
3740.0 0.00478 83.465114 0.895442 165.950329 0.895067 165.947758 0.005636 55.972923
3760.0 0.013907 61.664631 0.894702 126.395851 0.8944 126.400837 0.030035 16.992008
3780.0 0.016818 23.777791 0.894018 86.882516 0.893855 86.888523 0.040431 -22.772857
3800.0 0.012285 -20.207334 0.893803 47.39328 0.89374 47.392921 0.032591 -61.424683
3820.0 0.0034 -126.06638 0.893945 7.894803 0.893865 7.885627 0.009418 -86.171662
3840.0 0.01487 108.661457 0.893914 -31.62169 0.893715 -31.63525 0.022432 22.261041
3860.0 0.028751 61.386918 0.893444 -71.130724 0.893119 -71.140788 0.048836 -13.545683
3880.0 0.037153 18.008095 0.892935 -110.611776 0.892577 -110.613175 0.060839 -53.207977
3900.0 0.036537 -25.444535 0.892954 -150.089494 0.892686 -150.083842 0.053318 -93.452302
3920.0 0.026058 -71.430204 0.89337 170.385597 0.893244 170.391122 0.028314 -133.062011
3940.0 0.008762 -138.118319 0.893331 130.80388 0.893292 130.802135 0.005851 -8.547504
3960.0 0.014784 53.358025 0.892335 91.221398 0.89226 91.210876 0.036826 -39.220551
3980.0 0.031748 -1.281021 0.891012 51.698039 0.890809 51.684085 0.054154 -79.171493
4000.0 0.039992 -48.447433 0.890448 12.223615 0.890125 12.214269 0.05217 -119.112212
4020.0 0.036499 -96.441845 0.890826 -27.2674 0.890488 -27.267701 0.03234 -157.745969
4040.0 0.022706 -152.315962 0.891219 -66.806866 0.890985 -66.800783 0.003334 -154.666919
4060.0 0.010403 94.120385 0.890861 -106.351682 0.89077 -106.346924 0.026695 -67.555175
4080.0 0.023998 -10.164686 0.890166 -145.848485 0.890148 -145.851792 0.043786 -104.514774
4100.0 0.036119 -66.024027 0.890082 174.685053 0.890011 174.673201 0.043458 -141.639256
4120.0 0.036697 -117.186588 0.890671 135.177465 0.890462 135.163255 0.0267 -173.569957
4140.0 0.02511 -174.252615 0.890924 95.598891 0.890603 95.590361 0.007849 -127.156936
4160.0 0.012044 77.707889 0.890112 56.001064 0.889794 56.001806 0.029467 -101.726639
4180.0 0.027455 -31.544668 0.888738 16.448819 0.888538 16.455147 0.046159 -132.287841
4200.0 0.045328 -88.2827 0.887838 -23.057707 0.88778 -23.053903 0.048481 -164.275038
4220.0 0.052389 -137.95291 0.887685 -62.566223 0.887684 -62.571143 0.037991 169.55362
4240.0 0.045748 172.579992 0.887704 -102.096364 0.887632 -102.109432 0.02417 162.90898
4260.0 0.028116 117.256501 0.887494 -141.619037 0.887279 -141.633321 0.02276 177.56416
4280.0 0.010975 14.868676 0.887337 178.889306 0.887021 178.881692 0.027354 168.86544
4300.0 0.021664 -103.876767 0.887568 139.407509 0.887274 139.409227 0.02375 149.384124
4320.0 0.031613 -163.622355 0.887924 99.901882 0.887759 99.90826 0.01289 149.91126
4340.0 0.029002 139.918675 0.887898 60.373788 0.887871 60.376453 0.016293 -161.775736
4360.0 0.01723 61.474449 0.887492 20.847291 0.887504 20.840716 0.030099 -170.879759
4380.0 0.022477 -60.141357 0.887118 -18.6771 0.887041 -18.691251 0.037514 168.529731
4400.0 0.043978 -127.629376 0.886856 -58.222503 0.886633 -58.236652 0.038422 153.242417
4420.0 0.059906 -178.086106 0.886328 -97.788991 0.886017 -97.795557 0.041035 145.230982
4440.0 0.06303 135.839137 0.885416 -137.339022 0.885146 -137.336359 0.049478 131.496753
4460.0 0.052153 91.766332 0.884656 -176.845766 0.884526 -176.839477 0.055593 106.494283
4480.0 0.030897 49.624798 0.884582 143.666777 0.884582 143.6682 0.05083 74.005918
4500.0 0.006388 22.457393 0.88495 104.156452 0.884971 104.148279 0.033128 36.066671
4520.0 0.014751 129.140376 0.885065 64.621658 0.884982 64.60664 0.007817 -25.702934
4540.0 0.024831 87.837253 0.884753 25.098198 0.884523 25.084443 0.019439 160.284285
4560.0 0.02238 38.301051 0.884557 -14.401381 0.884255 -14.406747 0.034638 117.154095
4580.0 0.012085 -41.472226 0.884842 -53.914405 0.884598 -53.910819 0.033631 81.876002
4600.0 0.019455 -162.957594 0.885117 -93.476225 0.88502 -93.470143 0.01817 68.173947
4620.0 0.038087 138.168853 0.884629 -133.063181 0.884653 -133.063044 0.023029 122.304095
