! File created by SignalIntegrity v1.3.3: Signal and Power Integrity Tools
! https://github.com/TeledyneLeCroy/SignalIntegrity
# MHz S MA R 50.0
0.0 0.003128 180.0 0.990699 0.0 0.989981 0.0 0.003377 180.0
20.0 0.003886 99.264691 0.99016 -39.584159 0.989442 -39.584383 0.0219 54.021814
40.0 0.005077 37.03058 0.988952 -79.16749 0.988238 -79.167963 0.034463 5.376075
60.0 0.005413 -18.106894 0.987489 -118.778262 0.986779 -118.779074 0.032697 -41.571243
80.0 0.004233 -76.930204 0.985836 -158.425606 0.98513 -158.42692 0.016932 -93.301506
100.0 0.002212 -177.734078 0.984159 161.901714 0.983455 161.899767 0.008837 81.613832
120.0 0.005215 59.714193 0.982524 122.22504 0.981817 122.222499 0.031782 17.384476
140.0 0.010804 -3.342991 0.98113 82.577179 0.980418 82.574296 0.045637 -30.267005
160.0 0.01604 -58.217509 0.980338 42.964465 0.979623 42.961566 0.044725 -77.31385
180.0 0.019352 -112.655268 0.980053 3.363739 0.97934 3.360965 0.029623 -127.988212
200.0 0.019761 -169.683769 0.979708 -36.243649 0.979003 -36.246521 0.008992 141.853601
220.0 0.017505 126.656199 0.97875 -75.851075 0.978056 -75.854529 0.020835 -0.72763
240.0 0.014941 50.166364 0.977298 -115.436314 0.976608 -115.440734 0.034795 -55.482457
260.0 0.016 -34.383865 0.976074 -155.007567 0.975378 -155.012887 0.035046 -103.123165
280.0 0.020213 -108.147733 0.975396 165.393132 0.974688 165.387452 0.021561 -150.092814
300.0 0.023295 -171.38058 0.974822 125.744662 0.974107 125.739262 0.000997 64.314509
320.0 0.022378 129.345987 0.973828 86.076613 0.973117 86.071719 0.021784 -56.760584
340.0 0.016767 68.292321 0.97255 46.437995 0.971855 46.433179 0.035068 -105.075183
360.0 0.008435 -12.514763 0.971554 6.836973 0.970875 6.831415 0.035854 -155.577557
380.0 0.009059 -151.171805 0.970814 -32.759568 0.97014 -32.766452 0.025818 144.746738
400.0 0.018346 130.239316 0.969641 -72.364716 0.968956 -72.372753 0.016032 51.210271
420.0 0.025112 69.097347 0.967686 -111.952145 0.966985 -111.96046 0.022545 -47.427841
440.0 0.026953 9.343216 0.965492 -151.502508 0.964781 -151.51017 0.029468 -110.516381
460.0 0.024099 -54.346713 0.963785 168.953382 0.963082 168.946606 0.026159 -165.905957
480.0 0.019186 -128.233195 0.96243 129.36771 0.961749 129.361107 0.013547 127.095558
500.0 0.016887 144.593677 0.960706 89.746755 0.960047 89.739167 0.011475 -19.481196
520.0 0.018776 59.778532 0.958509 50.146445 0.957855 50.137165 0.026417 -92.239081
540.0 0.020754 -15.565959 0.956592 10.600478 0.955923 10.589867 0.034401 -143.119635
560.0 0.020466 -90.197572 0.955563 -28.917879 0.954871 -28.928585 0.031249 169.062125
580.0 0.019708 -171.971289 0.955045 -68.450095 0.954341 -68.459718 0.01866 118.930432
600.0 0.022278 103.101554 0.954273 -107.990033 0.953581 -107.998411 0.004245 15.604934
620.0 0.027945 26.840635 0.953225 -147.502727 0.952561 -147.510919 0.013306 -118.137214
640.0 0.032975 -41.351165 0.952528 173.013096 0.95189 173.003596 0.018652 -165.321318
660.0 0.034828 -106.698731 0.952464 133.517568 0.951827 133.50601 0.014067 159.845165
680.0 0.033224 -173.111936 0.952549 93.984575 0.95189 93.971606 0.006301 -172.885993
700.0 0.029696 116.896131 0.952303 54.437146 0.951614 54.42438 0.017568 -151.663531
720.0 0.026193 43.081429 0.951952 14.906603 0.951252 14.895388 0.028743 175.23329
740.0 0.023139 -32.478873 0.951912 -24.616229 0.951229 -24.625901 0.031402 136.266139
760.0 0.019506 -110.336508 0.951981 -64.159637 0.951333 -64.169205 0.024273 96.910854
780.0 0.016018 161.59937 0.951574 -103.720259 0.950954 -103.731511 0.010664 64.464971
800.0 0.017586 63.900167 0.950631 -143.26403 0.950009 -143.277677 0.005368 148.370975
820.0 0.02493 -18.093577 0.949789 177.218646 0.949138 177.203603 0.013619 127.146536
840.0 0.032342 -85.390769 0.949424 137.693046 0.948739 137.678601 0.013135 80.530622
860.0 0.035659 -146.913267 0.949117 98.133588 0.948422 98.121186 0.005677 -8.281059
880.0 0.03318 152.380449 0.948367 58.56434 0.947698 58.553707 0.013754 -141.407814
900.0 0.025683 87.518248 0.947402 19.024261 0.946775 19.013548 0.026073 163.506662
920.0 0.017034 7.323783 0.946816 -20.491425 0.946218 -20.504241 0.03043 116.840505
940.0 0.015435 -95.822763 0.946545 -60.022859 0.945939 -60.038358 0.02329 72.315438
960.0 0.021253 178.31761 0.945844 -99.578407 0.945202 -99.595187 0.006026 33.02181
980.0 0.026068 108.780243 0.944438 -139.117969 0.943759 -139.133678 0.015763 158.059167
1000.0 0.027275 42.085223 0.943047 -178.614886 0.942362 -178.628056 0.033961 114.03045
1020.0 0.026117 -27.479404 0.94248 141.896516 0.941828 141.885266 0.041837 67.182027
1040.0 0.025194 -100.523192 0.942538 102.362097 0.941935 102.35048 0.036595 15.617318
1060.0 0.025473 -172.258277 0.942342 62.785036 0.941767 62.77086 0.022342 -52.80708
1080.0 0.025097 120.950198 0.941644 23.22355 0.941055 23.206469 0.019088 -166.597596
1100.0 0.02194 57.440006 0.941156 -16.28833 0.940522 -16.306463 0.032741 114.26882
1120.0 0.015692 -8.605231 0.941471 -55.784558 0.940798 -55.801074 0.039441 58.147638
1140.0 0.008961 -95.377865 0.942105 -95.317896 0.94143 -95.331404 0.03218 4.29055
1160.0 0.009693 148.165992 0.942026 -134.887055 0.941392 -134.898591 0.014048 -69.217417
1180.0 0.015483 69.700314 0.940954 -174.442938 0.940375 -174.455213 0.018705 137.468039
1200.0 0.019266 7.038241 0.939625 146.041033 0.939072 146.025736 0.040043 73.326223
1220.0 0.019849 -53.770923 0.938794 106.535948 0.93822 106.517604 0.050928 21.667958
1240.0 0.018399 -117.821278 0.938408 66.999209 0.937782 66.980152 0.046879 -30.4247
1260.0 0.017114 173.939106 0.937901 27.430296 0.937235 27.41345 0.031008 -91.828847
1280.0 0.017123 107.329103 0.937063 -12.132045 0.936404 -12.145462 0.018781 167.834606
1300.0 0.017122 48.413701 0.936265 -51.659082 0.935657 -51.67058 0.028713 71.183929
1320.0 0.015222 -2.365701 0.935907 -91.160298 0.935357 -91.172995 0.036603 10.127407
1340.0 0.010646 -44.562835 0.935906 -130.665687 0.935377 -130.681873 0.030813 -45.594973
1360.0 0.004465 -57.944898 0.935788 -170.191204 0.935228 -170.210491 0.014328 -123.047169
1380.0 0.006855 -4.009382 0.935208 150.272449 0.934589 150.252897 0.020608 94.694543
1400.0 0.014959 -30.782965 0.934263 110.74136 0.933607 110.724651 0.042362 32.365817
1420.0 0.02182 -70.764827 0.933348 71.217493 0.932707 71.204562 0.054222 -15.614251
1440.0 0.025775 -114.997185 0.932752 31.685714 0.932171 31.674529 0.05098 -60.006862
1460.0 0.02607 -163.443956 0.932385 -7.867155 0.931864 -7.880066 0.034064 -102.056505
1480.0 0.023206 141.542839 0.931954 -47.431005 0.931449 -47.447837 0.010184 -135.467234
1500.0 0.01959 75.921227 0.931401 -86.977977 0.930856 -86.997864 0.012428 -20.434468
1520.0 0.018779 1.629751 0.931037 -126.492773 0.930427 -126.512387 0.024683 -55.613124
1540.0 0.020669 -67.60461 0.93115 -165.994362 0.930505 -166.010488 0.023448 -93.766906
1560.0 0.020975 -128.158357 0.93152 154.48273 0.930899 154.470651 0.010341 -125.032983
1580.0 0.016488 173.982339 0.931562 114.928766 0.931009 114.918137 0.009563 -13.459875
1600.0 0.007146 100.016136 0.930988 75.366297 0.930497 75.353357 0.026609 -40.568462
1620.0 0.009709 -65.320247 0.930091 35.816715 0.929608 35.799474 0.035605 -72.766589
1640.0 0.024252 -131.787946 0.92928 -3.725633 0.928747 -3.74577 0.035116 -99.074182
1660.0 0.036615 174.019169 0.928538 -43.273812 0.927937 -43.293062 0.031025 -112.782322
1680.0 0.043563 120.802937 0.927639 -82.815192 0.927008 -82.830323 0.032885 -119.874612
1700.0 0.044073 66.126605 0.926738 -122.32322 0.926142 -122.334128 0.038532 -139.521446
1720.0 0.039325 8.35528 0.926315 -161.799405 0.925795 -161.809262 0.038536 -171.545071
1740.0 0.031908 -53.631622 0.926493 158.720075 0.926033 158.707265 0.029455 147.328676
1760.0 0.023906 -119.178686 0.926776 119.207538 0.926315 119.190095 0.015286 87.241151
1780.0 0.014967 173.833019 0.926684 79.674011 0.926162 79.653955 0.011831 -24.85704
1800.0 0.003547 84.470264 0.926354 40.139152 0.925761 40.120684 0.018601 -88.598296
1820.0 0.013003 -106.220965 0.926115 0.59189 0.925499 0.57813 0.01888 -115.861541
1840.0 0.030316 -166.108379 0.925747 -38.987845 0.925177 -38.997338 0.020253 -110.093505
1860.0 0.045658 139.33178 0.924719 -78.576052 0.924232 -78.585011 0.0355 -116.657012
1880.0 0.055045 85.853267 0.923226 -118.112519 0.922798 -118.125081 0.053455 -145.912635
1900.0 0.056236 31.715889 0.922361 -157.578639 0.921922 -157.596083 0.062641 176.821636
1920.0 0.0497 -25.062608 0.922825 162.963997 0.922314 162.944326 0.05764 135.652847
1940.0 0.038653 -87.452898 0.923883 123.44414 0.923299 123.426811 0.039282 89.960149
1960.0 0.028048 -158.850775 0.924173 83.871102 0.923575 83.859025 0.015164 24.993233
1980.0 0.020968 122.293971 0.923401 44.316902 0.92286 44.309009 0.014128 -124.579194
2000.0 0.01482 40.100291 0.922565 4.811279 0.922114 4.803295 0.024209 172.317998
2020.0 0.009529 -74.823669 0.922362 -34.699983 0.921964 -34.712226 0.018729 122.913793
2040.0 0.01987 170.102564 0.922096 -74.268232 0.921675 -74.285503 0.003331 -55.749004
2060.0 0.037431 102.806389 0.920764 -113.853874 0.920264 -113.87287 0.032511 -135.13329
2080.0 0.052652 46.639244 0.918756 -153.370845 0.918185 -153.386714 0.060395 -179.978448
2100.0 0.060726 -6.229535 0.917638 167.193059 0.917063 167.182905 0.076341 136.677898
2120.0 0.059573 -58.439754 0.918183 127.749761 0.917676 127.743572 0.074617 93.674661
2140.0 0.049998 -111.78457 0.91936 88.220819 0.918945 88.213816 0.055816 50.656501
2160.0 0.035439 -168.328024 0.919666 48.632116 0.919297 48.620212 0.02682 7.598635
2180.0 0.020654 128.574411 0.918941 9.068675 0.918537 9.051706 0.001703 128.980443
2200.0 0.009067 53.154876 0.918278 -30.440887 0.917786 -30.458962 0.019288 94.88937
2220.0 0.002316 -117.846527 0.918297 -69.950814 0.917736 -69.964964 0.020623 40.90643
2240.0 0.013017 120.497507 0.91832 -109.506341 0.917767 -109.514414 0.013358 -59.486698
2260.0 0.028058 58.014566 0.917517 -149.074075 0.917045 -149.078538 0.031364 -164.22648
2280.0 0.043506 3.956405 0.916221 171.409753 0.915844 171.403689 0.057467 141.348946
2300.0 0.055168 -46.294353 0.915579 131.9479 0.915239 131.936346 0.074466 96.470204
2320.0 0.059829 -94.574787 0.916073 92.473771 0.915684 92.457247 0.075579 55.451655
2340.0 0.056359 -141.857268 0.916933 52.933876 0.916449 52.916961 0.060975 18.627622
2360.0 0.046107 171.368406 0.917121 13.346304 0.916573 13.334096 0.038028 -8.21422
2380.0 0.03243 125.085199 0.916442 -26.231691 0.915914 -26.237581 0.022396 -6.213508
2400.0 0.01939 80.976989 0.915496 -65.771093 0.915061 -65.773866 0.025102 -4.284033
2420.0 0.010667 48.692695 0.914797 -105.289259 0.914457 -105.29448 0.025793 -38.518418
2440.0 0.01009 35.696991 0.914309 -144.810727 0.913995 -144.821973 0.019363 -105.213481
2460.0 0.017246 3.296218 0.91383 175.663296 0.913454 175.647282 0.024779 159.154562
2480.0 0.028348 -40.524917 0.913421 136.142108 0.912946 136.126497 0.042731 98.231895
2500.0 0.040548 -85.05386 0.9133 96.621144 0.912768 96.610994 0.056564 55.329557
2520.0 0.050885 -128.656616 0.913444 57.082748 0.912946 57.079024 0.060584 20.843745
2540.0 0.056862 -171.59709 0.913495 17.521039 0.913098 17.519806 0.05698 -5.718469
2560.0 0.057107 145.610333 0.913123 -22.044678 0.912819 -22.04923 0.05294 -25.251252
2580.0 0.051759 102.378121 0.912378 -61.586464 0.912088 -61.597479 0.052298 -45.206315
2600.0 0.042381 58.002485 0.911629 -101.094183 0.911265 -101.109626 0.05021 -72.891566
2620.0 0.031559 11.898434 0.911184 -140.584618 0.910717 -140.598802 0.04128 -110.135107
2640.0 0.02213 -35.003999 0.910992 179.917122 0.910478 179.909099 0.027101 -162.303752
2660.0 0.01621 -75.90212 0.910808 140.401064 0.910342 140.399444 0.019629 115.342788
2680.0 0.015914 -101.326594 0.910528 100.872217 0.910171 100.872338 0.02622 45.350877
2700.0 0.023532 -126.143812 0.91025 61.33256 0.909982 61.328468 0.032557 8.080907
2720.0 0.03693 -161.473374 0.909974 21.774189 0.909706 21.763298 0.037718 -10.559099
2740.0 0.051672 157.596743 0.909411 -17.799493 0.909056 -17.81433 0.049554 -25.538562
2760.0 0.063236 114.149613 0.908371 -57.355712 0.907913 -57.368379 0.066291 -49.914529
2780.0 0.068089 69.106137 0.907256 -96.857956 0.906762 -96.863841 0.077952 -82.464065
2800.0 0.06474 22.439677 0.90682 -136.312251 0.906388 -136.311903 0.077048 -119.845116
2820.0 0.054223 -26.361493 0.907307 -175.771297 0.906991 -175.770058 0.062192 -161.004291
2840.0 0.03977 -77.957511 0.908049 144.722019 0.907815 144.71816 0.038401 151.976298
2860.0 0.025384 -131.599379 0.908237 105.182362 0.907988 105.171477 0.016497 84.333177
2880.0 0.013698 -176.904578 0.907888 65.650738 0.90754 65.636517 0.011613 -20.216002
2900.0 0.010127 -171.64538 0.907613 26.127953 0.907163 26.116857 0.010078 -60.106114
2920.0 0.023381 172.023954 0.907477 -13.426286 0.907003 -13.430079 0.016235 -21.699822
2940.0 0.042776 128.482624 0.90669 -53.01745 0.906293 -53.015351 0.042889 -42.276315
2960.0 0.061506 81.138395 0.904855 -92.57706 0.90458 -92.575023 0.071324 -79.170018
2980.0 0.073958 33.14933 0.903018 -132.039429 0.902815 -132.043326 0.089528 -119.085055
3000.0 0.076207 -15.460923 0.90274 -171.440868 0.902508 -171.451875 0.090117 -159.964375
3020.0 0.067283 -65.593649 0.904167 149.102272 0.903826 149.088654 0.072079 158.611693
3040.0 0.049777 -119.189646 0.905635 109.526533 0.905194 109.516996 0.041084 116.744933
3060.0 0.029614 178.691886 0.905578 69.896464 0.905127 69.89465 0.007894 74.959139
3080.0 0.014914 93.746879 0.904317 30.317082 0.903958 30.320685 0.015692 -149.445233
3100.0 0.010432 -15.787751 0.90334 -9.197929 0.903105 -9.195403 0.021589 164.488009
3120.0 0.009894 -135.805181 0.903158 -48.722513 0.902985 -48.726695 0.009704 91.855232
3140.0 0.021261 116.588111 0.902778 -88.292852 0.902558 -88.304081 0.022889 -64.463194
3160.0 0.041973 49.577761 0.901426 -127.844481 0.901089 -127.857483 0.054316 -116.648831
3180.0 0.0625 -5.041818 0.899967 -167.302986 0.899538 -167.310971 0.078452 -159.67951
3200.0 0.075649 -55.51051 0.899922 153.301171 0.899499 153.30118 0.086484 160.155848
3220.0 0.076857 -104.562313 0.901439 113.857342 0.901118 113.86213 0.076162 122.781137
3240.0 0.065242 -153.700077 0.90301 74.305566 0.902813 74.308195 0.052384 91.241859
3260.0 0.044111 155.250201 0.903255 34.6985 0.903107 34.693725 0.027697 79.150852
3280.0 0.020195 95.568895 0.902372 -4.878229 0.902161 -4.88983 0.022316 98.2631
3300.0 0.006937 -39.564794 0.901468 -44.409118 0.901134 -44.421549 0.025926 85.326335
3320.0 0.014728 -146.033144 0.900978 -83.939215 0.900558 -83.945728 0.01808 48.759215
3340.0 0.016418 137.9645 0.900422 -123.48845 0.900025 -123.486837 0.005721 -86.566337
3360.0 0.018742 42.527397 0.899504 -163.022733 0.899223 -163.01711 0.027212 -175.290271
3380.0 0.03224 -37.58165 0.898739 157.488384 0.898579 157.490763 0.046606 145.19786
3400.0 0.048854 -95.95319 0.898752 118.021029 0.898626 118.015437 0.05562 111.877769
3420.0 0.059937 -146.171396 0.899397 78.526269 0.899193 78.514238 0.054148 84.986015
3440.0 0.060975 167.053354 0.899955 38.989707 0.899623 38.97787 0.048617 66.576285
3460.0 0.051426 122.265085 0.900002 -0.563035 0.899594 -0.568115 0.046459 52.421836
3480.0 0.034303 79.380861 0.899692 -40.109127 0.899324 -40.106112 0.045658 32.221071
3500.0 0.014935 41.763827 0.899265 -79.651623 0.899022 -79.645492 0.038354 3.433487
3520.0 0.003507 104.44155 0.898664 -119.196059 0.898538 -119.194256 0.021789 -33.392269
3540.0 0.01116 102.945461 0.897833 -158.728734 0.897725 -158.735345 0.003802 -159.077899
3560.0 0.011824 50.649764 0.897054 161.764946 0.896853 161.752428 0.020955 97.004868
3580.0 0.009575 -37.909917 0.896707 122.273709 0.896376 122.262465 0.031104 60.503559
3600.0 0.016952 -129.711143 0.896781 82.768103 0.896389 82.764373 0.02908 35.161442
3620.0 0.028733 174.045281 0.896846 43.234787 0.89651 43.238961 0.023178 36.326117
3640.0 0.037433 128.560522 0.896566 3.690776 0.896363 3.697052 0.033005 44.939902
3660.0 0.039806 86.860055 0.896082 -35.841543 0.895988 -35.840648 0.049287 23.927085
3680.0 0.03508 47.057008 0.895786 -75.363714 0.895693 -75.371515 0.055937 -9.119781
3700.0 0.024498 8.636038 0.895818 -114.899325 0.895618 -114.912342 0.04696 -46.65887
3720.0 0.010807 -27.140246 0.895873 -154.464098 0.895544 -154.474738 0.02411 -87.677734
3740.0 0.002766 88.572074 0.895545 165.95743 0.895168 165.954938 0.005301 77.954444
3760.0 0.012119 65.758771 0.894818 126.400175 0.894514 126.405237 0.029386 20.81137
3780.0 0.015086 27.293563 0.89412 86.883881 0.893956 86.889961 0.039741 -20.010851
3800.0 0.010519 -15.87143 0.893868 47.392626 0.893802 47.392339 0.031923 -58.034616
3820.0 0.002344 -159.558871 0.89396 7.893923 0.893878 7.884817 0.009386 -73.9928
3840.0 0.016092 103.206883 0.893887 -31.620804 0.893685 -31.634296 0.023738 18.606785
3860.0 0.030089 58.804663 0.893398 -71.126665 0.893072 -71.136663 0.05002 -15.326532
3880.0 0.038535 16.13406 0.892904 -110.604317 0.892545 -110.605652 0.062026 -54.606263
3900.0 0.037969 -27.203891 0.892968 -150.079726 0.892698 -150.074013 0.054535 -94.991653
3920.0 0.027582 -73.527125 0.893442 170.395636 0.893315 170.401221 0.029554 -135.846431
3940.0 0.010541 -139.403607 0.893454 130.81194 0.893414 130.810253 0.004426 4.796721
3960.0 0.013971 59.606785 0.892484 91.225901 0.892408 91.215434 0.03549 -37.262583
3980.0 0.030549 1.021816 0.891151 51.698699 0.890946 51.684799 0.052812 -77.912609
4000.0 0.038663 -46.893681 0.890547 12.221498 0.890222 12.212204 0.050826 -117.863208
4020.0 0.035058 -95.069036 0.890871 -27.270322 0.890531 -27.270572 0.031025 -155.726655
4040.0 0.02111 -151.203206 0.891214 -66.808451 0.890978 -66.802319 0.003504 -126.036968
4060.0 0.009664 85.854009 0.890829 -106.350404 0.890737 -106.345599 0.028191 -69.11113
4080.0 0.0249 -13.243318 0.890137 -145.843964 0.890118 -145.847225 0.04523 -105.52664
4100.0 0.03731 -67.615336 0.890084 174.691999 0.890011 174.68019 0.04486 -142.693754
4120.0 0.038039 -118.366969 0.890717 135.185207 0.890507 135.171039 0.027986 -175.564391
4140.0 0.026597 -175.032324 0.891013 95.605621 0.890691 95.597132 0.007119 -137.862869
4160.0 0.012987 83.070825 0.890225 56.005462 0.889906 56.006244 0.027937 -101.333181
4180.0 0.026686 -28.8903 0.888851 16.450492 0.888651 16.456858 0.044707 -131.776051
4200.0 0.044245 -87.071262 0.88793 -23.058218 0.887872 -23.054378 0.047116 -163.601643
4220.0 0.051187 -137.140595 0.887745 -62.567756 0.887743 -62.572642 0.036809 170.834396
4240.0 0.044469 173.238389 0.887733 -102.097612 0.887659 -102.110646 0.023648 166.074198
4260.0 0.026773 117.594378 0.887501 -141.618997 0.887285 -141.633249 0.023495 -179.501657
4280.0 0.010281 8.782098 0.887338 178.891049 0.887021 178.883466 0.028552 170.21818
4300.0 0.022585 -106.248995 0.887579 139.410756 0.887284 139.412503 0.025073 149.930509
4320.0 0.032761 -164.617402 0.887953 99.905998 0.887787 99.912403 0.014057 147.302616
4340.0 0.030238 139.497504 0.887948 60.377976 0.88792 60.380668 0.015768 -165.98786
4360.0 0.018326 63.278576 0.88756 20.850856 0.887571 20.844306 0.029067 -172.279882
4380.0 0.022109 -57.202366 0.887195 -18.674588 0.887118 -18.688714 0.036335 167.989649
4400.0 0.043137 -126.56083 0.886935 -58.22118 0.886711 -58.235306 0.037233 153.477279
4420.0 0.058959 -177.479761 0.886401 -97.788743 0.886089 -97.795287 0.040123 146.264147
4440.0 0.062051 136.309506 0.885477 -137.339558 0.885206 -137.336874 0.048979 132.689634
4460.0 0.051168 92.249245 0.884703 -176.846695 0.884572 -176.840386 0.055359 107.617277
4480.0 0.029923 50.370764 0.884613 143.665892 0.884612 143.667335 0.05072 75.22557
4500.0 0.005576 28.494802 0.884968 104.156035 0.884988 104.14788 0.033041 37.897418
4520.0 0.015753 129.032004 0.885074 64.622047 0.88499 64.607047 0.007377 -18.635996
4540.0 0.025808 87.818176 0.88476 25.099555 0.88453 25.085816 0.019186 157.395821
4560.0 0.023319 38.666295 0.884572 -14.399149 0.884268 -14.4045 0.034458 115.563737
4580.0 0.012714 -38.350938 0.884869 -53.911657 0.884625 -53.908056 0.033401 80.306256
4600.0 0.018896 -160.874282 0.885161 -93.473515 0.885063 -93.467419 0.017595 65.882778
4620.0 0.037356 138.86653 0.884686 -133.061107 0.88471 -133.060957 0.022388 123.860831
