! File created by SignalIntegrity v1.1.13: Signal and Power Integrity Tools
! https://github.com/TeledyneLeCroy/SignalIntegrity
# MHz S MA R 50.0
0.0 0.022313 0.0 1.018319 0.0 1.018319 0.0 0.022313 0.0
20.0 0.017422 -34.953962 1.017623 -40.66659 1.017623 -40.66659 0.017422 -34.953962
40.0 0.006904 -32.642298 1.016134 -81.326977 1.016134 -81.326977 0.006904 -32.642298
60.0 0.014751 10.933044 1.014463 -122.020198 1.014463 -122.020198 0.014751 10.933044
80.0 0.02548 -22.684971 1.012557 -162.759692 1.012557 -162.759692 0.02548 -22.684971
100.0 0.026857 -66.036065 1.010608 156.483447 1.010608 156.483447 0.026857 -66.036065
120.0 0.017457 -114.31777 1.009102 115.734005 1.009102 115.734005 0.017457 -114.31777
140.0 0.00247 124.148168 1.008258 74.994056 1.008258 74.994056 0.00247 124.148168
160.0 0.017727 -12.836927 1.007599 34.259351 1.007599 34.259351 0.017727 -12.836927
180.0 0.029317 -65.753592 1.006476 -6.441933 1.006476 -6.441933 0.029317 -65.753592
200.0 0.030352 -119.792564 1.005203 -47.080902 1.005203 -47.080902 0.030352 -119.792564
220.0 0.021596 175.662249 1.004511 -87.697235 1.004511 -87.697235 0.021596 175.662249
240.0 0.014246 70.745199 1.00415 -128.362227 1.00415 -128.362227 0.014246 70.745199
260.0 0.023316 -28.426343 1.003168 -169.08563 1.003168 -169.08563 0.023316 -28.426343
280.0 0.0314 -94.186334 1.001467 150.192279 1.001467 150.192279 0.0314 -94.186334
300.0 0.029325 -156.315586 1.000219 109.503289 1.000219 109.503289 0.029325 -156.315586
320.0 0.019248 125.543206 1.000017 68.798607 1.000017 68.798607 0.019248 125.543206
340.0 0.018998 8.36765 0.999688 28.048326 0.999688 28.048326 0.018998 8.36765
360.0 0.032745 -74.211443 0.998099 -12.678961 0.998099 -12.678961 0.032745 -74.211443
380.0 0.041123 -137.408978 0.996041 -53.309045 0.996041 -53.309045 0.041123 -137.408978
400.0 0.03822 159.185594 0.99504 -93.890726 0.99504 -93.890726 0.03822 159.185594
420.0 0.028273 80.509949 0.994687 -134.547163 0.994687 -134.547163 0.028273 80.509949
440.0 0.02867 -21.630705 0.992882 -175.29164 0.992882 -175.29164 0.02867 -21.630705
460.0 0.042399 -102.340358 0.989152 144.001732 0.989152 144.001732 0.042399 -102.340358
480.0 0.051677 -165.749066 0.985793 103.408905 0.985793 103.408905 0.051677 -165.749066
500.0 0.048904 134.00892 0.98479 62.837344 0.98479 62.837344 0.048904 134.00892
520.0 0.03536 67.341475 0.985034 22.164205 0.985034 22.164205 0.03536 67.341475
540.0 0.022283 -26.273662 0.984033 -18.57232 0.984033 -18.57232 0.022283 -26.273662
560.0 0.027305 -131.858287 0.981628 -59.226939 0.981628 -59.226939 0.027305 -131.858287
580.0 0.036373 152.912644 0.980005 -99.766761 0.980005 -99.766761 0.036373 152.912644
600.0 0.037064 83.935792 0.980126 -140.315389 0.980126 -140.315389 0.037064 83.935792
620.0 0.032263 5.470065 0.980276 179.040577 0.980276 179.040577 0.032263 5.470065
640.0 0.033437 -83.506742 0.978849 138.377879 0.978849 138.377879 0.033437 -83.506742
660.0 0.041725 -160.584483 0.976964 97.807578 0.976964 97.807578 0.041725 -160.584483
680.0 0.04557 134.758898 0.976809 57.294879 0.976809 57.294879 0.04557 134.758898
700.0 0.038606 72.500458 0.978273 16.71023 0.978273 16.71023 0.038606 72.500458
720.0 0.023245 -2.404596 0.979097 -23.972066 0.979097 -23.972066 0.023245 -2.404596
740.0 0.018664 -123.497741 0.978167 -64.64018 0.978167 -64.64018 0.018664 -123.497741
760.0 0.033182 149.647389 0.97689 -105.215758 0.97689 -105.215758 0.033182 149.647389
780.0 0.042383 87.916522 0.976809 -145.765908 0.976809 -145.765908 0.042383 87.916522
800.0 0.039544 28.536889 0.97729 173.60679 0.97729 173.60679 0.039544 28.536889
820.0 0.027709 -40.927139 0.976725 132.914642 0.976725 132.914642 0.027709 -40.927139
840.0 0.021298 -140.155288 0.975027 92.252805 0.975027 92.252805 0.021298 -140.155288
860.0 0.03032 133.160164 0.973644 51.660605 0.973644 51.660605 0.03032 133.160164
880.0 0.037308 73.775978 0.973464 11.083436 0.973464 11.083436 0.037308 73.775978
900.0 0.033748 24.858155 0.973814 -29.531585 0.973814 -29.531585 0.033748 24.858155
920.0 0.020523 -14.519232 0.97371 -70.169102 0.97371 -70.169102 0.020523 -14.519232
940.0 0.007041 2.343472 0.973039 -110.79324 0.973039 -110.79324 0.007041 2.343472
960.0 0.016491 31.230416 0.972148 -151.404297 0.972148 -151.404297 0.016491 31.230416
980.0 0.023769 -2.061959 0.971088 167.977778 0.971088 167.977778 0.023769 -2.061959
1000.0 0.021553 -39.477264 0.969764 127.353143 0.969764 127.353143 0.021553 -39.477264
1020.0 0.012192 -69.262078 0.968438 86.736575 0.968438 86.736575 0.012192 -69.262078
1040.0 0.005127 -34.225867 0.967561 46.128264 0.967561 46.128264 0.005127 -34.225867
1060.0 0.010145 -20.473063 0.967265 5.51827 0.967265 5.51827 0.010145 -20.473063
1080.0 0.010083 -43.728673 0.967399 -35.094464 0.967399 -35.094464 0.010083 -43.728673
1100.0 0.006002 -22.777439 0.967782 -75.708198 0.967782 -75.708198 0.006002 -22.777439
1120.0 0.014866 -1.968428 0.968129 -116.327988 0.968129 -116.327988 0.014866 -1.968428
1140.0 0.025688 -33.971619 0.968026 -156.953329 0.968026 -156.953329 0.025688 -33.971619
1160.0 0.029196 -74.541042 0.967325 162.430777 0.967325 162.430777 0.029196 -74.541042
1180.0 0.02215 -117.687174 0.966405 121.82802 0.966405 121.82802 0.02215 -117.687174
1200.0 0.006083 -160.779006 0.965574 81.212589 0.965574 81.212589 0.006083 -160.779006
1220.0 0.013349 -30.34606 0.964559 40.569307 0.964559 40.569307 0.013349 -30.34606
1240.0 0.028533 -77.543913 0.963145 -0.068755 0.963145 -0.068755 0.028533 -77.543913
1260.0 0.033283 -128.423294 0.961964 -40.662918 0.961964 -40.662918 0.033283 -128.423294
1280.0 0.026249 171.116593 0.961833 -81.237831 0.961833 -81.237831 0.026249 171.116593
1300.0 0.017389 73.812001 0.96233 -121.854828 0.96233 -121.854828 0.017389 73.812001
1320.0 0.028821 -28.279614 0.962051 -162.508711 0.962051 -162.508711 0.028821 -28.279614
1340.0 0.043796 -92.20391 0.960659 156.880911 0.960659 156.880911 0.043796 -92.20391
1360.0 0.047423 -147.681968 0.959558 116.34447 0.959558 116.34447 0.047423 -147.681968
1380.0 0.036275 154.605493 0.959774 75.791806 0.959774 75.791806 0.036275 154.605493
1400.0 0.017009 68.298736 0.960102 35.132143 0.960102 35.132143 0.017009 68.298736
1420.0 0.025462 -66.151282 0.958719 -5.576509 0.958719 -5.576509 0.025462 -66.151282
1440.0 0.04673 -133.851781 0.956185 -46.193372 0.956185 -46.193372 0.04673 -133.851781
1460.0 0.05628 169.797125 0.955054 -86.700603 0.955054 -86.700603 0.05628 169.797125
1480.0 0.050401 111.810131 0.956296 -127.23983 0.956296 -127.23983 0.050401 111.810131
1500.0 0.034646 40.911428 0.957788 -167.908937 0.957788 -167.908937 0.034646 40.911428
1520.0 0.027726 -59.210526 0.957285 151.381505 0.957285 151.381505 0.027726 -59.210526
1540.0 0.037608 -145.457332 0.955574 110.77408 0.955574 110.77408 0.037608 -145.457332
1560.0 0.042127 149.409442 0.955119 70.249673 0.955119 70.249673 0.042127 149.409442
1580.0 0.032668 83.574088 0.956191 29.656479 0.956191 29.656479 0.032668 83.574088
1600.0 0.019919 -19.647624 0.956417 -11.055701 0.956417 -11.055701 0.019919 -19.647624
1620.0 0.036707 -127.785968 0.954413 -51.75402 0.954413 -51.75402 0.036707 -127.785968
1640.0 0.060134 169.656127 0.951978 -92.313662 0.951978 -92.313662 0.060134 169.656127
1660.0 0.071184 117.193106 0.951594 -132.794975 0.951594 -132.794975 0.071184 117.193106
1680.0 0.064698 67.08436 0.953034 -173.350791 0.953034 -173.350791 0.064698 67.08436
1700.0 0.042861 15.798117 0.953953 145.98441 0.953953 145.98441 0.042861 15.798117
1720.0 0.014598 -52.059373 0.953165 105.317909 0.953165 105.317909 0.014598 -52.059373
1740.0 0.016056 139.529021 0.951874 64.733334 0.951874 64.733334 0.016056 139.529021
1760.0 0.030113 78.546568 0.951557 24.186388 0.951557 24.186388 0.030113 78.546568
1780.0 0.029071 28.078476 0.951972 -16.40738 0.951972 -16.40738 0.029071 28.078476
1800.0 0.014334 -28.389231 0.951992 -57.052249 0.951992 -57.052249 0.014334 -28.389231
1820.0 0.010282 155.368133 0.951389 -97.692814 0.951389 -97.692814 0.010282 155.368133
1840.0 0.030485 93.628955 0.950864 -138.306077 0.950864 -138.306077 0.030485 93.628955
1860.0 0.042688 50.37542 0.950805 -178.920376 0.950805 -178.920376 0.042688 50.37542
1880.0 0.043551 13.003832 0.950831 140.442809 0.950831 140.442809 0.043551 13.003832
1900.0 0.036049 -16.424974 0.95054 99.798654 0.95054 99.798654 0.036049 -16.424974
1920.0 0.027851 -34.034309 0.949977 59.16789 0.949977 59.16789 0.027851 -34.034309
1940.0 0.024486 -47.779306 0.949322 18.554718 0.949322 18.554718 0.024486 -47.779306
1960.0 0.021206 -73.684243 0.948667 -22.042372 0.948667 -22.042372 0.021206 -73.684243
1980.0 0.012849 -117.440105 0.948136 -62.625075 0.948136 -62.625075 0.012849 -117.440105
2000.0 0.006353 126.033148 0.947882 -103.205225 0.947882 -103.205225 0.006353 126.033148
2020.0 0.015721 41.769474 0.947832 -143.802463 0.947832 -143.802463 0.015721 41.769474
2040.0 0.021835 4.254382 0.947699 175.576148 0.947699 175.576148 0.021835 4.254382
2060.0 0.022846 -13.424526 0.947321 134.936917 0.947321 134.936917 0.022846 -13.424526
2080.0 0.029102 -17.561802 0.946631 94.283115 0.946631 94.283115 0.029102 -17.561802
2100.0 0.044569 -36.936564 0.945408 53.625888 0.945408 53.625888 0.044569 -36.936564
2120.0 0.058769 -70.801525 0.943641 13.003399 0.943641 13.003399 0.058769 -70.801525
2140.0 0.062675 -111.84521 0.942095 -27.549723 0.942095 -27.549723 0.062675 -111.84521
2160.0 0.053065 -158.468627 0.941834 -68.06302 0.941834 -68.06302 0.053065 -158.468627
2180.0 0.033499 144.489843 0.942828 -108.61876 0.942828 -108.61876 0.033499 144.489843
2200.0 0.017711 50.505816 0.943722 -149.250584 0.943722 -149.250584 0.017711 50.505816
2220.0 0.02303 -51.444112 0.943559 170.101861 0.943559 170.101861 0.02303 -51.444112
2240.0 0.025039 -114.856242 0.943042 129.497607 0.943042 129.497607 0.025039 -114.856242
2260.0 0.011486 -178.203883 0.943194 88.894293 0.943194 88.894293 0.011486 -178.203883
2280.0 0.017536 -13.82885 0.943294 48.215298 0.943294 48.215298 0.017536 -13.82885
2300.0 0.050191 -70.199684 0.94166 7.502704 0.94166 7.502704 0.050191 -70.199684
2320.0 0.076673 -119.351047 0.938587 -33.10167 0.938587 -33.10167 0.076673 -119.351047
2340.0 0.087484 -167.778823 0.936751 -73.555531 0.936751 -73.555531 0.087484 -167.778823
2360.0 0.078993 142.580482 0.937891 -114.005777 0.937891 -114.005777 0.078993 142.580482
2380.0 0.054565 88.410296 0.94031 -154.610255 0.94031 -154.610255 0.054565 88.410296
2400.0 0.025662 15.172328 0.941016 164.670051 0.941016 164.670051 0.025662 15.172328
2420.0 0.019628 -111.585607 0.93968 124.003806 0.93968 124.003806 0.019628 -111.585607
2440.0 0.02801 166.308886 0.938694 83.442076 0.938694 83.442076 0.02801 166.308886
2460.0 0.022965 92.243802 0.939267 42.855399 0.939267 42.855399 0.022965 92.243802
2480.0 0.020855 -29.432434 0.939524 2.150623 0.939524 2.150623 0.020855 -29.432434
2500.0 0.047428 -116.175465 0.937518 -38.566739 0.937518 -38.566739 0.047428 -116.175465
2520.0 0.075511 -172.635774 0.934533 -79.134724 0.934533 -79.134724 0.075511 -172.635774
2540.0 0.090181 137.637674 0.933637 -119.570854 0.933637 -119.570854 0.090181 137.637674
2560.0 0.085577 90.187658 0.935586 -160.056238 0.935586 -160.056238 0.085577 90.187658
2580.0 0.063049 43.721517 0.937966 159.302623 0.937966 159.302623 0.063049 43.721517
2600.0 0.030555 -1.624448 0.938437 118.58919 0.938437 118.58919 0.030555 -1.624448
2620.0 0.001442 56.214886 0.937346 77.935571 0.937346 77.935571 0.001442 56.214886
2640.0 0.019657 75.618436 0.936439 37.350437 0.936439 37.350437 0.019657 75.618436
2660.0 0.022434 19.776632 0.936131 -3.249386 0.936131 -3.249386 0.022434 19.776632
2680.0 0.016624 -71.837544 0.935441 -43.889577 0.935441 -43.889577 0.016624 -71.837544
2700.0 0.030481 -173.881353 0.934035 -84.510794 0.934035 -84.510794 0.030481 -173.881353
2720.0 0.053747 127.80557 0.932921 -125.073676 0.932921 -125.073676 0.053747 127.80557
2740.0 0.06988 82.056636 0.933036 -165.620916 0.933036 -165.620916 0.06988 82.056636
2760.0 0.073239 42.007569 0.934017 153.784344 0.934017 153.784344 0.073239 42.007569
2780.0 0.064945 7.32909 0.934803 113.137454 0.934803 113.137454 0.064945 7.32909
2800.0 0.051233 -20.520747 0.934836 72.481318 0.934836 72.481318 0.051233 -20.520747
2820.0 0.039129 -41.950673 0.934274 31.851418 0.934274 31.851418 0.039129 -41.950673
2840.0 0.029903 -63.91258 0.933504 -8.745691 0.933504 -8.745691 0.029903 -63.91258
2860.0 0.019352 -95.382846 0.932818 -49.320468 0.932818 -49.320468 0.019352 -95.382846
2880.0 0.007459 -163.105199 0.932414 -89.889573 0.932414 -89.889573 0.007459 -163.105199
2900.0 0.012475 76.197731 0.932333 -130.473325 0.932333 -130.473325 0.012475 76.197731
2920.0 0.022864 36.889527 0.932403 -171.084458 0.932403 -171.084458 0.022864 36.889527
2940.0 0.031197 16.031478 0.932416 148.277707 0.932416 148.277707 0.031197 16.031478
2960.0 0.043463 -0.582563 0.932174 107.617598 0.932174 107.617598 0.043463 -0.582563
2980.0 0.061286 -24.889604 0.931355 66.948425 0.931355 66.948425 0.061286 -24.889604
3000.0 0.077322 -57.707361 0.929799 26.307295 0.929799 26.307295 0.077322 -57.707361
3020.0 0.082977 -96.076644 0.928059 -14.265436 0.928059 -14.265436 0.082977 -96.076644
3040.0 0.073923 -138.606691 0.927228 -54.783349 0.927228 -54.783349 0.073923 -138.606691
3060.0 0.052127 173.48294 0.927687 -95.324633 0.927687 -95.324633 0.052127 173.48294
3080.0 0.026322 110.764494 0.928424 -135.945243 0.928424 -135.945243 0.026322 110.764494
3100.0 0.015161 1.282491 0.928316 -176.605945 0.928316 -176.605945 0.015161 1.282491
3120.0 0.017857 -80.764447 0.927685 142.766411 0.927685 142.766411 0.017857 -80.764447
3140.0 0.007371 -124.406458 0.927671 102.162208 0.927671 102.162208 0.007371 -124.406458
3160.0 0.019699 -15.891688 0.928061 61.503618 0.928061 61.503618 0.019699 -15.891688
3180.0 0.054288 -58.432111 0.927123 20.795513 0.927123 20.795513 0.054288 -58.432111
3200.0 0.084893 -103.582878 0.924322 -19.829419 0.924322 -19.829419 0.084893 -103.582878
3220.0 0.100494 -149.189428 0.921864 -60.280628 0.921864 -60.280628 0.100494 -149.189428
3240.0 0.09545 164.471599 0.922255 -100.66434 0.922255 -100.66434 0.09545 164.471599
3260.0 0.071098 116.181643 0.924945 -141.180678 0.924945 -141.180678 0.071098 116.181643
3280.0 0.035881 61.168572 0.92683 178.12299 0.92683 178.12299 0.035881 61.168572
3300.0 0.009947 -62.637061 0.926238 137.397835 0.926238 137.397835 0.009947 -62.637061
3320.0 0.023911 -178.297108 0.924786 96.773376 0.924786 96.773376 0.023911 -178.297108
3340.0 0.025616 116.646055 0.924531 56.193209 0.924531 56.193209 0.025616 116.646055
3360.0 0.016941 15.940153 0.924834 15.541016 0.924834 15.541016 0.016941 15.940153
3380.0 0.035913 -94.805378 0.923667 -25.150453 0.923667 -25.150453 0.035913 -94.805378
3400.0 0.065892 -154.924939 0.921148 -65.734233 0.921148 -65.734233 0.065892 -154.924939
3420.0 0.085614 155.437481 0.919831 -106.172205 0.919831 -106.172205 0.085614 155.437481
3440.0 0.086675 109.054832 0.921266 -146.611859 0.921266 -146.611859 0.086675 109.054832
3460.0 0.068207 64.512641 0.923871 172.798049 0.923871 172.798049 0.068207 64.512641
3480.0 0.036592 23.295605 0.925029 132.084995 0.925029 132.084995 0.036592 23.295605
3500.0 0.005749 36.320442 0.924226 91.387798 0.924226 91.387798 0.005749 36.320442
3520.0 0.022785 92.433496 0.923033 50.770484 0.923033 50.770484 0.022785 92.433496
3540.0 0.030485 50.835853 0.922532 10.178068 0.922532 10.178068 0.030485 50.835853
3560.0 0.021265 -1.866567 0.922209 -30.441203 0.922209 -30.441203 0.021265 -1.866567
3580.0 0.010113 -128.149946 0.921385 -71.06 0.921385 -71.06 0.010113 -128.149946
3600.0 0.030551 138.168092 0.920457 -111.634638 0.920457 -111.634638 0.030551 138.168092
3620.0 0.049298 90.987041 0.920233 -152.181523 0.920233 -152.181523 0.049298 90.987041
3640.0 0.056571 51.750188 0.920744 167.245124 0.920744 167.245124 0.056571 51.750188
3660.0 0.052261 18.908833 0.921325 126.622773 0.921325 126.622773 0.052261 18.908833
3680.0 0.042348 -5.067743 0.921517 85.970171 0.921517 85.970171 0.042348 -5.067743
3700.0 0.034696 -20.564467 0.921326 45.309427 0.921326 45.309427 0.034696 -20.564467
3720.0 0.030062 -37.560985 0.920868 4.651406 0.920868 4.651406 0.030062 -37.560985
3740.0 0.02221 -61.46891 0.920229 -35.993556 0.920229 -35.993556 0.02221 -61.46891
3760.0 0.008889 -82.62763 0.919585 -76.615433 0.919585 -76.615433 0.008889 -82.62763
3780.0 0.0074 27.416303 0.919133 -117.215873 0.919133 -117.215873 0.0074 27.416303
3800.0 0.018273 8.387114 0.918888 -157.80333 0.918888 -157.80333 0.018273 8.387114
3820.0 0.021243 -12.596914 0.918797 161.618165 0.918797 161.618165 0.021243 -12.596914
3840.0 0.021376 -13.699533 0.918873 121.038957 0.918873 121.038957 0.021376 -13.699533
3860.0 0.032321 -14.363775 0.918932 80.44015 0.918932 80.44015 0.032321 -14.363775
3880.0 0.049094 -38.535169 0.918515 39.822062 0.918515 39.822062 0.049094 -38.535169
3900.0 0.059029 -74.069459 0.91751 -0.780706 0.91751 -0.780706 0.059029 -74.069459
3920.0 0.05494 -114.882499 0.916635 -41.344754 0.916635 -41.344754 0.05494 -114.882499
3940.0 0.036153 -160.898605 0.916651 -81.910401 0.916651 -81.910401 0.036153 -160.898605
3960.0 0.00995 120.901229 0.917113 -122.539356 0.917113 -122.539356 0.00995 120.901229
3980.0 0.022676 -38.751464 0.916788 -163.216329 0.916788 -163.216329 0.022676 -38.751464
4000.0 0.03994 -92.913831 0.915491 156.148293 0.915491 156.148293 0.03994 -92.913831
4020.0 0.04033 -142.351627 0.91457 115.59439 0.91457 115.59439 0.04033 -142.351627
4040.0 0.023444 161.43728 0.914956 75.044848 0.914956 75.044848 0.023444 161.43728
4060.0 0.011781 5.467032 0.915551 34.418294 0.915551 34.418294 0.011781 5.467032
4080.0 0.039592 -76.136978 0.914751 -6.237241 0.914751 -6.237241 0.039592 -76.136978
4100.0 0.059566 -127.310067 0.91301 -46.808561 0.91301 -46.808561 0.059566 -127.310067
4120.0 0.061623 -176.251887 0.912449 -87.298252 0.912449 -87.298252 0.061623 -176.251887
4140.0 0.044521 131.95351 0.913733 -127.848286 0.913733 -127.848286 0.044521 131.95351
4160.0 0.016651 53.439771 0.914808 -168.544185 0.914808 -168.544185 0.016651 53.439771
4180.0 0.026459 -97.481854 0.913693 150.718811 0.913693 150.718811 0.026459 -97.481854
4200.0 0.050105 -158.264012 0.911356 110.097832 0.911356 110.097832 0.050105 -158.264012
4220.0 0.05708 150.995532 0.910368 69.589241 0.910368 69.589241 0.05708 150.995532
4240.0 0.044555 99.473325 0.911319 29.048472 0.911319 29.048472 0.044555 99.473325
4260.0 0.01904 30.022547 0.912214 -11.593216 0.912214 -11.593216 0.01904 30.022547
4280.0 0.021132 -124.703737 0.91154 -52.239476 0.91154 -52.239476 0.021132 -124.703737
4300.0 0.044421 170.662219 0.910353 -92.784826 0.910353 -92.784826 0.044421 170.662219
4320.0 0.053125 120.848441 0.910496 -133.273035 0.910496 -133.273035 0.053125 120.848441
4340.0 0.043078 72.644718 0.911832 -173.830001 0.911832 -173.830001 0.043078 72.644718
4360.0 0.018347 17.594963 0.91257 145.513911 0.91257 145.513911 0.018347 17.594963
4380.0 0.014394 -168.342293 0.911864 104.847975 0.911864 104.847975 0.014394 -168.342293
4400.0 0.039478 134.344267 0.910764 64.24149 0.910764 64.24149 0.039478 134.344267
4420.0 0.05167 90.177648 0.910446 23.660085 0.910446 23.660085 0.05167 90.177648
4440.0 0.047806 50.106046 0.910697 -16.958199 0.910697 -16.958199 0.047806 50.106046
4460.0 0.031755 17.572153 0.910639 -57.608431 0.910639 -57.608431 0.031755 17.572153
4480.0 0.015196 16.160502 0.91012 -98.240922 0.91012 -98.240922 0.015196 16.160502
4500.0 0.017944 41.879869 0.90969 -138.837704 0.90969 -138.837704 0.017944 41.879869
4520.0 0.022663 20.036814 0.909623 -179.423722 0.909623 -179.423722 0.022663 20.036814
4540.0 0.016489 -13.628627 0.909664 139.981848 0.909664 139.981848 0.016489 -13.628627
4560.0 0.001564 -31.287669 0.909618 99.383781 0.909618 99.383781 0.001564 -31.287669
4580.0 0.015936 90.057926 0.90958 58.784421 0.90958 58.784421 0.015936 90.057926
4600.0 0.029216 58.169187 0.909595 18.173736 0.909595 18.173736 0.029216 58.169187
4620.0 0.035779 31.362064 0.909518 -22.452297 0.909518 -22.452297 0.035779 31.362064
