!  .\\filter.s2p

! 

!  written by LeCroy Virtual Probe(tm)

! 

!  freq S11 S21 

!  S12 S22 

!  

# MHz S MA R 50.0
0.0 0.024586 0.0 0.987965 0.0 0.987965 0.0 0.002235 180.0
10.0 0.024957 -7.166088 0.987666 -2.182311 0.987666 -2.182311 0.001868 179.333277
20.0 0.025838 -14.658335 0.987157 -4.349216 0.987157 -4.349216 0.001191 -166.861735
30.0 0.02727 -22.27163 0.986367 -6.506003 0.986367 -6.506003 0.00094 -91.989802
40.0 0.029142 -30.216415 0.985475 -8.643014 0.985475 -8.643014 0.002463 -61.834656
50.0 0.031397 -38.339771 0.984512 -10.762639 0.984512 -10.762639 0.004626 -58.983867
60.0 0.033878 -46.694274 0.983677 -12.862398 0.983677 -12.862398 0.007115 -62.819015
70.0 0.036492 -55.06526 0.982988 -14.948331 0.982988 -14.948331 0.009864 -67.67169
80.0 0.039089 -63.461791 0.982601 -17.022966 0.982601 -17.022966 0.012747 -73.701631
90.0 0.041586 -71.666763 0.982469 -19.094557 0.982469 -19.094557 0.015696 -79.59554
100.0 0.043888 -79.715611 0.982668 -21.16731 0.982668 -21.16731 0.018645 -85.837147
110.0 0.045956 -87.417958 0.983084 -23.247965 0.983084 -23.247965 0.021509 -91.757337
120.0 0.047784 -94.884744 0.983736 -25.339868 0.983736 -25.339868 0.024305 -97.73352
130.0 0.049375 -101.960952 0.984487 -27.44582 0.984487 -27.44582 0.026922 -103.391471
140.0 0.050826 -109.00084 0.985327 -29.574694 0.985327 -29.574694 0.029526 -108.873881
150.0 0.051714 -115.891386 0.98578 -31.716753 0.98578 -31.716753 0.032103 -114.537149
160.0 0.052333 -122.344726 0.986261 -33.853025 0.986261 -33.853025 0.034343 -120.456231
170.0 0.052824 -128.779498 0.986658 -36.006019 0.986658 -36.006019 0.036325 -126.117398
180.0 0.052833 -135.50749 0.986872 -38.163959 0.986872 -38.163959 0.038045 -132.021838
190.0 0.051812 -142.196776 0.986756 -40.329983 0.986756 -40.329983 0.03931 -137.787407
200.0 0.050004 -148.15397 0.98636 -42.483449 0.98636 -42.483449 0.040187 -143.634379
210.0 0.047866 -153.36728 0.98577 -44.630692 0.98577 -44.630692 0.040485 -149.140665
220.0 0.045608 -157.958899 0.985013 -46.75481 0.985013 -46.75481 0.040557 -154.427253
230.0 0.043265 -162.191019 0.984403 -48.862697 0.984403 -48.862697 0.040241 -159.565739
240.0 0.040691 -166.107183 0.983932 -50.957656 0.983932 -50.957656 0.039653 -164.653034
250.0 0.037834 -169.573156 0.983722 -53.045913 0.983722 -53.045913 0.03861 -169.599296
260.0 0.034701 -172.397716 0.983736 -55.131019 0.983736 -55.131019 0.037291 -174.451783
270.0 0.031316 -174.262485 0.984079 -57.218974 0.984079 -57.218974 0.035503 -179.168643
280.0 0.027808 -174.719351 0.984691 -59.317854 0.984691 -59.317854 0.033452 176.217694
290.0 0.02418 -173.230056 0.985654 -61.442521 0.985654 -61.442521 0.030813 171.415239
300.0 0.020533 -167.296995 0.986251 -63.61499 0.986251 -63.61499 0.027273 166.951945
310.0 0.018745 -154.035975 0.98609 -65.777199 0.98609 -65.777199 0.022946 165.151349
320.0 0.020133 -140.485344 0.985989 -67.922086 0.985989 -67.922086 0.019158 167.155991
330.0 0.023809 -131.453979 0.986013 -70.070953 0.986013 -70.070953 0.015759 173.76067
340.0 0.028979 -128.953769 0.985912 -72.251909 0.985912 -72.251909 0.014303 -172.723249
350.0 0.033669 -130.090138 0.984869 -74.426388 0.984869 -74.426388 0.014764 -160.877949
360.0 0.03818 -132.388227 0.9838 -76.569432 0.9838 -76.569432 0.016217 -151.732055
370.0 0.042169 -135.746076 0.982386 -78.702138 0.982386 -78.702138 0.018337 -146.639377
380.0 0.045831 -139.16721 0.981121 -80.795654 0.981121 -80.795654 0.020479 -143.915703
390.0 0.049309 -143.029365 0.980003 -82.886088 0.980003 -82.886088 0.022792 -142.546657
400.0 0.052504 -147.06534 0.979027 -84.955464 0.979027 -84.955464 0.025134 -142.48835
410.0 0.055479 -151.384919 0.978212 -87.023173 0.978212 -87.023173 0.0275 -143.16787
420.0 0.058172 -155.864536 0.977565 -89.074176 0.977565 -89.074176 0.029842 -144.661821
430.0 0.060606 -160.588727 0.977137 -91.1247 0.977137 -91.1247 0.032133 -146.603702
440.0 0.06272 -165.482068 0.976948 -93.162709 0.976948 -93.162709 0.034352 -149.143464
450.0 0.064508 -170.616284 0.977064 -95.205348 0.977064 -95.205348 0.036437 -152.009279
460.0 0.065908 -175.917947 0.977483 -97.243873 0.977483 -97.243873 0.038374 -155.358047
470.0 0.06692 178.542376 0.978238 -99.297761 0.978238 -99.297761 0.04007 -158.94779
480.0 0.067512 172.843278 0.979271 -101.360055 0.979271 -101.360055 0.041519 -162.911085
490.0 0.067755 166.837676 0.980544 -103.454079 0.980544 -103.454079 0.042652 -166.977096
500.0 0.067558 160.457676 0.981784 -105.573925 0.981784 -105.573925 0.043563 -171.341899
510.0 0.066644 153.383569 0.982623 -107.73318 0.982623 -107.73318 0.044227 -175.926779
520.0 0.064326 146.069236 0.982711 -109.87909 0.982711 -109.87909 0.044509 178.699346
530.0 0.061253 139.013214 0.982826 -112.010709 0.982826 -112.010709 0.043814 173.159389
540.0 0.057649 131.932379 0.982824 -114.138315 0.982824 -114.138315 0.042613 167.690958
550.0 0.053594 124.87701 0.982809 -116.263369 0.982809 -116.263369 0.040729 162.27511
560.0 0.049173 117.714698 0.98269 -118.381442 0.98269 -118.381442 0.038454 157.042147
570.0 0.044457 110.449293 0.982616 -120.496131 0.982616 -120.496131 0.035646 151.958369
580.0 0.039501 102.913436 0.982517 -122.603402 0.982517 -122.603402 0.032576 147.206756
590.0 0.034358 95.050196 0.982551 -124.709563 0.982551 -124.709563 0.029128 142.721393
600.0 0.029072 86.564047 0.982623 -126.812853 0.982623 -126.812853 0.025556 138.813455
610.0 0.023694 77.196314 0.982857 -128.921077 0.982857 -128.921077 0.021759 135.422885
620.0 0.018307 66.1014 0.983103 -131.033191 0.983103 -131.033191 0.017968 133.192919
630.0 0.013032 51.642621 0.983434 -133.155764 0.983434 -133.155764 0.014106 132.409645
640.0 0.008253 28.096501 0.983659 -135.28546 0.983659 -135.28546 0.010432 135.188391
650.0 0.005329 -20.666794 0.983839 -137.425482 0.983839 -137.425482 0.007051 145.279553
660.0 0.006866 -78.136369 0.983793 -139.569275 0.983793 -139.569275 0.004943 173.974051
670.0 0.010762 -107.582044 0.983629 -141.71822 0.983629 -141.71822 0.005499 -146.564785
680.0 0.01495 -124.977058 0.983221 -143.864543 0.983221 -143.864543 0.00824 -127.508689
690.0 0.018843 -139.107562 0.982745 -146.019836 0.982745 -146.019836 0.011535 -122.192872
700.0 0.021736 -151.633953 0.981578 -148.178177 0.981578 -148.178177 0.014518 -122.476256
710.0 0.023712 -162.072578 0.979954 -150.297149 0.979954 -150.297149 0.017072 -122.871494
720.0 0.02523 -171.347407 0.978437 -152.374705 0.978437 -152.374705 0.0197 -124.04441
730.0 0.026284 179.618861 0.977282 -154.431425 0.977282 -154.431425 0.02216 -125.863533
740.0 0.026823 170.747271 0.976404 -156.471667 0.976404 -156.471667 0.024458 -128.337832
750.0 0.02694 161.881431 0.975982 -158.506161 0.975982 -158.506161 0.026429 -130.975535
760.0 0.026659 152.926402 0.975848 -160.540962 0.975848 -160.540962 0.028123 -133.863926
770.0 0.026121 143.803046 0.976093 -162.583349 0.976093 -162.583349 0.02941 -136.61575
780.0 0.025407 134.316717 0.976488 -164.636864 0.976488 -164.636864 0.030387 -139.321924
790.0 0.024673 124.35185 0.97709 -166.703602 0.97709 -166.703602 0.030963 -141.670586
800.0 0.024048 113.6285 0.977671 -168.783414 0.977671 -168.783414 0.031271 -143.742784
810.0 0.023694 102.007486 0.978314 -170.874504 0.978314 -170.874504 0.031263 -145.262442
820.0 0.023792 89.311381 0.978841 -172.975156 0.978841 -172.975156 0.031097 -146.304214
830.0 0.024514 75.549156 0.979369 -175.083646 0.979369 -175.083646 0.030785 -146.614621
840.0 0.026054 60.941645 0.979762 -177.199128 0.979762 -177.199128 0.030525 -146.306274
850.0 0.028555 45.442507 0.980066 -179.328731 0.980066 -179.328731 0.030445 -145.437243
860.0 0.031542 29.396434 0.979773 178.54643 0.979773 178.54643 0.030363 -144.516849
870.0 0.034755 14.330202 0.979561 176.454005 0.979561 176.454005 0.030321 -142.502991
880.0 0.038425 0.473193 0.979593 174.367629 0.979593 174.367629 0.030826 -140.134712
890.0 0.04233 -12.321786 0.979976 172.281655 0.979976 172.281655 0.031785 -137.577575
900.0 0.046385 -24.115015 0.980506 170.179525 0.980506 170.179525 0.033271 -135.563148
910.0 0.050335 -35.071428 0.981175 168.063384 0.981175 168.063384 0.035037 -133.893619
920.0 0.054091 -45.209573 0.981703 165.923788 0.981703 165.923788 0.037089 -132.905554
930.0 0.057468 -54.671774 0.982048 163.771961 0.982048 163.771961 0.039227 -132.169547
940.0 0.060427 -63.420295 0.981977 161.606484 0.981977 161.606484 0.041527 -131.866175
950.0 0.06289 -71.575335 0.981544 159.4461 0.981544 159.4461 0.043911 -131.599602
960.0 0.064885 -79.076984 0.980668 157.292097 0.980668 157.292097 0.046544 -131.611285
970.0 0.066442 -86.061513 0.979558 155.163677 0.979558 155.163677 0.049421 -131.665295
980.0 0.067618 -92.488081 0.978286 153.056224 0.978286 153.056224 0.052697 -132.109211
990.0 0.06849 -98.542661 0.977151 150.982312 0.977151 150.982312 0.056322 -132.813363
1000.0 0.069052 -104.210404 0.976262 148.925493 0.976262 148.925493 0.06032 -134.120125
1010.0 0.06934 -109.71367 0.975864 146.890332 0.975864 146.890332 0.064523 -135.855223
1020.0 0.0692 -115.006427 0.975959 144.849135 0.975959 144.849135 0.06881 -138.25643
1030.0 0.068619 -120.292471 0.976617 142.805302 0.976617 142.805302 0.072946 -141.046355
1040.0 0.067257 -125.390616 0.977668 140.724089 0.977668 140.724089 0.076714 -144.409366
1050.0 0.065177 -130.44721 0.978993 138.620916 0.978993 138.620916 0.079949 -147.954222
1060.0 0.0616 -134.837437 0.980318 136.434818 0.980318 136.434818 0.082197 -152.154845
1070.0 0.058012 -137.705187 0.979978 134.228188 0.979978 134.228188 0.082443 -155.721732
1080.0 0.05453 -140.342293 0.979243 132.070969 0.979243 132.070969 0.082764 -158.476615
1090.0 0.050323 -142.13767 0.978415 129.91982 0.978415 129.91982 0.08274 -161.00979
1100.0 0.045722 -142.465773 0.97735 127.784738 0.97735 127.784738 0.082678 -163.12057
1110.0 0.040937 -140.187241 0.976173 125.662425 0.976173 125.662425 0.08245 -164.918705
1120.0 0.037166 -133.786739 0.974804 123.552686 0.974804 123.552686 0.08244 -166.37271
1130.0 0.03653 -123.584865 0.973111 121.468266 0.973111 121.468266 0.082399 -167.528254
1140.0 0.04014 -114.237793 0.971407 119.433898 0.971407 119.433898 0.082965 -168.270826
1150.0 0.046982 -109.027568 0.970206 117.443646 0.970206 117.443646 0.084181 -168.976164
1160.0 0.055451 -108.168091 0.969757 115.485994 0.969757 115.485994 0.086246 -169.852671
1170.0 0.064094 -110.202092 0.970383 113.543837 0.970383 113.543837 0.088757 -171.183592
1180.0 0.072181 -113.977709 0.972178 111.585372 0.972178 111.585372 0.091696 -173.059087
1190.0 0.079179 -118.820546 0.974919 109.585877 0.974919 109.585877 0.094306 -175.664788
1200.0 0.08454 -124.235756 0.978404 107.534022 0.978404 107.534022 0.096199 -178.728383
1210.0 0.088104 -129.67923 0.982492 105.407876 0.982492 105.407876 0.09695 177.903314
1220.0 0.089984 -134.936665 0.986593 103.189089 0.986593 103.189089 0.096538 174.515771
1230.0 0.090232 -139.734688 0.990138 100.881317 0.990138 100.881317 0.094786 171.299634
1240.0 0.089142 -143.863141 0.9925 98.496714 0.9925 98.496714 0.09205 168.602746
1250.0 0.087025 -146.990472 0.993282 96.066223 0.993282 96.066223 0.088572 166.53508
1260.0 0.084732 -148.826242 0.992209 93.62064 0.992209 93.62064 0.084805 165.307971
1270.0 0.083287 -149.385245 0.98933 91.203329 0.98933 91.203329 0.080994 165.013033
1280.0 0.083647 -149.228969 0.984913 88.845221 0.984913 88.845221 0.077757 165.83684
1290.0 0.085951 -149.183877 0.979498 86.578067 0.979498 86.578067 0.075549 167.670941
1300.0 0.089871 -149.884834 0.973703 84.407515 0.973703 84.407515 0.075061 170.186922
1310.0 0.094714 -151.618368 0.968154 82.336154 0.968154 82.336154 0.076336 172.75299
1320.0 0.099811 -154.452031 0.963268 80.338529 0.963268 80.338529 0.079524 174.733833
1330.0 0.104268 -158.174571 0.959314 78.412034 0.959314 78.412034 0.083738 175.692265
1340.0 0.107878 -162.492617 0.956757 76.515482 0.956757 76.515482 0.088846 175.745276
1350.0 0.11012 -167.37261 0.955208 74.625264 0.955208 74.625264 0.094085 174.722609
1360.0 0.110616 -172.409435 0.95482 72.732143 0.95482 72.732143 0.099032 173.057165
1370.0 0.109562 -177.430255 0.955406 70.807212 0.955406 70.807212 0.103438 170.913663
1380.0 0.10695 177.754171 0.956699 68.83617 0.956699 68.83617 0.107388 168.524009
1390.0 0.103067 173.299718 0.958249 66.811823 0.958249 66.811823 0.110691 165.900927
1400.0 0.098069 169.417603 0.959834 64.740695 0.959834 64.740695 0.113523 163.254741
1410.0 0.09251 166.29639 0.961092 62.625475 0.961092 62.625475 0.115848 160.499586
1420.0 0.086647 164.095798 0.961973 60.487221 0.961973 60.487221 0.117862 157.817731
1430.0 0.081353 163.031773 0.962287 58.316405 0.962287 58.316405 0.119692 154.917201
1440.0 0.076927 162.601736 0.961572 56.157892 0.961572 56.157892 0.120658 151.941217
1450.0 0.073093 162.883353 0.960651 54.041134 0.960651 54.041134 0.121165 149.131496
1460.0 0.070268 163.785998 0.959749 51.944583 0.959749 51.944583 0.121532 146.340068
1470.0 0.068411 165.026081 0.959024 49.870475 0.959024 49.870475 0.121571 143.489495
1480.0 0.067552 166.334192 0.95854 47.802952 0.95854 47.802952 0.121213 140.575072
1490.0 0.067387 167.447659 0.958322 45.74485 0.958322 45.74485 0.120201 137.634427
1500.0 0.067746 168.383759 0.958484 43.68117 0.958484 43.68117 0.118645 134.795192
1510.0 0.068563 169.127286 0.958909 41.60374 0.958909 41.60374 0.116527 132.055889
1520.0 0.069842 169.678197 0.959453 39.503427 0.959453 39.503427 0.113943 129.538126
1530.0 0.071599 169.998136 0.95992 37.383105 0.95992 37.383105 0.111003 127.263749
1540.0 0.073898 170.02974 0.960165 35.243643 0.960165 35.243643 0.107899 125.325093
1550.0 0.076758 169.659051 0.960055 33.097076 0.960055 33.097076 0.104806 123.702371
1560.0 0.080154 168.780745 0.95958 30.950655 0.95958 30.950655 0.101917 122.418155
1570.0 0.083975 167.28966 0.958774 28.818292 0.958774 28.818292 0.099355 121.386387
1580.0 0.088036 165.144101 0.957787 26.704377 0.957787 26.704377 0.097224 120.560583
1590.0 0.092109 162.341078 0.956773 24.616036 0.956773 24.616036 0.095512 119.816806
1600.0 0.095936 158.937304 0.955935 22.54838 0.955935 22.54838 0.094208 119.093324
1610.0 0.0993 155.011453 0.955408 20.499092 0.955408 20.499092 0.093182 118.29469
1620.0 0.101995 150.664946 0.955311 18.455108 0.955311 18.455108 0.092369 117.408455
1630.0 0.103912 146.001342 0.955644 16.409185 0.955644 16.409185 0.091607 116.409564
1640.0 0.104968 141.118808 0.956379 14.347216 0.956379 14.347216 0.090881 115.350279
1650.0 0.105208 136.108175 0.957377 12.264535 0.957377 12.264535 0.090102 114.254401
1660.0 0.104679 131.034831 0.958517 10.153297 0.958517 10.153297 0.089369 113.200309
1670.0 0.103641 125.916908 0.959619 8.009632 0.959619 8.009632 0.0888 112.185362
1680.0 0.101979 120.627524 0.960265 5.837135 0.960265 5.837135 0.088474 111.053082
1690.0 0.099777 115.379354 0.960612 3.661411 0.960612 3.661411 0.088203 109.931635
1700.0 0.097468 109.859355 0.960421 1.455263 0.960421 1.455263 0.088607 108.574849
1710.0 0.094232 103.969586 0.959176 -0.720169 0.959176 -0.720169 0.088703 106.626748
1720.0 0.090303 98.117408 0.957905 -2.850982 0.957905 -2.850982 0.0885 104.639356
1730.0 0.085997 92.123197 0.956597 -4.952008 0.956597 -4.952008 0.088163 102.407104
1740.0 0.081255 85.988593 0.955589 -7.022991 0.955589 -7.022991 0.087632 100.044289
1750.0 0.076155 79.62289 0.954888 -9.072963 0.954888 -9.072963 0.086842 97.41633
1760.0 0.070642 73.026081 0.95476 -11.110387 0.95476 -11.110387 0.085756 94.663116
1770.0 0.064783 66.136585 0.955105 -13.148755 0.955105 -13.148755 0.084323 91.666081
1780.0 0.058548 58.959386 0.956036 -15.199062 0.956036 -15.199062 0.082517 88.575945
1790.0 0.052041 51.458362 0.957298 -17.273722 0.957298 -17.273722 0.08033 85.271754
1800.0 0.045287 43.632782 0.958862 -19.378254 0.958862 -19.378254 0.077739 81.906254
1810.0 0.038441 35.455447 0.960377 -21.517309 0.960377 -21.517309 0.074775 78.347619
1820.0 0.031583 26.871633 0.961776 -23.685785 0.961776 -23.685785 0.071406 74.748151
1830.0 0.0249 17.783653 0.962754 -25.879019 0.962754 -25.879019 0.067699 70.960013
1840.0 0.018497 7.855425 0.963346 -28.083401 0.963346 -28.083401 0.063601 67.133079
1850.0 0.01255 -3.651019 0.963406 -30.290815 0.963406 -30.290815 0.05921 63.100613
1860.0 0.007192 -19.803658 0.963125 -32.487316 0.963125 -32.487316 0.054444 59.01159
1870.0 0.002928 -59.099502 0.962502 -34.669574 0.962502 -34.669574 0.049426 54.68464
1880.0 0.003227 -155.957265 0.961811 -36.829929 0.961811 -36.829929 0.044058 50.271931
1890.0 0.006383 172.132376 0.961086 -38.973606 0.961086 -38.973606 0.038502 45.572937
1900.0 0.009264 156.56884 0.960565 -41.099836 0.960565 -41.099836 0.032659 40.728561
1910.0 0.011618 144.078678 0.960217 -43.220288 0.960217 -43.220288 0.02674 35.461548
1920.0 0.013457 132.454792 0.960169 -45.336958 0.960169 -45.336958 0.020652 29.765265
1930.0 0.014858 120.691628 0.960284 -47.462244 0.960284 -47.462244 0.014659 22.859614
1940.0 0.015907 108.473212 0.960588 -49.595101 0.960588 -49.595101 0.0087 12.769887
1950.0 0.016761 95.432463 0.960885 -51.743831 0.960885 -51.743831 0.003371 -16.7596
1960.0 0.017552 81.498339 0.961172 -53.901296 0.961172 -53.901296 0.003766 -127.08256
1970.0 0.018503 66.707185 0.961283 -56.071094 0.961283 -56.071094 0.008716 -151.37659
1980.0 0.019773 51.346377 0.961264 -58.241824 0.961264 -58.241824 0.013739 -160.515047
1990.0 0.021561 35.93303 0.961029 -60.41592 0.961029 -60.41592 0.018378 -166.521652
2000.0 0.023955 20.940799 0.960688 -62.581761 0.960688 -62.581761 0.022764 -171.376041
2010.0 0.027013 6.834742 0.960226 -64.744302 0.960226 -64.744302 0.026688 -175.62142
2020.0 0.030707 -6.258568 0.959781 -66.894838 0.959781 -66.894838 0.030324 -179.44011
2030.0 0.034973 -18.267944 0.959355 -69.042619 0.959355 -69.042619 0.033477 176.995808
2040.0 0.03974 -29.339746 0.95906 -71.18207 0.95906 -71.18207 0.036312 173.724254
2050.0 0.044893 -39.576336 0.958867 -73.325939 0.958867 -73.325939 0.038646 170.629952
2060.0 0.05037 -49.155758 0.958822 -75.470545 0.958822 -75.470545 0.040645 167.828752
2070.0 0.055993 -58.254077 0.95877 -77.630499 0.95877 -77.630499 0.04214 165.15237
2080.0 0.061556 -66.87407 0.95864 -79.789795 0.95864 -79.789795 0.043162 162.820886
2090.0 0.067022 -74.995698 0.958498 -81.957341 0.958498 -81.957341 0.043654 160.954011
2100.0 0.072351 -82.753208 0.958269 -84.126954 0.958269 -84.126954 0.043863 159.67999
2110.0 0.077397 -90.176454 0.95791 -86.303662 0.95791 -86.303662 0.043726 158.997712
2120.0 0.082121 -97.300931 0.957398 -88.475848 0.957398 -88.475848 0.043528 159.090713
2130.0 0.086404 -104.147543 0.956755 -90.647899 0.956755 -90.647899 0.043284 159.902362
2140.0 0.090242 -110.71527 0.956021 -92.808345 0.956021 -92.808345 0.043337 161.53091
2150.0 0.093556 -117.036172 0.955268 -94.965357 0.955268 -94.965357 0.043759 163.744989
2160.0 0.096363 -123.084427 0.954552 -97.109851 0.954552 -97.109851 0.044864 166.428109
2170.0 0.098653 -128.941125 0.953934 -99.258522 0.953934 -99.258522 0.046734 169.159431
2180.0 0.100246 -134.574127 0.953243 -101.399206 0.953243 -101.399206 0.04947 171.496062
2190.0 0.101223 -139.887415 0.952701 -103.535713 0.952701 -103.535713 0.052755 173.34395
2200.0 0.101711 -144.916733 0.952281 -105.670462 0.952281 -105.670462 0.056794 174.66075
2210.0 0.101695 -149.672417 0.951992 -107.812905 0.951992 -107.812905 0.061311 175.33559
2220.0 0.10124 -154.149298 0.951733 -109.95929 0.951733 -109.95929 0.066412 175.426808
2230.0 0.100344 -158.354024 0.951507 -112.117034 0.951507 -112.117034 0.071823 174.926344
2240.0 0.099056 -162.261154 0.951195 -114.279108 0.951195 -114.279108 0.077641 173.92672
2250.0 0.097392 -165.863027 0.950823 -116.450907 0.950823 -116.450907 0.083605 172.430052
2260.0 0.095404 -169.110193 0.950278 -118.623492 0.950278 -118.623492 0.089781 170.516791
2270.0 0.093152 -171.969512 0.949626 -120.800956 0.949626 -120.800956 0.095872 168.185141
2280.0 0.090731 -174.370878 0.948768 -122.974014 0.948768 -122.974014 0.101877 165.527376
2290.0 0.088277 -176.267053 0.947817 -125.146263 0.947817 -125.146263 0.107464 162.567296
2300.0 0.085967 -177.604405 0.946685 -127.309528 0.946685 -127.309528 0.112621 159.434097
