! H:\TexProjects\Book\Transmission Lines\cable.s2p
!
! Sat Aug 28 17:57:00 2010
!
! freq S11 S21 
! S12 S22 
! 
# MHz S MA R 50.00
    0.000   0.003577 143.398806   0.999994  -0.285810 
  0.999994  -0.347998   0.003577  35.967387 
   10.000   0.004795  54.519972   0.997943  -8.266043 
  0.997541  -8.252490   0.004829  53.478720 
   20.000   0.008705  43.599757   0.996526 -16.368630 
  0.996832 -16.341287   0.007652  56.809547 
   30.000   0.010389  48.497637   0.995129 -24.539389 
  0.995137 -24.457789   0.010636  40.169072 
   40.000   0.012341  47.653483   0.996410 -32.575577 
  0.996353 -32.591281   0.012113  42.291857 
   50.000   0.014315  36.022282   0.995206 -40.676104 
  0.995455 -40.736816   0.014419  32.958718 
   60.000   0.015913  31.454963   0.995533 -48.804616 
  0.994371 -48.796217   0.015602  18.872993 
   70.000   0.017800  24.199141   0.994701 -56.902699 
  0.993682 -56.926273   0.017408  15.368564 
   80.000   0.018730  16.111916   0.993751 -65.007134 
  0.993680 -64.997060   0.019033   4.810390 
   90.000   0.019055   7.846771   0.993630 -73.119007 
  0.992280 -73.071559   0.019251   0.861054 
  100.000   0.020233   1.898794   0.993556 -81.228653 
  0.992651 -81.207377   0.019638  -7.162796 
  110.000   0.020449  -4.595181   0.992155 -89.282360 
  0.992175 -89.302842   0.019954 -14.258117 
  120.000   0.020007 -11.531110   0.992255 -97.386154 
  0.992031 -97.381490   0.020026 -22.513346 
  130.000   0.019449 -20.651693   0.992069 -105.470717 
  0.991684 -105.488458   0.019640 -30.366664 
  140.000   0.019105 -25.830597   0.992049 -113.585889 
  0.992522 -113.627002   0.019067 -39.245726 
  150.000   0.017968 -32.650656   0.991667 -121.664684 
  0.992206 -121.687703   0.017177 -49.350551 
  160.000   0.016508 -39.111183   0.991750 -129.740710 
  0.991384 -129.729653   0.015805 -59.595973 
  170.000   0.015255 -49.838627   0.991681 -137.909089 
  0.991699 -137.855059   0.014828 -67.336888 
  180.000   0.012230 -56.032383   0.991181 -145.941562 
  0.991718 -145.989343   0.013695 -80.971692 
  190.000   0.010607 -64.261116   0.991620 -154.055986 
  0.990765 -154.076626   0.012597 -95.329617 
  200.000   0.008689 -74.890049   0.991938 -162.160347 
  0.991729 -162.199376   0.010642 -115.448276 
  210.000   0.005865 -83.793913   0.992088 -170.282955 
  0.992176 -170.329914   0.008274 -138.904302 
  220.000   0.003044 -118.408102   0.991725 -178.383245 
  0.991905 -178.408760   0.007245 -168.110039 
  230.000   0.001363 121.281699   0.991893 173.437575 
  0.991887 173.452423   0.008028 164.175187 
  240.000   0.004551  80.692687   0.992200 165.399961 
  0.992228 165.330929   0.009579 135.193706 
  250.000   0.008261  66.989827   0.992140 157.207240 
  0.991896 157.260660   0.011246 113.491131 
  260.000   0.010948  56.321835   0.993142 149.094408 
  0.991624 149.069542   0.013542  91.797152 
  270.000   0.014374  44.458245   0.991696 140.978217 
  0.991485 140.984446   0.016174  73.302995 
  280.000   0.017728  31.624314   0.991362 132.833564 
  0.991318 132.865038   0.016967  57.224438 
  290.000   0.020083  21.904927   0.991456 124.685719 
  0.990907 124.733443   0.018517  46.011104 
  300.000   0.021962  10.774535   0.991354 116.585305 
  0.990991 116.613229   0.020731  33.910443 
  310.000   0.022869  -2.351473   0.990896 108.450122 
  0.990933 108.505369   0.021375  20.339792 
  320.000   0.023952 -12.074825   0.990501 100.333101 
  0.990275 100.337645   0.021993   8.189234 
  330.000   0.024235 -24.247494   0.989489  92.188050 
  0.989506  92.217050   0.020760  -3.474866 
  340.000   0.023497 -34.260612   0.989119  84.132352 
  0.989676  84.100835   0.019287 -14.577120 
  350.000   0.022851 -47.177175   0.989812  75.983982 
  0.988641  76.003400   0.017715 -24.322701 
  360.000   0.020968 -59.787189   0.988860  67.859199 
  0.988711  67.867681   0.016596 -37.085677 
  370.000   0.019245 -71.435224   0.988083  59.774969 
  0.987623  59.765939   0.014243 -50.050110 
  380.000   0.017022 -87.339986   0.987460  51.675222 
  0.987840  51.622221   0.011950 -61.216346 
  390.000   0.013664 -101.237647   0.987228  43.564049 
  0.986970  43.520109   0.008913 -77.519164 
  400.000   0.011383 -117.753688   0.987186  35.463829 
  0.987224  35.439115   0.006096 -92.750184 
  410.000   0.009205 -140.937059   0.986039  27.346900 
  0.986362  27.394152   0.003479 -132.553747 
  420.000   0.008744 -172.893596   0.986120  19.230938 
  0.985947  19.229422   0.003333 170.374326 
  430.000   0.009361 156.572917   0.985474  11.142593 
  0.985262  11.128994   0.005542 124.013481 
  440.000   0.010088 129.670603   0.985134   3.054664 
  0.985481   3.038176   0.008567  99.774567 
  450.000   0.011719 103.694148   0.984665  -5.071645 
  0.984340  -5.068154   0.011673  83.278750 
  460.000   0.013361  89.569896   0.984463 -13.179477 
  0.984505 -13.127682   0.014310  71.076578 
  470.000   0.016050  74.670708   0.983777 -21.247533 
  0.984096 -21.274500   0.016589  58.557041 
  480.000   0.018092  59.909722   0.982964 -29.364293 
  0.983502 -29.391543   0.018304  48.135383 
  490.000   0.019679  48.940831   0.983497 -37.486636 
  0.982985 -37.420953   0.020009  37.972754 
  500.000   0.021139  39.880044   0.982142 -45.532247 
  0.982745 -45.525600   0.021280  27.166047 
  510.000   0.021627  26.648698   0.982297 -53.642710 
  0.982783 -53.668038   0.022243  16.605686 
  520.000   0.022318  17.162846   0.981829 -61.732707 
  0.981745 -61.754615   0.022209   6.412044 
  530.000   0.022150   6.936618   0.981168 -69.842596 
  0.981853 -69.830203   0.021961  -2.411098 
  540.000   0.021400  -3.734411   0.981147 -77.898320 
  0.981257 -77.935281   0.021506 -12.110722 
  550.000   0.019972 -14.158495   0.982026 -85.998344 
  0.981092 -85.977680   0.020024 -24.142184 
  560.000   0.018264 -21.931372   0.980760 -94.120007 
  0.980726 -94.136614   0.019209 -32.234139 
  570.000   0.016268 -34.672700   0.980867 -102.232269 
  0.981197 -102.244668   0.018612 -42.754769 
  580.000   0.014293 -44.210827   0.980842 -110.307750 
  0.980376 -110.304024   0.014786 -56.324227 
  590.000   0.011237 -59.419955   0.980509 -118.410726 
  0.980966 -118.390363   0.012869 -72.206665 
  600.000   0.007967 -71.665572   0.980449 -126.467245 
  0.980214 -126.508356   0.010867 -92.839262 
  610.000   0.006382 -92.881235   0.979934 -134.603886 
  0.980086 -134.609230   0.010019 -114.464354 
  620.000   0.004310 -127.415170   0.979595 -142.682360 
  0.979164 -142.711011   0.008778 -131.727366 
  630.000   0.003863 158.876130   0.980235 -150.795353 
  0.979060 -150.807809   0.008108 -162.442014 
  640.000   0.005794 127.580953   0.979787 -158.898235 
  0.979003 -158.922351   0.008177 165.343249 
  650.000   0.007708 105.451813   0.979801 -166.990482 
  0.978947 -166.983418   0.008599 150.952580 
  660.000   0.010365  93.034055   0.979494 -175.100000 
  0.978664 -175.048759   0.009289 128.121822 
  670.000   0.012927  81.706053   0.978939 176.838033 
  0.978638 176.784447   0.012375 106.383086 
  680.000   0.015421  67.992645   0.978772 168.726813 
  0.978118 168.764581   0.015126  89.210568 
  690.000   0.016848  57.824646   0.978690 160.661323 
  0.978607 160.673560   0.015825  75.665816 
  700.000   0.018157  50.049420   0.979433 152.595564 
  0.978948 152.573672   0.019156  63.535536 
  710.000   0.019425  35.924321   0.978892 144.477947 
  0.978634 144.483636   0.020578  55.461851 
  720.000   0.021104  25.109119   0.979692 136.419396 
  0.980045 136.426560   0.021178  41.537714 
  730.000   0.021335  14.821272   0.979739 128.351918 
  0.978306 128.308616   0.021566  32.962332 
  740.000   0.021800   3.644733   0.979816 120.260445 
  0.979027 120.210290   0.020098  23.764786 
  750.000   0.022720  -6.384499   0.979279 112.076211 
  0.978546 112.141088   0.021272  14.546574 
  760.000   0.021352 -20.106793   0.979002 104.032681 
  0.978913 104.071248   0.018531   2.030610 
  770.000   0.020613 -31.734586   0.978912  95.972917 
  0.978402  95.961636   0.016276 -10.297227 
  780.000   0.019360 -44.313570   0.978280  87.883327 
  0.978400  87.864201   0.015412 -19.966717 
  790.000   0.018851 -54.649475   0.979078  79.744753 
  0.978345  79.794045   0.014248 -32.526399 
  800.000   0.017001 -67.048071   0.978125  71.659343 
  0.978196  71.681687   0.012607 -39.424729 
  810.000   0.015600 -79.794067   0.978160  63.578142 
  0.977696  63.553692   0.010216 -51.126474 
  820.000   0.014679 -93.305493   0.978709  55.521386 
  0.977898  55.515863   0.009045 -63.721639 
  830.000   0.013000 -110.580032   0.977927  47.394547 
  0.977940  47.389094   0.005929 -71.421115 
  840.000   0.011022 -134.878704   0.977467  39.234677 
  0.977934  39.301044   0.002200 -91.755663 
  850.000   0.009854 -163.162476   0.977599  31.176515 
  0.977357  31.186441   0.002505 121.002194 
  860.000   0.010242 170.847897   0.977095  23.086915 
  0.976964  23.096985   0.006581 102.685649 
  870.000   0.011232 141.771092   0.977505  15.015796 
  0.977299  14.999589   0.010498  96.430596 
  880.000   0.013963 120.879522   0.976933   6.915789 
  0.977090   6.901603   0.012975  86.551285 
  890.000   0.015652 106.894641   0.976429  -1.229940 
  0.976532  -1.173595   0.016241  77.501461 
  900.000   0.018022  89.595591   0.976639  -9.288341 
  0.976452  -9.267102   0.018302  68.219460 
  910.000   0.020115  78.293000   0.976513 -17.360560 
  0.976135 -17.394676   0.020980  58.446206 
  920.000   0.022368  65.061253   0.976148 -25.488204 
  0.975749 -25.469161   0.022843  46.386353 
  930.000   0.023234  53.547605   0.976417 -33.555809 
  0.975517 -33.557302   0.025831  38.054409 
  940.000   0.023149  42.201482   0.975407 -41.646863 
  0.975633 -41.633282   0.025327  28.849665 
  950.000   0.023808  33.232843   0.975710 -49.726699 
  0.975880 -49.716832   0.025770  20.243724 
  960.000   0.023789  24.085792   0.975007 -57.831774 
  0.975454 -57.793831   0.025967  10.671203 
  970.000   0.024244  14.476044   0.975061 -65.925868 
  0.975117 -65.888834   0.025911   3.043493 
  980.000   0.023884   4.215377   0.975052 -74.029296 
  0.974502 -73.985446   0.025084  -5.159481 
  990.000   0.023000  -7.563481   0.975037 -82.107472 
  0.975541 -82.075839   0.024720 -17.306723 
 1000.000   0.022279 -19.068638   0.974851 -90.184909 
  0.975150 -90.148212   0.022846 -26.983514 
 1010.000   0.019748 -29.419169   0.975216 -98.282641 
  0.975296 -98.260387   0.020634 -37.295755 
 1020.000   0.016915 -39.850067   0.974990 -106.355959 
  0.975064 -106.372566   0.018047 -49.156793 
 1030.000   0.013824 -54.135039   0.974970 -114.436236 
  0.975024 -114.444123   0.014807 -61.112530 
 1040.000   0.011077 -66.291451   0.975511 -122.561799 
  0.975024 -122.552183   0.012882 -75.269794 
 1050.000   0.008075 -88.777321   0.974733 -130.666545 
  0.974720 -130.643914   0.009439 -93.590950 
 1060.000   0.006666 -111.864613   0.975189 -138.774415 
  0.974876 -138.741198   0.007266 -114.773213 
 1070.000   0.005402 -158.684642   0.974422 -146.875923 
  0.974889 -146.820507   0.005742 -154.980575 
 1080.000   0.006379 161.652254   0.974456 -154.965069 
  0.974459 -154.940474   0.006632 154.915207 
 1090.000   0.008615 131.267818   0.974113 -163.041500 
  0.974139 -163.038794   0.008754 125.119641 
 1100.000   0.011547 109.566071   0.974103 -171.166897 
  0.973962 -171.137947   0.011632 102.681453 
 1110.000   0.014213  93.888702   0.973621 -179.244557 
  0.973523 -179.219447   0.013454  91.516298 
 1120.000   0.015999  85.344913   0.973648 172.691899 
  0.973768 172.684090   0.015857  80.636702 
 1130.000   0.018551  72.535848   0.973738 164.550259 
  0.973330 164.598213   0.019093  69.853065 
 1140.000   0.021012  63.843715   0.973072 156.499760 
  0.973054 156.502701   0.021631  57.440923 
 1150.000   0.023263  52.950455   0.972622 148.432190 
  0.973224 148.432062   0.023696  48.900374 
 1160.000   0.024739  42.757447   0.972530 140.306634 
  0.972529 140.311908   0.024639  39.075236 
 1170.000   0.025936  30.764591   0.973163 132.220385 
  0.972577 132.227308   0.026562  27.021927 
 1180.000   0.026553  21.882349   0.972434 124.145509 
  0.972436 124.144060   0.025951  17.417033 
 1190.000   0.026165  11.293828   0.972751 116.047381 
  0.972447 116.080919   0.025793   7.795780 
 1200.000   0.025308   2.467800   0.972615 107.973218 
  0.972382 107.973863   0.025651  -0.694246 
 1210.000   0.024149  -7.131873   0.972109  99.846878 
  0.972146  99.882009   0.024502 -11.604586 
 1220.000   0.022620 -18.366144   0.972518  91.774051 
  0.972454  91.816782   0.022961 -21.832410 
 1230.000   0.020530 -28.903510   0.972317  83.683087 
  0.972258  83.718226   0.020884 -32.900609 
 1240.000   0.018165 -41.129607   0.972477  75.603297 
  0.972125  75.591266   0.018069 -42.606495 
 1250.000   0.015241 -55.738776   0.972594  67.492002 
  0.972379  67.524829   0.015294 -57.841534 
 1260.000   0.011638 -69.606911   0.972801  59.411212 
  0.972327  59.399740   0.011820 -70.566364 
 1270.000   0.008583 -83.885468   0.971417  51.290284 
  0.971775  51.304491   0.008242 -81.070018 
 1280.000   0.006683 -113.030068   0.971577  43.200077 
  0.971741  43.245563   0.005426 -107.404479 
 1290.000   0.006264 -152.048998   0.972052  35.107672 
  0.971878  35.130876   0.005282 -150.234263 
 1300.000   0.007765 162.957431   0.971863  27.021088 
  0.971428  27.028449   0.006316 158.286520 
 1310.000   0.009698 135.194681   0.971593  18.940543 
  0.971549  18.929298   0.009475 126.621846 
 1320.000   0.013048 119.324026   0.971246  10.817338 
  0.971329  10.845196   0.012925 107.791638 
 1330.000   0.016598 103.075004   0.971267   2.720338 
  0.970983   2.733149   0.016411  94.307797 
 1340.000   0.020526  90.108024   0.970253  -5.350163 
  0.970655  -5.349277   0.019736  83.114728 
 1350.000   0.023049  77.114696   0.970491 -13.490387 
  0.970430 -13.427422   0.021189  69.638462 
 1360.000   0.025294  66.140594   0.970743 -21.531766 
  0.970371 -21.523445   0.024820  59.067638 
 1370.000   0.027112  57.343042   0.969912 -29.636954 
  0.970262 -29.619167   0.027143  50.141077 
 1380.000   0.028074  46.849704   0.969913 -37.717732 
  0.969924 -37.734715   0.028982  40.170373 
 1390.000   0.029613  38.230666   0.969818 -45.815035 
  0.969808 -45.796388   0.030246  30.112838 
 1400.000   0.030215  28.056146   0.970018 -53.901500 
  0.969905 -53.848304   0.030979  18.294699 
 1410.000   0.030311  18.975687   0.969885 -62.003228 
  0.970145 -61.961312   0.031741  10.246433 
 1420.000   0.029363  10.303677   0.969745 -70.073842 
  0.968987 -70.059317   0.031360   0.837917 
 1430.000   0.028317   1.421962   0.969327 -78.176067 
  0.969641 -78.137448   0.030657  -8.820930 
 1440.000   0.026510  -8.692874   0.969217 -86.300107 
  0.969579 -86.219348   0.028968 -17.475945 
 1450.000   0.024314 -17.139354   0.969198 -94.329484 
  0.969434 -94.319119   0.026618 -27.515507 
 1460.000   0.021938 -27.108654   0.969398 -102.430462 
  0.969141 -102.421619   0.023872 -40.063707 
 1470.000   0.019444 -37.247963   0.969021 -110.542352 
  0.970016 -110.505471   0.020885 -51.929061 
 1480.000   0.015938 -48.654047   0.968836 -118.625035 
  0.969481 -118.621996   0.017591 -66.068267 
 1490.000   0.012029 -62.056870   0.969308 -126.736509 
  0.969543 -126.719479   0.013772 -81.050364 
 1500.000   0.007738 -78.832673   0.969122 -134.844773 
  0.969149 -134.808939   0.010712 -101.869128 
 1510.000   0.004155 -111.249363   0.969237 -142.894661 
  0.969069 -142.903643   0.008321 -135.317463 
 1520.000   0.003337 164.693373   0.969506 -150.999870 
  0.968815 -150.992112   0.007592 -171.803723 
 1530.000   0.006789 120.454591   0.969669 -159.115292 
  0.968860 -159.106283   0.008930 151.674301 
 1540.000   0.010999 101.556245   0.969678 -167.221811 
  0.968451 -167.194842   0.011833 125.855209 
 1550.000   0.015134  90.412656   0.969336 -175.300840 
  0.968530 -175.262533   0.015781 109.145522 
 1560.000   0.018990  78.981075   0.968772 176.621024 
  0.968124 176.634880   0.019356  94.929225 
 1570.000   0.022884  69.059431   0.967560 168.504016 
  0.968162 168.536276   0.022817  83.365699 
 1580.000   0.026371  60.217552   0.968101 160.398422 
  0.967716 160.443742   0.026025  71.833710 
 1590.000   0.029481  51.501057   0.967959 152.332933 
  0.968208 152.362672   0.028984  61.784637 
 1600.000   0.031928  41.357897   0.967424 144.225179 
  0.967828 144.285478   0.031299  52.041722 
 1610.000   0.034031  33.274567   0.967744 136.150438 
  0.967504 136.156808   0.032940  41.161544 
 1620.000   0.035090  24.471022   0.967586 128.082343 
  0.967414 128.098112   0.034317  32.404297 
 1630.000   0.036003  15.726117   0.967324 120.012574 
  0.967181 120.021354   0.034853  23.084554 
 1640.000   0.036523   6.778619   0.966998 111.901120 
  0.967328 111.940144   0.035113  13.742510 
 1650.000   0.035544  -2.404955   0.967761 103.832095 
  0.967277 103.833986   0.034259   4.435506 
 1660.000   0.034441 -11.026902   0.967373  95.724308 
  0.967284  95.761572   0.032790  -3.961933 
 1670.000   0.032785 -19.876665   0.967244  87.649699 
  0.967863  87.668439   0.030590 -12.994912 
 1680.000   0.030395 -30.403363   0.967100  79.547790 
  0.967602  79.575081   0.028191 -21.753855 
 1690.000   0.027415 -41.269206   0.967449  71.449317 
  0.967210  71.476084   0.024593 -30.880930 
 1700.000   0.023475 -52.013276   0.967589  63.351280 
  0.967124  63.380063   0.021319 -38.546649 
 1710.000   0.019804 -63.327173   0.967390  55.251104 
  0.967213  55.309076   0.017893 -48.240656 
 1720.000   0.016238 -76.503430   0.967175  47.157853 
  0.967437  47.207630   0.013811 -56.796181 
 1730.000   0.012429 -94.355430   0.967241  39.055400 
  0.967401  39.111208   0.009501 -68.978335 
 1740.000   0.009310 -121.553841   0.967252  30.974427 
  0.966611  30.983172   0.004763 -83.866769 
 1750.000   0.007820 -157.524931   0.967012  22.879571 
  0.966965  22.903354   0.000848 -141.088021 
 1760.000   0.008096 156.990693   0.966910  14.755118 
  0.966592  14.800616   0.004347 104.970388 
 1770.000   0.010725 127.346868   0.966660   6.647959 
  0.966406   6.721282   0.009138  91.126204 
 1780.000   0.014328 107.770784   0.966475  -1.419570 
  0.966575  -1.365649   0.013475  81.721307 
 1790.000   0.018073  91.964369   0.966483  -9.504203 
  0.966267  -9.472545   0.017882  68.789891 
 1800.000   0.021374  79.888136   0.966169 -17.593416 
  0.965983 -17.581316   0.021495  58.248312 
 1810.000   0.024413  69.120321   0.965997 -25.696704 
  0.965954 -25.643810   0.024930  49.303106 
 1820.000   0.027051  59.806210   0.966194 -33.769617 
  0.965471 -33.768045   0.028117  40.509634 
 1830.000   0.029561  48.936073   0.965609 -41.882952 
  0.965263 -41.849914   0.030325  31.301916 
 1840.000   0.031443  39.812080   0.965245 -49.954116 
  0.965050 -49.911082   0.031919  22.436492 
 1850.000   0.031961  29.954430   0.965030 -58.028093 
  0.965169 -58.003362   0.033126  13.804174 
 1860.000   0.032261  20.118362   0.965202 -66.126583 
  0.965004 -66.088099   0.033772   4.269613 
 1870.000   0.031576  10.360465   0.964991 -74.208290 
  0.964875 -74.198903   0.033727  -4.538170 
 1880.000   0.030329   1.029813   0.965513 -82.314387 
  0.965500 -82.254637   0.032500 -13.689303 
 1890.000   0.029236  -7.069862   0.965537 -90.385060 
  0.965060 -90.325101   0.031529 -21.962209 
 1900.000   0.027239 -16.869830   0.965388 -98.465808 
  0.964782 -98.467991   0.030044 -30.700307 
 1910.000   0.024888 -26.635575   0.964976 -106.585222 
  0.965105 -106.504244   0.027845 -41.713649 
 1920.000   0.022326 -36.688662   0.965580 -114.674039 
  0.965173 -114.613275   0.025230 -51.391510 
 1930.000   0.019039 -46.962526   0.965573 -122.741459 
