! C:\Users\peter.pupalaikis\Work\Books\LyxBook\PythonSource\TestSignalIntegrity\FourPortTLine.s4p
!
! Fri Jun 12 13:49:22 2015
!
! freq S11 S12 S13 S14 
! S21 S22 S23 S24 
! S31 S32 S33 S34 
! S41 S42 S43 S44 
! 
# MHz S MA R 50.00  
    0.000   0.500000   0.000000   0.500000   0.000000   0.500000   0.000000   0.500000 180.000000 
  0.500000   0.000000   0.500000   0.000000   0.500000 180.000000   0.500000   0.000000 
  0.500000   0.000000   0.500000 180.000000   0.500000   0.000000   0.500000   0.000000 
  0.500000 180.000000   0.500000   0.000000   0.500000   0.000000   0.500000   0.000000 
   20.000   0.494864  -5.359308   0.497806  -8.973576   0.509400   5.205952   0.497806 171.026424 
  0.497806  -8.973576   0.494864  -5.359308   0.497806 171.026424   0.509400   5.205952 
  0.509400   5.205952   0.497806 171.026424   0.494864  -5.359308   0.497806  -8.973576 
  0.497806 171.026424   0.509400   5.205952   0.497806  -8.973576   0.494864  -5.359308 
   40.000   0.479988 -10.478283   0.491523 -17.793797   0.535183   9.387278   0.491523 162.206203 
  0.491523 -17.793797   0.479988 -10.478283   0.491523 162.206203   0.535183   9.387278 
  0.535183   9.387278   0.491523 162.206203   0.479988 -10.478283   0.491523 -17.793797 
  0.491523 162.206203   0.535183   9.387278   0.491523 -17.793797   0.479988 -10.478283 
   60.000   0.456819 -15.133547   0.481968 -26.331269   0.571604  12.042885   0.481968 153.668731 
  0.481968 -26.331269   0.456819 -15.133547   0.481968 153.668731   0.571604  12.042885 
  0.571604  12.042885   0.481968 153.668731   0.456819 -15.133547   0.481968 -26.331269 
  0.481968 153.668731   0.571604  12.042885   0.481968 -26.331269   0.456819 -15.133547 
   80.000   0.427364 -19.126873   0.470246 -34.496589   0.612451  13.216997   0.470246 145.503411 
  0.470246 -34.496589   0.427364 -19.126873   0.470246 145.503411   0.612451  13.216997 
  0.612451  13.216997   0.470246 145.503411   0.427364 -19.126873   0.470246 -34.496589 
  0.470246 145.503411   0.612451  13.216997   0.470246 -34.496589   0.427364 -19.126873 
  100.000   0.393804 -22.280414   0.457516 -42.245043   0.652899  13.219560   0.457516 137.754957 
  0.457516 -42.245043   0.393804 -22.280414   0.457516 137.754957   0.652899  13.219560 
  0.652899  13.219560   0.457516 137.754957   0.393804 -22.280414   0.457516 -42.245043 
  0.457516 137.754957   0.652899  13.219560   0.457516 -42.245043   0.393804 -22.280414 
  120.000   0.358210 -24.420353   0.444802 -49.571875   0.689919  12.395238   0.444802 130.428125 
  0.444802 -49.571875   0.358210 -24.420353   0.444802 130.428125   0.689919  12.395238 
  0.689919  12.395238   0.444802 130.428125   0.358210 -24.420353   0.444802 -49.571875 
  0.444802 130.428125   0.689919  12.395238   0.444802 -49.571875   0.358210 -24.420353 
  140.000   0.322435 -25.354105   0.432912 -56.502709   0.721948  11.025543   0.432912 123.497291 
  0.432912 -56.502709   0.322435 -25.354105   0.432912 123.497291   0.721948  11.025543 
  0.721948  11.025543   0.432912 123.497291   0.322435 -25.354105   0.432912 -56.502709 
  0.432912 123.497291   0.721948  11.025543   0.432912 -56.502709   0.322435 -25.354105 
  160.000   0.288159 -24.849649   0.422426 -63.083303   0.748383   9.311962   0.422426 116.916697 
  0.422426 -63.083303   0.288159 -24.849649   0.422426 116.916697   0.748383   9.311962 
  0.748383   9.311962   0.422426 116.916697   0.288159 -24.849649   0.422426 -63.083303 
  0.422426 116.916697   0.748383   9.311962   0.422426 -63.083303   0.288159 -24.849649 
  180.000   0.257034 -22.633922   0.413728 -69.371082   0.769150   7.389049   0.413728 110.628918 
  0.413728 -69.371082   0.257034 -22.633922   0.413728 110.628918   0.769150   7.389049 
  0.769150   7.389049   0.413728 110.628918   0.257034 -22.633922   0.413728 -69.371082 
  0.413728 110.628918   0.769150   7.389049   0.413728 -69.371082   0.257034 -22.633922 
  200.000   0.230848 -18.446630   0.407058 -75.429232   0.784421   5.343123   0.407058 104.570768 
  0.407058 -75.429232   0.230848 -18.446630   0.407058 104.570768   0.784421   5.343123 
  0.784421   5.343123   0.407058 104.570768   0.230848 -18.446630   0.407058 -75.429232 
  0.407058 104.570768   0.784421   5.343123   0.407058 -75.429232   0.230848 -18.446630 
  220.000   0.211612 -12.206016   0.402552 -81.323142   0.794433   3.228463   0.402552  98.676858 
  0.402552 -81.323142   0.211612 -12.206016   0.402552  98.676858   0.794433   3.228463 
  0.794433   3.228463   0.402552  98.676858   0.211612 -12.206016   0.402552 -81.323142 
  0.402552  98.676858   0.794433   3.228463   0.402552 -81.323142   0.211612 -12.206016 
  240.000   0.201322  -4.290433   0.400284 -87.118636   0.799384   1.079586   0.400284  92.881364 
  0.400284 -87.118636   0.201322  -4.290433   0.400284  92.881364   0.799384   1.079586 
  0.799384   1.079586   0.400284  92.881364   0.201322  -4.290433   0.400284 -87.118636 
  0.400284  92.881364   0.799384   1.079586   0.400284 -87.118636   0.201322  -4.290433 
  260.000   0.201322   4.290433   0.400284 -92.881364   0.799384  -1.079586   0.400284  87.118636 
  0.400284 -92.881364   0.201322   4.290433   0.400284  87.118636   0.799384  -1.079586 
  0.799384  -1.079586   0.400284  87.118636   0.201322   4.290433   0.400284 -92.881364 
  0.400284  87.118636   0.799384  -1.079586   0.400284 -92.881364   0.201322   4.290433 
  280.000   0.211612  12.206016   0.402552 -98.676858   0.794433  -3.228463   0.402552  81.323142 
  0.402552 -98.676858   0.211612  12.206016   0.402552  81.323142   0.794433  -3.228463 
  0.794433  -3.228463   0.402552  81.323142   0.211612  12.206016   0.402552 -98.676858 
  0.402552  81.323142   0.794433  -3.228463   0.402552 -98.676858   0.211612  12.206016 
  300.000   0.230848  18.446630   0.407058 -104.570768   0.784421  -5.343123   0.407058  75.429232 
  0.407058 -104.570768   0.230848  18.446630   0.407058  75.429232   0.784421  -5.343123 
  0.784421  -5.343123   0.407058  75.429232   0.230848  18.446630   0.407058 -104.570768 
  0.407058  75.429232   0.784421  -5.343123   0.407058 -104.570768   0.230848  18.446630 
  320.000   0.257034  22.633922   0.413728 -110.628918   0.769150  -7.389049   0.413728  69.371082 
  0.413728 -110.628918   0.257034  22.633922   0.413728  69.371082   0.769150  -7.389049 
  0.769150  -7.389049   0.413728  69.371082   0.257034  22.633922   0.413728 -110.628918 
  0.413728  69.371082   0.769150  -7.389049   0.413728 -110.628918   0.257034  22.633922 
  340.000   0.288159  24.849649   0.422426 -116.916697   0.748383  -9.311962   0.422426  63.083303 
  0.422426 -116.916697   0.288159  24.849649   0.422426  63.083303   0.748383  -9.311962 
  0.748383  -9.311962   0.422426  63.083303   0.288159  24.849649   0.422426 -116.916697 
  0.422426  63.083303   0.748383  -9.311962   0.422426 -116.916697   0.288159  24.849649 
  360.000   0.322435  25.354105   0.432912 -123.497291   0.721948 -11.025543   0.432912  56.502709 
  0.432912 -123.497291   0.322435  25.354105   0.432912  56.502709   0.721948 -11.025543 
  0.721948 -11.025543   0.432912  56.502709   0.322435  25.354105   0.432912 -123.497291 
  0.432912  56.502709   0.721948 -11.025543   0.432912 -123.497291   0.322435  25.354105 
  380.000   0.358210  24.420353   0.444802 -130.428125   0.689919 -12.395238   0.444802  49.571875 
  0.444802 -130.428125   0.358210  24.420353   0.444802  49.571875   0.689919 -12.395238 
  0.689919 -12.395238   0.444802  49.571875   0.358210  24.420353   0.444802 -130.428125 
  0.444802  49.571875   0.689919 -12.395238   0.444802 -130.428125   0.358210  24.420353 
  400.000   0.393804  22.280414   0.457516 -137.754957   0.652899 -13.219560   0.457516  42.245043 
  0.457516 -137.754957   0.393804  22.280414   0.457516  42.245043   0.652899 -13.219560 
  0.652899 -13.219560   0.457516  42.245043   0.393804  22.280414   0.457516 -137.754957 
  0.457516  42.245043   0.652899 -13.219560   0.457516 -137.754957   0.393804  22.280414 
  420.000   0.427364  19.126873   0.470246 -145.503411   0.612451 -13.216997   0.470246  34.496589 
  0.470246 -145.503411   0.427364  19.126873   0.470246  34.496589   0.612451 -13.216997 
  0.612451 -13.216997   0.470246  34.496589   0.427364  19.126873   0.470246 -145.503411 
  0.470246  34.496589   0.612451 -13.216997   0.470246 -145.503411   0.427364  19.126873 
  440.000   0.456819  15.133547   0.481968 -153.668731   0.571604 -12.042885   0.481968  26.331269 
  0.481968 -153.668731   0.456819  15.133547   0.481968  26.331269   0.571604 -12.042885 
  0.571604 -12.042885   0.481968  26.331269   0.456819  15.133547   0.481968 -153.668731 
  0.481968  26.331269   0.571604 -12.042885   0.481968 -153.668731   0.456819  15.133547 
  460.000   0.479988  10.478283   0.491523 -162.206203   0.535183  -9.387278   0.491523  17.793797 
  0.491523 -162.206203   0.479988  10.478283   0.491523  17.793797   0.535183  -9.387278 
  0.535183  -9.387278   0.491523  17.793797   0.479988  10.478283   0.491523 -162.206203 
  0.491523  17.793797   0.535183  -9.387278   0.491523 -162.206203   0.479988  10.478283 
  480.000   0.494864   5.359308   0.497806 -171.026424   0.509400  -5.205952   0.497806   8.973576 
  0.497806 -171.026424   0.494864   5.359308   0.497806   8.973576   0.509400  -5.205952 
  0.509400  -5.205952   0.497806   8.973576   0.494864   5.359308   0.497806 -171.026424 
  0.497806   8.973576   0.509400  -5.205952   0.497806 -171.026424   0.494864   5.359308 
  500.000   0.500000   0.000000   0.500000 -180.000000   0.500000  -0.000000   0.500000   0.000000 
  0.500000 -180.000000   0.500000   0.000000   0.500000   0.000000   0.500000  -0.000000 
  0.500000  -0.000000   0.500000   0.000000   0.500000   0.000000   0.500000 -180.000000 
  0.500000   0.000000   0.500000  -0.000000   0.500000 -180.000000   0.500000   0.000000 
  520.000   0.494864  -5.359308   0.497806 171.026424   0.509400   5.205952   0.497806  -8.973576 
  0.497806 171.026424   0.494864  -5.359308   0.497806  -8.973576   0.509400   5.205952 
  0.509400   5.205952   0.497806  -8.973576   0.494864  -5.359308   0.497806 171.026424 
  0.497806  -8.973576   0.509400   5.205952   0.497806 171.026424   0.494864  -5.359308 
  540.000   0.479988 -10.478283   0.491523 162.206203   0.535183   9.387278   0.491523 -17.793797 
  0.491523 162.206203   0.479988 -10.478283   0.491523 -17.793797   0.535183   9.387278 
  0.535183   9.387278   0.491523 -17.793797   0.479988 -10.478283   0.491523 162.206203 
  0.491523 -17.793797   0.535183   9.387278   0.491523 162.206203   0.479988 -10.478283 
  560.000   0.456819 -15.133547   0.481968 153.668731   0.571604  12.042885   0.481968 -26.331269 
  0.481968 153.668731   0.456819 -15.133547   0.481968 -26.331269   0.571604  12.042885 
  0.571604  12.042885   0.481968 -26.331269   0.456819 -15.133547   0.481968 153.668731 
  0.481968 -26.331269   0.571604  12.042885   0.481968 153.668731   0.456819 -15.133547 
  580.000   0.427364 -19.126873   0.470246 145.503411   0.612451  13.216997   0.470246 -34.496589 
  0.470246 145.503411   0.427364 -19.126873   0.470246 -34.496589   0.612451  13.216997 
  0.612451  13.216997   0.470246 -34.496589   0.427364 -19.126873   0.470246 145.503411 
  0.470246 -34.496589   0.612451  13.216997   0.470246 145.503411   0.427364 -19.126873 
  600.000   0.393804 -22.280414   0.457516 137.754957   0.652899  13.219560   0.457516 -42.245043 
  0.457516 137.754957   0.393804 -22.280414   0.457516 -42.245043   0.652899  13.219560 
  0.652899  13.219560   0.457516 -42.245043   0.393804 -22.280414   0.457516 137.754957 
  0.457516 -42.245043   0.652899  13.219560   0.457516 137.754957   0.393804 -22.280414 
  620.000   0.358210 -24.420353   0.444802 130.428125   0.689919  12.395238   0.444802 -49.571875 
  0.444802 130.428125   0.358210 -24.420353   0.444802 -49.571875   0.689919  12.395238 
  0.689919  12.395238   0.444802 -49.571875   0.358210 -24.420353   0.444802 130.428125 
  0.444802 -49.571875   0.689919  12.395238   0.444802 130.428125   0.358210 -24.420353 
  640.000   0.322435 -25.354105   0.432912 123.497291   0.721948  11.025543   0.432912 -56.502709 
  0.432912 123.497291   0.322435 -25.354105   0.432912 -56.502709   0.721948  11.025543 
  0.721948  11.025543   0.432912 -56.502709   0.322435 -25.354105   0.432912 123.497291 
  0.432912 -56.502709   0.721948  11.025543   0.432912 123.497291   0.322435 -25.354105 
  660.000   0.288159 -24.849649   0.422426 116.916697   0.748383   9.311962   0.422426 -63.083303 
  0.422426 116.916697   0.288159 -24.849649   0.422426 -63.083303   0.748383   9.311962 
  0.748383   9.311962   0.422426 -63.083303   0.288159 -24.849649   0.422426 116.916697 
  0.422426 -63.083303   0.748383   9.311962   0.422426 116.916697   0.288159 -24.849649 
  680.000   0.257034 -22.633922   0.413728 110.628918   0.769150   7.389049   0.413728 -69.371082 
  0.413728 110.628918   0.257034 -22.633922   0.413728 -69.371082   0.769150   7.389049 
  0.769150   7.389049   0.413728 -69.371082   0.257034 -22.633922   0.413728 110.628918 
  0.413728 -69.371082   0.769150   7.389049   0.413728 110.628918   0.257034 -22.633922 
  700.000   0.230848 -18.446630   0.407058 104.570768   0.784421   5.343123   0.407058 -75.429232 
  0.407058 104.570768   0.230848 -18.446630   0.407058 -75.429232   0.784421   5.343123 
  0.784421   5.343123   0.407058 -75.429232   0.230848 -18.446630   0.407058 104.570768 
  0.407058 -75.429232   0.784421   5.343123   0.407058 104.570768   0.230848 -18.446630 
  720.000   0.211612 -12.206016   0.402552  98.676858   0.794433   3.228463   0.402552 -81.323142 
  0.402552  98.676858   0.211612 -12.206016   0.402552 -81.323142   0.794433   3.228463 
  0.794433   3.228463   0.402552 -81.323142   0.211612 -12.206016   0.402552  98.676858 
  0.402552 -81.323142   0.794433   3.228463   0.402552  98.676858   0.211612 -12.206016 
  740.000   0.201322  -4.290433   0.400284  92.881364   0.799384   1.079586   0.400284 -87.118636 
  0.400284  92.881364   0.201322  -4.290433   0.400284 -87.118636   0.799384   1.079586 
  0.799384   1.079586   0.400284 -87.118636   0.201322  -4.290433   0.400284  92.881364 
  0.400284 -87.118636   0.799384   1.079586   0.400284  92.881364   0.201322  -4.290433 
  760.000   0.201322   4.290433   0.400284  87.118636   0.799384  -1.079586   0.400284 -92.881364 
  0.400284  87.118636   0.201322   4.290433   0.400284 -92.881364   0.799384  -1.079586 
  0.799384  -1.079586   0.400284 -92.881364   0.201322   4.290433   0.400284  87.118636 
  0.400284 -92.881364   0.799384  -1.079586   0.400284  87.118636   0.201322   4.290433 
  780.000   0.211612  12.206016   0.402552  81.323142   0.794433  -3.228463   0.402552 -98.676858 
  0.402552  81.323142   0.211612  12.206016   0.402552 -98.676858   0.794433  -3.228463 
  0.794433  -3.228463   0.402552 -98.676858   0.211612  12.206016   0.402552  81.323142 
  0.402552 -98.676858   0.794433  -3.228463   0.402552  81.323142   0.211612  12.206016 
  800.000   0.230848  18.446630   0.407058  75.429232   0.784421  -5.343123   0.407058 -104.570768 
  0.407058  75.429232   0.230848  18.446630   0.407058 -104.570768   0.784421  -5.343123 
  0.784421  -5.343123   0.407058 -104.570768   0.230848  18.446630   0.407058  75.429232 
  0.407058 -104.570768   0.784421  -5.343123   0.407058  75.429232   0.230848  18.446630 
  820.000   0.257034  22.633922   0.413728  69.371082   0.769150  -7.389049   0.413728 -110.628918 
  0.413728  69.371082   0.257034  22.633922   0.413728 -110.628918   0.769150  -7.389049 
  0.769150  -7.389049   0.413728 -110.628918   0.257034  22.633922   0.413728  69.371082 
  0.413728 -110.628918   0.769150  -7.389049   0.413728  69.371082   0.257034  22.633922 
  840.000   0.288159  24.849649   0.422426  63.083303   0.748383  -9.311962   0.422426 -116.916697 
  0.422426  63.083303   0.288159  24.849649   0.422426 -116.916697   0.748383  -9.311962 
  0.748383  -9.311962   0.422426 -116.916697   0.288159  24.849649   0.422426  63.083303 
  0.422426 -116.916697   0.748383  -9.311962   0.422426  63.083303   0.288159  24.849649 
  860.000   0.322435  25.354105   0.432912  56.502709   0.721948 -11.025543   0.432912 -123.497291 
  0.432912  56.502709   0.322435  25.354105   0.432912 -123.497291   0.721948 -11.025543 
  0.721948 -11.025543   0.432912 -123.497291   0.322435  25.354105   0.432912  56.502709 
  0.432912 -123.497291   0.721948 -11.025543   0.432912  56.502709   0.322435  25.354105 
  880.000   0.358210  24.420353   0.444802  49.571875   0.689919 -12.395238   0.444802 -130.428125 
  0.444802  49.571875   0.358210  24.420353   0.444802 -130.428125   0.689919 -12.395238 
  0.689919 -12.395238   0.444802 -130.428125   0.358210  24.420353   0.444802  49.571875 
  0.444802 -130.428125   0.689919 -12.395238   0.444802  49.571875   0.358210  24.420353 
  900.000   0.393804  22.280414   0.457516  42.245043   0.652899 -13.219560   0.457516 -137.754957 
  0.457516  42.245043   0.393804  22.280414   0.457516 -137.754957   0.652899 -13.219560 
  0.652899 -13.219560   0.457516 -137.754957   0.393804  22.280414   0.457516  42.245043 
  0.457516 -137.754957   0.652899 -13.219560   0.457516  42.245043   0.393804  22.280414 
  920.000   0.427364  19.126873   0.470246  34.496589   0.612451 -13.216997   0.470246 -145.503411 
  0.470246  34.496589   0.427364  19.126873   0.470246 -145.503411   0.612451 -13.216997 
  0.612451 -13.216997   0.470246 -145.503411   0.427364  19.126873   0.470246  34.496589 
  0.470246 -145.503411   0.612451 -13.216997   0.470246  34.496589   0.427364  19.126873 
  940.000   0.456819  15.133547   0.481968  26.331269   0.571604 -12.042885   0.481968 -153.668731 
  0.481968  26.331269   0.456819  15.133547   0.481968 -153.668731   0.571604 -12.042885 
  0.571604 -12.042885   0.481968 -153.668731   0.456819  15.133547   0.481968  26.331269 
  0.481968 -153.668731   0.571604 -12.042885   0.481968  26.331269   0.456819  15.133547 
  960.000   0.479988  10.478283   0.491523  17.793797   0.535183  -9.387278   0.491523 -162.206203 
  0.491523  17.793797   0.479988  10.478283   0.491523 -162.206203   0.535183  -9.387278 
  0.535183  -9.387278   0.491523 -162.206203   0.479988  10.478283   0.491523  17.793797 
  0.491523 -162.206203   0.535183  -9.387278   0.491523  17.793797   0.479988  10.478283 
  980.000   0.494864   5.359308   0.497806   8.973576   0.509400  -5.205952   0.497806 -171.026424 
  0.497806   8.973576   0.494864   5.359308   0.497806 -171.026424   0.509400  -5.205952 
  0.509400  -5.205952   0.497806 -171.026424   0.494864   5.359308   0.497806   8.973576 
  0.497806 -171.026424   0.509400  -5.205952   0.497806   8.973576   0.494864   5.359308 
 1000.000   0.500000   0.000000   0.500000   0.000000   0.500000  -0.000000   0.500000 -180.000000 
  0.500000   0.000000   0.500000   0.000000   0.500000 -180.000000   0.500000  -0.000000 
  0.500000  -0.000000   0.500000 -180.000000   0.500000   0.000000   0.500000   0.000000 
  0.500000 -180.000000   0.500000  -0.000000   0.500000   0.000000   0.500000   0.000000 
 1020.000   0.494864  -5.359308   0.497806  -8.973576   0.509400   5.205952   0.497806 171.026424 
  0.497806  -8.973576   0.494864  -5.359308   0.497806 171.026424   0.509400   5.205952 
  0.509400   5.205952   0.497806 171.026424   0.494864  -5.359308   0.497806  -8.973576 
  0.497806 171.026424   0.509400   5.205952   0.497806  -8.973576   0.494864  -5.359308 
 1040.000   0.479988 -10.478283   0.491523 -17.793797   0.535183   9.387278   0.491523 162.206203 
  0.491523 -17.793797   0.479988 -10.478283   0.491523 162.206203   0.535183   9.387278 
  0.535183   9.387278   0.491523 162.206203   0.479988 -10.478283   0.491523 -17.793797 
  0.491523 162.206203   0.535183   9.387278   0.491523 -17.793797   0.479988 -10.478283 
 1060.000   0.456819 -15.133547   0.481968 -26.331269   0.571604  12.042885   0.481968 153.668731 
  0.481968 -26.331269   0.456819 -15.133547   0.481968 153.668731   0.571604  12.042885 
  0.571604  12.042885   0.481968 153.668731   0.456819 -15.133547   0.481968 -26.331269 
