! C:\Users\peter.pupalaikis\Work\Books\LyxBook\PythonSource\TestSignalIntegrity\FourPortTLineModel.s4p
!
! Fri Jun 12 17:55:12 2015
!
! freq S11 S12 S13 S14 
! S21 S22 S23 S24 
! S31 S32 S33 S34 
! S41 S42 S43 S44 
! 
# MHz S MA R 50.00  
    0.000   0.000000   0.000000   1.000000   0.000000   0.000000 180.000000   0.000000   0.000000 
  1.000000   0.000000   0.000000   0.000000   0.000000   0.000000   0.000000 180.000000 
  0.000000 180.000000   0.000000   0.000000   0.000000 180.000000   1.000000   0.000000 
  0.000000   0.000000   0.000000 180.000000   1.000000   0.000000   0.000000 180.000000 
   20.000   0.007255  79.834381   0.999675  -8.004772   0.020477  81.724148   0.013354 -98.642028 
  0.999675  -8.004772   0.007255  79.834381   0.013354 -98.642028   0.020477  81.724148 
  0.020477  81.724148   0.013354 -98.642028   0.007255  79.834381   0.999675  -8.004772 
  0.013354 -98.642028   0.020477  81.724148   0.999675  -8.004772   0.007255  79.834381 
   40.000   0.014152  69.611137   0.998727 -16.009737   0.040344  73.452753   0.026751 -107.231460 
  0.998727 -16.009737   0.014152  69.611137   0.026751 -107.231460   0.040344  73.452753 
  0.040344  73.452753   0.026751 -107.231460   0.014152  69.611137   0.998727 -16.009737 
  0.026751 -107.231460   0.040344  73.452753   0.998727 -16.009737   0.014152  69.611137 
   60.000   0.020677  59.408672   0.997225 -23.996736   0.059343  65.207154   0.039909 -115.754436 
  0.997225 -23.996736   0.020677  59.408672   0.039909 -115.754436   0.059343  65.207154 
  0.059343  65.207154   0.039909 -115.754436   0.020677  59.408672   0.997225 -23.996736 
  0.039909 -115.754436   0.059343  65.207154   0.997225 -23.996736   0.020677  59.408672 
   80.000   0.026625  49.214688   0.995274 -31.961206   0.077038  56.995634   0.052778 -124.178484 
  0.995274 -31.961206   0.026625  49.214688   0.052778 -124.178484   0.077038  56.995634 
  0.077038  56.995634   0.052778 -124.178484   0.026625  49.214688   0.995274 -31.961206 
  0.052778 -124.178484   0.077038  56.995634   0.995274 -31.961206   0.026625  49.214688 
  100.000   0.031838  39.018499   0.993005 -39.899571   0.093060  48.825097   0.065318 -132.479485 
  0.993005 -39.899571   0.031838  39.018499   0.065318 -132.479485   0.093060  48.825097 
  0.093060  48.825097   0.065318 -132.479485   0.031838  39.018499   0.993005 -39.899571 
  0.065318 -132.479485   0.093060  48.825097   0.993005 -39.899571   0.031838  39.018499 
  120.000   0.036187  28.802309   0.990562 -47.810502   0.107092  40.699890   0.077518 -140.641199 
  0.990562 -47.810502   0.036187  28.802309   0.077518 -140.641199   0.107092  40.699890 
  0.107092  40.699890   0.077518 -140.641199   0.036187  28.802309   0.990562 -47.810502 
  0.077518 -140.641199   0.107092  40.699890   0.990562 -47.810502   0.036187  28.802309 
  140.000   0.039574  18.538164   0.988084 -55.695103   0.118875  32.621766   0.089402 -148.655981 
  0.988084 -55.695103   0.039574  18.538164   0.089402 -148.655981   0.118875  32.621766 
  0.118875  32.621766   0.089402 -148.655981   0.039574  18.538164   0.988084 -55.695103 
  0.089402 -148.655981   0.118875  32.621766   0.988084 -55.695103   0.039574  18.538164 
  160.000   0.041931   8.185193   0.985698 -63.556760   0.128202  24.590288   0.101023 -156.525207 
  0.985698 -63.556760   0.041931   8.185193   0.101023 -156.525207   0.128202  24.590288 
  0.128202  24.590288   0.101023 -156.525207   0.041931   8.185193   0.985698 -63.556760 
  0.101023 -156.525207   0.128202  24.590288   0.985698 -63.556760   0.041931   8.185193 
  180.000   0.043216  -2.314117   0.983504 -71.400783   0.134921  16.603574   0.112463 -164.259226 
  0.983504 -71.400783   0.043216  -2.314117   0.112463 -164.259226   0.134921  16.603574 
  0.134921  16.603574   0.112463 -164.259226   0.043216  -2.314117   0.983504 -71.400783 
  0.112463 -164.259226   0.134921  16.603574   0.983504 -71.400783   0.043216  -2.314117 
  200.000   0.043415 -13.039856   0.981572 -79.233905   0.138927   8.659364   0.123819 -171.876766 
  0.981572 -79.233905   0.043415 -13.039856   0.123819 -171.876766   0.138927   8.659364 
  0.138927   8.659364   0.123819 -171.876766   0.043415 -13.039856   0.981572 -79.233905 
  0.123819 -171.876766   0.138927   8.659364   0.981572 -79.233905   0.043415 -13.039856 
  220.000   0.042535 -24.105027   0.979932 -87.063698   0.140164   0.756400   0.135198 -179.403753 
  0.979932 -87.063698   0.042535 -24.105027   0.135198 -179.403753   0.140164   0.756400 
  0.140164   0.756400   0.135198 -179.403753   0.042535 -24.105027   0.979932 -87.063698 
  0.135198 -179.403753   0.140164   0.756400   0.979932 -87.063698   0.042535 -24.105027 
  240.000   0.040613 -35.674382   0.978577 -94.897929   0.138619  -7.103775   0.146707 173.128457 
  0.978577 -94.897929   0.040613 -35.674382   0.146707 173.128457   0.138619  -7.103775 
  0.138619  -7.103775   0.146707 173.128457   0.040613 -35.674382   0.978577 -94.897929 
  0.146707 173.128457   0.138619  -7.103775   0.978577 -94.897929   0.040613 -35.674382 
  260.000   0.037718 -48.000150   0.977461 -102.743924   0.134327 -14.914392   0.158440 165.685368 
  0.977461 -102.743924   0.037718 -48.000150   0.158440 165.685368   0.134327 -14.914392 
  0.134327 -14.914392   0.158440 165.685368   0.037718 -48.000150   0.977461 -102.743924 
  0.158440 165.685368   0.134327 -14.914392   0.977461 -102.743924   0.037718 -48.000150 
  280.000   0.033967 -61.492318   0.976506 -110.607944   0.127369 -22.659923   0.170470 158.232013 
  0.976506 -110.607944   0.033967 -61.492318   0.170470 158.232013   0.127369 -22.659923 
  0.127369 -22.659923   0.170470 158.232013   0.033967 -61.492318   0.976506 -110.607944 
  0.170470 158.232013   0.127369 -22.659923   0.976506 -110.607944   0.033967 -61.492318 
  300.000   0.029554 -76.860048   0.975603 -118.494637   0.117881 -30.310357   0.182838 150.735761 
  0.975603 -118.494637   0.029554 -76.860048   0.182838 150.735761   0.117881 -30.310357 
  0.117881 -30.310357   0.182838 150.735761   0.029554 -76.860048   0.975603 -118.494637 
  0.182838 150.735761   0.117881 -30.310357   0.975603 -118.494637   0.029554 -76.860048 
  320.000   0.024827 -95.383550   0.974626 -126.406590   0.106051 -37.810780   0.195552 143.168977 
  0.974626 -126.406590   0.024827 -95.383550   0.195552 143.168977   0.106051 -37.810780 
  0.106051 -37.810780   0.195552 143.168977   0.024827 -95.383550   0.974626 -126.406590 
  0.195552 143.168977   0.106051 -37.810780   0.974626 -126.406590   0.024827 -95.383550 
  340.000   0.020445 -119.257738   0.973442 -134.344044   0.092132 -45.059768   0.208579 135.511211 
  0.973442 -134.344044   0.020445 -119.257738   0.208579 135.511211   0.092132 -45.059768 
  0.092132 -45.059768   0.208579 135.511211   0.020445 -119.257738   0.973442 -134.344044 
  0.208579 135.511211   0.092132 -45.059768   0.973442 -134.344044   0.020445 -119.257738 
  360.000   0.017639 -150.769156   0.971921 -142.304824   0.076437 -51.857698   0.221848 127.750675 
  0.971921 -142.304824   0.017639 -150.769156   0.221848 127.750675   0.076437 -51.857698 
  0.076437 -51.857698   0.221848 127.750675   0.017639 -150.769156   0.971921 -142.304824 
  0.221848 127.750675   0.076437 -51.857698   0.971921 -142.304824   0.017639 -150.769156 
  380.000   0.017951 172.969693   0.969953 -150.284500   0.059355 -57.759288   0.235258 119.884843 
  0.969953 -150.284500   0.017951 172.969693   0.235258 119.884843   0.059355 -57.759288 
  0.059355 -57.759288   0.235258 119.884843   0.017951 172.969693   0.969953 -150.284500 
  0.235258 119.884843   0.059355 -57.759288   0.969953 -150.284500   0.017951 172.969693 
  400.000   0.021628 140.978744   0.967458 -158.276807   0.041389 -61.533960   0.248684 111.920126 
  0.967458 -158.276807   0.021628 140.978744   0.248684 111.920126   0.041389 -61.533960 
  0.041389 -61.533960   0.248684 111.920126   0.021628 140.978744   0.967458 -158.276807 
  0.248684 111.920126   0.041389 -61.533960   0.967458 -158.276807   0.021628 140.978744 
  420.000   0.027413 116.487221   0.964395 -166.274279   0.023427 -58.202144   0.261994 103.870728 
  0.964395 -166.274279   0.027413 116.487221   0.261994 103.870728   0.023427 -58.202144 
  0.023427 -58.202144   0.261994 103.870728   0.027413 116.487221   0.964395 -166.274279 
  0.261994 103.870728   0.023427 -58.202144   0.964395 -166.274279   0.027413 116.487221 
  440.000   0.034105  97.289706   0.960767 -174.269015   0.010283 -12.611680   0.275059  95.756867 
  0.960767 -174.269015   0.034105  97.289706   0.275059  95.756867   0.010283 -12.611680 
  0.010283 -12.611680   0.275059  95.756867   0.034105  97.289706   0.960767 -174.269015 
  0.275059  95.756867   0.010283 -12.611680   0.960767 -174.269015   0.034105  97.289706 
  460.000   0.040977  81.167655   0.956619 177.746613   0.019816  49.566150   0.287764  87.602671 
  0.956619 177.746613   0.040977  81.167655   0.287764  87.602671   0.019816  49.566150 
  0.019816  49.566150   0.287764  87.602671   0.040977  81.167655   0.956619 177.746613 
  0.287764  87.602671   0.019816  49.566150   0.956619 177.746613   0.040977  81.167655 
  480.000   0.047614  66.826937   0.952038 169.780569   0.036819  56.347878   0.300003  79.434750 
  0.952038 169.780569   0.047614  66.826937   0.300003  79.434750   0.036819  56.347878 
  0.036819  56.347878   0.300003  79.434750   0.047614  66.826937   0.952038 169.780569 
  0.300003  79.434750   0.036819  56.347878   0.952038 169.780569   0.047614  66.826937 
  500.000   0.181633  68.699129   0.949225 169.730612   0.181633  68.699129   0.181633  68.699129 
  0.949225 169.730612   0.181633  68.699129   0.181633  68.699129   0.181633  68.699129 
  0.181633  68.699129   0.181633  68.699129   0.181633  68.699129   0.949225 169.730612 
  0.181633  68.699129   0.181633  68.699129   0.949225 169.730612   0.181633  68.699129 
  520.000   0.058854  40.937268   0.941972 153.906844   0.069276  48.252840   0.323151  63.145641 
  0.941972 153.906844   0.058854  40.937268   0.323151  63.145641   0.069276  48.252840 
  0.069276  48.252840   0.323151  63.145641   0.058854  40.937268   0.941972 153.906844 
  0.323151  63.145641   0.069276  48.252840   0.941972 153.906844   0.058854  40.937268 
  540.000   0.063098  28.708388   0.936732 146.001912   0.083285  41.990247   0.334089  55.065486 
  0.936732 146.001912   0.063098  28.708388   0.334089  55.065486   0.083285  41.990247 
  0.083285  41.990247   0.334089  55.065486   0.063098  28.708388   0.936732 146.001912 
  0.334089  55.065486   0.083285  41.990247   0.936732 146.001912   0.063098  28.708388 
  560.000   0.066319  16.707024   0.931515 138.119273   0.095425  35.298118   0.344637  47.048677 
  0.931515 138.119273   0.066319  16.707024   0.344637  47.048677   0.095425  35.298118 
  0.095425  35.298118   0.344637  47.048677   0.066319  16.707024   0.931515 138.119273 
  0.344637  47.048677   0.095425  35.298118   0.931515 138.119273   0.066319  16.707024 
  580.000   0.068423   4.789660   0.926405 130.253107   0.105448  28.403778   0.354927  39.101053 
  0.926405 130.253107   0.068423   4.789660   0.354927  39.101053   0.105448  28.403778 
  0.105448  28.403778   0.354927  39.101053   0.068423   4.789660   0.926405 130.253107 
  0.354927  39.101053   0.105448  28.403778   0.926405 130.253107   0.068423   4.789660 
  600.000   0.069376  -7.168495   0.921460 122.397652   0.113186  21.425038   0.365085  31.223305 
  0.921460 122.397652   0.069376  -7.168495   0.365085  31.223305   0.113186  21.425038 
  0.113186  21.425038   0.365085  31.223305   0.069376  -7.168495   0.921460 122.397652 
  0.365085  31.223305   0.113186  21.425038   0.921460 122.397652   0.069376  -7.168495 
  620.000   0.069186 -19.292722   0.916712 114.546444   0.118521  14.433160   0.375241  23.410417 
  0.916712 114.546444   0.069186 -19.292722   0.375241  23.410417   0.118521  14.433160 
  0.118521  14.433160   0.375241  23.410417   0.069186 -19.292722   0.916712 114.546444 
  0.375241  23.410417   0.118521  14.433160   0.916712 114.546444   0.069186 -19.292722 
  640.000   0.067895 -31.722202   0.912155 106.692779   0.121386   7.480553   0.385524  15.652180 
  0.912155 106.692779   0.067895 -31.722202   0.385524  15.652180   0.121386   7.480553 
  0.121386   7.480553   0.385524  15.652180   0.067895 -31.722202   0.912155 106.692779 
  0.385524  15.652180   0.121386   7.480553   0.912155 106.692779   0.067895 -31.722202 
  660.000   0.065585 -44.623370   0.907755  98.830274   0.121758   0.615856   0.396048   7.934108 
  0.907755  98.830274   0.065585 -44.623370   0.396048   7.934108   0.121758   0.615856 
  0.121758   0.615856   0.396048   7.934108   0.065585 -44.623370   0.907755  98.830274 
  0.396048   7.934108   0.121758   0.615856   0.907755  98.830274   0.065585 -44.623370 
  680.000   0.062386 -58.205296   0.903449  90.953430   0.119663  -6.105113   0.406901   0.238671 
  0.903449  90.953430   0.062386 -58.205296   0.406901   0.238671   0.119663  -6.105113 
  0.119663  -6.105113   0.406901   0.238671   0.062386 -58.205296   0.903449  90.953430 
  0.406901   0.238671   0.119663  -6.105113   0.903449  90.953430   0.062386 -58.205296 
  700.000   0.058490 -72.737191   0.899150  83.058139   0.115183 -12.608365   0.418140  -7.453214 
  0.899150  83.058139   0.058490 -72.737191   0.418140  -7.453214   0.115183 -12.608365 
  0.115183 -12.608365   0.418140  -7.453214   0.058490 -72.737191   0.899150  83.058139 
  0.418140  -7.453214   0.115183 -12.608365   0.899150  83.058139   0.058490 -72.737191 
  720.000   0.054170 -88.562604   0.894756  75.142107   0.108464 -18.787282   0.429782 -15.160529 
  0.894756  75.142107   0.054170 -88.562604   0.429782 -15.160529   0.108464 -18.787282 
  0.108464 -18.787282   0.429782 -15.160529   0.054170 -88.562604   0.894756  75.142107 
  0.429782 -15.160529   0.108464 -18.787282   0.894756  75.142107   0.054170 -88.562604 
  740.000   0.049815 -106.089263   0.890161  67.205148   0.099722 -24.479829   0.441800 -22.900460 
  0.890161  67.205148   0.049815 -106.089263   0.441800 -22.900460   0.099722 -24.479829 
  0.099722 -24.479829   0.441800 -22.900460   0.049815 -106.089263   0.890161  67.205148 
  0.441800 -22.900460   0.099722 -24.479829   0.890161  67.205148   0.049815 -106.089263 
  760.000   0.045953 -125.699714   0.885261  59.249300   0.089266 -29.428487   0.454128 -30.686840 
  0.885261  59.249300   0.045953 -125.699714   0.454128 -30.686840   0.089266 -29.428487 
  0.089266 -29.428487   0.454128 -30.686840   0.045953 -125.699714   0.885261  59.249300 
  0.454128 -30.686840   0.089266 -29.428487   0.885261  59.249300   0.045953 -125.699714 
  780.000   0.043234 -147.497967   0.879973  51.278710   0.077521 -33.204516   0.466658 -38.528903 
  0.879973  51.278710   0.043234 -147.497967   0.466658 -38.528903   0.077521 -33.204516 
  0.077521 -33.204516   0.466658 -38.528903   0.043234 -147.497967   0.879973  51.278710 
  0.466658 -38.528903   0.077521 -33.204516   0.879973  51.278710   0.043234 -147.497967 
  800.000   0.042303 -170.921691   0.874236  43.299279   0.065085 -35.060176   0.479255 -46.430513 
  0.874236  43.299279   0.042303 -170.921691   0.479255 -46.430513   0.065085 -35.060176 
  0.065085 -35.060176   0.479255 -46.430513   0.042303 -170.921691   0.874236  43.299279 
  0.479255 -46.430513   0.065085 -35.060176   0.874236  43.299279   0.042303 -170.921691 
  820.000   0.043532 165.359697   0.868028  35.318060   0.052856 -33.658899   0.491771 -54.389956 
  0.868028  35.318060   0.043532 165.359697   0.491771 -54.389956   0.052856 -33.658899 
  0.052856 -33.658899   0.491771 -54.389956   0.043532 165.359697   0.868028  35.318060 
  0.491771 -54.389956   0.052856 -33.658899   0.868028  35.318060   0.043532 165.359697 
  840.000   0.046817 142.818921   0.861363  27.342476   0.042319 -26.807172   0.504055 -62.400343 
  0.861363  27.342476   0.046817 142.818921   0.504055 -62.400343   0.042319 -26.807172 
  0.042319 -26.807172   0.504055 -62.400343   0.046817 142.818921   0.861363  27.342476 
  0.504055 -62.400343   0.042319 -26.807172   0.861363  27.342476   0.046817 142.818921 
  860.000   0.051654 122.282309   0.854293  19.379446   0.035879 -12.609549   0.515973 -70.450536 
  0.854293  19.379446   0.051654 122.282309   0.515973 -70.450536   0.035879 -12.609549 
  0.035879 -12.609549   0.515973 -70.450536   0.051654 122.282309   0.854293  19.379446 
  0.515973 -70.450536   0.035879 -12.609549   0.854293  19.379446   0.051654 122.282309 
  880.000   0.057406 103.820492   0.846903  11.434547   0.035923   5.341194   0.527417 -78.526449 
  0.846903  11.434547   0.057406 103.820492   0.527417 -78.526449   0.035923   5.341194 
  0.035923   5.341194   0.527417 -78.526449   0.057406 103.820492   0.846903  11.434547 
  0.527417 -78.526449   0.035923   5.341194   0.846903  11.434547   0.057406 103.820492 
  900.000   0.063487  87.111686   0.839298   3.511342   0.041930  18.643159   0.538321 -86.612552 
  0.839298   3.511342   0.063487  87.111686   0.538321 -86.612552   0.041930  18.643159 
  0.041930  18.643159   0.538321 -86.612552   0.063487  87.111686   0.839298   3.511342 
  0.538321 -86.612552   0.041930  18.643159   0.839298   3.511342   0.063487  87.111686 
  920.000   0.069426  71.752172   0.831592  -4.389018   0.051052  24.891586   0.548660 -94.693362 
  0.831592  -4.389018   0.069426  71.752172   0.548660 -94.693362   0.051052  24.891586 
  0.051052  24.891586   0.548660 -94.693362   0.069426  71.752172   0.831592  -4.389018 
  0.548660 -94.693362   0.051052  24.891586   0.831592  -4.389018   0.069426  71.752172 
  940.000   0.074869  57.386425   0.823894 -12.267854   0.061009  26.256340   0.558455 -102.754752 
  0.823894 -12.267854   0.074869  57.386425   0.558455 -102.754752   0.061009  26.256340 
  0.061009  26.256340   0.558455 -102.754752   0.074869  57.386425   0.823894 -12.267854 
  0.558455 -102.754752   0.061009  26.256340   0.823894 -12.267854   0.074869  57.386425 
  960.000   0.079558  43.732912   0.816298 -20.128488   0.070551  24.797288   0.567759 -110.784851 
  0.816298 -20.128488   0.079558  43.732912   0.567759 -110.784851   0.070551  24.797288 
  0.070551  24.797288   0.567759 -110.784851   0.079558  43.732912   0.816298 -20.128488 
  0.567759 -110.784851   0.070551  24.797288   0.816298 -20.128488   0.079558  43.732912 
  980.000   0.083360  30.577116   0.808897 -27.972924   0.079058  21.739382   0.576616 -118.772890 
  0.808897 -27.972924   0.083360  30.577116   0.576616 -118.772890   0.079058  21.739382 
  0.079058  21.739382   0.576616 -118.772890   0.083360  30.577116   0.808897 -27.972924 
  0.576616 -118.772890   0.079058  21.739382   0.808897 -27.972924   0.083360  30.577116 
 1000.000   0.328578  48.916618   0.822258 -17.529912   0.328578  48.916618   0.328578 -131.083382 
  0.822258 -17.529912   0.328578  48.916618   0.328578 -131.083382   0.328578  48.916618 
  0.328578  48.916618   0.328578 -131.083382   0.328578  48.916618   0.822258 -17.529912 
  0.328578 -131.083382   0.328578  48.916618   0.822258 -17.529912   0.328578  48.916618 
 1020.000   0.087464   5.063039   0.794620 -43.665227   0.091203  13.210074   0.593810 -134.624107 
  0.794620 -43.665227   0.087464   5.063039   0.593810 -134.624107   0.091203  13.210074 
  0.091203  13.210074   0.593810 -134.624107   0.087464   5.063039   0.794620 -43.665227 
  0.593810 -134.624107   0.091203  13.210074   0.794620 -43.665227   0.087464   5.063039 
 1040.000   0.087664  -7.593342   0.787717 -51.527785   0.094473   8.414367   0.602405 -142.489041 
  0.787717 -51.527785   0.087664  -7.593342   0.602405 -142.489041   0.094473   8.414367 
  0.094473   8.414367   0.602405 -142.489041   0.087664  -7.593342   0.787717 -51.527785 
  0.602405 -142.489041   0.094473   8.414367   0.787717 -51.527785   0.087664  -7.593342 
 1060.000   0.086744 -20.336917   0.780954 -59.402696   0.095882   3.544313   0.611058 -150.315839 
  0.780954 -59.402696   0.086744 -20.336917   0.611058 -150.315839   0.095882   3.544313 
