! s4p File.  Ports: 1,2,3,4
# MHz S DB R 50
0.000	-100.000	0.000		-100.000	0.000		0.0		0.0		-100.000	-180.000	
	-100.000	0.000		-100.000	0.000		-100.000	-180.000	0.000		0.000	
	0.00		0.000		-100.000	-180.000	-100.000	0.0		-100.000	0.000	
	-100.000	-180.000	0.0		0.0		-100.000	0.0		-100.000	0.0	

100.00	-13.25450	24.1758	-15.10216	25.9231	-0.59792	-58.7335	-22.35666	-179.4108	
	-15.11228	25.9656	-13.10370	23.6022	-22.34140	-179.7132	-0.61677	-58.9066	
	-0.59646	-58.7370	-22.32122	-179.6757	-13.21039	23.0523	-15.17750	26.3174	
	-22.26705	-179.7432	-0.61572	-58.8947	-15.19547	26.3351	-13.05616	22.9902	

200.00	-10.81682	-27.2159	-12.76362	-26.9316	-1.02756	-112.3754	-20.98016	110.0965	
	-12.76125	-26.9428	-10.74580	-28.0266	-20.99949	109.7802	-1.05026	-112.5662	
	-1.02340	-112.4233	-20.99192	109.8845	-10.78430	-29.5351	-12.79232	-25.8092	
	-20.97141	110.1500	-1.04725	-112.6502	-12.79220	-25.7668	-10.70098	-29.5339	

300.00	-13.17021	-77.0162	-15.32136	-78.3195	-0.92561	-165.1904	-24.00257	71.3758	
	-15.32351	-78.3048	-12.83750	-76.9512	-24.04923	71.3419	-0.92821	-166.1034	
	-0.92117	-165.2418	-24.02719	71.2661	-13.15557	-81.2449	-15.34502	-76.5518	
	-23.99946	71.3814	-0.92399	-166.1704	-15.34700	-76.5940	-12.82375	-80.2470	

400.00	-26.46655	-102.9024	-37.31280	-102.7500	-0.75864	136.7999	-18.30264	50.6535	
	-37.25786	-103.0935	-26.50496	-95.3080	-18.29840	50.1250	-0.80397	136.0183	
	-0.75449	136.6377	-18.30524	49.9746	-27.41012	-117.3141	-36.11357	-84.4328	
	-18.30684	50.5252	-0.79839	135.9441	-36.12391	-84.4686	-27.97534	-111.0446	

500.00	-14.98281	-30.4274	-15.68664	-26.1530	-1.31655	79.3039	-14.69929	-15.9189	
	-15.68230	-26.2800	-14.53246	-33.5043	-14.70386	-16.5611	-1.39229	78.6133	
	-1.31034	79.2904	-14.69895	-16.5804	-15.07317	-30.3780	-15.59000	-26.9968	
	-14.69824	-15.9099	-1.39008	78.7037	-15.59069	-27.0129	-14.68082	-31.6502	

600.00	-11.32197	-79.1379	-13.02088	-80.3090	-1.96017	26.1981	-14.64939	-79.6159	
	-13.02168	-80.2966	-11.16133	-79.6651	-14.63503	-80.2893	-1.97170	25.9216	
	-1.95485	26.2980	-14.63122	-80.3055	-11.27272	-81.1261	-13.03471	-79.2691	
	-14.65003	-79.6123	-1.96550	25.8593	-13.03901	-79.2615	-11.15352	-80.6750	

700.00	-12.28630	-122.1358	-14.91281	-129.0737	-1.87171	-26.5688	-14.94653	-123.5987	
	-14.91146	-129.0518	-12.05730	-123.0937	-14.90402	-124.5342	-1.94340	-27.0706	
	-1.86631	-26.5958	-14.90187	-124.5705	-12.30042	-126.2939	-15.07764	-126.0226	
	-14.94449	-123.5676	-1.93683	-27.1252	-15.07058	-126.0439	-12.04724	-127.0871	

800.00	-20.69284	-152.6238	-29.62508	-178.1349	-1.77721	-83.1276	-12.70641	-167.3886	
	-29.62631	-178.1310	-19.82485	-150.8985	-12.68401	-168.8660	-1.84973	-83.6035	
	-1.77098	-83.1457	-12.68782	-168.8269	-21.07314	-161.7431	-30.05756	-150.3562	
	-12.70401	-167.3915	-1.84373	-83.6435	-30.05487	-150.5326	-20.49279	-167.0332	

900.00	-16.18436	-87.7342	-16.66709	-72.6591	-2.39810	-140.4673	-10.73241	131.6266	
	-16.66937	-72.6286	-16.17147	-93.9720	-10.75347	130.0830	-2.45182	-140.8284	
	-2.38943	-140.4898	-10.75236	130.0568	-16.65616	-86.7380	-16.03190	-77.5211	
	-10.72952	131.6160	-2.44793	-140.8502	-16.02855	-77.5349	-17.40509	-85.5345	

1000.00	-11.85240	-127.0038	-13.25247	-125.2844	-3.01420	167.1353	-10.81948	72.8436	
	-13.25057	-125.2897	-11.89734	-130.0824	-10.84328	71.5053	-3.06384	166.4627	
	-3.00745	167.1001	-10.84538	71.5185	-12.03517	-127.9436	-12.88993	-128.2008	
	-10.81636	72.8023	-3.06164	166.4184	-12.89108	-128.2310	-12.37264	-126.3506	

1100.00	-12.16370	-169.3837	-14.56838	-174.7944	-3.09995	114.7141	-10.94948	22.9983	
	-14.56379	-174.8242	-12.37264	-170.4511	-10.93448	21.5603	-3.15322	113.9814	
	-3.09483	114.6757	-10.93740	21.5702	-12.29414	-170.8592	-14.34191	-176.9168	
	-10.94249	22.9575	-3.14808	113.9528	-14.34031	-176.9351	-12.62658	-169.5273	

1200.00	-18.78937	157.7675	-25.22299	141.5052	-3.05247	58.2595	-9.60971	-25.4925	
	-25.21703	141.4867	-19.11106	163.3442	-9.59898	-27.2221	-3.12606	57.6694	
	-3.04419	58.2210	-9.59712	-27.2445	-18.88924	156.4483	-25.20061	141.0609	
	-9.60318	-25.4702	-3.11824	57.6757	-25.18429	141.0934	-19.64283	158.1696	

1300.00	-16.62958	-153.7598	-18.18229	-135.5512	-4.14009	2.3459	-8.75396	-86.4847	
	-18.18304	-135.5158	-16.88255	-148.9437	-8.75657	-88.3604	-3.91247	1.8221	
	-4.13427	2.3412	-8.75668	-88.3858	-16.42109	-154.0036	-17.54693	-135.8030	
	-8.75676	-86.4560	-3.90845	1.8129	-17.54213	-135.8066	-17.59215	-146.2439	

1400.00	-12.90689	-175.3232	-13.72236	-174.3778	-4.37644	-50.6657	-8.56492	-140.7508	
	-13.71657	-174.3415	-12.21047	-174.8364	-8.54950	-142.6193	-4.48970	-51.6781	
	-4.37754	-50.6678	-8.54886	-142.6370	-13.10693	-178.0831	-13.47640	-176.6222	
	-8.56923	-140.7673	-4.49096	-51.7092	-13.47181	-176.5873	-12.61107	-174.5960	

1500.00	-12.93905	144.1842	-14.50435	136.9526	-4.53514	-103.5131	-8.62181	168.1690	
	-14.49891	137.0316	-12.44184	147.1652	-8.55352	166.0138	-4.64641	-103.9134	
	-4.53685	-103.5390	-8.55449	166.0167	-13.31923	142.4795	-14.35667	134.3435	
	-8.62539	168.1709	-4.64202	-103.9371	-14.35058	134.4555	-12.66200	143.5426	

1600.00	-19.87636	121.2332	-24.07528	103.9317	-4.76388	-161.5412	-7.56073	116.2872	
	-24.07599	103.8752	-17.62215	126.5292	-7.54111	113.5853	-4.81372	-160.4882	
	-4.76056	-161.5520	-7.54209	113.6084	-20.80535	124.4404	-24.73424	94.8861	
	-7.55569	116.3093	-4.80883	-160.4481	-24.74041	94.8608	-18.90585	113.9442	

1700.00	-18.60347	140.9832	-21.96485	162.8992	-5.52163	149.0905	-7.70754	61.8701	
	-21.96234	162.8694	-18.36820	151.0419	-7.73061	59.0499	-5.24250	145.7913	
	-5.51600	149.0740	-7.73199	59.0615	-17.52405	144.1563	-21.20900	165.1515	
	-7.69900	61.9007	-5.23898	145.7874	-21.20577	165.0921	-20.85333	154.9830	

1800.00	-13.43795	135.9209	-14.21540	134.7129	-6.15970	92.8069	-7.20846	4.8586	
	-14.20541	134.7060	-12.82195	133.9291	-7.24293	2.2834	-6.20437	91.2106	
	-6.15877	92.7979	-7.24641	2.2835	-13.30363	134.4534	-13.93825	135.6267	
	-7.21248	5.0270	-6.19806	91.1857	-13.93403	135.5463	-13.57073	139.5436	

1900.00	-12.99949	97.0152	-14.23997	86.6169	-6.40891	40.1056	-7.29374	-46.9235	
	-14.23511	86.6325	-12.68190	97.2573	-7.27356	-49.7128	-6.47617	39.1829	
	-6.40444	40.1173	-7.27062	-49.6626	-13.23976	98.0965	-13.89187	87.5119	
	-7.28705	-46.8058	-6.46596	39.1564	-13.88429	87.4503	-13.11506	100.1948	

2000.00	-18.06776	74.0711	-21.44939	49.2323	-6.99583	-18.1992	-6.60531	-100.3579	
	-21.44377	49.2927	-16.76656	73.9053	-6.58668	-103.5118	-6.89335	-16.9213	
	-6.99174	-18.2267	-6.58384	-103.3707	-18.48547	83.3644	-20.87230	49.3677	
	-6.59783	-100.2254	-6.88394	-16.9032	-20.87547	49.3573	-17.38274	75.0566	

2100.00	-20.07423	74.8932	-27.66543	115.2283	-7.24489	-68.3427	-6.52740	-151.3641	
	-27.68215	115.1167	-20.51671	89.0158	-6.53480	-154.7417	-7.07140	-71.6253	
	-7.23997	-68.1906	-6.53398	-154.5991	-17.46735	85.1143	-25.83750	95.4154	
	-6.52392	-151.2100	-7.06756	-71.6067	-25.84521	95.3853	-20.66648	88.5844	

2200.00	-15.04298	81.1413	-15.33513	93.6382	-8.26728	-124.1554	-6.21647	151.6149	
	-15.33386	93.5136	-14.40204	82.9328	-6.22646	148.2805	-8.32084	-126.3946	
	-8.26650	-124.1724	-6.22195	148.4460	-13.89767	77.0856	-15.66830	88.2882	
	-6.21697	151.7573	-8.31296	-126.3987	-15.66058	88.2097	-14.34555	83.9695	

2300.00	-14.12305	44.6777	-14.18551	46.4208	-8.74715	-176.9297	-6.25810	98.8272	
	-14.17475	46.3322	-13.73471	47.1731	-6.23625	95.2819	-8.84561	-178.1853	
	-8.74202	-176.9416	-6.22359	95.4685	-13.68215	41.7531	-14.59821	42.5236	
	-6.25605	98.9069	-8.83916	-178.1813	-14.58781	42.4392	-13.41682	46.2442	

2400.00	-17.06712	28.9242	-17.42379	15.8164	-10.07613	128.6569	-6.20253	44.1827	
	-17.41399	15.8431	-16.09119	23.7941	-6.16283	40.4514	-9.53371	129.4815	
	-10.07395	128.6530	-6.16228	40.4609	-17.60078	32.1725	-18.94920	15.9870	
	-6.19708	44.3090	-9.52469	129.4930	-18.93256	16.0024	-15.93882	21.9483	

2500.00	-21.12704	23.2042	-27.88279	18.1151	-9.70941	73.0613	-5.58416	-5.6362	
	-27.87561	17.9936	-21.37700	32.4848	-5.55928	-9.8211	-9.58423	70.2887	
	-9.70502	73.0294	-5.55901	-9.8288	-19.36155	28.3022	-27.31012	27.5035	
	-5.58044	-5.6080	-9.57680	70.2853	-27.30049	27.5282	-21.46021	21.4374	

2600.00	-15.17469	29.7458	-16.88957	41.9759	-11.23050	17.5780	-5.43041	-62.4262	
	-16.89568	41.9319	-15.06196	31.4800	-5.41064	-66.6136	-11.23097	15.9334	
	-11.22574	17.5614	-5.39468	-66.6169	-14.77320	25.4633	-16.59898	41.1387	
	-5.43718	-62.4009	-11.21904	15.9449	-16.60474	41.1058	-15.19793	30.1410	

2700.00	-13.61633	-6.8533	-14.69622	-0.0217	-12.21277	-35.3613	-5.51067	-116.2446	
	-14.70195	-0.1064	-13.62515	-3.9907	-5.46383	-120.8316	-12.21963	-34.4642	
	-12.20191	-35.3758	-5.44072	-120.7977	-14.15737	-10.6680	-14.71895	-2.1573	
	-5.52108	-116.2699	-12.21648	-34.4503	-14.72748	-2.2702	-13.40333	-5.7570	

2800.00	-13.95490	-33.2889	-15.11099	-38.1139	-12.99288	-79.9795	-5.86737	-167.4292	
	-15.10383	-38.1248	-14.53788	-38.9271	-5.76096	-172.3117	-12.02208	-83.5039	
	-12.98714	-80.0051	-5.75032	-172.3299	-15.70677	-23.3326	-15.45138	-32.6435	
	-5.86881	-167.4971	-12.00948	-83.5608	-15.44024	-32.6284	-13.80105	-36.2857	

2900.00	-20.11047	-54.3900	-25.27132	-65.0519	-13.17493	-146.1768	-4.94918	139.6066	
	-25.26950	-65.1332	-21.26176	-40.3470	-4.90755	133.8761	-12.88568	-148.1719	
	-13.17041	-146.2202	-4.91028	133.8593	-19.66011	-28.9861	-23.59775	-60.6272	
	-4.94160	139.5671	-12.87960	-148.1847	-23.58417	-60.7213	-20.48627	-54.2007	

3000.00	-16.87265	-26.2207	-19.20587	-7.4394	-15.75519	154.2143	-4.81138	82.1603	
	-19.21685	-7.3314	-15.76838	-24.3736	-4.83485	76.6033	-15.45962	155.5231	
	-15.75581	154.1815	-4.82449	76.4147	-14.92049	-25.0061	-19.36359	-14.5681	
	-4.80634	82.2207	-15.44437	155.4393	-19.35802	-14.5101	-16.71582	-24.4409	

3100.00	-14.53198	-49.6256	-15.19722	-37.7637	-20.33465	109.2280	-5.34713	26.0857	
	-15.21084	-37.7618	-12.84793	-55.2239	-5.40855	20.6152	-17.58145	116.7071	
	-20.32431	109.2904	-5.38037	20.4971	-14.92001	-53.6601	-16.85987	-39.2185	
	-5.36048	26.1802	-17.58311	116.7348	-16.88298	-39.1782	-13.57011	-48.0633	

3200.00	-13.21925	-88.6507	-14.83794	-88.5254	-17.50148	63.7835	-5.24709	-21.9028	
	-14.84325	-88.4857	-13.76581	-100.9562	-5.19168	-27.7551	-16.40152	56.2746	
	-17.49706	63.6963	-5.17269	-27.8616	-13.38164	-82.7175	-15.10532	-83.9634	
	-5.25200	-21.9871	-16.39467	56.1928	-15.10532	-83.9691	-12.89209	-90.8001	

3300.00	-18.81097	-113.9726	-22.39983	-119.6136	-19.49998	-11.3442	-4.69965	-77.0503	
	-22.39186	-119.6327	-22.01910	-120.5533	-4.64835	-83.6552	-18.51753	-11.9989	
	-19.49428	-11.3776	-4.64066	-83.6750	-17.99924	-99.8479	-21.44745	-113.8583	
	-4.68881	-77.1504	-18.50639	-11.9998	-21.43339	-113.8927	-18.65893	-113.6772	

3400.00	-19.05719	-72.5230	-20.72524	-51.6311	-29.61307	-88.6643	-4.96102	-135.0114	
	-20.72616	-51.6290	-17.21097	-60.6337	-4.99341	-141.7392	-24.65701	-61.8536	
	-29.59882	-88.6128	-4.99327	-141.8547	-17.90290	-90.3446	-23.44490	-68.0484	
	-4.94933	-135.0202	-24.63850	-61.8173	-23.43606	-68.0384	-19.15534	-69.4127	

3500.00	-12.48201	-99.0335	-14.27331	-97.5353	-27.69789	-84.7235	-5.28277	174.3565	
	-14.26924	-97.4416	-12.41818	-106.6142	-5.18952	167.9125	-25.19475	-111.1817	
	-27.68031	-84.7764	-5.17797	167.7357	-13.09479	-96.9764	-14.77409	-89.0327	
	-5.27401	174.4289	-25.17594	-111.2367	-14.79090	-89.0049	-12.02039	-96.0906	

3600.00	-12.67314	-141.3886	-15.04036	-142.2880	-30.97812	-168.0336	-5.15724	121.6516	
	-15.04279	-142.3670	-13.58988	-147.5191	-5.02120	114.1238	-28.41866	-172.0366	
	-30.95582	-168.1420	-5.01262	114.0253	-13.42705	-136.9127	-14.94730	-134.8993	
	-5.15771	121.6428	-28.40381	-172.0184	-14.95636	-134.8341	-12.15592	-137.1184	

3700.00	-19.09603	-179.1081	-23.74003	-176.3589	-32.56298	10.9026	-5.12740	67.1166	
	-23.72965	-176.4227	-22.19534	-160.9044	-5.08837	58.3082	-35.77517	117.6725	
	-32.56719	10.8083	-5.08397	58.2935	-17.97335	-165.5551	-19.87276	-175.2611	
	-5.12363	66.9773	-35.76101	117.5202	-19.86284	-175.3752	-16.75738	-170.5067	

3800.00	-18.93460	-119.4347	-19.16782	-119.0321	-27.90509	-55.1779	-4.91476	13.0628	
	-19.15664	-119.0669	-16.46097	-126.0185	-4.89265	4.6241	-28.08848	-22.3069	
	-27.90469	-55.2398	-4.90016	4.5933	-18.16346	-112.4412	-20.66236	-107.4346	
	-4.90202	12.9615	-28.09005	-22.3347	-20.65313	-107.4638	-18.17042	-123.4992	

3900.00	-13.69467	-147.9152	-14.97563	-154.7146	-22.85277	-128.6586	-5.28398	-42.3749	
	-14.96333	-154.6580	-13.04182	-158.9011	-5.22358	-50.9760	-24.66101	-129.0712	
	-22.84719	-128.7243	-5.23964	-51.1423	-13.17249	-147.0853	-14.96122	-146.0934	
	-5.25761	-42.4214	-24.66897	-129.1680	-14.95039	-146.0812	-13.01722	-149.6508	

4000.00	-14.16636	166.6819	-16.60269	156.5804	-20.68271	167.4501	-5.69121	-94.4932	
	-16.60005	156.5706	-15.49485	160.2381	-5.66138	-104.1592	-25.09543	155.4428	
	-20.68708	167.3453	-5.66473	-104.2854	-13.14947	169.5883	-14.87196	166.6302	
	-5.68479	-94.5601	-25.09131	155.3701	-14.86509	166.6410	-13.45993	167.8697	

4100.00	-20.06708	158.9966	-21.91461	164.2909	-19.98993	127.6061	-5.14976	-147.3853	
	-21.91502	164.2061	-17.93048	163.0917	-5.13551	-156.8146	-21.36910	141.2168	
	-19.98698	127.5380	-5.12955	-156.8086	-21.63964	138.7526	-23.81186	142.5454	
	-5.15461	-147.5241	-21.36685	141.1439	-23.80983	142.4510	-19.73996	156.3240	

4200.00	-18.25080	-171.4869	-18.27867	-175.4675	-16.07353	68.4948	-5.42929	154.9329	
	-18.27950	-175.5163	-16.25526	174.0065	-5.37879	144.6395	-17.13495	68.2009	
	-16.07076	68.4307	-5.38152	144.6540	-18.52928	-157.9543	-19.10222	-160.4354	
	-5.41964	154.8238	-17.13289	68.1639	-19.09509	-160.5001	-17.64701	-167.6684	

4300.00	-13.80219	152.8352	-14.57503	141.7338	-14.69537	0.5196	-6.43781	101.9994	
	-14.57438	141.6292	-13.94958	135.2143	-6.39122	90.7829	-16.88124	-8.0156	
	-14.70600	0.3336	-6.40169	90.5897	-13.06089	161.5456	-13.75605	156.7968	
	-6.42309	101.8619	-16.87722	-8.0257	-13.74810	156.7930	-13.17953	155.3203	

4400.00	-17.00300	121.7816	-18.58926	123.5442	-16.52687	-48.9308	-5.85719	54.1956	
	-18.59187	123.4735	-16.76709	131.9158	-5.91134	43.2014	-18.65242	-33.9384	
	-16.52937	-48.9824	-5.92113	42.9455	-14.78695	112.3003	-16.12049	110.9497	
	-5.85432	54.1906	-18.65300	-33.9954	-16.11887	110.9567	-16.48947	123.7418	

4500.00	-19.78437	101.9461	-19.95388	106.4387	-14.03368	-93.5223	-5.75761	-3.8134	
	-19.94923	106.3607	-17.93110	104.3258	-5.70050	-15.5098	-14.73221	-90.0651	
	-14.03567	-93.5710	-5.70156	-15.6845	-21.40402	84.4741	-21.65209	93.1740	
	-5.75834	-3.8500	-14.72813	-90.0699	-21.64981	93.1392	-19.82693	108.8939	

4600.00	-19.15320	127.9984	-17.78514	122.3557	-11.89804	-154.7104	-6.55039	-61.3688	
	-17.79505	122.3309	-16.72473	112.0351	-6.48956	-74.2211	-12.90229	-157.5673	
	-11.89737	-154.7864	-6.48462	-74.4278	-19.42831	143.9923	-18.86162	140.3007	
	-6.55589	-61.3136	-12.89651	-157.6172	-18.86362	140.2105	-17.64276	136.0743	

4700.00	-16.48904	80.7139	-16.98751	72.1357	-13.04138	139.4285	-7.32289	-105.5708	
	-16.98674	72.1413	-18.54746	61.8366	-7.37766	-119.2291	-16.06720	140.9752	
	-13.05665	139.4080	-7.38658	-119.3824	-14.00930	91.4577	-14.34717	89.0650	
	-7.31973	-105.4935	-16.07274	140.9765	-14.34390	88.9983	-15.04038	83.6534	

4800.00	-17.57562	73.0594	-17.49634	77.8274	-12.51253	100.2089	-6.40932	-162.2723	
	-17.49421	77.7181	-16.58969	83.3878	-6.41398	-176.2658	-13.12202	106.6351	
	-12.52925	100.1967	-6.43455	-176.3662	-15.53934	53.1028	-16.79151	64.0454	
	-6.40977	-162.2577	-13.11996	106.6615	-16.77528	64.0236	-17.78872	71.8996	

4900.00	-18.55247	43.0191	-18.71881	50.2304	-10.91931	47.3118	-6.78776	140.4655	
	-18.72593	50.1891	-17.12110	52.4442	-6.72033	125.4017	-11.42582	47.8740	
	-10.91550	47.2660	-6.71216	125.2630	-19.62841	12.6785	-21.03015	40.2831	
	-6.78502	140.5688	-11.42284	47.8493	-21.03661	40.2143	-19.78324	48.2243	

5000.00	-18.64746	48.6932	-17.76544	54.9828	-9.80716	-14.6171	-8.05908	85.5423	
	-17.77165	54.9503	-15.45577	42.3815	-8.08396	68.5607	-10.95311	-18.2530	
	-9.80145	-14.7375	-8.07264	68.5182	-22.21215	76.4780	-18.49073	84.4222	
	-8.06050	85.4962	-10.94455	-18.2978	-18.50025	84.4158	-17.72894	67.5186	

5100.00	-19.11034	9.7097	-22.20556	25.0965	-11.11197	-66.1302	-7.52044	40.3016	
	-22.21310	25.0669	-21.56929	11.3351	-7.55805	23.2869	-12.51610	-59.5305	
	-11.11158	-66.0841	-7.55037	23.3513	-16.37208	24.9309	-16.38179	35.8706	
	-7.53129	40.3282	-12.51635	-59.4601	-16.38935	35.7934	-16.62299	11.2745	

5200.00	-17.68102	12.2222	-17.32215	35.5848	-9.78607	-116.6348	-7.67568	-18.7496	
	-17.32759	35.4862	-15.55977	22.1550	-7.68008	-37.3291	-10.28915	-114.5582	
	-9.78930	-116.6313	-7.67402	-37.2461	-15.46877	-2.7571	-16.51141	17.2204	
	-7.67057	-18.7864	-10.27934	-114.5607	-16.51188	17.1075	-18.17207	1.1911	

5300.00	-17.34785	-13.4306	-17.40023	5.3785	-8.88836	-172.3568	-8.41455	-74.7518	
	-17.41717	5.3987	-15.21745	-9.0289	-8.39171	-94.9658	-9.44494	-173.4520	
	-8.87932	-172.3671	-8.36309	-94.9885	-17.88884	-41.0359	-19.91151	-11.4760	
	-8.41238	-74.6971	-9.42105	-173.3990	-19.92036	-11.4874	-20.40088	-23.1188	

5400.00	-16.11209	-18.4308	-16.12368	-12.0506	-8.78696	126.0341	-9.96079	-122.4987	
	-16.13240	-12.1342	-13.53884	-31.1542	-10.28903	-144.8496	-10.35558	122.9430	
	-8.79454	125.9389	-10.27165	-144.8638	-19.30177	1.7529	-17.73836	18.7182	
	-9.96227	-122.5717	-10.35269	122.8887	-17.73637	18.6770	-16.46575	0.7125	

5500.00	-17.29206	-42.5964	-23.05308	-27.9648	-9.22000	79.8110	-8.70543	-174.9341	
	-23.05148	-28.0381	-21.68307	-53.4806	-8.74758	163.1712	-10.06987	85.8419	
	-9.20891	79.8072	-8.73083	163.1754	-15.54277	-32.3484	-18.20271	-19.6817	
	-8.69227	-174.9197	-10.05787	85.8719	-18.20778	-19.7063	-16.77397	-50.2639	

5600.00	-15.02053	-46.2500	-17.14787	-19.2293	-8.32074	25.1024	-9.52775	126.8648	
	-17.15426	-19.1685	-15.21402	-33.0655	-9.55410	102.0264	-8.66358	26.5789	
	-8.30299	25.1401	-9.52999	102.0491	-13.51504	-54.1967	-16.91224	-29.5662	
	-9.51498	126.8711	-8.64779	26.5819	-16.92159	-29.5651	-17.16596	-52.3294	

5700.00	-14.59208	-70.9026	-16.73817	-52.1696	-7.81940	-30.7618	-10.67904	72.8609	
	-16.74955	-52.1087	-14.22102	-60.3325	-10.77666	44.7819	-8.30078	-33.3746	
	-7.80105	-30.8245	-10.74724	44.6303	-14.86877	-88.4919	-19.06474	-58.4123	
	-10.67473	72.8448	-8.27969	-33.4006	-19.07323	-58.3204	-18.05475	-65.0382	

5800.00	-14.16269	-82.1688	-16.12340	-81.6209	-8.36977	-89.5506	-11.62603	31.7150	
	-16.11491	-81.6208	-12.59571	-89.1528	-12.33536	3.7103	-10.04855	-90.8063	
	-8.35915	-89.6014	-12.31062	3.6200	-16.03564	-68.4072	-16.52782	-47.1745	
	-11.61599	31.7692	-10.03710	-90.8191	-16.54010	-47.2239	-13.14757	-60.7757	

5900.00	-16.50852	-97.5379	-29.21289	-105.1264	-8.01083	-136.1288	-10.67406	-26.9940	
	-29.22583	-105.2846	-21.94983	-89.5451	-10.66937	-57.8856	-8.77513	-132.2587	
	-7.99388	-136.2192	-10.64443	-57.9887	-14.74909	-89.2348	-18.94782	-82.3814	
	-10.66230	-27.0011	-8.75360	-132.1974	-18.93708	-82.3014	-13.50978	-101.5117	

6000.00	-14.64295	-93.4159	-18.82898	-55.1938	-7.37339	167.1588	-12.14314	-83.8423	
	-18.83736	-55.0515	-13.55360	-73.4626	-12.34137	-121.0313	-7.91151	167.7382	
	-7.34307	167.0846	-12.31224	-121.0971	-13.10489	-105.2800	-18.67466	-87.7847	
	-12.11941	-83.8456	-7.89191	167.6876	-18.67935	-87.7285	-14.80620	-116.7120	

6100.00	-13.75118	-108.9313	-16.09809	-87.0603	-7.35368	108.5656	-14.06115	-129.3233	
	-16.07364	-87.0308	-11.46024	-100.1288	-15.27486	-173.5024	-8.23298	106.2347	
	-7.33744	108.4586	-15.28043	-173.6411	-16.38822	-126.3556	-22.13197	-88.1058	
	-14.04415	-129.3279	-8.23690	106.1263	-22.13569	-88.1070	-19.23100	-112.8512	

6200.00	-13.13356	-129.3886	-15.70880	-137.1342	-8.36955	58.4795	-12.32185	-173.0983	
	-15.72725	-137.0679	-11.49533	-142.6921	-13.52371	152.6797	-9.70319	62.8147	
	-8.35798	58.4373	-13.50058	152.3901	-13.57257	-117.1767	-15.42801	-109.4766	
	-12.31157	-172.9618	-9.68854	62.7945	-15.43485	-109.2411	-12.45680	-115.9747	

6300.00	-15.61135	-131.7053	-28.10950	-139.1417	-7.34855	7.7788	-13.08442	123.5214	
	-28.11832	-139.2941	-19.46451	-131.1793	-13.19429	78.8395	-7.89146	11.2152	
	-7.33090	7.5339	-13.15242	78.6646	-14.30051	-127.7955	-19.89515	-137.5639	
