! C:\Users\peter.pupalaikis\Desktop\ESE2DIL\SE2DILII\TestCase\DUTMM.s4p
!
! Fri Feb 03 15:57:13 2012
!
! freq S11 S12 S13 S14 
! S21 S22 S23 S24 
! S31 S32 S33 S34 
! S41 S42 S43 S44 
! 
# MHz S MA R 50.00  
    0.000   0.021299   0.000000   0.957227   0.000000   0.000666   0.000000   0.012582 180.000000 
  0.951943   0.000000   0.021145   0.000000   0.008793   0.000000   0.000443   0.000000 
  0.000702   0.000000   0.012646 180.000000   0.023078   0.000000   0.955585   0.000000 
  0.008877   0.000000   0.000446   0.000000   0.950395   0.000000   0.023006   0.000000 
   10.000   0.018005 -16.097826   0.996885  -5.104099   0.000610 -58.447435   0.002792 165.054252 
  0.994235  -5.072643   0.017720 -13.882858   0.001676 150.574701   0.000395 -20.875855 
  0.000604 -60.455439   0.002829 164.450200   0.024950  32.458448   0.995001  -5.299743 
  0.001648 155.178934   0.000379 -18.972882   0.992318  -5.271391   0.025353  33.944353 
   20.000   0.026255 -61.198902   0.984494 -10.343028   0.000847 -92.768990   0.001132  80.134194 
  0.981608 -10.346370   0.025062 -59.381623   0.004970 -171.662239   0.000355 -58.470534 
  0.001123 -92.106426   0.001212  79.986330   0.025461  29.473496   0.982033 -10.715241 
  0.004978 -171.979215   0.000332 -61.595981   0.979139 -10.712520   0.026233  31.362232 
   30.000   0.031876 -87.381223   0.977946 -15.410832   0.001040 -106.159897   0.003710 168.735806 
  0.975614 -15.418569   0.030200 -86.058921   0.000921 -155.774959   0.000330 -113.955349 
  0.001033 -107.203085   0.003673 167.874642   0.026966  42.756388   0.974453 -15.936790 
  0.000869 -146.663245   0.000327 -120.295688   0.972272 -15.945104   0.028626  44.211264 
   40.000   0.046831 -88.169984   0.977877 -20.165687   0.000985 -128.484605   0.003726 162.314625 
  0.975751 -20.171897   0.045162 -86.919248   0.001634 -169.174203   0.000455 -157.864778 
  0.000975 -128.027692   0.003680 161.635554   0.034340  28.701695   0.974530 -20.786426 
  0.001693 -164.750338   0.000399 -166.144970   0.972419 -20.802021   0.035965  29.911462 
   50.000   0.063342 -93.759982   0.973003 -24.899778   0.000883 -154.738883   0.003517 158.890485 
  0.971355 -24.889628   0.061850 -92.654098   0.000668 -176.593642   0.000732 168.286785 
  0.000883 -155.661399   0.003474 158.782412   0.037962  17.149342   0.970514 -25.618302 
  0.000658 179.995514   0.000682 168.252336   0.968827 -25.611631   0.039593  17.978697 
   60.000   0.078007 -100.192587   0.959091 -29.871243   0.000857 177.756235   0.004151 160.634223 
  0.956424 -29.844076   0.076852 -99.217470   0.001039 -165.135079   0.000901 147.144195 
  0.000853 174.999288   0.004130 160.942961   0.040075   8.277643   0.958603 -30.731644 
  0.000987 -161.576453   0.000877 147.285876   0.955992 -30.711263   0.041870   8.345374 
   70.000   0.092597 -108.098166   0.959738 -34.506877   0.000858 138.287501   0.004146 151.786669 
  0.956933 -34.449289   0.091919 -107.273038   0.001131 -156.898701   0.000885 133.613947 
  0.000869 135.095335   0.004142 152.498590   0.039436   2.556356   0.960501 -35.527105 
  0.001254 -156.500842   0.000896 132.230865   0.957668 -35.480796   0.041366   1.648420 
   80.000   0.105701 -114.182285   0.955142 -39.048233   0.000857 109.838498   0.004089 150.985157 
  0.954151 -39.073478   0.105475 -113.319703   0.001275 140.355333   0.000880 127.115861 
  0.000923 111.692677   0.004162 152.128299   0.040146  -3.426235   0.957395 -40.232789 
  0.001402 141.955376   0.000795 120.880067   0.956359 -40.264707   0.042366  -5.282185 
   90.000   0.117185 -120.995250   0.951518 -43.599961   0.000983  93.932642   0.003899 145.800901 
  0.949983 -43.539519   0.117547 -120.030447   0.001009 -171.301442   0.000527 119.718032 
  0.001076  94.155704   0.004025 146.141576   0.038531  -6.812424   0.955427 -44.987522 
  0.001142 -170.585990   0.000558 109.092552   0.953889 -44.936259   0.040874  -9.907368 
  100.000   0.125248 -126.814959   0.947655 -48.140670   0.000906  74.587753   0.003544 135.793045 
  0.946157 -48.066354   0.126010 -125.828771   0.001298 -163.201495   0.000226 116.888807 
  0.000957  73.391869   0.003688 135.146078   0.038959  -6.833718   0.953187 -49.737248 
  0.001505 -164.979835   0.000217  73.953294   0.951571 -49.673980   0.041513 -10.958365 
  110.000   0.132401 -133.910364   0.944435 -52.623877   0.000776  52.176665   0.003954 138.295320 
  0.942371 -52.550091   0.132934 -132.784026   0.001677 -176.190124   0.000124 -110.254737 
  0.000898  55.267207   0.004038 136.170307   0.037306  -3.496322   0.951374 -54.477047 
  0.001826 -177.556127   0.000181 -89.191626   0.949118 -54.406913   0.039895  -8.889245 
  120.000   0.138093 -139.900931   0.937680 -57.178476   0.000608  35.652303   0.004049 135.807857 
  0.936344 -57.180307   0.138341 -138.442920   0.002127 178.746332   0.000545 -90.333349 
  0.000748  30.704816   0.004042 133.342325   0.037703  -2.392357   0.945746 -59.255888 
  0.002221 178.777471   0.000490 -79.839486   0.944276 -59.256218   0.040575  -8.845843 
  130.000   0.141519 -145.375451   0.933332 -61.589083   0.000788   5.219209   0.003883 131.796714 
  0.931151 -61.547281   0.141564 -143.706280   0.001931 160.601108   0.000830 -96.953603 
  0.000781  12.386739   0.003747 130.818633   0.039755  -0.224667   0.942025 -63.918368 
  0.002035 159.371887   0.000756 -78.401234   0.939745 -63.873640   0.042864  -7.623687 
  140.000   0.145446 -150.319912   0.931212 -66.142571   0.000646 -15.529619   0.003953 128.237767 
  0.928704 -66.093069   0.144857 -148.428347   0.002290 171.787884   0.000730 -120.503344 
  0.000671 -16.759025   0.003918 127.887491   0.042218  -1.576880   0.940258 -68.695265 
  0.002324 166.657157   0.000857 -105.873119   0.937686 -68.640724   0.045717  -9.548119 
  150.000   0.149874 -154.726579   0.925741 -70.650635   0.000595 -63.622313   0.002890 113.502985 
  0.924235 -70.601007   0.149199 -152.554736   0.001838 -175.048743   0.000864 -121.926994 
  0.000479 -64.836644   0.002803 112.258947   0.042763  -5.977759   0.935500 -73.395240 
  0.001603 179.195383   0.000826 -131.568129   0.934048 -73.339593   0.047225 -14.671010 
  160.000   0.154394 -159.556175   0.920176 -75.150848   0.000327 -125.254825   0.003643 118.433595 
  0.918710 -75.119936   0.153280 -157.256539   0.002664 178.536434   0.000843 -152.041363 
  0.000265 -113.907005   0.003505 118.098462   0.041460  -9.093394   0.931022 -78.111428 
  0.002508 179.710410   0.000763 -153.902159   0.929723 -78.083473   0.046629 -18.984708 
  170.000   0.158176 -164.734444   0.913174 -79.535568   0.000349 -152.811098   0.004180 117.701054 
  0.911576 -79.549076   0.156675 -162.270212   0.002320 173.619489   0.000841 171.500348 
  0.000203 -167.728598   0.004062 119.140233   0.039126 -10.476346   0.925373 -82.752365 
  0.002365 176.380901   0.000885 179.580573   0.923840 -82.781449   0.044591 -22.094895 
  180.000   0.164297 -169.502151   0.907611 -84.105705   0.000613 153.919833   0.003811 106.668427 
  0.904882 -83.986273   0.163004 -166.952111   0.002415 166.251991   0.000914 145.984772 
  0.000565 143.315510   0.003705 109.061007   0.034140 -15.734681   0.921631 -87.554421 
  0.002480 168.328034   0.001007 144.322396   0.918805 -87.451522   0.040058 -29.612478 
  190.000   0.168570 -174.093648   0.900396 -88.591549   0.000801 136.015172   0.003469 112.444402 
  0.898854 -88.433773   0.167364 -171.583040   0.001365 158.797122   0.000939 126.427108 
  0.000929 115.181350   0.003415 114.394352   0.029471 -20.364608   0.916611 -92.283948 
  0.001571 173.918714   0.000876 117.163562   0.914978 -92.146388   0.035721 -37.065468 
  200.000   0.174271 -179.669481   0.892917 -92.912435   0.001082 111.567128   0.004013  95.174391 
  0.891696 -92.803010   0.173064 -177.034291   0.002359 160.569305   0.000941 103.449201 
  0.001057 102.058902   0.003987  96.331361   0.021383 -18.644262   0.911779 -96.937207 
  0.002750 168.590946   0.001122 101.696814   0.910289 -96.853932   0.027279 -43.796796 
  210.000   0.175493 174.132362   0.884265 -97.110364   0.001180  88.667930   0.003637  89.382493 
  0.882843 -97.007300   0.174469 176.773264   0.002030 144.693690   0.000780  89.714446 
  0.001283  89.148516   0.003523  89.139828   0.017243  -0.383976   0.905080 -101.561493 
  0.002297 149.533886   0.001085  84.742131   0.903244 -101.468600   0.019782 -38.652718 
  220.000   0.173598 167.802749   0.878093 -101.151378   0.001135  72.157602   0.003685  94.661359 
  0.876278 -101.166013   0.172909 170.637123   0.002301 140.573644   0.000810  69.301445 
  0.001110  73.991087   0.003712  93.917245   0.019618  20.103300   0.899650 -106.064249 
  0.002402 145.080343   0.000874  59.046706   0.897706 -106.075118   0.015946 -21.198599 
  230.000   0.167893 161.288609   0.875873 -105.207891   0.001051  47.774661   0.003719  96.490357 
  0.874194 -105.098098   0.166815 164.316621   0.003232 132.335473   0.000823  56.013455 
  0.000940  46.464032   0.003745  95.931474   0.027484  26.338361   0.895926 -110.596973 
  0.003396 133.546222   0.000869  40.453050   0.894389 -110.492951   0.019645  -0.836547 
  240.000   0.160838 155.616277   0.875679 -109.212533   0.000850  13.554225   0.003143  88.992578 
  0.874786 -109.087907   0.159588 158.866470   0.003161 143.960685   0.000700  18.359438 
  0.000853   4.156721   0.003186  88.164833   0.033885  24.297611   0.893381 -114.997896 
  0.003187 141.614107   0.000839  13.130476   0.892670 -114.888953   0.024863   2.814207 
  250.000   0.150842 150.693454   0.875726 -113.503671   0.000893 -44.052947   0.003733  87.395478 
  0.873291 -113.330027   0.149353 154.402859   0.001875 128.645266   0.000753 -11.510862 
  0.000831 -33.653209   0.003779  85.955449   0.038809  16.148192   0.890385 -119.610408 
  0.001645 124.132478   0.000610 -23.906451   0.888045 -119.460882   0.030024  -4.476404 
  260.000   0.141701 146.036804   0.877844 -117.742915   0.000912 -76.155952   0.004037 105.189217 
  0.876359 -117.644417   0.139701 150.275998   0.003801 126.336592   0.000685   2.896306 
  0.000970 -71.162327   0.004230 103.633798   0.041932   9.318138   0.889638 -124.090463 
  0.003678 125.242036   0.000688 -13.906714   0.887970 -124.018904   0.033651 -11.175316 
  270.000   0.133984 144.040790   0.874746 -122.159123   0.000972 -121.114336   0.003363  81.728562 
  0.873634 -122.031925   0.132190 148.940093   0.002441 129.929930   0.000665 -18.609964 
  0.000894 -108.048510   0.003568  82.316750   0.037759   0.527253   0.885152 -128.611441 
  0.002174 129.034418   0.000685 -24.121583   0.883625 -128.489908   0.031045 -25.239076 
  280.000   0.129281 137.914881   0.872182 -126.592458   0.001177 -136.607715   0.004003  74.438924 
  0.870752 -126.567632   0.126857 143.339739   0.003242 138.092471   0.000210 -14.000525 
  0.001072 -117.009965   0.004076  77.003986   0.037725   4.557784   0.881151 -133.283525 
  0.003084 138.633546   0.000257 -28.600740   0.879496 -133.244199   0.028340 -21.336007 
  290.000   0.122731 134.901819   0.876267 -130.921078   0.001452 -153.082793   0.003299  84.592489 
  0.873906 -130.825935   0.120080 140.996899   0.003816 132.344801   0.000332  86.391370 
  0.001218 -141.236511   0.003417  87.956569   0.034958   0.287663   0.884413 -137.832728 
  0.003845 134.513189   0.000311  45.897751   0.882122 -137.726250   0.026083 -29.478789 
  300.000   0.110575 130.659825   0.876134 -135.375964   0.001847 -168.749837   0.002943  85.125738 
  0.875076 -135.308396   0.108089 137.757116   0.003822 116.597342   0.000633  85.364391 
  0.001642 -170.811657   0.003024  88.519386   0.035811  -7.576363   0.881899 -142.519022 
  0.003709 120.499810   0.000626  57.983676   0.881091 -142.457502   0.027942 -37.544440 
  310.000   0.105962 126.848682   0.878185 -139.757836   0.001641 172.846889   0.003348  55.188345 
  0.877400 -139.680993   0.103840 134.262611   0.003700 110.943450   0.001064  80.762967 
  0.001549 177.295388   0.003686  58.242886   0.032176  -3.999246   0.883967 -147.092496 
  0.003601 115.042324   0.000878  72.889748   0.883341 -147.045361   0.022187 -37.327392 
  320.000   0.095990 123.266347   0.875268 -144.178778   0.001352 160.587425   0.003319  59.173612 
  0.873815 -144.064468   0.094312 131.385087   0.004346 113.515622   0.001385  71.800731 
  0.001272 162.980097   0.003493  59.947901   0.030765  -6.495762   0.880472 -151.720463 
  0.004416 115.744220   0.001332  67.213698   0.878780 -151.642032   0.020203 -41.007964 
  330.000   0.087727 117.014278   0.874547 -148.669193   0.001074 155.648554   0.002879  43.500561 
  0.874107 -148.468051   0.086283 125.556517   0.004343 106.447162   0.001947  55.275724 
  0.001008 163.666169   0.003235  45.375248   0.031863  -1.937494   0.878948 -156.438272 
  0.004340 109.944048   0.001959  51.654698   0.878056 -156.250455   0.018062 -29.828694 
  340.000   0.080629 107.186445   0.874709 -153.091372   0.000455 -178.939568   0.003226  72.732093 
  0.874195 -152.952538   0.078305 116.004079   0.003769  93.215853   0.001925  45.553303 
  0.000431 -173.679372   0.003374  70.323059   0.037556   4.103188   0.878181 -161.133681 
  0.003880  98.378056   0.001942  42.978618   0.877460 -160.987242   0.021314  -8.908107 
  350.000   0.068888  99.697930   0.875079 -157.269619   0.000446 -134.061865   0.003618  57.518084 
  0.874786 -157.264159   0.066845 109.673948   0.003735 101.482612   0.001891  31.829769 
  0.000592 -124.445868   0.003905  55.932759   0.039634   1.707311   0.877017 -165.503547 
  0.003979 106.982877   0.002020  31.562798   0.876929 -165.497031   0.023216  -6.690115 
  360.000   0.057428  91.129294   0.874581 -161.842228   0.000716 -101.990447   0.003214  54.878221 
  0.874014 -161.653329   0.055439 102.767483   0.005259  94.496661   0.001951  22.822068 
  0.000955 -118.455197   0.003419  49.087205   0.040906  -0.390359   0.875345 -170.233024 
  0.005588  94.886399   0.002059  22.723753   0.875125 -170.077463   0.024687  -5.002455 
  370.000   0.046759  78.930227   0.875505 -166.305771   0.001008 -132.204295   0.004595  67.242573 
  0.874229 -166.141348   0.043845  92.693193   0.004062  96.954536   0.001881   8.286586 
  0.001089 -137.385120   0.004721  60.973259   0.043651  -1.821093   0.875661 -174.844534 
  0.004537  98.460806   0.001913   8.627336   0.874304 -174.747472   0.027783  -3.907065 
  380.000   0.036300  67.315102   0.873304 -170.762614   0.001694 -142.620911   0.004391  46.551340 
  0.871963 -170.578085   0.032630  84.335778   0.004811  91.243170   0.001639  -3.883824 
  0.001665 -143.575964   0.004543  39.981190   0.042679  -2.781810   0.872997 -179.455628 
  0.005127  94.430820   0.001722  -0.863121   0.870889 -179.336444   0.027296  -2.800514 
  390.000   0.026500  45.764539   0.871969 -175.176309   0.001929 -160.265695   0.004413  55.384205 
  0.871617 -175.012635   0.020171  67.468389   0.005097  85.202781   0.001722 -14.747737 
  0.001852 -158.849431   0.004169  48.746995   0.043518  -5.634161   0.871201 175.975737 
  0.005359  86.711873   0.001787 -13.021902   0.869755 176.106459   0.028316  -5.184362 
  400.000   0.020894  13.106641   0.869931 -179.703771   0.002634 -178.579849   0.003362  39.960290 
  0.869951 -179.584313   0.010905  25.721510   0.003623  69.054728   0.001591 -23.701199 
  0.002562 -176.328689   0.003077  36.391941   0.043646  -7.742366   0.868637 171.308502 
  0.003777  70.375882   0.001693 -22.332861   0.867743 171.424989   0.028961  -6.971155 
  410.000   0.020352 -36.115240   0.867189 175.862851   0.002834 171.034918   0.003248  31.917287 
  0.866835 176.043579   0.013527 -61.815849   0.003981  53.235545   0.001563 -32.743261 
  0.002830 173.544700   0.003009  31.052650   0.040535 -14.216302   0.865532 166.761335 
  0.004102  55.271879   0.001704 -32.486118   0.864673 166.943697   0.026688 -15.966483 
  420.000   0.028462 -64.482813   0.866087 171.354455   0.002920 164.302384   0.003022  39.389279 
  0.865547 171.431526   0.025435 -84.590383   0.003968  67.787009   0.002068 -36.848924 
  0.002961 166.164098   0.002956  41.905112   0.038811 -17.145343   0.864564 162.149455 
  0.004086  70.549157   0.002198 -38.130669   0.863679 162.208695   0.025388 -19.241723 
  430.000   0.040602 -83.058107   0.863773 166.816340   0.003442 159.774622   0.004747  45.277154 
  0.863166 166.949267   0.040235 -96.697453   0.005046  60.341436   0.002193 -44.334289 
  0.003497 161.408319   0.005051  44.865929   0.035992 -22.582982   0.862893 157.489670 
  0.005071  64.846980   0.002355 -46.354521   0.861654 157.593248   0.023393 -27.279517 
  440.000   0.052270 -93.419358   0.860192 162.523435   0.003187 152.448380   0.003053  30.135418 
  0.859701 162.746772   0.053430 -104.136301   0.004977  58.633161   0.002189 -45.932932 
  0.003166 155.451542   0.003615  29.702819   0.033669 -24.255563   0.860206 153.041584 
  0.005088  63.338176   0.002282 -48.916780   0.858781 153.253462   0.021148 -30.137943 
  450.000   0.063235 -101.887556   0.858855 157.902609   0.003260 147.895566   0.003600  27.510823 
  0.858504 158.098128   0.064849 -109.804670   0.005281  49.161421   0.002398 -41.954444 
  0.003281 152.014010   0.004244  25.229839   0.031378 -24.064764   0.859779 148.241014 
  0.005450  54.118864   0.002397 -44.455664   0.858551 148.452796   0.019854 -27.707091 
  460.000   0.073570 -109.389389   0.855038 153.532918   0.002839 147.229872   0.003887  37.054670 
  0.855410 153.653106   0.074900 -116.062878   0.004843  46.456654   0.002225 -46.832571 
  0.002897 151.811838   0.004463  28.526396   0.028597 -22.598354   0.856758 143.677662 
  0.005192  51.836280   0.002241 -47.009556   0.856597 143.829569   0.017694 -21.650620 
  470.000   0.083755 -115.002345   0.852171 148.978743   0.002634 130.703448   0.003230  34.166089 
  0.852113 149.106362   0.084634 -120.437299   0.005779  45.415824   0.002146 -48.864997 
  0.002502 134.084717   0.003728  18.421012   0.028389 -21.181787   0.854402 138.924012 
  0.006150  50.104502   0.002100 -47.893467   0.854225 139.076812   0.018564 -16.233670 
  480.000   0.093624 -121.440644   0.849254 144.651932   0.002841 139.241454   0.003927  24.287646 
  0.849315 144.757437   0.093623 -125.815896   0.005191  42.379277   0.002509 -52.967574 
  0.002746 138.808169   0.004137  10.248926   0.025943 -19.076985   0.852205 134.394138 
  0.005683  47.454089   0.002495 -51.716475   0.852347 134.500554   0.018057  -8.668277 
  490.000   0.102920 -126.601085   0.846082 140.327483   0.003014 143.777252   0.003379  27.589186 
  0.845540 140.473065   0.102064 -130.092691   0.005929  37.737300   0.002427 -57.047345 
  0.002703 143.232428   0.003098  10.778958   0.024962 -17.916854   0.849992 129.869429 
  0.006423  40.991549   0.002363 -55.581471   0.849435 129.994302   0.019047  -4.313258 
  500.000   0.110157 -131.850621   0.843648 135.963717   0.003068 144.666621   0.004081  14.438483 
  0.843455 136.056888   0.108687 -134.607538   0.004610  27.806954   0.002272 -60.319019 
  0.002806 140.560019   0.003634   6.825886   0.024338 -13.167239   0.848675 125.294329 
  0.005147  30.643231   0.002260 -56.737553   0.848281 125.357013   0.020941   1.750833 
  510.000   0.114800 -136.541008   0.841668 131.482202   0.003194 133.702754   0.004240   6.632530 
  0.840870 131.668441   0.112404 -139.049819   0.004957  20.294515   0.002130 -57.152101 
  0.002907 129.960936   0.003802  -3.357339   0.026261  -6.643220   0.847595 120.584594 
  0.005376  25.998048   0.002126 -55.430891   0.846406 120.738111   0.025232   7.820015 
  520.000   0.120838 -141.681375   0.837572 127.104902   0.003305 124.042648   0.004538   6.960505 
  0.837039 127.292781   0.118045 -143.764393   0.004979  21.554847   0.001738 -41.485665 
  0.002961 120.934250   0.004047  -1.713627   0.025949  -2.225861   0.844709 115.982434 
