! File created by SignalIntegrity v1.4.1: Signal and Power Integrity Tools
! https://github.com/Nubis-Communications/SignalIntegrity
# MHz S MA R 50.0
0.0 0.5 0.0 0.0 0.0 0.0 0.0 0.5 0.0
0.0 0.0 0.0 0.0 0.01 0.0 0.0 0.0
0.0 0.0
10.0 0.499982 -0.599986 0.0 0.0 0.0 0.0 0.499982 -0.599986
0.0 0.0 0.0 0.0 0.01 -0.599986 0.0 0.0
0.0 0.0
20.0 0.49993 -1.199888 0.0 0.0 0.0 0.0 0.49993 -1.199888
0.0 0.0 0.0 0.0 0.009999 -1.199888 0.0 0.0
0.0 0.0
30.0 0.499842 -1.799621 0.0 0.0 0.0 0.0 0.499842 -1.799621
0.0 0.0 0.0 0.0 0.009997 -1.799621 0.0 0.0
0.0 0.0
40.0 0.49972 -2.399102 0.0 0.0 0.0 0.0 0.49972 -2.399102
0.0 0.0 0.0 0.0 0.009994 -2.399102 0.0 0.0
0.0 0.0
50.0 0.499562 -2.998248 0.0 0.0 0.0 0.0 0.499562 -2.998248
0.0 0.0 0.0 0.0 0.009991 -2.998248 0.0 0.0
0.0 0.0
60.0 0.49937 -3.596974 0.0 0.0 0.0 0.0 0.49937 -3.596974
0.0 0.0 0.0 0.0 0.009987 -3.596974 0.0 0.0
0.0 0.0
70.0 0.499143 -4.195197 0.0 0.0 0.0 0.0 0.499143 -4.195197
0.0 0.0 0.0 0.0 0.009983 -4.195197 0.0 0.0
0.0 0.0
80.0 0.498882 -4.792836 0.0 0.0 0.0 0.0 0.498882 -4.792836
0.0 0.0 0.0 0.0 0.009978 -4.792836 0.0 0.0
0.0 0.0
90.0 0.498586 -5.389808 0.0 0.0 0.0 0.0 0.498586 -5.389808
0.0 0.0 0.0 0.0 0.009972 -5.389808 0.0 0.0
0.0 0.0
100.0 0.498257 -5.986033 0.0 0.0 0.0 0.0 0.498257 -5.986033
0.0 0.0 0.0 0.0 0.009965 -5.986033 0.0 0.0
0.0 0.0
110.0 0.497894 -6.581429 0.0 0.0 0.0 0.0 0.497894 -6.581429
0.0 0.0 0.0 0.0 0.009958 -6.581429 0.0 0.0
0.0 0.0
120.0 0.497497 -7.175918 0.0 0.0 0.0 0.0 0.497497 -7.175918
0.0 0.0 0.0 0.0 0.00995 -7.175918 0.0 0.0
0.0 0.0
130.0 0.497067 -7.769419 0.0 0.0 0.0 0.0 0.497067 -7.769419
0.0 0.0 0.0 0.0 0.009941 -7.769419 0.0 0.0
0.0 0.0
140.0 0.496605 -8.361856 0.0 0.0 0.0 0.0 0.496605 -8.361856
0.0 0.0 0.0 0.0 0.009932 -8.361856 0.0 0.0
0.0 0.0
150.0 0.49611 -8.953152 0.0 0.0 0.0 0.0 0.49611 -8.953152
0.0 0.0 0.0 0.0 0.009922 -8.953152 0.0 0.0
0.0 0.0
160.0 0.495583 -9.543231 0.0 0.0 0.0 0.0 0.495583 -9.543231
0.0 0.0 0.0 0.0 0.009912 -9.543231 0.0 0.0
0.0 0.0
170.0 0.495024 -10.132017 0.0 0.0 0.0 0.0 0.495024 -10.132017
0.0 0.0 0.0 0.0 0.0099 -10.132017 0.0 0.0
0.0 0.0
180.0 0.494434 -10.719439 0.0 0.0 0.0 0.0 0.494434 -10.719439
0.0 0.0 0.0 0.0 0.009889 -10.719439 0.0 0.0
0.0 0.0
190.0 0.493813 -11.305424 0.0 0.0 0.0 0.0 0.493813 -11.305424
0.0 0.0 0.0 0.0 0.009876 -11.305424 0.0 0.0
0.0 0.0
200.0 0.493161 -11.889901 0.0 0.0 0.0 0.0 0.493161 -11.889901
0.0 0.0 0.0 0.0 0.009863 -11.889901 0.0 0.0
0.0 0.0
210.0 0.49248 -12.4728 0.0 0.0 0.0 0.0 0.49248 -12.4728
0.0 0.0 0.0 0.0 0.00985 -12.4728 0.0 0.0
0.0 0.0
220.0 0.491769 -13.054054 0.0 0.0 0.0 0.0 0.491769 -13.054054
0.0 0.0 0.0 0.0 0.009835 -13.054054 0.0 0.0
0.0 0.0
230.0 0.49103 -13.633597 0.0 0.0 0.0 0.0 0.49103 -13.633597
0.0 0.0 0.0 0.0 0.009821 -13.633597 0.0 0.0
0.0 0.0
240.0 0.490262 -14.211363 0.0 0.0 0.0 0.0 0.490262 -14.211363
0.0 0.0 0.0 0.0 0.009805 -14.211363 0.0 0.0
0.0 0.0
250.0 0.489466 -14.787289 0.0 0.0 0.0 0.0 0.489466 -14.787289
0.0 0.0 0.0 0.0 0.009789 -14.787289 0.0 0.0
0.0 0.0
260.0 0.488643 -15.361313 0.0 0.0 0.0 0.0 0.488643 -15.361313
0.0 0.0 0.0 0.0 0.009773 -15.361313 0.0 0.0
0.0 0.0
270.0 0.487793 -15.933375 0.0 0.0 0.0 0.0 0.487793 -15.933375
0.0 0.0 0.0 0.0 0.009756 -15.933375 0.0 0.0
0.0 0.0
280.0 0.486917 -16.503416 0.0 0.0 0.0 0.0 0.486917 -16.503416
0.0 0.0 0.0 0.0 0.009738 -16.503416 0.0 0.0
0.0 0.0
290.0 0.486016 -17.071381 0.0 0.0 0.0 0.0 0.486016 -17.071381
0.0 0.0 0.0 0.0 0.00972 -17.071381 0.0 0.0
0.0 0.0
300.0 0.485089 -17.637213 0.0 0.0 0.0 0.0 0.485089 -17.637213
0.0 0.0 0.0 0.0 0.009702 -17.637213 0.0 0.0
0.0 0.0
310.0 0.484138 -18.200859 0.0 0.0 0.0 0.0 0.484138 -18.200859
0.0 0.0 0.0 0.0 0.009683 -18.200859 0.0 0.0
0.0 0.0
320.0 0.483164 -18.762268 0.0 0.0 0.0 0.0 0.483164 -18.762268
0.0 0.0 0.0 0.0 0.009663 -18.762268 0.0 0.0
0.0 0.0
330.0 0.482166 -19.32139 0.0 0.0 0.0 0.0 0.482166 -19.32139
0.0 0.0 0.0 0.0 0.009643 -19.32139 0.0 0.0
0.0 0.0
340.0 0.481146 -19.878177 0.0 0.0 0.0 0.0 0.481146 -19.878177
0.0 0.0 0.0 0.0 0.009623 -19.878177 0.0 0.0
0.0 0.0
350.0 0.480104 -20.432583 0.0 0.0 0.0 0.0 0.480104 -20.432583
0.0 0.0 0.0 0.0 0.009602 -20.432583 0.0 0.0
0.0 0.0
360.0 0.479041 -20.984563 0.0 0.0 0.0 0.0 0.479041 -20.984563
0.0 0.0 0.0 0.0 0.009581 -20.984563 0.0 0.0
0.0 0.0
370.0 0.477957 -21.534075 0.0 0.0 0.0 0.0 0.477957 -21.534075
0.0 0.0 0.0 0.0 0.009559 -21.534075 0.0 0.0
0.0 0.0
380.0 0.476854 -22.081078 0.0 0.0 0.0 0.0 0.476854 -22.081078
0.0 0.0 0.0 0.0 0.009537 -22.081078 0.0 0.0
0.0 0.0
390.0 0.475731 -22.625533 0.0 0.0 0.0 0.0 0.475731 -22.625533
0.0 0.0 0.0 0.0 0.009515 -22.625533 0.0 0.0
0.0 0.0
400.0 0.47459 -23.167403 0.0 0.0 0.0 0.0 0.47459 -23.167403
0.0 0.0 0.0 0.0 0.009492 -23.167403 0.0 0.0
0.0 0.0
410.0 0.47343 -23.706652 0.0 0.0 0.0 0.0 0.47343 -23.706652
0.0 0.0 0.0 0.0 0.009469 -23.706652 0.0 0.0
0.0 0.0
420.0 0.472254 -24.243246 0.0 0.0 0.0 0.0 0.472254 -24.243246
0.0 0.0 0.0 0.0 0.009445 -24.243246 0.0 0.0
0.0 0.0
430.0 0.471061 -24.777155 0.0 0.0 0.0 0.0 0.471061 -24.777155
0.0 0.0 0.0 0.0 0.009421 -24.777155 0.0 0.0
0.0 0.0
440.0 0.469851 -25.308348 0.0 0.0 0.0 0.0 0.469851 -25.308348
0.0 0.0 0.0 0.0 0.009397 -25.308348 0.0 0.0
0.0 0.0
450.0 0.468627 -25.836796 0.0 0.0 0.0 0.0 0.468627 -25.836796
0.0 0.0 0.0 0.0 0.009373 -25.836796 0.0 0.0
0.0 0.0
460.0 0.467388 -26.362473 0.0 0.0 0.0 0.0 0.467388 -26.362473
0.0 0.0 0.0 0.0 0.009348 -26.362473 0.0 0.0
0.0 0.0
470.0 0.466135 -26.885355 0.0 0.0 0.0 0.0 0.466135 -26.885355
0.0 0.0 0.0 0.0 0.009323 -26.885355 0.0 0.0
0.0 0.0
480.0 0.464868 -27.405417 0.0 0.0 0.0 0.0 0.464868 -27.405417
0.0 0.0 0.0 0.0 0.009297 -27.405417 0.0 0.0
0.0 0.0
490.0 0.463589 -27.922638 0.0 0.0 0.0 0.0 0.463589 -27.922638
0.0 0.0 0.0 0.0 0.009272 -27.922638 0.0 0.0
0.0 0.0
500.0 0.462297 -28.436999 0.0 0.0 0.0 0.0 0.462297 -28.436999
0.0 0.0 0.0 0.0 0.009246 -28.436999 0.0 0.0
0.0 0.0
510.0 0.460994 -28.948482 0.0 0.0 0.0 0.0 0.460994 -28.948482
0.0 0.0 0.0 0.0 0.00922 -28.948482 0.0 0.0
0.0 0.0
520.0 0.45968 -29.457068 0.0 0.0 0.0 0.0 0.45968 -29.457068
0.0 0.0 0.0 0.0 0.009194 -29.457068 0.0 0.0
0.0 0.0
530.0 0.458356 -29.962745 0.0 0.0 0.0 0.0 0.458356 -29.962745
0.0 0.0 0.0 0.0 0.009167 -29.962745 0.0 0.0
0.0 0.0
540.0 0.457022 -30.465496 0.0 0.0 0.0 0.0 0.457022 -30.465496
0.0 0.0 0.0 0.0 0.00914 -30.465496 0.0 0.0
0.0 0.0
550.0 0.455679 -30.965312 0.0 0.0 0.0 0.0 0.455679 -30.965312
0.0 0.0 0.0 0.0 0.009114 -30.965312 0.0 0.0
0.0 0.0
560.0 0.454327 -31.462181 0.0 0.0 0.0 0.0 0.454327 -31.462181
0.0 0.0 0.0 0.0 0.009087 -31.462181 0.0 0.0
0.0 0.0
570.0 0.452968 -31.956093 0.0 0.0 0.0 0.0 0.452968 -31.956093
0.0 0.0 0.0 0.0 0.009059 -31.956093 0.0 0.0
0.0 0.0
580.0 0.451601 -32.447042 0.0 0.0 0.0 0.0 0.451601 -32.447042
0.0 0.0 0.0 0.0 0.009032 -32.447042 0.0 0.0
0.0 0.0
590.0 0.450227 -32.93502 0.0 0.0 0.0 0.0 0.450227 -32.93502
0.0 0.0 0.0 0.0 0.009005 -32.93502 0.0 0.0
0.0 0.0
600.0 0.448847 -33.420022 0.0 0.0 0.0 0.0 0.448847 -33.420022
0.0 0.0 0.0 0.0 0.008977 -33.420022 0.0 0.0
0.0 0.0
610.0 0.447462 -33.902046 0.0 0.0 0.0 0.0 0.447462 -33.902046
0.0 0.0 0.0 0.0 0.008949 -33.902046 0.0 0.0
0.0 0.0
620.0 0.446071 -34.381087 0.0 0.0 0.0 0.0 0.446071 -34.381087
0.0 0.0 0.0 0.0 0.008921 -34.381087 0.0 0.0
0.0 0.0
630.0 0.444675 -34.857145 0.0 0.0 0.0 0.0 0.444675 -34.857145
0.0 0.0 0.0 0.0 0.008894 -34.857145 0.0 0.0
0.0 0.0
640.0 0.443276 -35.330221 0.0 0.0 0.0 0.0 0.443276 -35.330221
0.0 0.0 0.0 0.0 0.008866 -35.330221 0.0 0.0
0.0 0.0
650.0 0.441872 -35.800314 0.0 0.0 0.0 0.0 0.441872 -35.800314
0.0 0.0 0.0 0.0 0.008837 -35.800314 0.0 0.0
0.0 0.0
660.0 0.440466 -36.267427 0.0 0.0 0.0 0.0 0.440466 -36.267427
0.0 0.0 0.0 0.0 0.008809 -36.267427 0.0 0.0
0.0 0.0
670.0 0.439056 -36.731563 0.0 0.0 0.0 0.0 0.439056 -36.731563
0.0 0.0 0.0 0.0 0.008781 -36.731563 0.0 0.0
0.0 0.0
680.0 0.437645 -37.192727 0.0 0.0 0.0 0.0 0.437645 -37.192727
0.0 0.0 0.0 0.0 0.008753 -37.192727 0.0 0.0
0.0 0.0
690.0 0.436232 -37.650924 0.0 0.0 0.0 0.0 0.436232 -37.650924
0.0 0.0 0.0 0.0 0.008725 -37.650924 0.0 0.0
0.0 0.0
700.0 0.434817 -38.106161 0.0 0.0 0.0 0.0 0.434817 -38.106161
0.0 0.0 0.0 0.0 0.008696 -38.106161 0.0 0.0
0.0 0.0
710.0 0.433402 -38.558444 0.0 0.0 0.0 0.0 0.433402 -38.558444
0.0 0.0 0.0 0.0 0.008668 -38.558444 0.0 0.0
0.0 0.0
720.0 0.431986 -39.007781 0.0 0.0 0.0 0.0 0.431986 -39.007781
0.0 0.0 0.0 0.0 0.00864 -39.007781 0.0 0.0
0.0 0.0
730.0 0.43057 -39.454183 0.0 0.0 0.0 0.0 0.43057 -39.454183
0.0 0.0 0.0 0.0 0.008611 -39.454183 0.0 0.0
0.0 0.0
740.0 0.429154 -39.897658 0.0 0.0 0.0 0.0 0.429154 -39.897658
0.0 0.0 0.0 0.0 0.008583 -39.897658 0.0 0.0
0.0 0.0
750.0 0.427739 -40.338218 0.0 0.0 0.0 0.0 0.427739 -40.338218
0.0 0.0 0.0 0.0 0.008555 -40.338218 0.0 0.0
0.0 0.0
760.0 0.426325 -40.775874 0.0 0.0 0.0 0.0 0.426325 -40.775874
0.0 0.0 0.0 0.0 0.008527 -40.775874 0.0 0.0
0.0 0.0
770.0 0.424913 -41.210638 0.0 0.0 0.0 0.0 0.424913 -41.210638
0.0 0.0 0.0 0.0 0.008498 -41.210638 0.0 0.0
0.0 0.0
780.0 0.423503 -41.642523 0.0 0.0 0.0 0.0 0.423503 -41.642523
0.0 0.0 0.0 0.0 0.00847 -41.642523 0.0 0.0
0.0 0.0
790.0 0.422094 -42.071544 0.0 0.0 0.0 0.0 0.422094 -42.071544
0.0 0.0 0.0 0.0 0.008442 -42.071544 0.0 0.0
0.0 0.0
800.0 0.420689 -42.497713 0.0 0.0 0.0 0.0 0.420689 -42.497713
0.0 0.0 0.0 0.0 0.008414 -42.497713 0.0 0.0
0.0 0.0
810.0 0.419286 -42.921047 0.0 0.0 0.0 0.0 0.419286 -42.921047
0.0 0.0 0.0 0.0 0.008386 -42.921047 0.0 0.0
0.0 0.0
820.0 0.417886 -43.341561 0.0 0.0 0.0 0.0 0.417886 -43.341561
0.0 0.0 0.0 0.0 0.008358 -43.341561 0.0 0.0
0.0 0.0
830.0 0.41649 -43.75927 0.0 0.0 0.0 0.0 0.41649 -43.75927
0.0 0.0 0.0 0.0 0.00833 -43.75927 0.0 0.0
0.0 0.0
840.0 0.415097 -44.174192 0.0 0.0 0.0 0.0 0.415097 -44.174192
0.0 0.0 0.0 0.0 0.008302 -44.174192 0.0 0.0
0.0 0.0
850.0 0.413709 -44.586344 0.0 0.0 0.0 0.0 0.413709 -44.586344
0.0 0.0 0.0 0.0 0.008274 -44.586344 0.0 0.0
0.0 0.0
860.0 0.412325 -44.995742 0.0 0.0 0.0 0.0 0.412325 -44.995742
0.0 0.0 0.0 0.0 0.008246 -44.995742 0.0 0.0
0.0 0.0
870.0 0.410946 -45.402407 0.0 0.0 0.0 0.0 0.410946 -45.402407
0.0 0.0 0.0 0.0 0.008219 -45.402407 0.0 0.0
0.0 0.0
880.0 0.409571 -45.806355 0.0 0.0 0.0 0.0 0.409571 -45.806355
0.0 0.0 0.0 0.0 0.008191 -45.806355 0.0 0.0
0.0 0.0
890.0 0.408202 -46.207606 0.0 0.0 0.0 0.0 0.408202 -46.207606
0.0 0.0 0.0 0.0 0.008164 -46.207606 0.0 0.0
0.0 0.0
900.0 0.406838 -46.606179 0.0 0.0 0.0 0.0 0.406838 -46.606179
0.0 0.0 0.0 0.0 0.008137 -46.606179 0.0 0.0
0.0 0.0
910.0 0.40548 -47.002095 0.0 0.0 0.0 0.0 0.40548 -47.002095
0.0 0.0 0.0 0.0 0.00811 -47.002095 0.0 0.0
0.0 0.0
920.0 0.404127 -47.395372 0.0 0.0 0.0 0.0 0.404127 -47.395372
0.0 0.0 0.0 0.0 0.008083 -47.395372 0.0 0.0
0.0 0.0
930.0 0.402781 -47.786031 0.0 0.0 0.0 0.0 0.402781 -47.786031
0.0 0.0 0.0 0.0 0.008056 -47.786031 0.0 0.0
0.0 0.0
940.0 0.40144 -48.174093 0.0 0.0 0.0 0.0 0.40144 -48.174093
0.0 0.0 0.0 0.0 0.008029 -48.174093 0.0 0.0
0.0 0.0
950.0 0.400107 -48.559579 0.0 0.0 0.0 0.0 0.400107 -48.559579
0.0 0.0 0.0 0.0 0.008002 -48.559579 0.0 0.0
0.0 0.0
960.0 0.39878 -48.94251 0.0 0.0 0.0 0.0 0.39878 -48.94251
0.0 0.0 0.0 0.0 0.007976 -48.94251 0.0 0.0
0.0 0.0
970.0 0.397459 -49.322907 0.0 0.0 0.0 0.0 0.397459 -49.322907
0.0 0.0 0.0 0.0 0.007949 -49.322907 0.0 0.0
0.0 0.0
980.0 0.396146 -49.700792 0.0 0.0 0.0 0.0 0.396146 -49.700792
0.0 0.0 0.0 0.0 0.007923 -49.700792 0.0 0.0
0.0 0.0
990.0 0.39484 -50.076186 0.0 0.0 0.0 0.0 0.39484 -50.076186
0.0 0.0 0.0 0.0 0.007897 -50.076186 0.0 0.0
0.0 0.0
1000.0 0.393541 -50.449113 0.0 0.0 0.0 0.0 0.393541 -50.449113
0.0 0.0 0.0 0.0 0.007871 -50.449113 0.0 0.0
0.0 0.0
1010.0 0.39225 -50.819593 0.0 0.0 0.0 0.0 0.39225 -50.819593
0.0 0.0 0.0 0.0 0.007845 -50.819593 0.0 0.0
0.0 0.0
1020.0 0.390967 -51.187649 0.0 0.0 0.0 0.0 0.390967 -51.187649
0.0 0.0 0.0 0.0 0.007819 -51.187649 0.0 0.0
0.0 0.0
1030.0 0.389691 -51.553304 0.0 0.0 0.0 0.0 0.389691 -51.553304
0.0 0.0 0.0 0.0 0.007794 -51.553304 0.0 0.0
0.0 0.0
1040.0 0.388423 -51.916579 0.0 0.0 0.0 0.0 0.388423 -51.916579
0.0 0.0 0.0 0.0 0.007768 -51.916579 0.0 0.0
0.0 0.0
1050.0 0.387163 -52.277499 0.0 0.0 0.0 0.0 0.387163 -52.277499
0.0 0.0 0.0 0.0 0.007743 -52.277499 0.0 0.0
0.0 0.0
1060.0 0.385911 -52.636084 0.0 0.0 0.0 0.0 0.385911 -52.636084
0.0 0.0 0.0 0.0 0.007718 -52.636084 0.0 0.0
0.0 0.0
1070.0 0.384668 -52.992359 0.0 0.0 0.0 0.0 0.384668 -52.992359
0.0 0.0 0.0 0.0 0.007693 -52.992359 0.0 0.0
0.0 0.0
1080.0 0.383433 -53.346346 0.0 0.0 0.0 0.0 0.383433 -53.346346
0.0 0.0 0.0 0.0 0.007669 -53.346346 0.0 0.0
0.0 0.0
1090.0 0.382207 -53.698067 0.0 0.0 0.0 0.0 0.382207 -53.698067
0.0 0.0 0.0 0.0 0.007644 -53.698067 0.0 0.0
0.0 0.0
1100.0 0.380989 -54.047546 0.0 0.0 0.0 0.0 0.380989 -54.047546
0.0 0.0 0.0 0.0 0.00762 -54.047546 0.0 0.0
0.0 0.0
1110.0 0.37978 -54.394806 0.0 0.0 0.0 0.0 0.37978 -54.394806
0.0 0.0 0.0 0.0 0.007596 -54.394806 0.0 0.0
0.0 0.0
1120.0 0.378579 -54.73987 0.0 0.0 0.0 0.0 0.378579 -54.73987
0.0 0.0 0.0 0.0 0.007572 -54.73987 0.0 0.0
0.0 0.0
1130.0 0.377388 -55.08276 0.0 0.0 0.0 0.0 0.377388 -55.08276
0.0 0.0 0.0 0.0 0.007548 -55.08276 0.0 0.0
0.0 0.0
1140.0 0.376205 -55.4235 0.0 0.0 0.0 0.0 0.376205 -55.4235
0.0 0.0 0.0 0.0 0.007524 -55.4235 0.0 0.0
0.0 0.0
1150.0 0.375031 -55.762112 0.0 0.0 0.0 0.0 0.375031 -55.762112
0.0 0.0 0.0 0.0 0.007501 -55.762112 0.0 0.0
0.0 0.0
1160.0 0.373867 -56.09862 0.0 0.0 0.0 0.0 0.373867 -56.09862
0.0 0.0 0.0 0.0 0.007477 -56.09862 0.0 0.0
0.0 0.0
1170.0 0.372711 -56.433046 0.0 0.0 0.0 0.0 0.372711 -56.433046
0.0 0.0 0.0 0.0 0.007454 -56.433046 0.0 0.0
0.0 0.0
1180.0 0.371565 -56.765413 0.0 0.0 0.0 0.0 0.371565 -56.765413
0.0 0.0 0.0 0.0 0.007431 -56.765413 0.0 0.0
0.0 0.0
1190.0 0.370428 -57.095745 0.0 0.0 0.0 0.0 0.370428 -57.095745
0.0 0.0 0.0 0.0 0.007409 -57.095745 0.0 0.0
0.0 0.0
1200.0 0.3693 -57.424063 0.0 0.0 0.0 0.0 0.3693 -57.424063
0.0 0.0 0.0 0.0 0.007386 -57.424063 0.0 0.0
0.0 0.0
1210.0 0.368182 -57.75039 0.0 0.0 0.0 0.0 0.368182 -57.75039
0.0 0.0 0.0 0.0 0.007364 -57.75039 0.0 0.0
0.0 0.0
1220.0 0.367073 -58.074749 0.0 0.0 0.0 0.0 0.367073 -58.074749
0.0 0.0 0.0 0.0 0.007341 -58.074749 0.0 0.0
0.0 0.0
1230.0 0.365974 -58.397163 0.0 0.0 0.0 0.0 0.365974 -58.397163
0.0 0.0 0.0 0.0 0.007319 -58.397163 0.0 0.0
0.0 0.0
1240.0 0.364884 -58.717653 0.0 0.0 0.0 0.0 0.364884 -58.717653
0.0 0.0 0.0 0.0 0.007298 -58.717653 0.0 0.0
0.0 0.0
1250.0 0.363803 -59.036243 0.0 0.0 0.0 0.0 0.363803 -59.036243
0.0 0.0 0.0 0.0 0.007276 -59.036243 0.0 0.0
0.0 0.0
1260.0 0.362733 -59.352955 0.0 0.0 0.0 0.0 0.362733 -59.352955
0.0 0.0 0.0 0.0 0.007255 -59.352955 0.0 0.0
0.0 0.0
1270.0 0.361671 -59.66781 0.0 0.0 0.0 0.0 0.361671 -59.66781
0.0 0.0 0.0 0.0 0.007233 -59.66781 0.0 0.0
0.0 0.0
1280.0 0.360619 -59.980831 0.0 0.0 0.0 0.0 0.360619 -59.980831
0.0 0.0 0.0 0.0 0.007212 -59.980831 0.0 0.0
0.0 0.0
1290.0 0.359577 -60.29204 0.0 0.0 0.0 0.0 0.359577 -60.29204
0.0 0.0 0.0 0.0 0.007192 -60.29204 0.0 0.0
0.0 0.0
1300.0 0.358545 -60.601459 0.0 0.0 0.0 0.0 0.358545 -60.601459
0.0 0.0 0.0 0.0 0.007171 -60.601459 0.0 0.0
0.0 0.0
1310.0 0.357522 -60.909108 0.0 0.0 0.0 0.0 0.357522 -60.909108
0.0 0.0 0.0 0.0 0.00715 -60.909108 0.0 0.0
0.0 0.0
1320.0 0.356509 -61.215011 0.0 0.0 0.0 0.0 0.356509 -61.215011
0.0 0.0 0.0 0.0 0.00713 -61.215011 0.0 0.0
0.0 0.0
1330.0 0.355505 -61.519188 0.0 0.0 0.0 0.0 0.355505 -61.519188
0.0 0.0 0.0 0.0 0.00711 -61.519188 0.0 0.0
0.0 0.0
1340.0 0.354511 -61.821661 0.0 0.0 0.0 0.0 0.354511 -61.821661
0.0 0.0 0.0 0.0 0.00709 -61.821661 0.0 0.0
0.0 0.0
1350.0 0.353527 -62.122451 0.0 0.0 0.0 0.0 0.353527 -62.122451
0.0 0.0 0.0 0.0 0.007071 -62.122451 0.0 0.0
0.0 0.0
1360.0 0.352553 -62.421579 0.0 0.0 0.0 0.0 0.352553 -62.421579
0.0 0.0 0.0 0.0 0.007051 -62.421579 0.0 0.0
0.0 0.0
1370.0 0.351588 -62.719067 0.0 0.0 0.0 0.0 0.351588 -62.719067
0.0 0.0 0.0 0.0 0.007032 -62.719067 0.0 0.0
0.0 0.0
1380.0 0.350633 -63.014934 0.0 0.0 0.0 0.0 0.350633 -63.014934
0.0 0.0 0.0 0.0 0.007013 -63.014934 0.0 0.0
0.0 0.0
1390.0 0.349688 -63.309202 0.0 0.0 0.0 0.0 0.349688 -63.309202
0.0 0.0 0.0 0.0 0.006994 -63.309202 0.0 0.0
0.0 0.0
1400.0 0.348752 -63.601891 0.0 0.0 0.0 0.0 0.348752 -63.601891
0.0 0.0 0.0 0.0 0.006975 -63.601891 0.0 0.0
0.0 0.0
1410.0 0.347826 -63.893022 0.0 0.0 0.0 0.0 0.347826 -63.893022
0.0 0.0 0.0 0.0 0.006957 -63.893022 0.0 0.0
0.0 0.0
1420.0 0.34691 -64.182616 0.0 0.0 0.0 0.0 0.34691 -64.182616
0.0 0.0 0.0 0.0 0.006938 -64.182616 0.0 0.0
0.0 0.0
1430.0 0.346003 -64.470691 0.0 0.0 0.0 0.0 0.346003 -64.470691
0.0 0.0 0.0 0.0 0.00692 -64.470691 0.0 0.0
0.0 0.0
1440.0 0.345106 -64.757269 0.0 0.0 0.0 0.0 0.345106 -64.757269
0.0 0.0 0.0 0.0 0.006902 -64.757269 0.0 0.0
0.0 0.0
1450.0 0.344219 -65.042368 0.0 0.0 0.0 0.0 0.344219 -65.042368
0.0 0.0 0.0 0.0 0.006884 -65.042368 0.0 0.0
0.0 0.0
1460.0 0.343341 -65.32601 0.0 0.0 0.0 0.0 0.343341 -65.32601
0.0 0.0 0.0 0.0 0.006867 -65.32601 0.0 0.0
0.0 0.0
1470.0 0.342473 -65.608213 0.0 0.0 0.0 0.0 0.342473 -65.608213
0.0 0.0 0.0 0.0 0.006849 -65.608213 0.0 0.0
0.0 0.0
1480.0 0.341614 -65.888997 0.0 0.0 0.0 0.0 0.341614 -65.888997
0.0 0.0 0.0 0.0 0.006832 -65.888997 0.0 0.0
0.0 0.0
1490.0 0.340765 -66.168381 0.0 0.0 0.0 0.0 0.340765 -66.168381
0.0 0.0 0.0 0.0 0.006815 -66.168381 0.0 0.0
0.0 0.0
1500.0 0.339926 -66.446384 0.0 0.0 0.0 0.0 0.339926 -66.446384
0.0 0.0 0.0 0.0 0.006799 -66.446384 0.0 0.0
0.0 0.0
1510.0 0.339096 -66.723026 0.0 0.0 0.0 0.0 0.339096 -66.723026
0.0 0.0 0.0 0.0 0.006782 -66.723026 0.0 0.0
0.0 0.0
1520.0 0.338276 -66.998325 0.0 0.0 0.0 0.0 0.338276 -66.998325
0.0 0.0 0.0 0.0 0.006766 -66.998325 0.0 0.0
0.0 0.0
1530.0 0.337465 -67.2723 0.0 0.0 0.0 0.0 0.337465 -67.2723
0.0 0.0 0.0 0.0 0.006749 -67.2723 0.0 0.0
0.0 0.0
1540.0 0.336664 -67.544969 0.0 0.0 0.0 0.0 0.336664 -67.544969
0.0 0.0 0.0 0.0 0.006733 -67.544969 0.0 0.0
0.0 0.0
1550.0 0.335872 -67.816351 0.0 0.0 0.0 0.0 0.335872 -67.816351
0.0 0.0 0.0 0.0 0.006717 -67.816351 0.0 0.0
0.0 0.0
1560.0 0.33509 -68.086464 0.0 0.0 0.0 0.0 0.33509 -68.086464
0.0 0.0 0.0 0.0 0.006702 -68.086464 0.0 0.0
0.0 0.0
1570.0 0.334317 -68.355326 0.0 0.0 0.0 0.0 0.334317 -68.355326
0.0 0.0 0.0 0.0 0.006686 -68.355326 0.0 0.0
0.0 0.0
1580.0 0.333554 -68.622956 0.0 0.0 0.0 0.0 0.333554 -68.622956
0.0 0.0 0.0 0.0 0.006671 -68.622956 0.0 0.0
0.0 0.0
1590.0 0.3328 -68.889371 0.0 0.0 0.0 0.0 0.3328 -68.889371
0.0 0.0 0.0 0.0 0.006656 -68.889371 0.0 0.0
0.0 0.0
1600.0 0.332055 -69.154589 0.0 0.0 0.0 0.0 0.332055 -69.154589
0.0 0.0 0.0 0.0 0.006641 -69.154589 0.0 0.0
0.0 0.0
1610.0 0.331319 -69.418627 0.0 0.0 0.0 0.0 0.331319 -69.418627
0.0 0.0 0.0 0.0 0.006626 -69.418627 0.0 0.0
0.0 0.0
1620.0 0.330593 -69.681503 0.0 0.0 0.0 0.0 0.330593 -69.681503
0.0 0.0 0.0 0.0 0.006612 -69.681503 0.0 0.0
0.0 0.0
1630.0 0.329876 -69.943234 0.0 0.0 0.0 0.0 0.329876 -69.943234
0.0 0.0 0.0 0.0 0.006598 -69.943234 0.0 0.0
0.0 0.0
1640.0 0.329169 -70.203837 0.0 0.0 0.0 0.0 0.329169 -70.203837
0.0 0.0 0.0 0.0 0.006583 -70.203837 0.0 0.0
0.0 0.0
1650.0 0.32847 -70.46333 0.0 0.0 0.0 0.0 0.32847 -70.46333
0.0 0.0 0.0 0.0 0.006569 -70.46333 0.0 0.0
0.0 0.0
1660.0 0.327781 -70.721728 0.0 0.0 0.0 0.0 0.327781 -70.721728
0.0 0.0 0.0 0.0 0.006556 -70.721728 0.0 0.0
0.0 0.0
1670.0 0.327101 -70.97905 0.0 0.0 0.0 0.0 0.327101 -70.97905
0.0 0.0 0.0 0.0 0.006542 -70.97905 0.0 0.0
0.0 0.0
1680.0 0.32643 -71.235311 0.0 0.0 0.0 0.0 0.32643 -71.235311
0.0 0.0 0.0 0.0 0.006529 -71.235311 0.0 0.0
0.0 0.0
1690.0 0.325768 -71.490527 0.0 0.0 0.0 0.0 0.325768 -71.490527
0.0 0.0 0.0 0.0 0.006515 -71.490527 0.0 0.0
0.0 0.0
1700.0 0.325116 -71.744717 0.0 0.0 0.0 0.0 0.325116 -71.744717
0.0 0.0 0.0 0.0 0.006502 -71.744717 0.0 0.0
0.0 0.0
1710.0 0.324472 -71.997894 0.0 0.0 0.0 0.0 0.324472 -71.997894
0.0 0.0 0.0 0.0 0.006489 -71.997894 0.0 0.0
0.0 0.0
1720.0 0.323837 -72.250076 0.0 0.0 0.0 0.0 0.323837 -72.250076
0.0 0.0 0.0 0.0 0.006477 -72.250076 0.0 0.0
0.0 0.0
1730.0 0.323212 -72.501278 0.0 0.0 0.0 0.0 0.323212 -72.501278
0.0 0.0 0.0 0.0 0.006464 -72.501278 0.0 0.0
0.0 0.0
1740.0 0.322595 -72.751517 0.0 0.0 0.0 0.0 0.322595 -72.751517
0.0 0.0 0.0 0.0 0.006452 -72.751517 0.0 0.0
0.0 0.0
