! Touchstone file from project PS_module
! Exported from ElectronicsDesktop 2018.1.0
# GHZ S DB R 50.000000
! Modal data exported
! Port[1] = Port1
! Port[2] = Port2
0.01             -38.4023         3.53908          -0.0291022       -0.252697        -0.0291022       -0.252697        -45.3142         -173.825         
! Port Impedance50               0                50               0                

0.02             -38.963          6.32037          -0.0294559       -0.502559        -0.0294559       -0.502559        -46.6462         -168.861         
! Port Impedance50               0                50               0                

0.03             -38.3307         4.05012          -0.0303022       -0.751495        -0.0303022       -0.751495        -45.564          -173.849         
! Port Impedance50               0                50               0                

0.04             -38.032          3.0093           -0.0310587       -1.00002         -0.0310587       -1.00002         -45.1729         -176.542         
! Port Impedance50               0                50               0                

0.05             -37.8945         2.53616          -0.031717        -1.24815         -0.031717        -1.24815         -45.0737         -177.896         
! Port Impedance50               0                50               0                

0.06             -37.8117         2.1895           -0.0322877       -1.49437         -0.0322877       -1.49437         -45.0589         -178.276         
! Port Impedance50               0                50               0                

0.07             -37.7436         1.9362           -0.0328219       -1.74046         -0.0328219       -1.74046         -45.0689         -178.387         
! Port Impedance50               0                50               0                

0.08             -37.6812         1.69649          -0.0333371       -1.98647         -0.0333371       -1.98647         -45.0864         -178.438         
! Port Impedance50               0                50               0                

0.09             -37.6236         1.44047          -0.0338451       -2.23238         -0.0338451       -2.23238         -45.1104         -178.51          
! Port Impedance50               0                50               0                

0.1              -37.5718         1.16326          -0.0343537       -2.47821         -0.0343537       -2.47821         -45.1433         -178.624         
! Port Impedance50               0                50               0                

0.11             -37.512          0.914883         -0.034854        -2.72414         -0.034854        -2.72414         -45.1639         -178.612         
! Port Impedance50               0                50               0                

0.12             -37.4589         0.655507         -0.0353537       -2.96995         -0.0353537       -2.96995         -45.1903         -178.629         
! Port Impedance50               0                50               0                

0.13             -37.4108         0.390788         -0.0358508       -3.21565         -0.0358508       -3.21565         -45.2218         -178.658         
! Port Impedance50               0                50               0                

0.14             -37.3668         0.123742         -0.0363439       -3.46124         -0.0363439       -3.46124         -45.2579         -178.686         
! Port Impedance50               0                50               0                

0.15             -37.326          -0.144005        -0.0368319       -3.70673         -0.0368319       -3.70673         -45.2977         -178.708         
! Port Impedance50               0                50               0                

0.16             -37.2857         -0.457477        -0.0373394       -3.95144         -0.0373394       -3.95144         -45.3447         -178.606         
! Port Impedance50               0                50               0                

0.17             -37.2475         -0.770579        -0.0378408       -4.19608         -0.0378408       -4.19608         -45.3942         -178.486         
! Port Impedance50               0                50               0                

0.18             -37.2112         -1.08305         -0.038336        -4.44066         -0.038336        -4.44066         -45.4457         -178.351         
! Port Impedance50               0                50               0                

0.19             -37.1765         -1.39476         -0.0388251       -4.68518         -0.0388251       -4.68518         -45.499          -178.196         
! Port Impedance50               0                50               0                

0.2              -37.1433         -1.70561         -0.0393082       -4.92966         -0.0393082       -4.92966         -45.5533         -178.023         
! Port Impedance50               0                50               0                

0.21             -37.1112         -2.05117         -0.0397734       -5.17352         -0.0397734       -5.17352         -45.6063         -177.74          
! Port Impedance50               0                50               0                

0.22             -37.0803         -2.39617         -0.0402333       -5.41734         -0.0402333       -5.41734         -45.6596         -177.435         
! Port Impedance50               0                50               0                

0.23             -37.0503         -2.74064         -0.0406881       -5.66114         -0.0406881       -5.66114         -45.713          -177.109         
! Port Impedance50               0                50               0                

0.24             -37.0211         -3.08461         -0.0411382       -5.9049          -0.0411382       -5.9049          -45.7658         -176.764         
! Port Impedance50               0                50               0                

0.25             -36.9927         -3.42808         -0.041584        -6.14865         -0.041584        -6.14865         -45.8182         -176.397         
! Port Impedance50               0                50               0                

0.26             -36.9662         -3.79494         -0.0419948       -6.39196         -0.0419948       -6.39196         -45.8643         -175.952         
! Port Impedance50               0                50               0                

0.27             -36.9403         -4.16157         -0.042402        -6.63526         -0.042402        -6.63526         -45.9091         -175.486         
! Port Impedance50               0                50               0                

0.28             -36.915          -4.52801         -0.042806        -6.87854         -0.042806        -6.87854         -45.9522         -175.003         
! Port Impedance50               0                50               0                

0.29             -36.8902         -4.89428         -0.0432069       -7.1218          -0.0432069       -7.1218          -45.9935         -174.501         
! Port Impedance50               0                50               0                

0.3              -36.8659         -5.26041         -0.0436052       -7.36506         -0.0436052       -7.36506         -46.0329         -173.983         
! Port Impedance50               0                50               0                

0.31             -36.8437         -5.64071         -0.0439645       -7.60803         -0.0439645       -7.60803         -46.0642         -173.418         
! Port Impedance50               0                50               0                

0.32             -36.8218         -6.02102         -0.0443215       -7.85099         -0.0443215       -7.85099         -46.0928         -172.839         
! Port Impedance50               0                50               0                

0.33             -36.8004         -6.40136         -0.0446766       -8.09394         -0.0446766       -8.09394         -46.1188         -172.246         
! Port Impedance50               0                50               0                

0.34             -36.7793         -6.7818          -0.0450299       -8.33688         -0.0450299       -8.33688         -46.1421         -171.64          
! Port Impedance50               0                50               0                

0.35             -36.7586         -7.1623          -0.0453817       -8.57981         -0.0453817       -8.57981         -46.1625         -171.023         
! Port Impedance50               0                50               0                

0.36             -36.7398         -7.55037         -0.0456969       -8.82257         -0.0456969       -8.82257         -46.1748         -170.389         
! Port Impedance50               0                50               0                

0.37             -36.7213         -7.93858         -0.0460108       -9.06533         -0.0460108       -9.06533         -46.1839         -169.747         
! Port Impedance50               0                50               0                

0.38             -36.703          -8.32699         -0.0463235       -9.30808         -0.0463235       -9.30808         -46.1899         -169.098         
! Port Impedance50               0                50               0                

0.39             -36.6852         -8.71555         -0.0466352       -9.5508          -0.0466352       -9.5508          -46.1927         -168.444         
! Port Impedance50               0                50               0                

0.4              -36.6675         -9.10435         -0.046946        -9.79353         -0.046946        -9.79353         -46.1923         -167.784         
! Port Impedance50               0                50               0                

0.41             -36.6515         -9.49629         -0.0472253       -10.0362         -0.0472253       -10.0362         -46.1849         -167.127         
! Port Impedance50               0                50               0                

0.42             -36.6357         -9.88846         -0.0475037       -10.2788         -0.0475037       -10.2788         -46.1743         -166.47          
! Port Impedance50               0                50               0                

0.43             -36.6201         -10.2809         -0.0477815       -10.5214         -0.0477815       -10.5214         -46.1604         -165.812         
! Port Impedance50               0                50               0                

0.44             -36.6048         -10.6735         -0.0480586       -10.764          -0.0480586       -10.764          -46.1434         -165.153         
! Port Impedance50               0                50               0                

0.45             -36.5898         -11.0663         -0.0483351       -11.0066         -0.0483351       -11.0066         -46.1232         -164.496         
! Port Impedance50               0                50               0                

0.46             -36.576          -11.4596         -0.0485856       -11.2492         -0.0485856       -11.2492         -46.0979         -163.856         
! Port Impedance50               0                50               0                

0.47             -36.5625         -11.8531         -0.0488355       -11.4917         -0.0488355       -11.4917         -46.0694         -163.219         
! Port Impedance50               0                50               0                

0.48             -36.5492         -12.2468         -0.049085        -11.7342         -0.049085        -11.7342         -46.0382         -162.588         
! Port Impedance50               0                50               0                

0.49             -36.536          -12.6407         -0.0493339       -11.9768         -0.0493339       -11.9768         -46.0038         -161.962         
! Port Impedance50               0                50               0                

0.5              -36.5232         -13.0349         -0.0495824       -12.2193         -0.0495824       -12.2193         -45.9666         -161.342         
! Port Impedance50               0                50               0                

0.51             -36.5112         -13.4278         -0.0498099       -12.4618         -0.0498099       -12.4618         -45.9263         -160.744         
! Port Impedance50               0                50               0                

0.52             -36.4996         -13.8209         -0.0500368       -12.7043         -0.0500368       -12.7043         -45.8831         -160.154         
! Port Impedance50               0                50               0                

0.53             -36.4881         -14.2142         -0.0502634       -12.9467         -0.0502634       -12.9467         -45.8375         -159.573         
! Port Impedance50               0                50               0                

0.54             -36.4768         -14.6077         -0.0504896       -13.1892         -0.0504896       -13.1892         -45.7895         -159.001         
! Port Impedance50               0                50               0                

0.55             -36.4657         -15.0014         -0.0507154       -13.4317         -0.0507154       -13.4317         -45.739          -158.438         
! Port Impedance50               0                50               0                

0.56             -36.4554         -15.3928         -0.0509242       -13.6741         -0.0509242       -13.6741         -45.687          -157.9           
! Port Impedance50               0                50               0                

0.57             -36.4452         -15.7844         -0.0511328       -13.9166         -0.0511328       -13.9166         -45.6326         -157.371         
! Port Impedance50               0                50               0                

0.58             -36.4353         -16.1761         -0.0513408       -14.159          -0.0513408       -14.159          -45.5762         -156.854         
! Port Impedance50               0                50               0                

0.59             -36.4255         -16.5681         -0.0515486       -14.4015         -0.0515486       -14.4015         -45.518          -156.348         
! Port Impedance50               0                50               0                

0.6              -36.4159         -16.9602         -0.0517558       -14.6438         -0.0517558       -14.6438         -45.4578         -155.854         
! Port Impedance50               0                50               0                

0.61             -36.4069         -17.3494         -0.0519496       -14.8863         -0.0519496       -14.8863         -45.397          -155.381         
! Port Impedance50               0                50               0                

0.62             -36.3981         -17.7389         -0.052143        -15.1287         -0.052143        -15.1287         -45.3348         -154.921         
! Port Impedance50               0                50               0                

0.63             -36.3895         -18.1284         -0.052336        -15.3712         -0.052336        -15.3712         -45.2708         -154.471         
! Port Impedance50               0                50               0                

0.64             -36.3809         -18.5181         -0.0525286       -15.6135         -0.0525286       -15.6135         -45.2054         -154.035         
! Port Impedance50               0                50               0                

0.65             -36.3726         -18.908          -0.0527208       -15.8559         -0.0527208       -15.8559         -45.1388         -153.61          
! Port Impedance50               0                50               0                

0.66             -36.3647         -19.2946         -0.0529022       -16.0984         -0.0529022       -16.0984         -45.0723         -153.205         
! Port Impedance50               0                50               0                

0.67             -36.357          -19.6813         -0.0530832       -16.3408         -0.0530832       -16.3408         -45.0047         -152.814         
! Port Impedance50               0                50               0                

0.68             -36.3495         -20.0682         -0.0532638       -16.5832         -0.0532638       -16.5832         -44.9358         -152.433         
! Port Impedance50               0                50               0                

0.69             -36.342          -20.4552         -0.0534439       -16.8256         -0.0534439       -16.8256         -44.8661         -152.065         
! Port Impedance50               0                50               0                

0.7              -36.3348         -20.8424         -0.0536237       -17.068          -0.0536237       -17.068          -44.7953         -151.71          
! Port Impedance50               0                50               0                

0.71             -36.3279         -21.2261         -0.0537949       -17.3104         -0.0537949       -17.3104         -44.7253         -151.371         
! Port Impedance50               0                50               0                

0.72             -36.3211         -21.6099         -0.0539656       -17.5528         -0.0539656       -17.5528         -44.6546         -151.043         
! Port Impedance50               0                50               0                

0.73             -36.3145         -21.9938         -0.0541359       -17.7952         -0.0541359       -17.7952         -44.583          -150.727         
! Port Impedance50               0                50               0                

0.74             -36.3081         -22.3778         -0.0543059       -18.0375         -0.0543059       -18.0375         -44.511          -150.424         
! Port Impedance50               0                50               0                

0.75             -36.3018         -22.7619         -0.0544754       -18.2799         -0.0544754       -18.2799         -44.438          -150.131         
! Port Impedance50               0                50               0                

0.76             -36.2956         -23.1426         -0.054638        -18.5224         -0.054638        -18.5224         -44.3663         -149.853         
! Port Impedance50               0                50               0                

0.77             -36.2897         -23.5232         -0.0548003       -18.7647         -0.0548003       -18.7647         -44.2942         -149.586         
! Port Impedance50               0                50               0                

0.78             -36.2839         -23.904          -0.0549622       -19.0071         -0.0549622       -19.0071         -44.2214         -149.33          
! Port Impedance50               0                50               0                

0.79             -36.2783         -24.2849         -0.0551237       -19.2494         -0.0551237       -19.2494         -44.1484         -149.085         
! Port Impedance50               0                50               0                

0.8              -36.2728         -24.6658         -0.0552849       -19.4919         -0.0552849       -19.4919         -44.0749         -148.851         
! Port Impedance50               0                50               0                

0.81             -36.2675         -25.0432         -0.0554405       -19.7342         -0.0554405       -19.7342         -44.0028         -148.628         
! Port Impedance50               0                50               0                

0.82             -36.2623         -25.4207         -0.0555957       -19.9766         -0.0555957       -19.9766         -43.9303         -148.414         
! Port Impedance50               0                50               0                

0.83             -36.2572         -25.7982         -0.0557507       -20.219          -0.0557507       -20.219          -43.8577         -148.213         
