! C:\Work\PySI\TestSignalIntegrity\ScientificPulserSampler\RadiallRelayClosed.s2p
!
! Tue Aug  7 09:44:29 2018
!
!!Measured using LeCroy SPARQ LCRY2401N02001
!SingleEnded 
!
! freq S11 S21 S12 S22 
# MHz S MA R 50.00  
0.000000000   0.001175   0.000000   0.997897   0.000000   0.998331   0.000000   0.002571   0.000000 
50.000000000   0.001309  18.379604   0.997863  -2.072069   0.998287  -2.083154   0.002622   5.693692 
100.000000000   0.001638  28.553292   0.997763  -4.144512   0.998155  -4.165976   0.002765  10.173512 
150.000000000   0.002051  31.448258   0.997601  -6.217639   0.997940  -6.248168   0.002973  12.719594 
200.000000000   0.002485  29.933966   0.997381  -8.291718   0.997650  -8.329417   0.003218  13.158291 
250.000000000   0.002907  25.770312   0.997112 -10.366894   0.997293 -10.409465   0.003481  11.626552 
300.000000000   0.003308  19.880329   0.996801 -12.443190   0.996883 -12.488032   0.003748   8.368611 
350.000000000   0.003685  12.772097   0.996456 -14.520507   0.996434 -14.564928   0.004021   3.647030 
400.000000000   0.004046   4.777152   0.996088 -16.598602   0.995960 -16.639942   0.004306  -2.266119 
450.000000000   0.004403  -3.840514   0.995705 -18.677117   0.995477 -18.712966   0.004617  -9.079065 
500.000000000   0.004767 -12.830047   0.995317 -20.755601   0.994999 -20.783907   0.004967 -16.474192 
550.000000000   0.005150 -21.942638   0.994932 -22.833538   0.994540 -22.852729   0.005370 -24.127472 
600.000000000   0.005561 -30.942588   0.994558 -24.910364   0.994112 -24.919434   0.005831 -31.744578 
650.000000000   0.006001 -39.628568   0.994203 -26.985533   0.993723 -26.984089   0.006348 -39.096362 
700.000000000   0.006466 -47.849491   0.993872 -29.058561   0.993380 -29.046784   0.006914 -46.036315 
750.000000000   0.006947 -55.510967   0.993570 -31.129037   0.993086 -31.107652   0.007516 -52.495749 
800.000000000   0.007434 -62.568227   0.993300 -33.196656   0.992843 -33.166870   0.008137 -58.465605 
850.000000000   0.007915 -69.016509   0.993064 -35.261293   0.992648 -35.224633   0.008762 -63.975910 
900.000000000   0.008378 -74.876092   0.992862 -37.322947   0.992496 -37.281149   0.009375 -69.075732 
950.000000000   0.008818 -80.184921   0.992693 -39.381806   0.992382 -39.336631   0.009964 -73.821982 
1000.000000000   0.009231 -84.991321   0.992555 -41.438218   0.992298 -41.391319   0.010519 -78.271578 
1050.000000000   0.009616 -89.350343   0.992446 -43.492652   0.992234 -43.445448   0.011035 -82.476345 
1100.000000000   0.009978 -93.321720   0.992362 -45.545676   0.992184 -45.499238   0.011511 -86.480986 
1150.000000000   0.010327 -96.970373   0.992299 -47.597978   0.992138 -47.552899   0.011947 -90.324048 
1200.000000000   0.010673 -100.365153   0.992254 -49.650256   0.992091 -49.606643   0.012350 -94.036570 
1250.000000000   0.011028 -103.577176   0.992220 -51.703182   0.992039 -51.660652   0.012726 -97.643720 
1300.000000000   0.011404 -106.676777   0.992195 -53.757400   0.991980 -53.715096   0.013087 -101.165087 
1350.000000000   0.011811 -109.729354   0.992174 -55.813418   0.991912 -55.770096   0.013444 -104.615101 
1400.000000000   0.012257 -112.792306   0.992153 -57.871626   0.991839 -57.825766   0.013809 -108.004408 
1450.000000000   0.012747 -115.910254   0.992130 -59.932247   0.991763 -59.882198   0.014193 -111.339609 
1500.000000000   0.013282 -119.113572   0.992104 -61.995350   0.991689 -61.939409   0.014606 -114.624107 
1550.000000000   0.013859 -122.416423   0.992073 -64.060778   0.991621 -63.997412   0.015057 -117.858311 
1600.000000000   0.014473 -125.819575   0.992039 -66.128245   0.991566 -66.056187   0.015549 -121.041677 
1650.000000000   0.015117 -129.311172   0.992003 -68.197294   0.991529 -68.115668   0.016083 -124.172605 
1700.000000000   0.015778 -132.870696   0.991968 -70.267364   0.991515 -70.175766   0.016656 -127.250766 
1750.000000000   0.016446 -136.471409   0.991935 -72.337800   0.991529 -72.236345   0.017263 -130.277356 
1800.000000000   0.017105 -140.083451   0.991909 -74.407924   0.991573 -74.297278   0.017893 -133.255778 
1850.000000000   0.017740 -143.675631   0.991893 -76.477081   0.991649 -76.358403   0.018535 -136.191548 
1900.000000000   0.018337 -147.217785   0.991887 -78.544630   0.991759 -78.419554   0.019176 -139.092377 
1950.000000000   0.018881 -150.681712   0.991896 -80.610066   0.991900 -80.480538   0.019802 -141.967796 
2000.000000000   0.019358 -154.042069   0.991920 -82.672996   0.992071 -82.541193   0.020402 -144.828275 
2050.000000000   0.019758 -157.276920   0.991959 -84.733167   0.992265 -84.601355   0.020962 -147.684654 
2100.000000000   0.020072 -160.368108   0.992013 -86.790505   0.992478 -86.660892   0.021474 -150.547493 
2150.000000000   0.020298 -163.302051   0.992082 -88.845128   0.992701 -88.719670   0.021931 -153.426274 
2200.000000000   0.020436 -166.069724   0.992165 -90.897283   0.992927 -90.777614   0.022328 -156.328273 
2250.000000000   0.020494 -168.668285   0.992260 -92.947371   0.993147 -92.834705   0.022664 -159.258376 
2300.000000000   0.020483 -171.100486   0.992368 -94.995932   0.993352 -94.890933   0.022937 -162.216920 
2350.000000000   0.020388 -174.112952   0.992241 -97.043251   0.993248 -96.946064   0.023018 -165.775385 
2400.000000000   0.020287 -176.946445   0.992144 -99.090316   0.993135 -99.000541   0.023044 -169.299037 
2450.000000000   0.020201 -179.557648   0.992095 -101.137760   0.993037 -101.054537   0.023033 -172.732127 
2500.000000000   0.020145 178.028736   0.992090 -103.186222   0.992956 -103.108237   0.022991 -176.065594 
2550.000000000   0.020133 175.774805   0.992121 -105.236193   0.992892 -105.161870   0.022926 -179.294042 
2600.000000000   0.020174 173.631574   0.992181 -107.288044   0.992845 -107.215648   0.022848 177.583335 
2650.000000000   0.020273 171.543057   0.992260 -109.342040   0.992815 -109.269807   0.022766 174.562408 
2700.000000000   0.020429 169.452015   0.992350 -111.398283   0.992800 -111.324557   0.022687 171.633975 
2750.000000000   0.020635 167.305467   0.992439 -113.456718   0.992798 -113.380094   0.022620 168.783684 
2800.000000000   0.020879 165.059942   0.992520 -115.517161   0.992805 -115.436563   0.022570 165.992962 
2850.000000000   0.021146 162.685003   0.992584 -117.579312   0.992816 -117.494060   0.022541 163.239806 
2900.000000000   0.021417 160.164603   0.992626 -119.642780   0.992828 -119.552656   0.022533 160.500464 
2950.000000000   0.021672 157.496980   0.992643 -121.707110   0.992837 -121.612329   0.022548 157.751023 
3000.000000000   0.021891 154.693273   0.992634 -123.771858   0.992837 -123.673003   0.022581 154.969355 
3050.000000000   0.022057 151.775497   0.992599 -125.836542   0.992824 -125.734559   0.022626 152.136512 
3100.000000000   0.022152 148.774635   0.992541 -127.900774   0.992796 -127.796792   0.022678 149.238205 
3150.000000000   0.022165 145.728792   0.992466 -129.964234   0.992748 -129.859468   0.022727 146.265458 
3200.000000000   0.022086 142.681819   0.992378 -132.026675   0.992679 -131.922308   0.022765 143.215109 
3250.000000000   0.021909 139.682523   0.992285 -134.087997   0.992590 -133.985016   0.022783 140.089815 
3300.000000000   0.021636 136.783661   0.992193 -136.148172   0.992479 -136.047269   0.022773 136.897563 
3350.000000000   0.021270 134.041716   0.992108 -138.207304   0.992349 -138.108787   0.022728 133.651250 
3400.000000000   0.020822 131.515893   0.992036 -140.265600   0.992203 -140.169286   0.022643 130.367890 
3450.000000000   0.020308 129.266853   0.991980 -142.323310   0.992045 -142.228533   0.022513 127.067865 
3500.000000000   0.019747 127.354034   0.991943 -144.380734   0.991880 -144.286341   0.022336 123.774259 
3550.000000000   0.019166 125.831543   0.991925 -146.438224   0.991715 -146.342610   0.022115 120.511947 
3600.000000000   0.018593 124.741840   0.991926 -148.496082   0.991555 -148.397309   0.021852 117.306730 
3650.000000000   0.018061 124.106784   0.991942 -150.554599   0.991406 -150.450486   0.021551 114.184275 
3700.000000000   0.017603 123.917874   0.991971 -152.613975   0.991274 -152.502260   0.021222 111.169085 
3750.000000000   0.017249 124.127676   0.992007 -154.674367   0.991166 -154.552866   0.020874 108.282811 
3800.000000000   0.017024 124.646557   0.992046 -156.735826   0.991086 -156.602588   0.020518 105.542799 
3850.000000000   0.016943 125.349016   0.992082 -158.798317   0.991038 -158.651752   0.020168 102.960110 
3900.000000000   0.017010 126.090805   0.992112 -160.861722   0.991023 -160.700756   0.019835 100.537678 
3950.000000000   0.017218 126.731707   0.992131 -162.925860   0.991043 -162.750028   0.019534  98.268553 
4000.000000000   0.017548 127.157889   0.992138 -164.990494   0.991097 -164.800002   0.019275  96.134999 
4050.000000000   0.017974 127.295291   0.992132 -167.055387   0.991182 -166.851074   0.019070  94.108459 
4100.000000000   0.018467 127.112769   0.992112 -169.120288   0.991295 -168.903626   0.018924  92.151144 
4150.000000000   0.018997 126.616269   0.992082 -171.184969   0.991430 -170.958001   0.018841  90.218748 
4200.000000000   0.019537 125.839509   0.992044 -173.249275   0.991580 -173.014456   0.018821  88.264692 
4250.000000000   0.020065 124.833427   0.992003 -175.313099   0.991740 -175.073177   0.018859  86.244753 
4300.000000000   0.020566 123.657659   0.991961 -177.376437   0.991900 -177.134268   0.018946  84.121103 
4350.000000000   0.021028 122.373839   0.991924 -179.439338   0.992052 -179.197707   0.019073  81.865802 
4400.000000000   0.021448 121.040760   0.991894 178.497999   0.992189 178.736579   0.019227  79.462422 
4450.000000000   0.021829 119.710575   0.991876 176.435381   0.992302 176.668794   0.019395  76.906668 
4500.000000000   0.022178 118.426064   0.991869 174.372516   0.992386 174.599191   0.019563  74.205495 
4550.000000000   0.022511 117.217771   0.991874 172.309077   0.992434 172.528123   0.019719  71.375773 
4600.000000000   0.022842 116.102168   0.991887 170.244772   0.992441 170.455992   0.019853  68.442304 
4650.000000000   0.023192 115.079937   0.991906 168.179316   0.992405 168.383226   0.019957  65.436349 
4700.000000000   0.023579 114.135693   0.991925 166.112495   0.992323 166.310305   0.020024  62.393485 
4750.000000000   0.024020 113.239473   0.991936 164.044190   0.992197 164.237688   0.020054  59.352379 
4800.000000000   0.024528 112.349775   0.991933 161.974372   0.992027 162.165842   0.020045  56.353035 
4850.000000000   0.025113 111.418593   0.991906 159.903157   0.991817 160.095176   0.020003  53.435284 
4900.000000000   0.025776 110.397209   0.991848 157.830777   0.991570 158.026101   0.019935  50.637111 
4950.000000000   0.026511 109.241926   0.991753 155.757604   0.991291 155.958932   0.019853  47.992009 
5000.000000000   0.027308 107.918546   0.991615 153.684079   0.990988 153.893918   0.019771  45.526833 
5050.000000000   0.028151 106.405029   0.991431 151.610784   0.990666 151.831279   0.019706  43.258315 
5100.000000000   0.029019 104.692373   0.991200 149.538350   0.990332 149.771125   0.019676  41.190001 
5150.000000000   0.029889 102.783844   0.990923 147.467380   0.989993 147.713493   0.019702  39.309268 
5200.000000000   0.030740 100.693056   0.990604 145.398518   0.989656 145.658375   0.019803  37.585967 
5250.000000000   0.031549  98.441799   0.990251 143.332314   0.989328 143.605679   0.019995  35.973060 
5300.000000000   0.032296  96.057890   0.989873 141.269241   0.989014 141.555254   0.020293  34.409743 
5350.000000000   0.032964  93.573087   0.989482 139.209622   0.988719 139.506910   0.020705  32.827722 
5400.000000000   0.033541  91.021489   0.989088 137.153660   0.988448 137.460435   0.021233  31.158423 
5450.000000000   0.034017  88.438088   0.988706 135.101360   0.988204 135.415570   0.021874  29.340681 
5500.000000000   0.034389  85.857684   0.988349 133.052550   0.987990 133.372032   0.022619  27.326355 
5550.000000000   0.034660  83.313859   0.988028 131.006899   0.987807 131.329562   0.023457  25.083591 
5600.000000000   0.034834  80.837808   0.987753 128.963916   0.987657 129.287875   0.024369  22.597045 
5650.000000000   0.034924  78.457330   0.987534 126.922966   0.987539 127.246712   0.025339  19.866489 
5700.000000000   0.034946  76.195400   0.987374 124.883344   0.987454 125.205821   0.026347  16.903743 
5750.000000000   0.034918  74.068782   0.987278 122.844284   0.987400 123.164978   0.027374  13.729457 
5800.000000000   0.034863  72.086459   0.987243 120.805019   0.987376 121.123963   0.028402  10.370143 
5850.000000000   0.034804  70.248392   0.987266 118.764793   0.987381 119.082596   0.029416   6.855681 
5900.000000000   0.034764  68.544370   0.987340 116.722980   0.987412 117.040706   0.030401   3.217301 
5950.000000000   0.034764  66.954078   0.987456 114.679011   0.987467 114.998142   0.031346  -0.513782 
6000.000000000   0.034821  65.447700   0.987604 112.632532   0.987545 112.954802   0.032242  -4.307441 
6050.000000000   0.034947  63.988213   0.987771 110.583303   0.987641 110.910565   0.033083  -8.135243 
6100.000000000   0.035147  62.534509   0.987945 108.531302   0.987754 108.865365   0.033865 -11.971051 
6150.000000000   0.035419  61.045045   0.988115 106.476637   0.987882 106.819132   0.034589 -15.791440 
6200.000000000   0.035754  59.481830   0.988270 104.419598   0.988021 104.771834   0.035256 -19.576002 
6250.000000000   0.036139  57.813599   0.988400 102.360619   0.988169 102.723442   0.035872 -23.307793 
6300.000000000   0.036552  56.018086   0.988499 100.300213   0.988323 100.673950   0.036444 -26.973629 
6350.000000000   0.036972  54.083060   0.988564  98.238982   0.988480  98.623392   0.036980 -30.564322 
6400.000000000   0.037373  52.006121   0.988593  96.177527   0.988639  96.571773   0.037492 -34.075122 
6450.000000000   0.037732  49.793961   0.988587  94.116459   0.988797  94.519183   0.037990 -37.505563 
6500.000000000   0.038026  47.461034   0.988550  92.056327   0.988951  92.465677   0.038484 -40.859612 
6550.000000000   0.038233  45.027935   0.988489  89.997575   0.989100  90.411357   0.038986 -44.145250 
6600.000000000   0.038339  42.520133   0.988410  87.940574   0.989242  88.356333   0.039504 -47.373966 
6650.000000000   0.038331  39.966599   0.988324  85.885518   0.989375  86.300722   0.040044 -50.559874 
6700.000000000   0.038201  37.398715   0.988239  83.832490   0.989500  84.244667   0.040610 -53.718694 
6750.000000000   0.037948  34.849497   0.988165  81.781425   0.989616  82.188300   0.041204 -56.866536 
6800.000000000   0.037574  32.352669   0.988110  79.732122   0.989723  80.131759   0.041823 -60.018745 
6850.000000000   0.037089  29.941887   0.988082  77.684277   0.989821  78.075164   0.042462 -63.188749 
6900.000000000   0.036506  27.649972   0.988085  75.637479   0.989912  76.018643   0.043114 -66.387232 
6950.000000000   0.035841  25.507612   0.988124  73.591278   0.989997  73.962268   0.043767 -69.621445 
7000.000000000   0.035117  23.542198   0.988200  71.545181   0.990079  71.906127   0.044410 -72.894815 
7050.000000000   0.034358  21.775955   0.988313  69.498692   0.990160  69.850242   0.045031 -76.207080 
7100.000000000   0.033590  20.224149   0.988460  67.451353   0.990240  67.794623   0.045618 -79.554220 
7150.000000000   0.032839  18.892895   0.988637  65.402773   0.990325  65.739228   0.046157 -82.929049 
7200.000000000   0.032132  17.777332   0.988838  63.352610   0.990413  63.683985   0.046640 -86.321509 
7250.000000000   0.031492  16.860364   0.989057  61.300617   0.990509  61.628773   0.047056 -89.719388 
7300.000000000   0.031116  16.415602   0.989052  59.246363   0.990344  59.573173   0.047163 -92.978391 
7350.000000000   0.030822  16.049131   0.989078  57.190129   0.990225  57.517375   0.047221 -96.243435 
7400.000000000   0.030606  15.703250   0.989138  55.131970   0.990162  55.461202   0.047241 -99.498770 
7450.000000000   0.030465  15.332211   0.989227  53.071958   0.990150  53.404462   0.047227 -102.724252 
7500.000000000   0.030390  14.894939   0.989336  51.010255   0.990183  51.346975   0.047183 -105.901460 
7550.000000000   0.030368  14.359504   0.989458  48.947084   0.990253  49.288572   0.047116 -109.014366 
7600.000000000   0.030386  13.704223   0.989583  46.882660   0.990349  47.229134   0.047033 -112.050562 
7650.000000000   0.030427  12.919175   0.989703  44.817247   0.990462  45.168584   0.046942 -115.001679 
7700.000000000   0.030475  12.005504   0.989810  42.751123   0.990579  43.106910   0.046852 -117.864031 
7750.000000000   0.030517  10.973939   0.989896  40.684563   0.990691  41.044164   0.046774 -120.639021 
7800.000000000   0.030541   9.842931   0.989955  38.617849   0.990787  38.980491   0.046719 -123.333107 
7850.000000000   0.030537   8.636271   0.989982  36.551261   0.990857  36.916111   0.046695 -125.957710 
7900.000000000   0.030500   7.380892   0.989974  34.485105   0.990896  34.851319   0.046710 -128.528465 
7950.000000000   0.030426   6.104474   0.989929  32.419694   0.990896  32.786524   0.046770 -131.064437 
8000.000000000   0.030316   4.833856   0.989846  30.355378   0.990856  30.722171   0.046878 -133.586603 
8050.000000000   0.030172   3.593134   0.989728  28.292520   0.990776  28.658791   0.047034 -136.116413 
8100.000000000   0.030000   2.402438   0.989577  26.231533   0.990658  26.596967   0.047232 -138.673987 
8150.000000000   0.029806   1.276744   0.989399  24.172874   0.990508  24.537279   0.047467 -141.276705 
8200.000000000   0.029598   0.225349   0.989202  22.117012   0.990334  22.480353   0.047727 -143.937824 
8250.000000000   0.029385  -0.748678   0.988993  20.064454   0.990147  20.426765   0.047999 -146.665629 
8300.000000000   0.029175  -1.648738   0.988783  18.015677   0.989959  18.377051   0.048269 -149.463077 
8350.000000000   0.028978  -2.483890   0.988584  15.971168   0.989783  16.331673   0.048519 -152.327768 
8400.000000000   0.028802  -3.268327   0.988407  13.931322   0.989633  14.290976   0.048731 -155.252220 
8450.000000000   0.028654  -4.019896   0.988265  11.896445   0.989522  12.255181   0.048889 -158.224522 
8500.000000000   0.028624  -4.714682   0.988086   9.866694   0.989369  10.224319   0.048882 -161.213984 
8550.000000000   0.028715  -5.380251   0.987886   7.842086   0.989187   8.198292   0.048698 -164.204055 
8600.000000000   0.028855  -6.076269   0.987754   5.822458   0.989074   6.176819   0.048409 -167.186904 
8650.000000000   0.029040  -6.818921   0.987711   3.807410   0.989048   4.159400   0.048014 -170.139029 
8700.000000000   0.029264  -7.619850   0.987773   1.796285   0.989123   2.145365   0.047516 -173.035723 
8750.000000000   0.029522  -8.486162   0.987959  -0.211815   0.989314   0.133810   0.046922 -175.851858 
8800.000000000   0.029808  -9.420681   0.988283  -2.218026   0.989632  -1.876308   0.046248 -178.562952 
8850.000000000   0.030117 -10.423114   0.988756  -4.223678   0.990085  -3.886164   0.045510 178.853845 
8900.000000000   0.030447 -11.490912   0.989384  -6.230283   0.990677  -5.897072   0.044729 176.418186 
8950.000000000   0.030796 -12.621043   0.990171  -8.239464   0.991410  -7.910387   0.043932 174.144961 
9000.000000000   0.031164 -13.810845   0.991111 -10.252884   0.992278  -9.927487   0.043144 172.042583 
9050.000000000   0.031553 -15.059428   0.992196 -12.272183   0.993275 -11.949723   0.042393 170.111080 
9100.000000000   0.031963 -16.368287   0.993410 -14.298884   0.994388 -13.978357   0.041705 168.340770 
9150.000000000   0.032512 -17.764184   0.994624 -16.334329   0.995469 -16.014494   0.040982 166.697302 
9200.000000000   0.033403 -19.402502   0.995612 -18.379454   0.996256 -18.058912   0.040020 165.046706 
9250.000000000   0.034356 -21.352091   0.996577 -20.434967   0.997024 -20.112257   0.039127 163.279736 
9300.000000000   0.035321 -23.654602   0.997491 -22.501236   0.997762 -22.174930   0.038354 161.292024 
9350.000000000   0.036243 -26.285634   0.998338 -24.578339   0.998467 -24.247132   0.037753 159.034161 
