! C:\Work\SPARQ2\Technical\Relays\RadiallRelayOpen.s2p
!
! Tue Aug  7 09:56:52 2018
!
!!Measured using LeCroy SPARQ LCRY2401N02001
!SingleEnded 
!
! freq S11 S21 S12 S22 
# MHz S MA R 50.00  
0.000000000   0.999919   0.000000   0.000000 180.000000   0.000000   0.000000   1.000000   0.000000 
50.000000000   0.999996  -4.141828   0.000000 -121.237537   0.000000 -64.503983   1.000000  -1.295751 
100.000000000   1.000000  -8.285401   0.000001 -110.201896   0.000001 -80.676471   1.000000  -2.592966 
150.000000000   1.000000 -12.432407   0.000001 -107.707795   0.000001 -88.617624   1.000000  -3.893012 
200.000000000   1.000000 -16.584384   0.000001 -107.596905   0.000001 -94.184534   1.000000  -5.197056 
250.000000000   1.000000 -20.742665   0.000001 -108.437681   0.000001 -98.810959   1.000000  -6.505974 
300.000000000   1.000000 -24.908321   0.000001 -109.694995   0.000001 -103.033649   1.000000  -7.820323 
350.000000000   1.000000 -29.082137   0.000001 -111.058082   0.000001 -107.164302   1.000000  -9.140248 
400.000000000   1.000000 -33.264566   0.000001 -112.136010   0.000001 -111.594088   1.000000 -10.465532 
450.000000000   1.000000 -37.455728   0.000000 -111.510944   0.000000 -117.740333   1.000000 -11.795550 
500.000000000   1.000000 -41.655418   0.000000 -49.499488   0.000000 174.714678   1.000000 -13.129393 
550.000000000   1.000000 -45.863109   0.000000  52.186560   0.000000  67.484514   1.000000 -14.465817 
600.000000000   1.000000 -50.077973   0.000001  52.972326   0.000001  61.146285   1.000000 -15.803415 
650.000000000   1.000000 -54.298945   0.000001  51.651934   0.000001  56.908487   1.000000 -17.140634 
700.000000000   1.000000 -58.524761   0.000002  49.825066   0.000002  53.174210   1.000000 -18.475963 
750.000000000   1.000000 -62.753995   0.000002  47.821006   0.000002  49.617063   1.000000 -19.807936 
800.000000000   1.000000 -66.985106   0.000002  45.769692   0.000002  46.109931   1.000000 -21.135271 
850.000000000   1.000000 -71.216542   0.000002  43.756780   0.000002  42.569733   1.000000 -22.456945 
900.000000000   1.000000 -75.446742   0.000002  41.878747   0.000002  38.902274   1.000000 -23.772237 
950.000000000   1.000000 -79.674222   0.000002  40.301961   0.000002  34.942994   1.000000 -25.080824 
1000.000000000   1.000000 -83.897602   0.000001  39.430277   0.000001  30.289411   1.000000 -26.382711 
1050.000000000   1.000000 -88.115651   0.000001  40.706317   0.000001  23.499714   1.000000 -27.678318 
1100.000000000   1.000000 -92.327308   0.000000  56.119578   0.000000   2.584717   1.000000 -28.968396 
1150.000000000   1.000000 -96.531724   0.000000 -178.436499   0.000000 -128.349240   1.000000 -30.254015 
1200.000000000   1.000000 -100.728269   0.000001 -165.216097   0.000001 -147.048610   1.000000 -31.536437 
1250.000000000   1.000000 -104.916506   0.000002 -164.132213   0.000002 -153.601396   1.000000 -32.817104 
1300.000000000   0.999718 -109.096214   0.000002 -161.476378   0.000002 -154.636231   1.000000 -34.097532 
1350.000000000   0.998445 -113.267350   0.000003 -160.238146   0.000003 -155.812856   1.000000 -35.379184 
1400.000000000   0.997150 -117.430047   0.000003 -166.324528   0.000003 -163.608675   1.000000 -36.663412 
1450.000000000   0.995847 -121.584560   0.000003 -174.331534   0.000003 -173.034864   1.000000 -37.951425 
1500.000000000   0.994546 -125.731232   0.000003 176.899370   0.000003 176.896452   1.000000 -39.244115 
1550.000000000   0.993256 -129.870455   0.000003 167.547424   0.000003 166.274193   1.000000 -40.542176 
1600.000000000   0.991983 -134.002676   0.000003 157.421916   0.000003 154.853445   1.000000 -41.845949 
1650.000000000   0.990731 -138.128289   0.000003 146.092957   0.000003 142.186122   1.000000 -43.155489 
1700.000000000   0.989503 -142.247656   0.000002 132.881248   0.000002 127.656048   1.000000 -44.470593 
1750.000000000   0.988298 -146.361062   0.000002 116.822454   0.000002 110.559480   1.000000 -45.790788 
1800.000000000   0.987116 -150.468729   0.000002  96.836503   0.000002  90.426146   1.000000 -47.115443 
1850.000000000   0.985957 -154.570755   0.000001  72.592843   0.000002  67.672436   1.000000 -48.443770 
1900.000000000   0.984819 -158.667162   0.000001  45.934116   0.000002  43.935815   1.000000 -49.774932 
1950.000000000   0.983704 -162.757898   0.000001  20.118985   0.000002  21.039111   1.000000 -51.108032 
2000.000000000   0.982612 -166.842837   0.000001  -3.275609   0.000002  -0.367284   1.000000 -52.442303 
2050.000000000   0.981547 -170.921812   0.000001 -24.924524   0.000002 -20.813096   1.000000 -53.776991 
2100.000000000   0.980513 -174.994650   0.000001 -46.201204   0.000002 -41.260163   1.000000 -55.111511 
2150.000000000   0.979518 -179.061216   0.000001 -68.074602   0.000002 -62.471582   1.000000 -56.445436 
2200.000000000   0.978570 176.878584   0.000002 -90.531363   0.000002 -84.536637   1.000000 -57.778484 
2250.000000000   0.977679 172.824728   0.000002 -112.518807   0.000002 -106.651521   1.000000 -59.110546 
2300.000000000   0.976859 168.777089   0.000002 -132.737251   0.000002 -127.566727   1.000000 -60.441640 
2350.000000000   0.976121 164.735356   0.000002 -150.541590   0.000002 -146.425905   1.000000 -61.771935 
2400.000000000   0.975480 160.699082   0.000002 -166.039480   0.000002 -163.098321   1.000000 -63.101648 
2450.000000000   0.974948 156.667611   0.000003 -179.695003   0.000003 -177.919599   1.000000 -64.431047 
2500.000000000   0.974537 152.640113   0.000003 167.984169   0.000003 168.634699   1.000000 -65.760402 
2550.000000000   0.974259 148.615578   0.000003 156.555276   0.000003 156.106881   1.000000 -67.089923 
2600.000000000   0.974120 144.592828   0.000003 145.643711   0.000003 144.090178   1.000000 -68.419773 
2650.000000000   0.974128 140.570572   0.000003 134.906518   0.000003 132.202232   1.000000 -69.749986 
2700.000000000   0.974282 136.547410   0.000003 123.976318   0.000003 120.035824   1.000000 -71.080459 
2750.000000000   0.974583 132.521887   0.000002 112.380077   0.000003 107.091055   1.000000 -72.410994 
2800.000000000   0.975024 128.492545   0.000002  99.394930   0.000002  92.675740   1.000000 -73.741214 
2850.000000000   0.975597 124.457947   0.000002  83.769472   0.000002  75.786415   1.000000 -75.070646 
2900.000000000   0.976288 120.416764   0.000001  63.241518   0.000002  55.101880   1.000000 -76.398753 
2950.000000000   0.977080 116.367752   0.000001  34.619849   0.000002  29.677604   1.000000 -77.724880 
3000.000000000   0.977955 112.309875   0.000001  -1.346091   0.000001   0.966116   1.000000 -79.048391 
3050.000000000   0.978890 108.242257   0.000001 -34.669122   0.000002 -26.774491   1.000000 -80.368626 
3100.000000000   0.979861 104.164270   0.000001 -59.868509   0.000002 -50.667960   1.000000 -81.685027 
3150.000000000   0.980845 100.075487   0.000002 -79.418707   0.000002 -70.967618   1.000000 -82.997092 
3200.000000000   0.981815  95.975734   0.000002 -96.175970   0.000002 -89.010590   1.000000 -84.304468 
3250.000000000   0.982748  91.865060   0.000002 -111.727987   0.000002 -105.887855   1.000000 -85.606960 
3300.000000000   0.983620  87.743745   0.000003 -126.781957   0.000003 -122.195360   1.000000 -86.904555 
3350.000000000   0.984410  83.612251   0.000003 -141.504886   0.000003 -138.098580   1.000000 -88.197452 
3400.000000000   0.985098  79.471236   0.000003 -155.766660   0.000003 -153.487365   1.000000 -89.485995 
3450.000000000   0.985668  75.321473   0.000003 -169.274149   0.000003 -168.093745   0.999924 -90.770771 
3500.000000000   0.986107  71.163883   0.000003 178.025464   0.000003 178.116184   0.999562 -92.052491 
3550.000000000   0.986405  66.999447   0.000003 165.356120   0.000003 164.389363   0.999281 -93.332005 
3600.000000000   0.986556  62.829187   0.000003 152.555610   0.000003 150.547003   0.999088 -94.610258 
3650.000000000   0.986556  58.654156   0.000003 139.442025   0.000003 136.397621   0.998984 -95.888263 
3700.000000000   0.986406  54.475368   0.000003 125.782137   0.000003 121.713629   0.998966 -97.167012 
3750.000000000   0.986109  50.293820   0.000002 111.246409   0.000003 106.203675   0.999028 -98.447467 
3800.000000000   0.985671  46.110416   0.000002  95.336879   0.000002  89.485760   0.999160 -99.730490 
3850.000000000   0.985101  41.925998   0.000002  77.286514   0.000002  71.070845   0.999351 -101.016780 
3900.000000000   0.984410  37.741319   0.000002  55.987440   0.000002  50.426510   0.999584 -102.306912 
3950.000000000   0.983610  33.556992   0.000001  30.321178   0.000002  27.247452   0.999843 -103.601196 
4000.000000000   0.982714  29.373570   0.000001   0.912760   0.000002   2.136794   1.000000 -104.899776 
4050.000000000   0.981738  25.191469   0.000001 -29.076438   0.000002 -23.529663   1.000000 -106.202534 
4100.000000000   0.980696  21.011004   0.000002 -56.310557   0.000002 -48.291757   1.000000 -107.509104 
4150.000000000   0.979604  16.832396   0.000002 -79.103360   0.000002 -70.760538   1.000000 -108.818956 
4200.000000000   0.978478  12.655765   0.000002 -97.966456   0.000002 -90.519996   1.000000 -110.131323 
4250.000000000   0.977334   8.481158   0.000002 -114.063461   0.000003 -107.939505   1.000000 -111.445328 
4300.000000000   0.976188   4.308535   0.000003 -128.410111   0.000003 -123.659759   1.000000 -112.759953 
4350.000000000   0.975055   0.137776   0.000003 -141.742852   0.000003 -138.295545   1.000000 -114.074129 
4400.000000000   0.973950  -4.031289   0.000003 -154.570387   0.000003 -152.335933   1.000000 -115.386811 
4450.000000000   0.972888  -8.198891   0.000003 -167.236272   0.000003 -166.137270   1.000000 -116.696963 
4500.000000000   0.971884 -12.365340   0.000003 -179.957372   0.000003 -179.937356   1.000000 -118.003715 
4550.000000000   0.970952 -16.530986   0.000003 167.144627   0.000003 166.122690   1.000000 -119.306315 
4600.000000000   0.970107 -20.696262   0.000003 154.283456   0.000003 152.215586   0.999723 -120.604257 
4650.000000000   0.969361 -24.861625   0.000003 141.106353   0.000003 137.990342   0.999418 -121.897234 
4700.000000000   0.968727 -29.027662   0.000003 127.339033   0.000003 123.182344   0.999134 -123.185284 
4750.000000000   0.968217 -33.194980   0.000002 112.628874   0.000003 107.484544   0.998892 -124.468654 
4800.000000000   0.967843 -37.364265   0.000002  96.436565   0.000002  90.488475   0.998711 -125.747897 
4850.000000000   0.967614 -41.536281   0.000002  77.925732   0.000002  71.678315   0.998607 -127.023805 
4900.000000000   0.967540 -45.711854   0.000002  55.910700   0.000002  50.516543   0.998592 -128.297395 
4950.000000000   0.967626 -49.891866   0.000001  29.321164   0.000002  26.775049   0.998675 -129.569833 
5000.000000000   0.967878 -54.077258   0.000001  -0.977672   0.000002   1.135524   0.998857 -130.842373 
5050.000000000   0.968298 -58.268982   0.000001 -30.918165   0.000002 -24.627367   0.999138 -132.116300 
5100.000000000   0.968887 -62.468012   0.000002 -56.799783   0.000002 -48.652527   0.999510 -133.392812 
5150.000000000   0.969642 -66.675308   0.000002 -78.201981   0.000002 -70.116744   0.999959 -134.673029 
5200.000000000   0.970559 -70.891816   0.000002 -96.109193   0.000002 -89.021281   1.000000 -135.957795 
5250.000000000   0.971630 -75.118416   0.000002 -112.316422   0.000003 -106.440227   1.000000 -137.247759 
5300.000000000   0.972844 -79.355887   0.000003 -127.609133   0.000003 -122.949351   1.000000 -138.543223 
5350.000000000   0.974188 -83.604909   0.000003 -142.299149   0.000003 -138.806850   1.000000 -139.844157 
5400.000000000   0.975647 -87.866033   0.000003 -156.429672   0.000003 -154.052452   1.000000 -141.150225 
5450.000000000   0.977202 -92.139635   0.000003 -169.926042   0.000003 -168.624580   1.000000 -142.460732 
5500.000000000   0.978835 -96.425931   0.000003 177.285917   0.000003 177.528976   1.000000 -143.774716 
5550.000000000   0.980526 -100.724946   0.000003 165.205153   0.000003 164.377762   1.000000 -145.090993 
5600.000000000   0.982251 -105.036505   0.000003 153.729632   0.000003 151.779522   1.000000 -146.408197 
5650.000000000   0.983990 -109.360248   0.000003 142.651692   0.000003 139.475677   1.000000 -147.724899 
5700.000000000   0.985721 -113.695598   0.000003 131.643978   0.000003 127.072196   1.000000 -149.039653 
5750.000000000   0.987422 -118.041809   0.000002 120.186139   0.000002 113.972495   1.000000 -150.351140 
5800.000000000   0.989074 -122.397969   0.000002 107.336027   0.000002  99.196859   1.000000 -151.658201 
5850.000000000   0.990657 -126.763011   0.000001  91.016587   0.000002  80.995288   1.000000 -152.959957 
5900.000000000   0.992155 -131.135715   0.000001  65.827712   0.000001  56.399795   1.000000 -154.255835 
5950.000000000   0.993554 -135.514792   0.000001  22.006676   0.000001  23.271541   1.000000 -155.545662 
6000.000000000   0.994840 -139.898843   0.000001 -24.332234   0.000001 -11.475989   1.000000 -156.829610 
6050.000000000   0.996005 -144.286419   0.000001 -50.415812   0.000002 -37.579481   1.000000 -158.108286 
6100.000000000   0.997042 -148.676055   0.000002 -64.652375   0.000002 -54.711200   1.000000 -159.382633 
6150.000000000   0.997945 -153.066291   0.000002 -72.975802   0.000002 -65.708448   1.000000 -160.653924 
6200.000000000   0.998712 -157.455671   0.000002 -77.408816   0.000002 -72.337111   1.000000 -161.923650 
6250.000000000   0.999344 -161.842806   0.000002 -78.792605   0.000002 -75.601648   1.000000 -163.193460 
6300.000000000   0.999841 -166.226350   0.000002 -77.749810   0.000002 -76.329295   1.000000 -164.465069 
6350.000000000   1.000000 -170.605061   0.000002 -77.906362   0.000002 -78.438824   1.000000 -165.740125 
6400.000000000   1.000000 -174.977777   0.000001 -79.301361   0.000001 -82.696574   1.000000 -167.020159 
6450.000000000   1.000000 -179.343417   0.000001 -78.528789   0.000001 -89.121074   1.000000 -168.306446 
6500.000000000   1.000000 176.298978   0.000000  48.372278   0.000000 138.326733   1.000000 -169.599966 
6550.000000000   1.000000 171.950266   0.000001  85.482433   0.000001  95.566451   1.000000 -170.901381 
6600.000000000   1.000000 167.611221   0.000001  85.448305   0.000001  89.951920   1.000000 -172.210996 
6650.000000000   1.000000 163.282504   0.000002  83.910289   0.000002  85.843481   1.000000 -173.528733 
6700.000000000   0.999679 158.964716   0.000002  83.333008   0.000002  83.402241   1.000000 -174.854221 
6750.000000000   0.999250 154.658350   0.000002  81.830472   0.000002  80.183397   1.000000 -176.186813 
6800.000000000   0.998756 150.363874   0.000002  79.598116   0.000002  76.089234   1.000000 -177.525627 
6850.000000000   0.998202 146.081670   0.000002  76.787669   0.000002  70.948214   1.000000 -178.869676 
6900.000000000   0.997597 141.812074   0.000002  73.356685   0.000002  64.114450   1.000000 179.782063 
6950.000000000   0.996945 137.555369   0.000001  68.875663   0.000001  53.556198   1.000000 178.430623 
7000.000000000   0.996253 133.311836   0.000001  60.620572   0.000001  30.912995   1.000000 177.076899 
7050.000000000   0.995527 129.081686   0.000000 -69.123379   0.000000 -33.937518   1.000000 175.721654 
7100.000000000   0.994774 124.865131   0.000001 -109.707885   0.000001 -84.160627   1.000000 174.365420 
7150.000000000   0.993998 120.662298   0.000001 -116.758890   0.000001 -102.037584   1.000000 173.008562 
7200.000000000   0.993208 116.473323   0.000002 -121.944139   0.000002 -112.191692   1.000000 171.651202 
7250.000000000   0.992409 112.298249   0.000003 -126.790023   0.000003 -119.983035   1.000000 170.293285 
7300.000000000   0.991608 108.137089   0.000003 -131.672093   0.000003 -126.936480   1.000000 168.934609 
7350.000000000   0.990814 103.989807   0.000003 -136.768888   0.000003 -133.681781   1.000000 167.574932 
7400.000000000   0.990034  99.856265   0.000003 -142.227370   0.000003 -140.590420   1.000000 166.213976 
7450.000000000   0.989275  95.736267   0.000003 -148.229277   0.000003 -147.985005   1.000000 164.851537 
7500.000000000   0.988546  91.629532   0.000003 -155.054241   0.000003 -156.259598   1.000000 163.487589 
7550.000000000   0.987854  87.535706   0.000002 -163.186891   0.000003 -166.014293   1.000000 162.122286 
7600.000000000   0.987206  83.454336   0.000002 -173.552996   0.000002 -178.283794   1.000000 160.756064 
7650.000000000   0.986608  79.384902   0.000002 171.950927   0.000002 165.099019   1.000000 159.389607 
7700.000000000   0.986067  75.326805   0.000001 149.551800   0.000001 141.475773   1.000000 158.023914 
7750.000000000   0.985587  71.279379   0.000001 115.594798   0.000001 110.506951   1.000000 156.660218 
7800.000000000   0.985171  67.241923   0.000001  79.097510   0.000001  79.604712   1.000000 155.299985 
7850.000000000   0.984823  63.213686   0.000001  52.601395   0.000001  55.385735   1.000000 153.944799 
7900.000000000   0.984543  59.193905   0.000001  33.984710   0.000002  36.720789   1.000000 152.596298 
7950.000000000   0.984331  55.181805   0.000001  18.476351   0.000002  20.530921   1.000000 151.256065 
8000.000000000   0.984186  51.176617   0.000001   2.829868   0.000002   4.289208   1.000000 149.925494 
8050.000000000   0.984107  47.177608   0.000001 -15.754717   0.000001 -14.241904   1.000000 148.605737 
8100.000000000   0.984090  43.184085   0.000001 -40.067212   0.000001 -37.072951   1.000000 147.297542 
8150.000000000   0.984132  39.195370   0.000001 -70.068086   0.000001 -64.266384   1.000000 146.001224 
8200.000000000   0.984229  35.210872   0.000001 -99.103379   0.000002 -91.669995   1.000000 144.716587 
8250.000000000   0.984379  31.230019   0.000002 -121.609456   0.000002 -114.698685   1.000000 143.442921 
8300.000000000   0.984576  27.252295   0.000002 -138.319856   0.000002 -132.799374   1.000000 142.179002 
8350.000000000   0.984820  23.277223   0.000003 -151.526339   0.000003 -147.464493   1.000000 140.923156 
8400.000000000   0.985107  19.304357   0.000003 -162.799074   0.000003 -160.078922   1.000000 139.673337 
8450.000000000   0.985435  15.333261   0.000003 -173.003645   0.000003 -171.519935   1.000000 138.427267 
8500.000000000   0.985806  11.363501   0.000003 177.415239   0.000003 177.712945   1.000000 137.182516 
8550.000000000   0.986218   7.394623   0.000003 168.238030   0.000003 167.335284   1.000000 135.936761 
8600.000000000   0.986673   3.426142   0.000003 159.338176   0.000003 157.143961   1.000000 134.687797 
8650.000000000   0.987173  -0.542457   0.000003 150.572858   0.000003 146.895628   1.000000 133.433789 
8700.000000000   0.987720  -4.511754   0.000003 141.663739   0.000003 136.161668   1.000000 132.173326 
8750.000000000   0.988315  -8.482404   0.000002 131.977679   0.000002 124.074938   1.000000 130.905473 
8800.000000000   0.988960 -12.455095   0.000002 119.860718   0.000002 108.718413   1.000000 129.629896 
8850.000000000   0.989658 -16.430601   0.000001  99.731869   0.000001  85.638683   1.000000 128.346773 
8900.000000000   0.990408 -20.409734   0.000001  50.522125   0.000001  48.199105   1.000000 127.056800 
8950.000000000   0.991209 -24.393372   0.000001  -9.796443   0.000001   6.860412   1.000000 125.761058 
9000.000000000   0.992059 -28.382381   0.000001 -34.155947   0.000001 -19.754331   1.000000 124.460991 
9050.000000000   0.992954 -32.377673   0.000002 -46.171795   0.000002 -35.657128   1.000000 123.158161 
9100.000000000   0.993888 -36.380086   0.000002 -54.130004   0.000002 -46.507670   1.000000 121.854170 
9150.000000000   0.994854 -40.390468   0.000002 -60.222820   0.000002 -54.805780   1.000000 120.550480 
9200.000000000   0.995841 -44.409567   0.000002 -65.170412   0.000002 -61.618512   1.000000 119.248311 
9250.000000000   0.996840 -48.438057   0.000002 -69.170010   0.000002 -67.426138   1.000000 117.948456 
9300.000000000   0.997838 -52.476469   0.000001 -72.057630   0.000001 -72.444830   1.000000 116.651242 
9350.000000000   0.998821 -56.525237   0.000001 -72.831118   0.000001 -76.743671   1.000000 115.356481 
