! Touchstone file from project SMPM
! Exported from ElectronicsDesktop 2018.1.0
# GHZ S DB R 50.000000
! Modal data exported
! Port[1] = 1:1
! Port[2] = 2:1
0.01             -40.9927         4.74333          -0.001843        -0.182335        -0.001843        -0.182335        -41.338          -176.073         
! Gamma         !               0.0217342        0.347659         0.011323         0.308614         
! Port Impedance50               0                50               0                

0.02             -41.7878         8.65927          -0.00184985      -0.36179         -0.00184985      -0.36179         -42.1415         -173.339         
! Gamma         !               0.0255772        0.691306         0.01545          0.610601         
! Port Impedance50               0                50               0                

0.03             -40.9689         5.33973          -0.00239687      -0.540162        -0.00239687      -0.540162        -41.4185         -176.107         
! Gamma         !               0.0300375        1.03339          0.0196451        0.911305         
! Port Impedance50               0                50               0                

0.04             -40.6014         3.84996          -0.00284177      -0.718157        -0.00284177      -0.718157        -41.1296         -177.723         
! Gamma         !               0.0342473        1.37413          0.0232201        1.21105          
! Port Impedance50               0                50               0                

0.05             -40.4499         3.15489          -0.0031819       -0.895777        -0.0031819       -0.895777        -41.0288         -178.545         
! Gamma         !               0.0379866        1.71409          0.0262329        1.51038          
! Port Impedance50               0                50               0                

0.06             -40.3675         2.81158          -0.00345647      -1.07318         -0.00345647      -1.07318         -40.9874         -178.951         
! Gamma         !               0.041327         2.05364          0.0288807        1.80953          
! Port Impedance50               0                50               0                

0.07             -40.3047         2.59358          -0.00369378      -1.25046         -0.00369378      -1.25046         -40.9619         -179.191         
! Gamma         !               0.0443962        2.39295          0.0313088        2.10856          
! Port Impedance50               0                50               0                

0.08             -40.2493         2.39311          -0.00391197      -1.42765         -0.00391197      -1.42765         -40.9413         -179.396         
! Gamma         !               0.0472971        2.73208          0.0335922        2.40746          
! Port Impedance50               0                50               0                

0.09             -40.2            2.16956          -0.00412274      -1.60475         -0.00412274      -1.60475         -40.9248         -179.616         
! Gamma         !               0.0500938        3.07104          0.0357527        2.70621          
! Port Impedance50               0                50               0                

0.1              -40.158          1.91596          -0.00433389      -1.78176         -0.00433389      -1.78176         -40.9138         -179.865         
! Gamma         !               0.0528169        3.40981          0.037775         3.00476          
! Port Impedance50               0                50               0                

0.11             -40.1025         1.70076          -0.0045525       -1.95894         -0.0045525       -1.95894         -40.8991         179.973          
! Gamma         !               0.054634         3.7482           0.0389794        3.30308          
! Port Impedance50               0                50               0                

0.12             -40.0556         1.46937          -0.0047702       -2.136           -0.0047702       -2.136           -40.888          179.791          
! Gamma         !               0.0565503        4.08662          0.0402472        3.60145          
! Port Impedance50               0                50               0                

0.13             -40.0152         1.22938          -0.0049851       -2.31295         -0.0049851       -2.31295         -40.88           179.599          
! Gamma         !               0.0585539        4.42502          0.0415702        3.89983          
! Port Impedance50               0                50               0                

0.14             -39.98           0.984803         -0.00519579      -2.48979         -0.00519579      -2.48979         -40.8748         179.405          
! Gamma         !               0.0606326        4.76338          0.0429402        4.1982           
! Port Impedance50               0                50               0                

0.15             -39.9489         0.73781          -0.0054013       -2.66653         -0.0054013       -2.66653         -40.8719         179.212          
! Gamma         !               0.0627744        5.10167          0.0443493        4.49655          
! Port Impedance50               0                50               0                

0.16             -39.9212         0.489574         -0.00560098      -2.8432          -0.00560098      -2.8432          -40.8709         179.021          
! Gamma         !               0.0649677        5.4399           0.0457895        4.79486          
! Port Impedance50               0                50               0                

0.17             -39.8962         0.240743         -0.0057945       -3.01979         -0.0057945       -3.01979         -40.8716         178.835          
! Gamma         !               0.0672014        5.77803          0.0472536        5.09313          
! Port Impedance50               0                50               0                

0.18             -39.8735         -0.00832127      -0.00598174      -3.19633         -0.00598174      -3.19633         -40.8737         178.653          
! Gamma         !               0.0694652        6.11608          0.0487348        5.39135          
! Port Impedance50               0                50               0                

0.19             -39.8528         -0.257416        -0.00616274      -3.37281         -0.00616274      -3.37281         -40.8771         178.477          
! Gamma         !               0.0717497        6.45403          0.0502269        5.68951          
! Port Impedance50               0                50               0                

0.2              -39.8339         -0.506427        -0.00633768      -3.54924         -0.00633768      -3.54924         -40.8814         178.306          
! Gamma         !               0.0740462        6.7919           0.0517243        5.98762          
! Port Impedance50               0                50               0                

0.21             -39.8163         -0.75529         -0.00650682      -3.72564         -0.00650682      -3.72564         -40.8865         178.14           
! Gamma         !               0.0763469        7.12967          0.0532219        6.28568          
! Port Impedance50               0                50               0                

0.22             -39.8001         -1.00397         -0.00667048      -3.902           -0.00667048      -3.902           -40.8924         177.979          
! Gamma         !               0.078645         7.46734          0.0547153        6.58368          
! Port Impedance50               0                50               0                

0.23             -39.7851         -1.25246         -0.00682902      -4.07834         -0.00682902      -4.07834         -40.899          177.823          
! Gamma         !               0.0809343        7.80493          0.0562009        6.88163          
! Port Impedance50               0                50               0                

0.24             -39.771          -1.50076         -0.00698278      -4.25464         -0.00698278      -4.25464         -40.906          177.671          
! Gamma         !               0.0832097        8.14244          0.0576752        7.17953          
! Port Impedance50               0                50               0                

0.25             -39.7579         -1.74889         -0.00713215      -4.43093         -0.00713215      -4.43093         -40.9135         177.524          
! Gamma         !               0.0854666        8.47987          0.0591355        7.47739          
! Port Impedance50               0                50               0                

0.26             -39.7456         -1.99685         -0.00727747      -4.6072          -0.00727747      -4.6072          -40.9214         177.381          
! Gamma         !               0.0877014        8.81721          0.0605795        7.77519          
! Port Impedance50               0                50               0                

0.27             -39.7341         -2.24468         -0.00741911      -4.78345         -0.00741911      -4.78345         -40.9297         177.242          
! Gamma         !               0.0899108        9.15449          0.0620055        8.07295          
! Port Impedance50               0                50               0                

0.28             -39.7233         -2.4924          -0.00755738      -4.95969         -0.00755738      -4.95969         -40.9382         177.106          
! Gamma         !               0.0920924        9.4917           0.0634119        8.37068          
! Port Impedance50               0                50               0                

0.29             -39.7131         -2.74004         -0.00769259      -5.13591         -0.00769259      -5.13591         -40.947          176.973          
! Gamma         !               0.0942442        9.82884          0.0647976        8.66836          
! Port Impedance50               0                50               0                

0.3              -39.7035         -2.98764         -0.00782503      -5.31212         -0.00782503      -5.31212         -40.956          176.843          
! Gamma         !               0.0963647        10.1659          0.0661619        8.96601          
! Port Impedance50               0                50               0                

0.31             -39.6944         -3.23522         -0.00795496      -5.48832         -0.00795496      -5.48832         -40.9653         176.716          
! Gamma         !               0.0984528        10.503           0.0675041        9.26363          
! Port Impedance50               0                50               0                

0.32             -39.6858         -3.48281         -0.00808261      -5.66451         -0.00808261      -5.66451         -40.9747         176.592          
! Gamma         !               0.100508         10.8399          0.0688241        9.56121          
! Port Impedance50               0                50               0                

0.33             -39.6778         -3.73044         -0.00820822      -5.84069         -0.00820822      -5.84069         -40.9843         176.47           
! Gamma         !               0.102529         11.1769          0.0701217        9.85877          
! Port Impedance50               0                50               0                

0.34             -39.6701         -3.97814         -0.00833196      -6.01686         -0.00833196      -6.01686         -40.9941         176.35           
! Gamma         !               0.104518         11.5138          0.0713971        10.1563          
! Port Impedance50               0                50               0                

0.35             -39.6629         -4.22593         -0.00845403      -6.19302         -0.00845403      -6.19302         -41.004          176.232          
! Gamma         !               0.106472         11.8506          0.0726504        10.4538          
! Port Impedance50               0                50               0                

0.36             -39.6561         -4.47385         -0.00857457      -6.36917         -0.00857457      -6.36917         -41.0141         176.116          
! Gamma         !               0.108394         12.1874          0.073882         10.7513          
! Port Impedance50               0                50               0                

0.37             -39.6497         -4.72189         -0.00869374      -6.54532         -0.00869374      -6.54532         -41.0243         176.002          
! Gamma         !               0.110283         12.5242          0.0750924        11.0488          
! Port Impedance50               0                50               0                

0.38             -39.6436         -4.9701          -0.00881165      -6.72146         -0.00881165      -6.72146         -41.0347         175.889          
! Gamma         !               0.112141         12.8609          0.0762821        11.3462          
! Port Impedance50               0                50               0                

0.39             -39.638          -5.21847         -0.00892843      -6.89758         -0.00892843      -6.89758         -41.0452         175.777          
! Gamma         !               0.113967         13.1976          0.0774517        11.6436          
! Port Impedance50               0                50               0                

0.4              -39.6326         -5.46704         -0.00904416      -7.0737          -0.00904416      -7.0737          -41.0559         175.667          
! Gamma         !               0.115764         13.5343          0.0786018        11.9411          
! Port Impedance50               0                50               0                

0.41             -39.6276         -5.7158          -0.00915894      -7.24982         -0.00915894      -7.24982         -41.0667         175.559          
! Gamma         !               0.117531         13.871           0.0797332        12.2385          
! Port Impedance50               0                50               0                

0.42             -39.6229         -5.96477         -0.00927283      -7.42592         -0.00927283      -7.42592         -41.0776         175.451          
! Gamma         !               0.11927          14.2076          0.0808465        12.5358          
! Port Impedance50               0                50               0                

0.43             -39.6185         -6.21396         -0.00938592      -7.60202         -0.00938592      -7.60202         -41.0887         175.345          
! Gamma         !               0.120981         14.5443          0.0819424        12.8332          
! Port Impedance50               0                50               0                

0.44             -39.6144         -6.46337         -0.00949824      -7.77811         -0.00949824      -7.77811         -41.1            175.24           
! Gamma         !               0.122667         14.8809          0.0830217        13.1306          
! Port Impedance50               0                50               0                

0.45             -39.6107         -6.71302         -0.00960986      -7.95419         -0.00960986      -7.95419         -41.1114         175.136          
! Gamma         !               0.124327         15.2174          0.0840851        13.4279          
! Port Impedance50               0                50               0                

0.46             -39.6072         -6.9629          -0.00972082      -8.13026         -0.00972082      -8.13026         -41.123          175.033          
! Gamma         !               0.125964         15.554           0.0851333        13.7253          
! Port Impedance50               0                50               0                

0.47             -39.604          -7.21301         -0.00983114      -8.30632         -0.00983114      -8.30632         -41.1347         174.931          
! Gamma         !               0.127577         15.8906          0.086167         14.0226          
! Port Impedance50               0                50               0                

0.48             -39.6011         -7.46337         -0.00994087      -8.48238         -0.00994087      -8.48238         -41.1466         174.829          
! Gamma         !               0.129169         16.2271          0.087187         14.32            
! Port Impedance50               0                50               0                

0.49             -39.5984         -7.71398         -0.01005         -8.65843         -0.01005         -8.65843         -41.1586         174.729          
! Gamma         !               0.130739         16.5636          0.0881938        14.6173          
! Port Impedance50               0                50               0                

0.5              -39.5961         -7.96482         -0.0101586       -8.83447         -0.0101586       -8.83447         -41.1708         174.63           
! Gamma         !               0.13229          16.9001          0.0891882        14.9146          
! Port Impedance50               0                50               0                

0.51             -39.5939         -8.21591         -0.0102667       -9.0105          -0.0102667       -9.0105          -41.1832         174.531          
! Gamma         !               0.133822         17.2367          0.0901707        15.2119          
! Port Impedance50               0                50               0                

0.52             -39.5921         -8.46724         -0.0103742       -9.18653         -0.0103742       -9.18653         -41.1957         174.434          
! Gamma         !               0.135335         17.5731          0.091142         15.5092          
! Port Impedance50               0                50               0                

0.53             -39.5905         -8.71881         -0.0104812       -9.36254         -0.0104812       -9.36254         -41.2084         174.337          
! Gamma         !               0.136832         17.9096          0.0921027        15.8065          
! Port Impedance50               0                50               0                

0.54             -39.5892         -8.97062         -0.0105878       -9.53855         -0.0105878       -9.53855         -41.2213         174.241          
! Gamma         !               0.138312         18.2461          0.0930533        16.1038          
! Port Impedance50               0                50               0                

0.55             -39.5881         -9.22267         -0.0106938       -9.71455         -0.0106938       -9.71455         -41.2343         174.146          
! Gamma         !               0.139777         18.5826          0.0939944        16.4011          
! Port Impedance50               0                50               0                

0.56             -39.5873         -9.47496         -0.0107993       -9.89054         -0.0107993       -9.89054         -41.2476         174.051          
! Gamma         !               0.141227         18.919           0.0949264        16.6984          
! Port Impedance50               0                50               0                

0.57             -39.5867         -9.72748         -0.0109044       -10.0665         -0.0109044       -10.0665         -41.261          173.958          
! Gamma         !               0.142663         19.2555          0.0958498        16.9957          
! Port Impedance50               0                50               0                

0.58             -39.5864         -9.98023         -0.0110089       -10.2425         -0.0110089       -10.2425         -41.2745         173.865          
! Gamma         !               0.144086         19.5919          0.096765         17.2929          
! Port Impedance50               0                50               0                

