! C:\Work\SPARQ2\Technical\Relays\TeledyneRelayOpen.s2p
!
! Tue Aug  7 09:52:37 2018
!
!!Measured using LeCroy SPARQ LCRY2401N02001
!SingleEnded 
!
! freq S11 S21 S12 S22 
# MHz S MA R 50.00  
0.000000000   0.994055   0.000000   0.000013 180.000000   0.000013 180.000000   0.002502   0.000000 
50.000000000   0.994154  -4.380184   0.000013 174.105607   0.000013 174.005915   0.002517  -1.664616 
100.000000000   0.994449  -8.762358   0.000013 168.278794   0.000013 168.082671   0.002560  -3.586201 
150.000000000   0.994929 -13.148464   0.000012 162.589455   0.000013 162.304086   0.002627  -5.977248 
200.000000000   0.995579 -17.540268   0.000012 157.111974   0.000012 156.749763   0.002712  -8.981888 
250.000000000   0.996377 -21.939343   0.000011 151.927634   0.000012 151.507544   0.002809 -12.669212 
300.000000000   0.997297 -26.346990   0.000011 147.124001   0.000011 146.675531   0.002909 -17.057143 
350.000000000   0.998310 -30.764205   0.000010 142.795044   0.000010 142.360640   0.003007 -22.120842 
400.000000000   0.999384 -35.191654   0.000010 139.034115   0.000010 138.674303   0.003099 -27.821289 
450.000000000   1.000000 -39.629637   0.000009 135.922615   0.000009 135.717423   0.003180 -34.107257 
500.000000000   1.000000 -44.078122   0.000009 133.508166   0.000009 133.555983   0.003248 -40.926325 
550.000000000   1.000000 -48.536733   0.000008 131.773815   0.000008 132.180023   0.003303 -48.233993 
600.000000000   1.000000 -53.004793   0.000008 130.607094   0.000008 131.461114   0.003344 -55.976716 
650.000000000   1.000000 -57.481307   0.000008 129.786424   0.000007 131.131557   0.003372 -64.109849 
700.000000000   1.000000 -61.965116   0.000007 129.004712   0.000007 130.817344   0.003390 -72.578578 
750.000000000   1.000000 -66.454797   0.000007 127.932994   0.000007 130.125601   0.003400 -81.324235 
800.000000000   1.000000 -70.948869   0.000007 126.294817   0.000007 128.742801   0.003404 -90.279285 
850.000000000   1.000000 -75.445713   0.000007 123.913265   0.000008 126.488670   0.003405 -99.363860 
900.000000000   1.000000 -79.943722   0.000008 120.716242   0.000008 123.310414   0.003405 -108.489247 
950.000000000   1.000000 -84.441285   0.000008 116.711383   0.000008 119.243246   0.003404 -117.556989 
1000.000000000   1.000000 -88.936869   0.000008 111.953361   0.000008 114.367156   0.003405 -126.463906 
1050.000000000   1.000000 -93.429045   0.000008 106.515994   0.000008 108.775057   0.003405 -135.103980 
1100.000000000   1.000000 -97.916523   0.000008 100.474409   0.000008 102.554249   0.003406 -143.372669 
1150.000000000   1.000000 -102.398179   0.000007  93.894372   0.000008  95.777014   0.003405 -151.171966 
1200.000000000   1.000000 -106.873038   0.000007  86.827393   0.000007  88.496229   0.003403 -158.408673 
1250.000000000   1.000000 -111.340341   0.000007  79.306338   0.000007  80.742094   0.003398 -164.998512 
1300.000000000   1.000000 -115.799487   0.000006  71.341950   0.000006  72.517813   0.003392 -170.869149 
1350.000000000   1.000000 -120.250047   0.000006  62.915934   0.000006  63.791071   0.003387 -175.958864 
1400.000000000   0.998988 -124.691742   0.000005  53.966441   0.000005  54.475594   0.003388 179.773471 
1450.000000000   0.997638 -129.124441   0.000004  44.357271   0.000004  44.390722   0.003401 176.332233 
1500.000000000   0.996238 -133.548086   0.000004  33.807811   0.000004  33.168018   0.003433 173.679280 
1550.000000000   0.994799 -137.962725   0.000003  21.711831   0.000003  20.010429   0.003494 171.715532 
1600.000000000   0.993331 -142.368423   0.000002   6.600866   0.000002   2.986799   0.003592 170.280398 
1650.000000000   0.991841 -146.765276   0.000001 -15.722530   0.000001 -23.146343   0.003733 169.166486 
1700.000000000   0.990337 -151.153397   0.000001 -57.133547   0.000001 -68.496430   0.003922 168.147922 
1750.000000000   0.988823 -155.532828   0.000001 -114.283003   0.000001 -118.107687   0.004160 167.023427 
1800.000000000   0.987304 -159.903634   0.000001 -149.028539   0.000002 -148.031799   0.004442 165.640719 
1850.000000000   0.985786 -164.265781   0.000002 -169.074271   0.000002 -166.977860   0.004762 163.912585 
1900.000000000   0.984273 -168.619232   0.000002 176.212073   0.000003 178.491433   0.005112 161.811220 
1950.000000000   0.982772 -172.963899   0.000003 163.721485   0.000003 165.949612   0.005482 159.350237 
2000.000000000   0.981289 -177.299697   0.000003 152.297880   0.000004 154.407401   0.005861 156.574836 
2050.000000000   0.979833 178.373468   0.000004 141.425074   0.000004 143.395434   0.006238 153.542590 
2100.000000000   0.978414 174.055645   0.000004 130.833771   0.000004 132.657006   0.006605 150.318005 
2150.000000000   0.977042 169.746824   0.000004 120.359802   0.000004 122.028370   0.006952 146.967566 
2200.000000000   0.975732 165.446897   0.000004 109.883666   0.000004 111.386124   0.007272 143.555476 
2250.000000000   0.974496 161.155630   0.000004  99.298439   0.000004 100.614005   0.007557 140.143400 
2300.000000000   0.973350 156.872645   0.000003  88.483665   0.000004  89.576621   0.007804 136.791561 
2350.000000000   0.972310 152.597374   0.000003  77.275769   0.000003  78.083596   0.008010 133.557505 
2400.000000000   0.971389 148.329073   0.000003  65.413862   0.000003  65.824745   0.008173 130.496394 
2450.000000000   0.970604 144.066804   0.000002  52.427343   0.000002  52.225500   0.008296 127.661810 
2500.000000000   0.969966 139.809423   0.000002  37.351026   0.000002  36.084786   0.008383 125.103522 
2550.000000000   0.969486 135.555610   0.000001  17.938639   0.000001  14.586592   0.008441 122.865596 
2600.000000000   0.969171 131.303892   0.000001 -11.359658   0.000001 -18.609618   0.008479 120.983385 
2650.000000000   0.969027 127.052671   0.000001 -57.482788   0.000001 -66.136280   0.008509 119.477278 
2700.000000000   0.969053 122.800251   0.000001 -102.672265   0.000001 -106.230546   0.008543 118.348031 
2750.000000000   0.969245 118.544911   0.000001 -131.127203   0.000002 -131.627046   0.008597 117.570366 
2800.000000000   0.969596 114.284918   0.000002 -150.254724   0.000002 -149.594078   0.008684 117.089737 
2850.000000000   0.970093 110.018625   0.000002 -165.309555   0.000002 -164.185977   0.008815 116.824075 
2900.000000000   0.970720 105.744475   0.000003 -178.413084   0.000003 -177.093429   0.009000 116.669658 
2950.000000000   0.971455 101.461088   0.000003 169.514925   0.000003 170.914917   0.009241 116.515100 
3000.000000000   0.972277  97.167275   0.000003 158.018418   0.000003 159.442415   0.009540 116.255121 
3050.000000000   0.973159  92.862093   0.000003 146.841186   0.000004 148.256930   0.009889 115.804208 
3100.000000000   0.974072  88.544833   0.000003 135.816156   0.000004 137.202985   0.010279 115.105632 
3150.000000000   0.974988  84.215089   0.000003 124.815283   0.000004 126.155700   0.010699 114.131462 
3200.000000000   0.975879  79.872738   0.000003 113.717899   0.000003 114.993391   0.011134 112.880659 
3250.000000000   0.976715  75.517906   0.000003 102.384245   0.000003 103.569274   0.011569 111.373421 
3300.000000000   0.977471  71.151017   0.000003  90.617040   0.000003  91.671418   0.011992 109.644790 
3350.000000000   0.978122  66.772714   0.000002  78.093951   0.000002  78.945208   0.012388 107.739666 
3400.000000000   0.978646  62.383854   0.000002  64.209877   0.000002  64.712573   0.012749 105.707967 
3450.000000000   0.979027  57.985449   0.000002  47.675141   0.000002  47.495067   0.013064 103.602528 
3500.000000000   0.979250  53.578723   0.000001  25.370069   0.000001  23.681100   0.013330 101.476026 
3550.000000000   0.979307  49.164914   0.000001  -9.864082   0.000001 -14.404896   0.013542  99.381077 
3600.000000000   0.979193  44.745358   0.000001 -59.456772   0.000001 -64.050252   0.013703  97.367611 
3650.000000000   0.978906  40.321398   0.000001 -98.609605   0.000001 -100.285803   0.013814  95.483060 
3700.000000000   0.978453  35.894354   0.000001 -122.965346   0.000002 -123.127576   0.013883  93.768937 
3750.000000000   0.977839  31.465476   0.000002 -140.394091   0.000002 -139.914660   0.013921  92.260545 
3800.000000000   0.977079  27.035927   0.000002 -154.708628   0.000003 -153.930238   0.013939  90.983433 
3850.000000000   0.976186  22.606752   0.000003 -167.457464   0.000003 -166.526528   0.013952  89.949754 
3900.000000000   0.975179  18.178833   0.000003 -179.342605   0.000003 -178.329918   0.013975  89.155511 
3950.000000000   0.974079  13.752912   0.000003 169.275214   0.000004 170.330883   0.014025  88.578012 
4000.000000000   0.972908   9.329535   0.000003 158.186075   0.000004 159.262070   0.014115  88.176020 
4050.000000000   0.971690   4.909077   0.000003 147.253440   0.000004 148.333272   0.014257  87.890660 
4100.000000000   0.970447   0.491734   0.000003 136.372721   0.000004 137.443904   0.014459  87.651932 
4150.000000000   0.969206  -3.922488   0.000003 125.449942   0.000004 126.499704   0.014722  87.386939 
4200.000000000   0.967988  -8.333738   0.000003 114.381177   0.000003 115.394789   0.015044  87.026094 
4250.000000000   0.966819 -12.742342   0.000003 103.030073   0.000003 103.985899   0.015418  86.513990 
4300.000000000   0.965718 -17.148747   0.000003  91.186090   0.000003  92.049397   0.015832  85.811226 
4350.000000000   0.964708 -21.553554   0.000002  78.481550   0.000002  79.186734   0.016271  84.897548 
4400.000000000   0.963807 -25.957456   0.000002  64.181522   0.000002  64.587377   0.016720  83.770674 
4450.000000000   0.963032 -30.361248   0.000001  46.597755   0.000001  46.355508   0.017163  82.443510 
4500.000000000   0.962399 -34.765796   0.000001  21.286577   0.000001  19.452953   0.017584  80.940652 
4550.000000000   0.961921 -39.172029   0.000001 -21.436700   0.000001 -25.906559   0.017970  79.294727 
4600.000000000   0.961609 -43.580924   0.000001 -73.449227   0.000001 -76.460758   0.018310  77.544014 
4650.000000000   0.961473 -47.993470   0.000001 -107.047963   0.000001 -107.827553   0.018596  75.729519 
4700.000000000   0.961520 -52.410710   0.000002 -128.011990   0.000002 -127.863228   0.018823  73.894115 
4750.000000000   0.961756 -56.833657   0.000002 -143.788743   0.000002 -143.245389   0.018988  72.079182 
4800.000000000   0.962184 -61.263352   0.000002 -157.222127   0.000003 -156.487540   0.019095  70.325143 
4850.000000000   0.962806 -65.700811   0.000003 -169.451966   0.000003 -168.614916   0.019149  68.669527 
4900.000000000   0.963621 -70.147016   0.000003 178.993910   0.000003 179.888261   0.019159  67.144487 
4950.000000000   0.964626 -74.602932   0.000003 167.835661   0.000004 168.762139   0.019136  65.775839 
5000.000000000   0.965815 -79.069482   0.000003 156.906185   0.000004 157.849073   0.019095  64.580706 
5050.000000000   0.967183 -83.547525   0.000003 146.092140   0.000004 147.039546   0.019051  63.565376 
5100.000000000   0.968719 -88.037860   0.000003 135.301668   0.000004 136.244073   0.019021  62.723171 
5150.000000000   0.970412 -92.541201   0.000003 124.448128   0.000004 125.375918   0.019020  62.033548 
5200.000000000   0.972248 -97.058155   0.000003 113.429199   0.000003 114.329844   0.019061  61.462818 
5250.000000000   0.974210 -101.589242   0.000003 102.103354   0.000003 102.959032   0.019154  60.965802 
5300.000000000   0.976282 -106.134828   0.000002  90.240893   0.000003  91.021185   0.019305  60.490524 
5350.000000000   0.978442 -110.695151   0.000002  77.419227   0.000002  78.065639   0.019514  59.982916 
5400.000000000   0.980669 -115.270301   0.000002  62.740885   0.000002  63.120817   0.019777  59.392947 
5450.000000000   0.982939 -119.860188   0.000001  43.957641   0.000001  43.713608   0.020085  58.678983 
5500.000000000   0.985228 -124.464529   0.000001  14.508653   0.000001  12.612036   0.020425  57.811741 
5550.000000000   0.987511 -129.082917   0.000001 -37.614154   0.000001 -41.243511   0.020783  56.775410 
5600.000000000   0.989761 -133.714693   0.000001 -87.671679   0.000001 -89.011510   0.021142  55.566662 
5650.000000000   0.991954 -138.359050   0.000001 -115.609085   0.000001 -115.592583   0.021486  54.194505 
5700.000000000   0.994064 -143.014989   0.000002 -133.820242   0.000002 -133.311001   0.021800  52.676984 
5750.000000000   0.996065 -147.681342   0.000002 -148.235302   0.000002 -147.518815   0.022071  51.039293 
5800.000000000   0.997936 -152.356782   0.000003 -160.902840   0.000003 -160.086238   0.022289  49.311800 
5850.000000000   0.999654 -157.039831   0.000003 -172.652715   0.000003 -171.783738   0.022446  47.527636 
5900.000000000   1.000000 -161.728885   0.000003 176.121280   0.000004 177.018214   0.022538  45.721663 
5950.000000000   1.000000 -166.422234   0.000003 165.203322   0.000004 166.113628   0.022564  43.928572 
6000.000000000   1.000000 -171.118075   0.000003 154.459729   0.000004 155.373847   0.022528  42.182084 
6050.000000000   1.000000 -175.814572   0.000004 143.796301   0.000004 144.706713   0.022436  40.513110 
6100.000000000   1.000000 179.490170   0.000003 133.133978   0.000004 134.034442   0.022296  38.948885 
6150.000000000   1.000000 174.798043   0.000003 122.394204   0.000004 123.276926   0.022122  37.510881 
6200.000000000   1.000000 170.110909   0.000003 111.480156   0.000003 112.334461   0.021927  36.213510 
6250.000000000   1.000000 165.430600   0.000003 100.252048   0.000003 101.062263   0.021725  35.062381 
6300.000000000   1.000000 160.758871   0.000002  88.475927   0.000003  89.214494   0.021532  34.053048 
6350.000000000   1.000000 156.097390   0.000002  75.705259   0.000002  76.317998   0.021360  33.170241 
6400.000000000   1.000000 151.447693   0.000002  60.946967   0.000002  61.308369   0.021221  32.388421 
6450.000000000   1.000000 146.811203   0.000001  41.538928   0.000001  41.295896   0.021123  31.672940 
6500.000000000   1.000000 142.189186   0.000001   8.916925   0.000001   7.024928   0.021070  30.983701 
6550.000000000   1.000000 137.582752   0.000001 -50.233601   0.000001 -52.918510   0.021062  30.278133 
6600.000000000   1.000000 132.992835   0.000001 -97.419517   0.000001 -97.812399   0.021093  29.516333 
6650.000000000   0.999675 128.420209   0.000001 -122.174105   0.000002 -121.703043   0.021156  28.663802 
6700.000000000   0.998242 123.865435   0.000002 -138.890243   0.000002 -138.136899   0.021238  27.695679 
6750.000000000   0.996737 119.328933   0.000002 -152.523005   0.000003 -151.658342   0.021326  26.597219 
6800.000000000   0.995181 114.810911   0.000003 -164.721849   0.000003 -163.807748   0.021406  25.364724 
6850.000000000   0.993597 110.311428   0.000003 -176.160476   0.000003 -175.223800   0.021464  24.004521 
6900.000000000   0.992003 105.830352   0.000003 172.835997   0.000004 173.781452   0.021486  22.531991 
6950.000000000   0.990418 101.367424   0.000004 162.088025   0.000004 163.033790   0.021463  20.970018 
7000.000000000   0.988862  96.922216   0.000004 151.482581   0.000004 152.423073   0.021386  19.346703 
7050.000000000   0.987351  92.494181   0.000004 140.938192   0.000004 141.868020   0.021251  17.694392 
7100.000000000   0.985901  88.082620   0.000004 130.384354   0.000004 131.298481   0.021057  16.047741 
7150.000000000   0.984525  83.686764   0.000003 119.748468   0.000004 120.640048   0.020805  14.442650 
7200.000000000   0.983236  79.305722   0.000003 108.938488   0.000004 109.797823   0.020503  12.914573 
7250.000000000   0.982044  74.938529   0.000003  97.818199   0.000003  98.631291   0.020157  11.496721 
7300.000000000   0.980959  70.584155   0.000003  86.157048   0.000003  86.896965   0.019782  10.218724 
7350.000000000   0.979988  66.241493   0.000002  73.504104   0.000002  74.119246   0.019389   9.103354 
7400.000000000   0.979137  61.909419   0.000002  58.829200   0.000002  59.198687   0.018995   8.164766 
7450.000000000   0.978409  57.586755   0.000001  39.236707   0.000001  39.013923   0.018616   7.405745 
7500.000000000   0.977806  53.272330   0.000001   4.648917   0.000001   2.792121   0.018267   6.814780 
7550.000000000   0.977329  48.964951   0.000001 -59.322595   0.000001 -61.324107   0.017962   6.365666 
7600.000000000   0.976977  44.663432   0.000001 -104.508840   0.000001 -104.376736   0.017711   6.017596 
7650.000000000   0.976747  40.366615   0.000001 -127.542726   0.000002 -126.797056   0.017520   5.717266 
7700.000000000   0.976636  36.073376   0.000002 -143.439151   0.000002 -142.513863   0.017390   5.404786 
7750.000000000   0.976638  31.782629   0.000002 -156.627315   0.000003 -155.638616   0.017320   5.018077 
7800.000000000   0.976747  27.493343   0.000003 -168.554482   0.000003 -167.541796   0.017299   4.500577 
7850.000000000   0.976954  23.204552   0.000003 -179.812618   0.000003 -178.792099   0.017317   3.804891 
7900.000000000   0.977252  18.915373   0.000003 169.309810   0.000004 170.330247   0.017360   2.897674 
7950.000000000   0.977632  14.624993   0.000004 158.652100   0.000004 159.667702   0.017411   1.758553 
8000.000000000   0.978085  10.332699   0.000004 148.110343   0.000004 149.118365   0.017456   0.380851 
8050.000000000   0.978600   6.037832   0.000004 137.607542   0.000004 138.605146   0.017480  -1.231354 
8100.000000000   0.979167   1.739872   0.000004 127.074326   0.000004 128.058396   0.017469  -3.065630 
8150.000000000   0.979779  -2.561666   0.000003 116.435008   0.000004 117.401674   0.017414  -5.104735 
8200.000000000   0.980425  -6.867146   0.000003 105.590449   0.000004 106.533668   0.017306  -7.327251 
8250.000000000   0.981098 -11.176879   0.000003  94.388642   0.000003  95.298371   0.017139  -9.711792 
8300.000000000   0.981788 -15.491107   0.000003  82.564508   0.000003  83.422287   0.016910 -12.237116 
8350.000000000   0.982491 -19.810014   0.000002  69.586263   0.000002  70.354532   0.016618 -14.884224 
8400.000000000   0.983200 -24.133738   0.000002  54.208194   0.000002  54.792050   0.016265 -17.636582 
8450.000000000   0.983911 -28.462392   0.000001  32.826265   0.000001  32.938326   0.015852 -20.482266 
8500.000000000   0.984619 -32.796063   0.000001  -6.594877   0.000001  -7.750287   0.015383 -23.413022 
8550.000000000   0.985321 -37.134851   0.000001 -69.907591   0.000001 -70.801224   0.014864 -26.426757 
8600.000000000   0.986016 -41.478827   0.000001 -109.152953   0.000001 -108.813606   0.014299 -29.526919 
8650.000000000   0.986701 -45.828066   0.000002 -130.453850   0.000002 -129.735857   0.013693 -32.723465 
8700.000000000   0.987377 -50.182712   0.000002 -145.771538   0.000002 -144.928879   0.013051 -36.034686 
8750.000000000   0.988040 -54.542854   0.000003 -158.685029   0.000003 -157.794837   0.012378 -39.487008 
8800.000000000   0.988691 -58.908637   0.000003 -170.432073   0.000003 -169.524949   0.011677 -43.116331 
8850.000000000   0.989327 -63.280207   0.000003 178.460314   0.000004 179.370407   0.010952 -46.971472 
8900.000000000   0.989949 -67.657714   0.000004 167.731357   0.000004 168.635986   0.010206 -51.115642 
8950.000000000   0.990552 -72.041289   0.000004 157.233524   0.000004 158.126960   0.009442 -55.631787 
9000.000000000   0.991135 -76.431046   0.000004 146.874549   0.000004 147.751645   0.008666 -60.630028 
9050.000000000   0.991693 -80.827074   0.000004 136.587061   0.000004 137.442189   0.007882 -66.259371 
9100.000000000   0.992224 -85.229413   0.000004 126.314523   0.000004 127.141710   0.007099 -72.725270 
9150.000000000   0.992721 -89.638026   0.000004 115.999166   0.000004 116.789687   0.006331 -80.312983 
9200.000000000   0.993181 -94.052828   0.000003 105.567187   0.000004 106.309065   0.005599 -89.414016 
9250.000000000   0.993598 -98.473632   0.000003  94.906969   0.000003  95.581604   0.004936 -100.526551 
9300.000000000   0.993967 -102.900189   0.000002  83.816125   0.000003  84.392998   0.004390 -114.150735 
9350.000000000   0.994285 -107.332127   0.000002  71.862421   0.000002  72.282157   0.004025 -130.421269 
9400.000000000   0.994546 -111.769024   0.000001  57.882032   0.000002  58.014466   0.003901 -148.510399 
