! File created by SignalIntegrity v1.2.1: Signal and Power Integrity Tools
! https://github.com/TeledyneLeCroy/SignalIntegrity
# MHz S MA R 50.0
0.0 1.0 0.0 0.0 0.0 0.0 0.0 0.005299 0.0
0.0 0.0 0.0 0.0 0.47624 0.0 0.0 0.0
0.0 0.0
500.0 1.0 0.0 0.0 0.0 0.0 0.0 0.005109 1.498768
0.0 0.0 0.0 0.0 0.452972 -42.366628 0.0 0.0
0.0 0.0
1000.0 1.0 0.0 0.0 0.0 0.0 0.0 0.005318 3.033638
0.0 0.0 0.0 0.0 0.442943 -83.159166 0.0 0.0
0.0 0.0
1500.0 1.0 0.0 0.0 0.0 0.0 0.0 0.00549 1.806376
0.0 0.0 0.0 0.0 0.434545 -123.619385 0.0 0.0
0.0 0.0
2000.0 1.0 0.0 0.0 0.0 0.0 0.0 0.005453 0.401602
0.0 0.0 0.0 0.0 0.427474 -163.854965 0.0 0.0
0.0 0.0
2500.0 1.0 0.0 0.0 0.0 0.0 0.0 0.005366 0.669141
0.0 0.0 0.0 0.0 0.421571 156.012907 0.0 0.0
0.0 0.0
3000.0 1.0 0.0 0.0 0.0 0.0 0.0 0.005403 1.505423
0.0 0.0 0.0 0.0 0.416293 115.91989 0.0 0.0
0.0 0.0
3500.0 1.0 0.0 0.0 0.0 0.0 0.0 0.005491 1.214578
0.0 0.0 0.0 0.0 0.411292 75.876855 0.0 0.0
0.0 0.0
4000.0 1.0 0.0 0.0 0.0 0.0 0.0 0.005486 0.3392
0.0 0.0 0.0 0.0 0.406637 35.896048 0.0 0.0
0.0 0.0
4500.0 1.0 0.0 0.0 0.0 0.0 0.0 0.005416 0.309019
0.0 0.0 0.0 0.0 0.402408 -4.048482 0.0 0.0
0.0 0.0
5000.0 1.0 0.0 0.0 0.0 0.0 0.0 0.005414 1.014989
0.0 0.0 0.0 0.0 0.398446 -43.981751 0.0 0.0
0.0 0.0
5500.0 1.0 0.0 0.0 0.0 0.0 0.0 0.005484 1.115017
0.0 0.0 0.0 0.0 0.394585 -83.895011 0.0 0.0
0.0 0.0
6000.0 1.0 0.0 0.0 0.0 0.0 0.0 0.005508 0.425977
0.0 0.0 0.0 0.0 0.390874 -123.773121 0.0 0.0
0.0 0.0
6500.0 1.0 0.0 0.0 0.0 0.0 0.0 0.005453 0.092611
0.0 0.0 0.0 0.0 0.387414 -163.627211 0.0 0.0
0.0 0.0
7000.0 1.0 0.0 0.0 0.0 0.0 0.0 0.005419 0.617004
0.0 0.0 0.0 0.0 0.384141 156.522566 0.0 0.0
0.0 0.0
7500.0 1.0 0.0 0.0 0.0 0.0 0.0 0.005467 1.035992
0.0 0.0 0.0 0.0 0.38092 116.678921 0.0 0.0
0.0 0.0
8000.0 1.0 0.0 0.0 0.0 0.0 0.0 0.005516 0.613658
0.0 0.0 0.0 0.0 0.377754 76.85825 0.0 0.0
0.0 0.0
8500.0 1.0 0.0 0.0 0.0 0.0 0.0 0.005487 0.052784
0.0 0.0 0.0 0.0 0.374751 37.059156 0.0 0.0
0.0 0.0
9000.0 1.0 0.0 0.0 0.0 0.0 0.0 0.005433 0.257754
0.0 0.0 0.0 0.0 0.371911 -2.736393 0.0 0.0
0.0 0.0
9500.0 1.0 0.0 0.0 0.0 0.0 0.0 0.005447 0.844056
0.0 0.0 0.0 0.0 0.369121 -42.533326 0.0 0.0
0.0 0.0
10000.0 1.0 0.0 0.0 0.0 0.0 0.0 0.005506 0.79386
0.0 0.0 0.0 0.0 0.366336 -82.31706 0.0 0.0
0.0 0.0
10500.0 1.0 0.0 0.0 0.0 0.0 0.0 0.005513 0.191287
0.0 0.0 0.0 0.0 0.363641 -122.080263 0.0 0.0
0.0 0.0
11000.0 1.0 0.0 0.0 0.0 0.0 0.0 0.00546 0.017326
0.0 0.0 0.0 0.0 0.361093 -161.836231 0.0 0.0
0.0 0.0
11500.0 1.0 0.0 0.0 0.0 0.0 0.0 0.005437 0.53617
0.0 0.0 0.0 0.0 0.358617 158.403116 0.0 0.0
0.0 0.0
12000.0 1.0 0.0 0.0 0.0 0.0 0.0 0.005484 0.852445
0.0 0.0 0.0 0.0 0.356129 118.646409 0.0 0.0
0.0 0.0
12500.0 1.0 0.0 0.0 0.0 0.0 0.0 0.005522 0.434312
0.0 0.0 0.0 0.0 0.35367 78.907052 0.0 0.0
0.0 0.0
13000.0 1.0 0.0 0.0 0.0 0.0 0.0 0.005492 -0.030995
0.0 0.0 0.0 0.0 0.351327 39.179889 0.0 0.0
0.0 0.0
13500.0 1.0 0.0 0.0 0.0 0.0 0.0 0.005444 0.204665
0.0 0.0 0.0 0.0 0.349081 -0.550433 0.0 0.0
0.0 0.0
14000.0 1.0 0.0 0.0 0.0 0.0 0.0 0.00546 0.730317
0.0 0.0 0.0 0.0 0.346837 -40.284181 0.0 0.0
0.0 0.0
14500.0 1.0 0.0 0.0 0.0 0.0 0.0 0.005513 0.657879
0.0 0.0 0.0 0.0 0.34458 -80.006877 0.0 0.0
0.0 0.0
15000.0 1.0 0.0 0.0 0.0 0.0 0.0 0.005517 0.111669
0.0 0.0 0.0 0.0 0.342392 -119.714164 0.0 0.0
0.0 0.0
15500.0 1.0 0.0 0.0 0.0 0.0 0.0 0.005467 -0.023664
0.0 0.0 0.0 0.0 0.340311 -159.419325 0.0 0.0
0.0 0.0
16000.0 1.0 0.0 0.0 0.0 0.0 0.0 0.005447 0.46007
0.0 0.0 0.0 0.0 0.338265 160.868665 0.0 0.0
0.0 0.0
16500.0 1.0 0.0 0.0 0.0 0.0 0.0 0.00549 0.744634
0.0 0.0 0.0 0.0 0.336192 121.159602 0.0 0.0
0.0 0.0
17000.0 1.0 0.0 0.0 0.0 0.0 0.0 0.005525 0.360493
0.0 0.0 0.0 0.0 0.334137 81.465197 0.0 0.0
0.0 0.0
17500.0 1.0 0.0 0.0 0.0 0.0 0.0 0.005496 -0.062888
0.0 0.0 0.0 0.0 0.332174 41.779344 0.0 0.0
0.0 0.0
18000.0 1.0 0.0 0.0 0.0 0.0 0.0 0.005453 0.154777
0.0 0.0 0.0 0.0 0.330281 2.08819 0.0 0.0
0.0 0.0
18500.0 1.0 0.0 0.0 0.0 0.0 0.0 0.005466 0.641669
0.0 0.0 0.0 0.0 0.328374 -37.607144 0.0 0.0
0.0 0.0
19000.0 1.0 0.0 0.0 0.0 0.0 0.0 0.005515 0.58487
0.0 0.0 0.0 0.0 0.326448 -77.29287 0.0 0.0
0.0 0.0
19500.0 1.0 0.0 0.0 0.0 0.0 0.0 0.005519 0.084104
0.0 0.0 0.0 0.0 0.324577 -116.965679 0.0 0.0
0.0 0.0
20000.0 1.0 0.0 0.0 0.0 0.0 0.0 0.005474 -0.050843
0.0 0.0 0.0 0.0 0.322793 -156.638259 0.0 0.0
0.0 0.0
20500.0 1.0 0.0 0.0 0.0 0.0 0.0 0.005454 0.390713
0.0 0.0 0.0 0.0 0.32103 163.681599 0.0 0.0
0.0 0.0
21000.0 1.0 0.0 0.0 0.0 0.0 0.0 0.005493 0.668894
0.0 0.0 0.0 0.0 0.319234 124.00356 0.0 0.0
0.0 0.0
21500.0 1.0 0.0 0.0 0.0 0.0 0.0 0.005526 0.328377
0.0 0.0 0.0 0.0 0.317449 84.338446 0.0 0.0
0.0 0.0
22000.0 1.0 0.0 0.0 0.0 0.0 0.0 0.005501 -0.072946
0.0 0.0 0.0 0.0 0.315742 44.680277 0.0 0.0
0.0 0.0
22500.0 1.0 0.0 0.0 0.0 0.0 0.0 0.00546 0.109775
0.0 0.0 0.0 0.0 0.31409 5.016159 0.0 0.0
0.0 0.0
23000.0 1.0 0.0 0.0 0.0 0.0 0.0 0.00547 0.566909
0.0 0.0 0.0 0.0 0.31242 -34.652633 0.0 0.0
0.0 0.0
23500.0 1.0 0.0 0.0 0.0 0.0 0.0 0.005515 0.539826
0.0 0.0 0.0 0.0 0.310728 -74.313068 0.0 0.0
0.0 0.0
24000.0 1.0 0.0 0.0 0.0 0.0 0.0 0.005521 0.079851
0.0 0.0 0.0 0.0 0.309081 -113.962002 0.0 0.0
0.0 0.0
24500.0 1.0 0.0 0.0 0.0 0.0 0.0 0.00548 -0.069327
0.0 0.0 0.0 0.0 0.307507 -153.611316 0.0 0.0
0.0 0.0
25000.0 1.0 0.0 0.0 0.0 0.0 0.0 0.005459 0.327739
0.0 0.0 0.0 0.0 0.305948 166.731603 0.0 0.0
0.0 0.0
25500.0 1.0 0.0 0.0 0.0 0.0 0.0 0.005493 0.60926
0.0 0.0 0.0 0.0 0.304356 127.075777 0.0 0.0
0.0 0.0
26000.0 1.0 0.0 0.0 0.0 0.0 0.0 0.005526 0.31582
0.0 0.0 0.0 0.0 0.30277 87.431558 0.0 0.0
0.0 0.0
26500.0 1.0 0.0 0.0 0.0 0.0 0.0 0.005505 -0.071207
0.0 0.0 0.0 0.0 0.301249 47.79359 0.0 0.0
0.0 0.0
27000.0 1.0 0.0 0.0 0.0 0.0 0.0 0.005466 0.070232
0.0 0.0 0.0 0.0 0.299776 8.149673 0.0 0.0
0.0 0.0
27500.0 1.0 0.0 0.0 0.0 0.0 0.0 0.005472 0.500905
0.0 0.0 0.0 0.0 0.298285 -31.499324 0.0 0.0
0.0 0.0
28000.0 1.0 0.0 0.0 0.0 0.0 0.0 0.005514 0.508528
0.0 0.0 0.0 0.0 0.29677 -71.141137 0.0 0.0
0.0 0.0
28500.0 1.0 0.0 0.0 0.0 0.0 0.0 0.005523 0.087534
0.0 0.0 0.0 0.0 0.295291 -110.772357 0.0 0.0
0.0 0.0
29000.0 1.0 0.0 0.0 0.0 0.0 0.0 0.005486 -0.081058
0.0 0.0 0.0 0.0 0.293877 -150.403951 0.0 0.0
0.0 0.0
29500.0 1.0 0.0 0.0 0.0 0.0 0.0 0.005464 0.270646
0.0 0.0 0.0 0.0 0.292475 169.956729 0.0 0.0
0.0 0.0
30000.0 1.0 0.0 0.0 0.0 0.0 0.0 0.005493 0.558404
0.0 0.0 0.0 0.0 0.291042 130.317814 0.0 0.0
0.0 0.0
30500.0 1.0 0.0 0.0 0.0 0.0 0.0 0.005525 0.312959
0.0 0.0 0.0 0.0 0.28961 90.689388 0.0 0.0
0.0 0.0
31000.0 1.0 0.0 0.0 0.0 0.0 0.0 0.005509 -0.062114
0.0 0.0 0.0 0.0 0.288233 51.06697 0.0 0.0
0.0 0.0
31500.0 1.0 0.0 0.0 0.0 0.0 0.0 0.005471 0.036294
0.0 0.0 0.0 0.0 0.2869 11.43894 0.0 0.0
0.0 0.0
32000.0 1.0 0.0 0.0 0.0 0.0 0.0 0.005474 0.441024
0.0 0.0 0.0 0.0 0.285551 -28.194515 0.0 0.0
0.0 0.0
32500.0 1.0 0.0 0.0 0.0 0.0 0.0 0.005513 0.484085
0.0 0.0 0.0 0.0 0.284176 -67.821914 0.0 0.0
0.0 0.0
33000.0 1.0 0.0 0.0 0.0 0.0 0.0 0.005524 0.101626
0.0 0.0 0.0 0.0 0.282831 -107.439377 0.0 0.0
0.0 0.0
33500.0 1.0 0.0 0.0 0.0 0.0 0.0 0.005491 -0.087074
0.0 0.0 0.0 0.0 0.281542 -147.05689 0.0 0.0
0.0 0.0
34000.0 1.0 0.0 0.0 0.0 0.0 0.0 0.005467 0.219062
0.0 0.0 0.0 0.0 0.280267 173.318067 0.0 0.0
0.0 0.0
34500.0 1.0 0.0 0.0 0.0 0.0 0.0 0.005492 0.512564
0.0 0.0 0.0 0.0 0.278962 133.692598 0.0 0.0
0.0 0.0
35000.0 1.0 0.0 0.0 0.0 0.0 0.0 0.005524 0.314694
0.0 0.0 0.0 0.0 0.277654 94.076603 0.0 0.0
0.0 0.0
35500.0 1.0 0.0 0.0 0.0 0.0 0.0 0.005512 -0.048078
0.0 0.0 0.0 0.0 0.276393 54.466598 0.0 0.0
0.0 0.0
36000.0 1.0 0.0 0.0 0.0 0.0 0.0 0.005476 0.007919
0.0 0.0 0.0 0.0 0.275173 14.851509 0.0 0.0
0.0 0.0
36500.0 1.0 0.0 0.0 0.0 0.0 0.0 0.005475 0.385855
0.0 0.0 0.0 0.0 0.27394 -24.769279 0.0 0.0
0.0 0.0
37000.0 1.0 0.0 0.0 0.0 0.0 0.0 0.005511 0.462806
0.0 0.0 0.0 0.0 0.272681 -64.385102 0.0 0.0
0.0 0.0
37500.0 1.0 0.0 0.0 0.0 0.0 0.0 0.005525 0.119029
0.0 0.0 0.0 0.0 0.271445 -103.99153 0.0 0.0
0.0 0.0
38000.0 1.0 0.0 0.0 0.0 0.0 0.0 0.005496 -0.088105
0.0 0.0 0.0 0.0 0.270259 -143.597515 0.0 0.0
0.0 0.0
38500.0 1.0 0.0 0.0 0.0 0.0 0.0 0.005471 0.172737
0.0 0.0 0.0 0.0 0.269088 176.789277 0.0 0.0
0.0 0.0
39000.0 1.0 0.0 0.0 0.0 0.0 0.0 0.005491 0.469707
0.0 0.0 0.0 0.0 0.26789 137.17486 0.0 0.0
0.0 0.0
39500.0 1.0 0.0 0.0 0.0 0.0 0.0 0.005523 0.318124
0.0 0.0 0.0 0.0 0.266685 97.568951 0.0 0.0
0.0 0.0
40000.0 1.0 0.0 0.0 0.0 0.0 0.0 0.005515 -0.030641
0.0 0.0 0.0 0.0 0.265521 57.969114 0.0 0.0
0.0 0.0
40500.0 1.0 0.0 0.0 0.0 0.0 0.0 0.005481 -0.015047
0.0 0.0 0.0 0.0 0.264394 18.364841 0.0 0.0
0.0 0.0
41000.0 1.0 0.0 0.0 0.0 0.0 0.0 0.005477 0.334651
0.0 0.0 0.0 0.0 0.263258 -21.245327 0.0 0.0
0.0 0.0
41500.0 1.0 0.0 0.0 0.0 0.0 0.0 0.005509 0.442608
0.0 0.0 0.0 0.0 0.262097 -60.851584 0.0 0.0
0.0 0.0
42000.0 1.0 0.0 0.0 0.0 0.0 0.0 0.005525 0.137814
0.0 0.0 0.0 0.0 0.260952 -100.448941 0.0 0.0
0.0 0.0
42500.0 1.0 0.0 0.0 0.0 0.0 0.0 0.0055 -0.084772
0.0 0.0 0.0 0.0 0.259853 -140.045285 0.0 0.0
0.0 0.0
43000.0 1.0 0.0 0.0 0.0 0.0 0.0 0.005474 0.131505
0.0 0.0 0.0 0.0 0.258769 -179.64845 0.0 0.0
0.0 0.0
43500.0 1.0 0.0 0.0 0.0 0.0 0.0 0.00549 0.42874
0.0 0.0 0.0 0.0 0.257662 140.746456 0.0 0.0
0.0 0.0
44000.0 1.0 0.0 0.0 0.0 0.0 0.0 0.005521 0.321495
0.0 0.0 0.0 0.0 0.256544 101.148929 0.0 0.0
0.0 0.0
44500.0 1.0 0.0 0.0 0.0 0.0 0.0 0.005517 -0.010921
0.0 0.0 0.0 0.0 0.255462 61.557585 0.0 0.0
0.0 0.0
45000.0 1.0 0.0 0.0 0.0 0.0 0.0 0.005486 -0.032826
0.0 0.0 0.0 0.0 0.254415 21.962524 0.0 0.0
0.0 0.0
45500.0 1.0 0.0 0.0 0.0 0.0 0.0 0.005478 0.287041
0.0 0.0 0.0 0.0 0.253361 -17.638543 0.0 0.0
0.0 0.0
46000.0 1.0 0.0 0.0 0.0 0.0 0.0 0.005507 0.422307
0.0 0.0 0.0 0.0 0.252284 -57.236706 0.0 0.0
0.0 0.0
46500.0 1.0 0.0 0.0 0.0 0.0 0.0 0.005525 0.156683
0.0 0.0 0.0 0.0 0.251218 -96.826463 0.0 0.0
0.0 0.0
47000.0 1.0 0.0 0.0 0.0 0.0 0.0 0.005504 -0.077657
0.0 0.0 0.0 0.0 0.250192 -136.414613 0.0 0.0
0.0 0.0
47500.0 1.0 0.0 0.0 0.0 0.0 0.0 0.005478 0.095239
0.0 0.0 0.0 0.0 0.249184 -176.009103 0.0 0.0
0.0 0.0
48000.0 1.0 0.0 0.0 0.0 0.0 0.0 0.00549 0.389114
0.0 0.0 0.0 0.0 0.248154 144.393835 0.0 0.0
0.0 0.0
48500.0 1.0 0.0 0.0 0.0 0.0 0.0 0.005519 0.323715
0.0 0.0 0.0 0.0 0.247113 104.803414 0.0 0.0
0.0 0.0
49000.0 1.0 0.0 0.0 0.0 0.0 0.0 0.005519 0.010201
0.0 0.0 0.0 0.0 0.246101 65.219272 0.0 0.0
0.0 0.0
49500.0 1.0 0.0 0.0 0.0 0.0 0.0 0.00549 -0.045697
0.0 0.0 0.0 0.0 0.245122 25.632169 0.0 0.0
0.0 0.0
50000.0 1.0 0.0 0.0 0.0 0.0 0.0 0.005479 0.242873
0.0 0.0 0.0 0.0 0.244141 -13.960961 0.0 0.0
0.0 0.0
50500.0 1.0 0.0 0.0 0.0 0.0 0.0 0.005505 0.401256
0.0 0.0 0.0 0.0 0.243136 -53.55214 0.0 0.0
0.0 0.0
51000.0 1.0 0.0 0.0 0.0 0.0 0.0 0.005524 0.174719
0.0 0.0 0.0 0.0 0.242138 -93.135428 0.0 0.0
0.0 0.0
51500.0 1.0 0.0 0.0 0.0 0.0 0.0 0.005507 -0.067326
0.0 0.0 0.0 0.0 0.241176 -132.716527 0.0 0.0
0.0 0.0
52000.0 1.0 0.0 0.0 0.0 0.0 0.0 0.005481 0.063824
0.0 0.0 0.0 0.0 0.240233 -172.303421 0.0 0.0
0.0 0.0
52500.0 1.0 0.0 0.0 0.0 0.0 0.0 0.005489 0.35061
0.0 0.0 0.0 0.0 0.239272 148.10656 0.0 0.0
0.0 0.0
53000.0 1.0 0.0 0.0 0.0 0.0 0.0 0.005517 0.32411
0.0 0.0 0.0 0.0 0.238298 108.522265 0.0 0.0
0.0 0.0
53500.0 1.0 0.0 0.0 0.0 0.0 0.0 0.00552 0.031989
0.0 0.0 0.0 0.0 0.237347 68.944304 0.0 0.0
0.0 0.0
54000.0 1.0 0.0 0.0 0.0 0.0 0.0 0.005494 -0.053984
0.0 0.0 0.0 0.0 0.236428 29.364151 0.0 0.0
0.0 0.0
54500.0 1.0 0.0 0.0 0.0 0.0 0.0 0.005481 0.202116
0.0 0.0 0.0 0.0 0.235509 -10.221957 0.0 0.0
0.0 0.0
55000.0 1.0 0.0 0.0 0.0 0.0 0.0 0.005503 0.379153
0.0 0.0 0.0 0.0 0.234569 -49.807009 0.0 0.0
0.0 0.0
55500.0 1.0 0.0 0.0 0.0 0.0 0.0 0.005523 0.191255
0.0 0.0 0.0 0.0 0.233631 -89.384716 0.0 0.0
0.0 0.0
56000.0 1.0 0.0 0.0 0.0 0.0 0.0 0.00551 -0.054336
0.0 0.0 0.0 0.0 0.232726 -128.95969 0.0 0.0
0.0 0.0
56500.0 1.0 0.0 0.0 0.0 0.0 0.0 0.005484 0.037136
0.0 0.0 0.0 0.0 0.23184 -168.53986 0.0 0.0
0.0 0.0
57000.0 1.0 0.0 0.0 0.0 0.0 0.0 0.005489 0.313214
0.0 0.0 0.0 0.0 0.230939 151.876385 0.0 0.0
0.0 0.0
57500.0 1.0 0.0 0.0 0.0 0.0 0.0 0.005515 0.32228
0.0 0.0 0.0 0.0 0.230024 112.297453 0.0 0.0
0.0 0.0
58000.0 1.0 0.0 0.0 0.0 0.0 0.0 0.005521 0.053812
0.0 0.0 0.0 0.0 0.229128 72.724851 0.0 0.0
0.0 0.0
58500.0 1.0 0.0 0.0 0.0 0.0 0.0 0.005497 -0.058053
0.0 0.0 0.0 0.0 0.228262 33.15082 0.0 0.0
0.0 0.0
59000.0 1.0 0.0 0.0 0.0 0.0 0.0 0.005483 0.164805
0.0 0.0 0.0 0.0 0.227399 -6.429008 0.0 0.0
0.0 0.0
59500.0 1.0 0.0 0.0 0.0 0.0 0.0 0.005501 0.355924
0.0 0.0 0.0 0.0 0.226516 -46.008606 0.0 0.0
0.0 0.0
60000.0 1.0 0.0 0.0 0.0 0.0 0.0 0.005522 0.205801
0.0 0.0 0.0 0.0 0.225632 -85.581438 0.0 0.0
0.0 0.0
60500.0 1.0 0.0 0.0 0.0 0.0 0.0 0.005512 -0.039236
0.0 0.0 0.0 0.0 0.224777 -125.151051 0.0 0.0
0.0 0.0
61000.0 1.0 0.0 0.0 0.0 0.0 0.0 0.005488 0.015029
0.0 0.0 0.0 0.0 0.223941 -164.725219 0.0 0.0
0.0 0.0
61500.0 1.0 0.0 0.0 0.0 0.0 0.0 0.005488 0.277037
0.0 0.0 0.0 0.0 0.223094 155.696665 0.0 0.0
0.0 0.0
62000.0 1.0 0.0 0.0 0.0 0.0 0.0 0.005513 0.31803
0.0 0.0 0.0 0.0 0.222232 116.122492 0.0 0.0
0.0 0.0
62500.0 1.0 0.0 0.0 0.0 0.0 0.0 0.005522 0.075125
0.0 0.0 0.0 0.0 0.221385 76.554576 0.0 0.0
0.0 0.0
63000.0 1.0 0.0 0.0 0.0 0.0 0.0 0.005501 -0.058298
0.0 0.0 0.0 0.0 0.220566 36.985972 0.0 0.0
0.0 0.0
63500.0 1.0 0.0 0.0 0.0 0.0 0.0 0.005484 0.130997
0.0 0.0 0.0 0.0 0.219752 -2.588189 0.0 0.0
0.0 0.0
64000.0 1.0 0.0 0.0 0.0 0.0 0.0 0.005499 0.331649
0.0 0.0 0.0 0.0 0.21892 -42.162868 0.0 0.0
0.0 0.0
64500.0 1.0 0.0 0.0 0.0 0.0 0.0 0.005521 0.218011
0.0 0.0 0.0 0.0 0.218086 -81.731396 0.0 0.0
0.0 0.0
65000.0 1.0 0.0 0.0 0.0 0.0 0.0 0.005515 -0.02256
0.0 0.0 0.0 0.0 0.217275 -121.296286 0.0 0.0
0.0 0.0
65500.0 1.0 0.0 0.0 0.0 0.0 0.0 0.005491 -0.002675
0.0 0.0 0.0 0.0 0.216485 -160.865063 0.0 0.0
0.0 0.0
66000.0 1.0 0.0 0.0 0.0 0.0 0.0 0.005489 0.242264
0.0 0.0 0.0 0.0 0.215686 159.561948 0.0 0.0
0.0 0.0
66500.0 1.0 0.0 0.0 0.0 0.0 0.0 0.005511 0.311308
0.0 0.0 0.0 0.0 0.214872 119.99205 0.0 0.0
0.0 0.0
67000.0 1.0 0.0 0.0 0.0 0.0 0.0 0.005522 0.095454
0.0 0.0 0.0 0.0 0.214069 80.428266 0.0 0.0
0.0 0.0
67500.0 1.0 0.0 0.0 0.0 0.0 0.0 0.005504 -0.055143
0.0 0.0 0.0 0.0 0.213293 40.864498 0.0 0.0
0.0 0.0
68000.0 1.0 0.0 0.0 0.0 0.0 0.0 0.005486 0.100749
0.0 0.0 0.0 0.0 0.212523 1.295487 0.0 0.0
0.0 0.0
68500.0 1.0 0.0 0.0 0.0 0.0 0.0 0.005498 0.306512
0.0 0.0 0.0 0.0 0.211737 -38.274708 0.0 0.0
0.0 0.0
69000.0 1.0 0.0 0.0 0.0 0.0 0.0 0.00552 0.227649
0.0 0.0 0.0 0.0 0.210947 -77.839395 0.0 0.0
0.0 0.0
69500.0 1.0 0.0 0.0 0.0 0.0 0.0 0.005516 -0.004824
0.0 0.0 0.0 0.0 0.210177 -117.400102 0.0 0.0
0.0 0.0
70000.0 1.0 0.0 0.0 0.0 0.0 0.0 0.005494 -0.016189
0.0 0.0 0.0 0.0 0.209427 -156.964014 0.0 0.0
0.0 0.0
70500.0 1.0 0.0 0.0 0.0 0.0 0.0 0.005489 0.209117
0.0 0.0 0.0 0.0 0.208672 163.467697 0.0 0.0
0.0 0.0
71000.0 1.0 0.0 0.0 0.0 0.0 0.0 0.005509 0.302174
0.0 0.0 0.0 0.0 0.207902 123.901684 0.0 0.0
0.0 0.0
71500.0 1.0 0.0 0.0 0.0 0.0 0.0 0.005522 0.114397
0.0 0.0 0.0 0.0 0.207139 84.34157 0.0 0.0
0.0 0.0
72000.0 1.0 0.0 0.0 0.0 0.0 0.0 0.005507 -0.049026
0.0 0.0 0.0 0.0 0.206401 44.782127 0.0 0.0
0.0 0.0
72500.0 1.0 0.0 0.0 0.0 0.0 0.0 0.005489 0.074097
0.0 0.0 0.0 0.0 0.205671 5.217823 0.0 0.0
0.0 0.0
73000.0 1.0 0.0 0.0 0.0 0.0 0.0 0.005497 0.28077
0.0 0.0 0.0 0.0 0.204927 -34.348247 0.0 0.0
0.0 0.0
73500.0 1.0 0.0 0.0 0.0 0.0 0.0 0.005518 0.23458
0.0 0.0 0.0 0.0 0.204177 -73.909471 0.0 0.0
0.0 0.0
74000.0 1.0 0.0 0.0 0.0 0.0 0.0 0.005518 0.013481
0.0 0.0 0.0 0.0 0.203445 -113.466456 0.0 0.0
0.0 0.0
74500.0 1.0 0.0 0.0 0.0 0.0 0.0 0.005497 -0.025759
0.0 0.0 0.0 0.0 0.202732 -153.02596 0.0 0.0
0.0 0.0
75000.0 1.0 0.0 0.0 0.0 0.0 0.0 0.00549 0.177828
0.0 0.0 0.0 0.0 0.202016 167.410089 0.0 0.0
0.0 0.0
75500.0 1.0 0.0 0.0 0.0 0.0 0.0 0.005507 0.290777
0.0 0.0 0.0 0.0 0.201286 127.847641 0.0 0.0
0.0 0.0
76000.0 1.0 0.0 0.0 0.0 0.0 0.0 0.005521 0.131619
0.0 0.0 0.0 0.0 0.20056 88.290812 0.0 0.0
0.0 0.0
76500.0 1.0 0.0 0.0 0.0 0.0 0.0 0.005509 -0.040401
0.0 0.0 0.0 0.0 0.199856 48.73525 0.0 0.0
0.0 0.0
77000.0 1.0 0.0 0.0 0.0 0.0 0.0 0.005491 0.051045
0.0 0.0 0.0 0.0 0.199163 9.175264 0.0 0.0
0.0 0.0
77500.0 1.0 0.0 0.0 0.0 0.0 0.0 0.005496 0.254721
0.0 0.0 0.0 0.0 0.198458 -30.386978 0.0 0.0
0.0 0.0
78000.0 1.0 0.0 0.0 0.0 0.0 0.0 0.005516 0.238749
0.0 0.0 0.0 0.0 0.197745 -69.945051 0.0 0.0
0.0 0.0
78500.0 1.0 0.0 0.0 0.0 0.0 0.0 0.005519 0.031895
0.0 0.0 0.0 0.0 0.197046 -109.498708 0.0 0.0
0.0 0.0
79000.0 1.0 0.0 0.0 0.0 0.0 0.0 0.0055 -0.031667
0.0 0.0 0.0 0.0 0.196367 -149.054208 0.0 0.0
0.0 0.0
79500.0 1.0 0.0 0.0 0.0 0.0 0.0 0.00549 0.148619
0.0 0.0 0.0 0.0 0.195687 171.385863 0.0 0.0
0.0 0.0
80000.0 1.0 0.0 0.0 0.0 0.0 0.0 0.005506 0.277332
0.0 0.0 0.0 0.0 0.194993 131.826719 0.0 0.0
0.0 0.0
80500.0 1.0 0.0 0.0 0.0 0.0 0.0 0.005521 0.146848
0.0 0.0 0.0 0.0 0.194302 92.272851 0.0 0.0
0.0 0.0
81000.0 1.0 0.0 0.0 0.0 0.0 0.0 0.005511 -0.029721
0.0 0.0 0.0 0.0 0.19363 52.720782 0.0 0.0
0.0 0.0
81500.0 1.0 0.0 0.0 0.0 0.0 0.0 0.005493 0.031563
0.0 0.0 0.0 0.0 0.192969 13.16477 0.0 0.0
0.0 0.0
82000.0 1.0 0.0 0.0 0.0 0.0 0.0 0.005496 0.228684
0.0 0.0 0.0 0.0 0.192299 -26.393898 0.0 0.0
0.0 0.0
82500.0 1.0 0.0 0.0 0.0 0.0 0.0 0.005515 0.240177
0.0 0.0 0.0 0.0 0.191621 -65.949075 0.0 0.0
0.0 0.0
83000.0 1.0 0.0 0.0 0.0 0.0 0.0 0.005519 0.049995
0.0 0.0 0.0 0.0 0.190954 -105.499743 0.0 0.0
0.0 0.0
83500.0 1.0 0.0 0.0 0.0 0.0 0.0 0.005502 -0.034225
0.0 0.0 0.0 0.0 0.190305 -145.051599 0.0 0.0
0.0 0.0
84000.0 1.0 0.0 0.0 0.0 0.0 0.0 0.005491 0.121693
0.0 0.0 0.0 0.0 0.189658 175.392218 0.0 0.0
0.0 0.0
84500.0 1.0 0.0 0.0 0.0 0.0 0.0 0.005504 0.262102
0.0 0.0 0.0 0.0 0.188998 135.836159 0.0 0.0
0.0 0.0
85000.0 1.0 0.0 0.0 0.0 0.0 0.0 0.00552 0.159878
0.0 0.0 0.0 0.0 0.188338 96.284982 0.0 0.0
0.0 0.0
85500.0 1.0 0.0 0.0 0.0 0.0 0.0 0.005513 -0.01744
0.0 0.0 0.0 0.0 0.187696 56.736063 0.0 0.0
0.0 0.0
86000.0 1.0 0.0 0.0 0.0 0.0 0.0 0.005495 0.015577
0.0 0.0 0.0 0.0 0.187065 17.183716 0.0 0.0
0.0 0.0
86500.0 1.0 0.0 0.0 0.0 0.0 0.0 0.005495 0.202988
0.0 0.0 0.0 0.0 0.186428 -22.371596 0.0 0.0
0.0 0.0
87000.0 1.0 0.0 0.0 0.0 0.0 0.0 0.005513 0.23895
0.0 0.0 0.0 0.0 0.185781 -61.924089 0.0 0.0
0.0 0.0
87500.0 1.0 0.0 0.0 0.0 0.0 0.0 0.00552 0.067397
0.0 0.0 0.0 0.0 0.185143 -101.472061 0.0 0.0
0.0 0.0
88000.0 1.0 0.0 0.0 0.0 0.0 0.0 0.005505 -0.033768
0.0 0.0 0.0 0.0 0.184523 -141.020596 0.0 0.0
0.0 0.0
88500.0 1.0 0.0 0.0 0.0 0.0 0.0 0.005493 0.09722
0.0 0.0 0.0 0.0 0.183905 179.42672 0.0 0.0
0.0 0.0
89000.0 1.0 0.0 0.0 0.0 0.0 0.0 0.005503 0.24539
0.0 0.0 0.0 0.0 0.183277 139.873564 0.0 0.0
0.0 0.0
89500.0 1.0 0.0 0.0 0.0 0.0 0.0 0.005519 0.170565
0.0 0.0 0.0 0.0 0.182647 100.324851 0.0 0.0
0.0 0.0
90000.0 1.0 0.0 0.0 0.0 0.0 0.0 0.005515 -0.003999
0.0 0.0 0.0 0.0 0.182031 60.778778 0.0 0.0
0.0 0.0
90500.0 1.0 0.0 0.0 0.0 0.0 0.0 0.005498 0.002973
0.0 0.0 0.0 0.0 0.181429 21.229815 0.0 0.0
0.0 0.0
91000.0 1.0 0.0 0.0 0.0 0.0 0.0 0.005495 0.177954
0.0 0.0 0.0 0.0 0.180821 -18.322332 0.0 0.0
0.0 0.0
91500.0 1.0 0.0 0.0 0.0 0.0 0.0 0.005511 0.235208
0.0 0.0 0.0 0.0 0.180204 -57.872314 0.0 0.0
0.0 0.0
92000.0 1.0 0.0 0.0 0.0 0.0 0.0 0.00552 0.083765
0.0 0.0 0.0 0.0 0.179593 -97.417841 0.0 0.0
0.0 0.0
92500.0 1.0 0.0 0.0 0.0 0.0 0.0 0.005507 -0.030654
0.0 0.0 0.0 0.0 0.178999 -136.963348 0.0 0.0
0.0 0.0
93000.0 1.0 0.0 0.0 0.0 0.0 0.0 0.005494 0.075331
0.0 0.0 0.0 0.0 0.178409 -176.512758 0.0 0.0
0.0 0.0
93500.0 1.0 0.0 0.0 0.0 0.0 0.0 0.005502 0.227519
0.0 0.0 0.0 0.0 0.177809 143.936835 0.0 0.0
0.0 0.0
94000.0 1.0 0.0 0.0 0.0 0.0 0.0 0.005517 0.178824
0.0 0.0 0.0 0.0 0.177207 104.390394 0.0 0.0
0.0 0.0
94500.0 1.0 0.0 0.0 0.0 0.0 0.0 0.005516 0.010177
0.0 0.0 0.0 0.0 0.176617 64.846901 0.0 0.0
0.0 0.0
95000.0 1.0 0.0 0.0 0.0 0.0 0.0 0.0055 -0.006402
0.0 0.0 0.0 0.0 0.17604 25.301066 0.0 0.0
0.0 0.0
95500.0 1.0 0.0 0.0 0.0 0.0 0.0 0.005495 0.153885
0.0 0.0 0.0 0.0 0.175459 -14.248088 0.0 0.0
0.0 0.0
96000.0 1.0 0.0 0.0 0.0 0.0 0.0 0.00551 0.22914
0.0 0.0 0.0 0.0 0.17487 -53.795704 0.0 0.0
0.0 0.0
96500.0 1.0 0.0 0.0 0.0 0.0 0.0 0.00552 0.098807
0.0 0.0 0.0 0.0 0.174284 -93.339003 0.0 0.0
0.0 0.0
97000.0 1.0 0.0 0.0 0.0 0.0 0.0 0.005509 -0.025253
0.0 0.0 0.0 0.0 0.173714 -132.881744 0.0 0.0
0.0 0.0
97500.0 1.0 0.0 0.0 0.0 0.0 0.0 0.005496 0.056116
