! File created by SignalIntegrity v1.2.1: Signal and Power Integrity Tools
! https://github.com/TeledyneLeCroy/SignalIntegrity
# MHz S MA R 50.0
0.0 0.47624 0.0
500.0 0.452972 -42.366628
1000.0 0.442943 -83.159166
1500.0 0.434545 -123.619385
2000.0 0.427474 -163.854965
2500.0 0.421571 156.012907
3000.0 0.416293 115.91989
3500.0 0.411292 75.876855
4000.0 0.406637 35.896048
4500.0 0.402408 -4.048482
5000.0 0.398446 -43.981751
5500.0 0.394585 -83.895011
6000.0 0.390874 -123.773121
6500.0 0.387414 -163.627211
7000.0 0.384141 156.522566
7500.0 0.38092 116.678921
8000.0 0.377754 76.85825
8500.0 0.374751 37.059156
9000.0 0.371911 -2.736393
9500.0 0.369121 -42.533326
10000.0 0.366336 -82.31706
10500.0 0.363641 -122.080263
11000.0 0.361093 -161.836231
11500.0 0.358617 158.403116
12000.0 0.356129 118.646409
12500.0 0.35367 78.907052
13000.0 0.351327 39.179889
13500.0 0.349081 -0.550433
14000.0 0.346837 -40.284181
14500.0 0.34458 -80.006877
15000.0 0.342392 -119.714164
15500.0 0.340311 -159.419325
16000.0 0.338265 160.868665
16500.0 0.336192 121.159602
17000.0 0.334137 81.465197
17500.0 0.332174 41.779344
18000.0 0.330281 2.08819
18500.0 0.328374 -37.607144
19000.0 0.326448 -77.29287
19500.0 0.324577 -116.965679
20000.0 0.322793 -156.638259
20500.0 0.32103 163.681599
21000.0 0.319234 124.00356
21500.0 0.317449 84.338446
22000.0 0.315742 44.680277
22500.0 0.31409 5.016159
23000.0 0.31242 -34.652633
23500.0 0.310728 -74.313068
24000.0 0.309081 -113.962002
24500.0 0.307507 -153.611316
25000.0 0.305948 166.731603
25500.0 0.304356 127.075777
26000.0 0.30277 87.431558
26500.0 0.301249 47.79359
27000.0 0.299776 8.149673
27500.0 0.298285 -31.499324
28000.0 0.29677 -71.141137
28500.0 0.295291 -110.772357
29000.0 0.293877 -150.403951
29500.0 0.292475 169.956729
30000.0 0.291042 130.317814
30500.0 0.28961 90.689388
31000.0 0.288233 51.06697
31500.0 0.2869 11.43894
32000.0 0.285551 -28.194515
32500.0 0.284176 -67.821914
33000.0 0.282831 -107.439377
33500.0 0.281542 -147.05689
34000.0 0.280267 173.318067
34500.0 0.278962 133.692598
35000.0 0.277654 94.076603
35500.0 0.276393 54.466598
36000.0 0.275173 14.851509
36500.0 0.27394 -24.769279
37000.0 0.272681 -64.385102
37500.0 0.271445 -103.99153
38000.0 0.270259 -143.597515
38500.0 0.269088 176.789277
39000.0 0.26789 137.17486
39500.0 0.266685 97.568951
40000.0 0.265521 57.969114
40500.0 0.264394 18.364841
41000.0 0.263258 -21.245327
41500.0 0.262097 -60.851584
42000.0 0.260952 -100.448941
42500.0 0.259853 -140.045285
43000.0 0.258769 -179.64845
43500.0 0.257662 140.746456
44000.0 0.256544 101.148929
44500.0 0.255462 61.557585
45000.0 0.254415 21.962524
45500.0 0.253361 -17.638543
46000.0 0.252284 -57.236706
46500.0 0.251218 -96.826463
47000.0 0.250192 -136.414613
47500.0 0.249184 -176.009103
48000.0 0.248154 144.393835
48500.0 0.247113 104.803414
49000.0 0.246101 65.219272
49500.0 0.245122 25.632169
50000.0 0.244141 -13.960961
50500.0 0.243136 -53.55214
51000.0 0.242138 -93.135428
51500.0 0.241176 -132.716527
52000.0 0.240233 -172.303421
52500.0 0.239272 148.10656
53000.0 0.238298 108.522265
53500.0 0.237347 68.944304
54000.0 0.236428 29.364151
54500.0 0.235509 -10.221957
55000.0 0.234569 -49.807009
55500.0 0.233631 -89.384716
56000.0 0.232726 -128.95969
56500.0 0.23184 -168.53986
57000.0 0.230939 151.876385
57500.0 0.230024 112.297453
58000.0 0.229128 72.724851
58500.0 0.228262 33.15082
59000.0 0.227399 -6.429008
59500.0 0.226516 -46.008606
60000.0 0.225632 -85.581438
60500.0 0.224777 -125.151051
61000.0 0.223941 -164.725219
61500.0 0.223094 155.696665
62000.0 0.222232 116.122492
62500.0 0.221385 76.554576
63000.0 0.220566 36.985972
63500.0 0.219752 -2.588189
64000.0 0.21892 -42.162868
64500.0 0.218086 -81.731396
65000.0 0.217275 -121.296286
65500.0 0.216485 -160.865063
66000.0 0.215686 159.561948
66500.0 0.214872 119.99205
67000.0 0.214069 80.428266
67500.0 0.213293 40.864498
68000.0 0.212523 1.295487
68500.0 0.211737 -38.274708
69000.0 0.210947 -77.839395
69500.0 0.210177 -117.400102
70000.0 0.209427 -156.964014
70500.0 0.208672 163.467697
71000.0 0.207902 123.901684
71500.0 0.207139 84.34157
72000.0 0.206401 44.782127
72500.0 0.205671 5.217823
73000.0 0.204927 -34.348247
73500.0 0.204177 -73.909471
74000.0 0.203445 -113.466456
74500.0 0.202732 -153.02596
75000.0 0.202016 167.410089
75500.0 0.201286 127.847641
76000.0 0.20056 88.290812
76500.0 0.199856 48.73525
77000.0 0.199163 9.175264
77500.0 0.198458 -30.386978
78000.0 0.197745 -69.945051
78500.0 0.197046 -109.498708
79000.0 0.196367 -149.054208
79500.0 0.195687 171.385863
80000.0 0.194993 131.826719
80500.0 0.194302 92.272851
81000.0 0.19363 52.720782
81500.0 0.192969 13.16477
82000.0 0.192299 -26.393898
82500.0 0.191621 -65.949075
83000.0 0.190954 -105.499743
83500.0 0.190305 -145.051599
84000.0 0.189658 175.392218
84500.0 0.188998 135.836159
85000.0 0.188338 96.284982
85500.0 0.187696 56.736063
86000.0 0.187065 17.183716
86500.0 0.186428 -22.371596
87000.0 0.185781 -61.924089
87500.0 0.185143 -101.472061
88000.0 0.184523 -141.020596
88500.0 0.183905 179.42672
89000.0 0.183277 139.873564
89500.0 0.182647 100.324851
90000.0 0.182031 60.778778
90500.0 0.181429 21.229815
91000.0 0.180821 -18.322332
91500.0 0.180204 -57.872314
92000.0 0.179593 -97.417841
92500.0 0.178999 -136.963348
93000.0 0.178409 -176.512758
93500.0 0.177809 143.936835
94000.0 0.177207 104.390394
94500.0 0.176617 64.846901
95000.0 0.17604 25.301066
95500.0 0.175459 -14.248088
96000.0 0.17487 -53.795704
96500.0 0.174284 -93.339003
97000.0 0.173714 -132.881744
97500.0 0.17315 -172.428088
98000.0 0.172577 148.024121
98500.0 0.172001 108.479795
99000.0 0.171435 68.938644
99500.0 0.170881 29.395699
100000.0 0.170326 -10.150616
100500.0 0.0 0.0
101000.0 0.0 0.0
101500.0 0.0 0.0
102000.0 0.0 0.0
102500.0 0.0 0.0
103000.0 0.0 0.0
103500.0 0.0 0.0
104000.0 0.0 0.0
104500.0 0.0 0.0
105000.0 0.0 0.0
105500.0 0.0 0.0
106000.0 0.0 0.0
106500.0 0.0 0.0
107000.0 0.0 0.0
107500.0 0.0 0.0
108000.0 0.0 0.0
108500.0 0.0 0.0
109000.0 0.0 0.0
109500.0 0.0 0.0
110000.0 0.0 0.0
110500.0 0.0 0.0
111000.0 0.0 0.0
111500.0 0.0 0.0
112000.0 0.0 0.0
