! File created by SignalIntegrity v1.3.3: Signal and Power Integrity Tools
! https://github.com/TeledyneLeCroy/SignalIntegrity
# MHz S MA R 50.0
0.0 1.0 0.0 0.005282 0.0 0.0 0.0 0.0 0.0
100.0 1.0 0.0 0.005197 -0.753333 0.0 0.0 0.0 0.0
200.0 1.0 0.0 0.005144 -0.168432 0.0 0.0 0.0 0.0
300.0 1.0 0.0 0.005119 0.241257 0.0 0.0 0.0 0.0
400.0 1.0 0.0 0.005112 0.936566 0.0 0.0 0.0 0.0
500.0 1.0 0.0 0.005122 1.469129 0.0 0.0 0.0 0.0
600.0 1.0 0.0 0.005147 2.070441 0.0 0.0 0.0 0.0
700.0 1.0 0.0 0.005184 2.469546 0.0 0.0 0.0 0.0
800.0 1.0 0.0 0.005229 2.831253 0.0 0.0 0.0 0.0
900.0 1.0 0.0 0.005279 2.980997 0.0 0.0 0.0 0.0
1000.0 1.0 0.0 0.00533 3.059461 0.0 0.0 0.0 0.0
1100.0 1.0 0.0 0.005378 2.954184 0.0 0.0 0.0 0.0
1200.0 1.0 0.0 0.005421 2.792642 0.0 0.0 0.0 0.0
1300.0 1.0 0.0 0.005457 2.500557 0.0 0.0 0.0 0.0
1400.0 1.0 0.0 0.005484 2.192902 0.0 0.0 0.0 0.0
1500.0 1.0 0.0 0.005501 1.81645 0.0 0.0 0.0 0.0
1600.0 1.0 0.0 0.005509 1.47224 0.0 0.0 0.0 0.0
1700.0 1.0 0.0 0.005507 1.116362 0.0 0.0 0.0 0.0
1800.0 1.0 0.0 0.005498 0.834391 0.0 0.0 0.0 0.0
1900.0 1.0 0.0 0.005483 0.583545 0.0 0.0 0.0 0.0
2000.0 1.0 0.0 0.005464 0.43252 0.0 0.0 0.0 0.0
2100.0 1.0 0.0 0.005442 0.333938 0.0 0.0 0.0 0.0
2200.0 1.0 0.0 0.005421 0.338901 0.0 0.0 0.0 0.0
2300.0 1.0 0.0 0.005402 0.392536 0.0 0.0 0.0 0.0
2400.0 1.0 0.0 0.005386 0.529842 0.0 0.0 0.0 0.0
2500.0 1.0 0.0 0.005377 0.689525 0.0 0.0 0.0 0.0
2600.0 1.0 0.0 0.005373 0.895472 0.0 0.0 0.0 0.0
2700.0 1.0 0.0 0.005375 1.085197 0.0 0.0 0.0 0.0
2800.0 1.0 0.0 0.005383 1.279232 0.0 0.0 0.0 0.0
2900.0 1.0 0.0 0.005396 1.420978 0.0 0.0 0.0 0.0
3000.0 1.0 0.0 0.005413 1.535053 0.0 0.0 0.0 0.0
3100.0 1.0 0.0 0.005433 1.576029 0.0 0.0 0.0 0.0
3200.0 1.0 0.0 0.005453 1.57662 0.0 0.0 0.0 0.0
3300.0 1.0 0.0 0.005472 1.503806 0.0 0.0 0.0 0.0
3400.0 1.0 0.0 0.005488 1.398198 0.0 0.0 0.0 0.0
3500.0 1.0 0.0 0.005502 1.236779 0.0 0.0 0.0 0.0
3600.0 1.0 0.0 0.00551 1.064983 0.0 0.0 0.0 0.0
3700.0 1.0 0.0 0.005514 0.865511 0.0 0.0 0.0 0.0
3800.0 1.0 0.0 0.005512 0.684448 0.0 0.0 0.0 0.0
3900.0 1.0 0.0 0.005506 0.505566 0.0 0.0 0.0 0.0
4000.0 1.0 0.0 0.005496 0.371471 0.0 0.0 0.0 0.0
4100.0 1.0 0.0 0.005482 0.262857 0.0 0.0 0.0 0.0
4200.0 1.0 0.0 0.005467 0.215418 0.0 0.0 0.0 0.0
4300.0 1.0 0.0 0.005452 0.203771 0.0 0.0 0.0 0.0
4400.0 1.0 0.0 0.005438 0.25465 0.0 0.0 0.0 0.0
4500.0 1.0 0.0 0.005425 0.335564 0.0 0.0 0.0 0.0
4600.0 1.0 0.0 0.005416 0.464502 0.0 0.0 0.0 0.0
4700.0 1.0 0.0 0.005412 0.603536 0.0 0.0 0.0 0.0
4800.0 1.0 0.0 0.005411 0.764808 0.0 0.0 0.0 0.0
4900.0 1.0 0.0 0.005415 0.909148 0.0 0.0 0.0 0.0
5000.0 1.0 0.0 0.005423 1.047582 0.0 0.0 0.0 0.0
5100.0 1.0 0.0 0.005435 1.1448 0.0 0.0 0.0 0.0
5200.0 1.0 0.0 0.005449 1.215285 0.0 0.0 0.0 0.0
5300.0 1.0 0.0 0.005464 1.231367 0.0 0.0 0.0 0.0
5400.0 1.0 0.0 0.005479 1.213487 0.0 0.0 0.0 0.0
5500.0 1.0 0.0 0.005493 1.142726 0.0 0.0 0.0 0.0
5600.0 1.0 0.0 0.005505 1.045316 0.0 0.0 0.0 0.0
5700.0 1.0 0.0 0.005514 0.90964 0.0 0.0 0.0 0.0
5800.0 1.0 0.0 0.005519 0.765548 0.0 0.0 0.0 0.0
5900.0 1.0 0.0 0.00552 0.605705 0.0 0.0 0.0 0.0
6000.0 1.0 0.0 0.005517 0.460444 0.0 0.0 0.0 0.0
6100.0 1.0 0.0 0.00551 0.323132 0.0 0.0 0.0 0.0
6200.0 1.0 0.0 0.0055 0.22132 0.0 0.0 0.0 0.0
6300.0 1.0 0.0 0.005488 0.145692 0.0 0.0 0.0 0.0
6400.0 1.0 0.0 0.005475 0.118253 0.0 0.0 0.0 0.0
6500.0 1.0 0.0 0.005462 0.124471 0.0 0.0 0.0 0.0
6600.0 1.0 0.0 0.005449 0.179231 0.0 0.0 0.0 0.0
6700.0 1.0 0.0 0.005439 0.261854 0.0 0.0 0.0 0.0
6800.0 1.0 0.0 0.005431 0.380445 0.0 0.0 0.0 0.0
6900.0 1.0 0.0 0.005428 0.509453 0.0 0.0 0.0 0.0
7000.0 1.0 0.0 0.005428 0.652736 0.0 0.0 0.0 0.0
7100.0 1.0 0.0 0.005431 0.783168 0.0 0.0 0.0 0.0
7200.0 1.0 0.0 0.005439 0.904377 0.0 0.0 0.0 0.0
7300.0 1.0 0.0 0.005449 0.991729 0.0 0.0 0.0 0.0
7400.0 1.0 0.0 0.005462 1.052506 0.0 0.0 0.0 0.0
7500.0 1.0 0.0 0.005475 1.067679 0.0 0.0 0.0 0.0
7600.0 1.0 0.0 0.005489 1.050406 0.0 0.0 0.0 0.0
7700.0 1.0 0.0 0.005501 0.988295 0.0 0.0 0.0 0.0
7800.0 1.0 0.0 0.005512 0.900381 0.0 0.0 0.0 0.0
7900.0 1.0 0.0 0.00552 0.779844 0.0 0.0 0.0 0.0
8000.0 1.0 0.0 0.005524 0.649809 0.0 0.0 0.0 0.0
8100.0 1.0 0.0 0.005525 0.506587 0.0 0.0 0.0 0.0
8200.0 1.0 0.0 0.005522 0.374639 0.0 0.0 0.0 0.0
8300.0 1.0 0.0 0.005516 0.250393 0.0 0.0 0.0 0.0
8400.0 1.0 0.0 0.005507 0.156657 0.0 0.0 0.0 0.0
8500.0 1.0 0.0 0.005496 0.08706 0.0 0.0 0.0 0.0
8600.0 1.0 0.0 0.005483 0.060128 0.0 0.0 0.0 0.0
8700.0 1.0 0.0 0.005471 0.064479 0.0 0.0 0.0 0.0
8800.0 1.0 0.0 0.005459 0.112722 0.0 0.0 0.0 0.0
8900.0 1.0 0.0 0.005449 0.187641 0.0 0.0 0.0 0.0
9000.0 1.0 0.0 0.005442 0.295938 0.0 0.0 0.0 0.0
9100.0 1.0 0.0 0.005437 0.415668 0.0 0.0 0.0 0.0
9200.0 1.0 0.0 0.005437 0.549586 0.0 0.0 0.0 0.0
9300.0 1.0 0.0 0.00544 0.673949 0.0 0.0 0.0 0.0
9400.0 1.0 0.0 0.005446 0.79094 0.0 0.0 0.0 0.0
9500.0 1.0 0.0 0.005455 0.878761 0.0 0.0 0.0 0.0
9600.0 1.0 0.0 0.005466 0.94246 0.0 0.0 0.0 0.0
9700.0 1.0 0.0 0.005479 0.965236 0.0 0.0 0.0 0.0
9800.0 1.0 0.0 0.005492 0.957138 0.0 0.0 0.0 0.0
9900.0 1.0 0.0 0.005504 0.907616 0.0 0.0 0.0 0.0
10000.0 1.0 0.0 0.005514 0.831938 0.0 0.0 0.0 0.0
10100.0 1.0 0.0 0.005522 0.725119 0.0 0.0 0.0 0.0
10200.0 1.0 0.0 0.005527 0.606197 0.0 0.0 0.0 0.0
10300.0 1.0 0.0 0.005528 0.473683 0.0 0.0 0.0 0.0
10400.0 1.0 0.0 0.005526 0.347959 0.0 0.0 0.0 0.0
10500.0 1.0 0.0 0.005521 0.228294 0.0 0.0 0.0 0.0
10600.0 1.0 0.0 0.005513 0.133689 0.0 0.0 0.0 0.0
10700.0 1.0 0.0 0.005503 0.0614 0.0 0.0 0.0 0.0
10800.0 1.0 0.0 0.005491 0.026578 0.0 0.0 0.0 0.0
10900.0 1.0 0.0 0.005479 0.022234 0.0 0.0 0.0 0.0
11000.0 1.0 0.0 0.005468 0.058051 0.0 0.0 0.0 0.0
11100.0 1.0 0.0 0.005458 0.121729 0.0 0.0 0.0 0.0
11200.0 1.0 0.0 0.00545 0.217315 0.0 0.0 0.0 0.0
11300.0 1.0 0.0 0.005445 0.327837 0.0 0.0 0.0 0.0
11400.0 1.0 0.0 0.005443 0.453341 0.0 0.0 0.0 0.0
11500.0 1.0 0.0 0.005445 0.574558 0.0 0.0 0.0 0.0
11600.0 1.0 0.0 0.00545 0.690586 0.0 0.0 0.0 0.0
11700.0 1.0 0.0 0.005458 0.783186 0.0 0.0 0.0 0.0
11800.0 1.0 0.0 0.005468 0.85386 0.0 0.0 0.0 0.0
11900.0 1.0 0.0 0.005479 0.888335 0.0 0.0 0.0 0.0
12000.0 1.0 0.0 0.005491 0.892852 0.0 0.0 0.0 0.0
12100.0 1.0 0.0 0.005503 0.85856 0.0 0.0 0.0 0.0
12200.0 1.0 0.0 0.005513 0.797021 0.0 0.0 0.0 0.0
12300.0 1.0 0.0 0.005522 0.704469 0.0 0.0 0.0 0.0
12400.0 1.0 0.0 0.005527 0.596718 0.0 0.0 0.0 0.0
12500.0 1.0 0.0 0.00553 0.473359 0.0 0.0 0.0 0.0
12600.0 1.0 0.0 0.005529 0.352314 0.0 0.0 0.0 0.0
12700.0 1.0 0.0 0.005526 0.234061 0.0 0.0 0.0 0.0
12800.0 1.0 0.0 0.005519 0.136056 0.0 0.0 0.0 0.0
12900.0 1.0 0.0 0.00551 0.057059 0.0 0.0 0.0 0.0
13000.0 1.0 0.0 0.005499 0.011607 0.0 0.0 0.0 0.0
13100.0 1.0 0.0 0.005488 -0.005453 0.0 0.0 0.0 0.0
13200.0 1.0 0.0 0.005476 0.015711 0.0 0.0 0.0 0.0
13300.0 1.0 0.0 0.005466 0.064828 0.0 0.0 0.0 0.0
13400.0 1.0 0.0 0.005458 0.146491 0.0 0.0 0.0 0.0
13500.0 1.0 0.0 0.005452 0.245632 0.0 0.0 0.0 0.0
13600.0 1.0 0.0 0.005449 0.362717 0.0 0.0 0.0 0.0
13700.0 1.0 0.0 0.005449 0.479886 0.0 0.0 0.0 0.0
13800.0 1.0 0.0 0.005452 0.596045 0.0 0.0 0.0 0.0
13900.0 1.0 0.0 0.005459 0.693635 0.0 0.0 0.0 0.0
14000.0 1.0 0.0 0.005467 0.773126 0.0 0.0 0.0 0.0
14100.0 1.0 0.0 0.005478 0.820266 0.0 0.0 0.0 0.0
14200.0 1.0 0.0 0.005489 0.839511 0.0 0.0 0.0 0.0
14300.0 1.0 0.0 0.005501 0.821714 0.0 0.0 0.0 0.0
14400.0 1.0 0.0 0.005511 0.776216 0.0 0.0 0.0 0.0
14500.0 1.0 0.0 0.00552 0.699075 0.0 0.0 0.0 0.0
14600.0 1.0 0.0 0.005527 0.60381 0.0 0.0 0.0 0.0
14700.0 1.0 0.0 0.005531 0.490329 0.0 0.0 0.0 0.0
14800.0 1.0 0.0 0.005531 0.374477 0.0 0.0 0.0 0.0
14900.0 1.0 0.0 0.005529 0.257791 0.0 0.0 0.0 0.0
15000.0 1.0 0.0 0.005524 0.156054 0.0 0.0 0.0 0.0
15100.0 1.0 0.0 0.005516 0.069928 0.0 0.0 0.0 0.0
15200.0 1.0 0.0 0.005507 0.01275 0.0 0.0 0.0 0.0
15300.0 1.0 0.0 0.005496 -0.017941 0.0 0.0 0.0 0.0
15400.0 1.0 0.0 0.005485 -0.013117 0.0 0.0 0.0 0.0
15500.0 1.0 0.0 0.005474 0.020187 0.0 0.0 0.0 0.0
15600.0 1.0 0.0 0.005465 0.085908 0.0 0.0 0.0 0.0
15700.0 1.0 0.0 0.005458 0.172314 0.0 0.0 0.0 0.0
15800.0 1.0 0.0 0.005454 0.27898 0.0 0.0 0.0 0.0
15900.0 1.0 0.0 0.005453 0.390949 0.0 0.0 0.0 0.0
16000.0 1.0 0.0 0.005454 0.505652 0.0 0.0 0.0 0.0
16100.0 1.0 0.0 0.005459 0.607597 0.0 0.0 0.0 0.0
16200.0 1.0 0.0 0.005466 0.695065 0.0 0.0 0.0 0.0
16300.0 1.0 0.0 0.005476 0.754943 0.0 0.0 0.0 0.0
16400.0 1.0 0.0 0.005486 0.788973 0.0 0.0 0.0 0.0
16500.0 1.0 0.0 0.005497 0.78844 0.0 0.0 0.0 0.0
16600.0 1.0 0.0 0.005508 0.759849 0.0 0.0 0.0 0.0
16700.0 1.0 0.0 0.005517 0.69936 0.0 0.0 0.0 0.0
16800.0 1.0 0.0 0.005525 0.617973 0.0 0.0 0.0 0.0
16900.0 1.0 0.0 0.00553 0.515736 0.0 0.0 0.0 0.0
17000.0 1.0 0.0 0.005532 0.406626 0.0 0.0 0.0 0.0
17100.0 1.0 0.0 0.005531 0.292621 0.0 0.0 0.0 0.0
17200.0 1.0 0.0 0.005528 0.188474 0.0 0.0 0.0 0.0
17300.0 1.0 0.0 0.005522 0.095734 0.0 0.0 0.0 0.0
17400.0 1.0 0.0 0.005513 0.02759 0.0 0.0 0.0 0.0
17500.0 1.0 0.0 0.005503 -0.017075 0.0 0.0 0.0 0.0
17600.0 1.0 0.0 0.005493 -0.028622 0.0 0.0 0.0 0.0
17700.0 1.0 0.0 0.005482 -0.012436 0.0 0.0 0.0 0.0
17800.0 1.0 0.0 0.005473 0.036475 0.0 0.0 0.0 0.0
17900.0 1.0 0.0 0.005465 0.108013 0.0 0.0 0.0 0.0
18000.0 1.0 0.0 0.005459 0.202774 0.0 0.0 0.0 0.0
18100.0 1.0 0.0 0.005457 0.307002 0.0 0.0 0.0 0.0
18200.0 1.0 0.0 0.005457 0.418619 0.0 0.0 0.0 0.0
18300.0 1.0 0.0 0.00546 0.522587 0.0 0.0 0.0 0.0
18400.0 1.0 0.0 0.005465 0.616836 0.0 0.0 0.0 0.0
18500.0 1.0 0.0 0.005473 0.687923 0.0 0.0 0.0 0.0
18600.0 1.0 0.0 0.005483 0.736429 0.0 0.0 0.0 0.0
18700.0 1.0 0.0 0.005493 0.752789 0.0 0.0 0.0 0.0
18800.0 1.0 0.0 0.005504 0.741831 0.0 0.0 0.0 0.0
18900.0 1.0 0.0 0.005513 0.69879 0.0 0.0 0.0 0.0
19000.0 1.0 0.0 0.005522 0.63287 0.0 0.0 0.0 0.0
19100.0 1.0 0.0 0.005528 0.543548 0.0 0.0 0.0 0.0
19200.0 1.0 0.0 0.005532 0.443221 0.0 0.0 0.0 0.0
19300.0 1.0 0.0 0.005533 0.333958 0.0 0.0 0.0 0.0
19400.0 1.0 0.0 0.005531 0.22937 0.0 0.0 0.0 0.0
19500.0 1.0 0.0 0.005526 0.131913 0.0 0.0 0.0 0.0
19600.0 1.0 0.0 0.005519 0.054161 0.0 0.0 0.0 0.0
19700.0 1.0 0.0 0.00551 -0.003275 0.0 0.0 0.0 0.0
19800.0 1.0 0.0 0.0055 -0.030891 0.0 0.0 0.0 0.0
19900.0 1.0 0.0 0.00549 -0.031699 0.0 0.0 0.0 0.0
20000.0 1.0 0.0 0.00548 -0.000571 0.0 0.0 0.0 0.0
20100.0 1.0 0.0 0.005472 0.055047 0.0 0.0 0.0 0.0
20200.0 1.0 0.0 0.005465 0.135789 0.0 0.0 0.0 0.0
20300.0 1.0 0.0 0.005461 0.230337 0.0 0.0 0.0 0.0
20400.0 1.0 0.0 0.005459 0.336142 0.0 0.0 0.0 0.0
20500.0 1.0 0.0 0.005461 0.439929 0.0 0.0 0.0 0.0
20600.0 1.0 0.0 0.005465 0.538398 0.0 0.0 0.0 0.0
20700.0 1.0 0.0 0.005471 0.618975 0.0 0.0 0.0 0.0
20800.0 1.0 0.0 0.005479 0.680292 0.0 0.0 0.0 0.0
20900.0 1.0 0.0 0.005489 0.712873 0.0 0.0 0.0 0.0
21000.0 1.0 0.0 0.005499 0.719207 0.0 0.0 0.0 0.0
21100.0 1.0 0.0 0.005509 0.694189 0.0 0.0 0.0 0.0
21200.0 1.0 0.0 0.005518 0.644737 0.0 0.0 0.0 0.0
21300.0 1.0 0.0 0.005525 0.569953 0.0 0.0 0.0 0.0
21400.0 1.0 0.0 0.00553 0.480411 0.0 0.0 0.0 0.0
21500.0 1.0 0.0 0.005533 0.378088 0.0 0.0 0.0 0.0
21600.0 1.0 0.0 0.005532 0.275491 0.0 0.0 0.0 0.0
21700.0 1.0 0.0 0.005529 0.17546 0.0 0.0 0.0 0.0
21800.0 1.0 0.0 0.005524 0.090301 0.0 0.0 0.0 0.0
21900.0 1.0 0.0 0.005516 0.021537 0.0 0.0 0.0 0.0
22000.0 1.0 0.0 0.005507 -0.020803 0.0 0.0 0.0 0.0
22100.0 1.0 0.0 0.005498 -0.03838 0.0 0.0 0.0 0.0
22200.0 1.0 0.0 0.005488 -0.024975 0.0 0.0 0.0 0.0
22300.0 1.0 0.0 0.005479 0.013499 0.0 0.0 0.0 0.0
22400.0 1.0 0.0 0.005471 0.078941 0.0 0.0 0.0 0.0
22500.0 1.0 0.0 0.005466 0.161346 0.0 0.0 0.0 0.0
22600.0 1.0 0.0 0.005463 0.259114 0.0 0.0 0.0 0.0
22700.0 1.0 0.0 0.005462 0.359669 0.0 0.0 0.0 0.0
22800.0 1.0 0.0 0.005465 0.459943 0.0 0.0 0.0 0.0
22900.0 1.0 0.0 0.005469 0.547249 0.0 0.0 0.0 0.0
23000.0 1.0 0.0 0.005476 0.619606 0.0 0.0 0.0 0.0
23100.0 1.0 0.0 0.005485 0.666723 0.0 0.0 0.0 0.0
23200.0 1.0 0.0 0.005494 0.689817 0.0 0.0 0.0 0.0
23300.0 1.0 0.0 0.005504 0.682626 0.0 0.0 0.0 0.0
23400.0 1.0 0.0 0.005513 0.650511 0.0 0.0 0.0 0.0
23500.0 1.0 0.0 0.005521 0.591529 0.0 0.0 0.0 0.0
23600.0 1.0 0.0 0.005527 0.514787 0.0 0.0 0.0 0.0
23700.0 1.0 0.0 0.005531 0.421706 0.0 0.0 0.0 0.0
23800.0 1.0 0.0 0.005533 0.323705 0.0 0.0 0.0 0.0
23900.0 1.0 0.0 0.005531 0.223791 0.0 0.0 0.0 0.0
24000.0 1.0 0.0 0.005528 0.133708 0.0 0.0 0.0 0.0
24100.0 1.0 0.0 0.005522 0.055953 0.0 0.0 0.0 0.0
24200.0 1.0 0.0 0.005514 0.000536 0.0 0.0 0.0 0.0
24300.0 1.0 0.0 0.005505 -0.032505 0.0 0.0 0.0 0.0
24400.0 1.0 0.0 0.005495 -0.036559 0.0 0.0 0.0 0.0
24500.0 1.0 0.0 0.005486 -0.015372 0.0 0.0 0.0 0.0
24600.0 1.0 0.0 0.005478 0.033457 0.0 0.0 0.0 0.0
24700.0 1.0 0.0 0.005471 0.102135 0.0 0.0 0.0 0.0
24800.0 1.0 0.0 0.005467 0.189272 0.0 0.0 0.0 0.0
24900.0 1.0 0.0 0.005465 0.284072 0.0 0.0 0.0 0.0
25000.0 1.0 0.0 0.005465 0.383025 0.0 0.0 0.0 0.0
25100.0 1.0 0.0 0.005468 0.474447 0.0 0.0 0.0 0.0
25200.0 1.0 0.0 0.005474 0.555129 0.0 0.0 0.0 0.0
25300.0 1.0 0.0 0.005481 0.61495 0.0 0.0 0.0 0.0
25400.0 1.0 0.0 0.00549 0.653284 0.0 0.0 0.0 0.0
25500.0 1.0 0.0 0.005499 0.663444 0.0 0.0 0.0 0.0
25600.0 1.0 0.0 0.005508 0.648716 0.0 0.0 0.0 0.0
25700.0 1.0 0.0 0.005517 0.606524 0.0 0.0 0.0 0.0
25800.0 1.0 0.0 0.005524 0.544104 0.0 0.0 0.0 0.0
25900.0 1.0 0.0 0.005529 0.462402 0.0 0.0 0.0 0.0
26000.0 1.0 0.0 0.005532 0.37151 0.0 0.0 0.0 0.0
26100.0 1.0 0.0 0.005532 0.274378 0.0 0.0 0.0 0.0
26200.0 1.0 0.0 0.00553 0.182165 0.0 0.0 0.0 0.0
26300.0 1.0 0.0 0.005526 0.097851 0.0 0.0 0.0 0.0
26400.0 1.0 0.0 0.005519 0.031651 0.0 0.0 0.0 0.0
26500.0 1.0 0.0 0.005511 -0.015391 0.0 0.0 0.0 0.0
26600.0 1.0 0.0 0.005502 -0.035786 0.0 0.0 0.0 0.0
26700.0 1.0 0.0 0.005493 -0.031922 0.0 0.0 0.0 0.0
26800.0 1.0 0.0 0.005484 -0.000134 0.0 0.0 0.0 0.0
26900.0 1.0 0.0 0.005477 0.053166 0.0 0.0 0.0 0.0
27000.0 1.0 0.0 0.005471 0.127804 0.0 0.0 0.0 0.0
27100.0 1.0 0.0 0.005468 0.213985 0.0 0.0 0.0 0.0
27200.0 1.0 0.0 0.005467 0.308917 0.0 0.0 0.0 0.0
27300.0 1.0 0.0 0.005468 0.40121 0.0 0.0 0.0 0.0
27400.0 1.0 0.0 0.005472 0.487597 0.0 0.0 0.0 0.0
27500.0 1.0 0.0 0.005478 0.557467 0.0 0.0 0.0 0.0
27600.0 1.0 0.0 0.005486 0.609372 0.0 0.0 0.0 0.0
27700.0 1.0 0.0 0.005494 0.635566 0.0 0.0 0.0 0.0
27800.0 1.0 0.0 0.005503 0.638027 0.0 0.0 0.0 0.0
27900.0 1.0 0.0 0.005512 0.612952 0.0 0.0 0.0 0.0
28000.0 1.0 0.0 0.00552 0.566166 0.0 0.0 0.0 0.0
28100.0 1.0 0.0 0.005526 0.497635 0.0 0.0 0.0 0.0
28200.0 1.0 0.0 0.00553 0.416282 0.0 0.0 0.0 0.0
28300.0 1.0 0.0 0.005532 0.324644 0.0 0.0 0.0 0.0
28400.0 1.0 0.0 0.005532 0.233173 0.0 0.0 0.0 0.0
28500.0 1.0 0.0 0.005529 0.14517 0.0 0.0 0.0 0.0
28600.0 1.0 0.0 0.005524 0.070699 0.0 0.0 0.0 0.0
28700.0 1.0 0.0 0.005517 0.011879 0.0 0.0 0.0 0.0
28800.0 1.0 0.0 0.005509 -0.023447 0.0 0.0 0.0 0.0
28900.0 1.0 0.0 0.0055 -0.035989 0.0 0.0 0.0 0.0
29000.0 1.0 0.0 0.005491 -0.021427 0.0 0.0 0.0 0.0
29100.0 1.0 0.0 0.005483 0.015799 0.0 0.0 0.0 0.0
29200.0 1.0 0.0 0.005477 0.076126 0.0 0.0 0.0 0.0
29300.0 1.0 0.0 0.005472 0.151578 0.0 0.0 0.0 0.0
29400.0 1.0 0.0 0.005469 0.239539 0.0 0.0 0.0 0.0
29500.0 1.0 0.0 0.005469 0.329874 0.0 0.0 0.0 0.0
29600.0 1.0 0.0 0.005471 0.41877 0.0 0.0 0.0 0.0
29700.0 1.0 0.0 0.005476 0.496084 0.0 0.0 0.0 0.0
29800.0 1.0 0.0 0.005482 0.559088 0.0 0.0 0.0 0.0
29900.0 1.0 0.0 0.00549 0.599782 0.0 0.0 0.0 0.0
30000.0 1.0 0.0 0.005498 0.618382 0.0 0.0 0.0 0.0
30100.0 1.0 0.0 0.005507 0.610412 0.0 0.0 0.0 0.0
30200.0 1.0 0.0 0.005515 0.579856 0.0 0.0 0.0 0.0
30300.0 1.0 0.0 0.005522 0.525974 0.0 0.0 0.0 0.0
30400.0 1.0 0.0 0.005528 0.456161 0.0 0.0 0.0 0.0
30500.0 1.0 0.0 0.005531 0.372529 0.0 0.0 0.0 0.0
30600.0 1.0 0.0 0.005532 0.284603 0.0 0.0 0.0 0.0
30700.0 1.0 0.0 0.005531 0.195744 0.0 0.0 0.0 0.0
30800.0 1.0 0.0 0.005527 0.11582 0.0 0.0 0.0 0.0
30900.0 1.0 0.0 0.005521 0.047559 0.0 0.0 0.0 0.0
31000.0 1.0 0.0 0.005514 -0.000672 0.0 0.0 0.0 0.0
31100.0 1.0 0.0 0.005506 -0.028501 0.0 0.0 0.0 0.0
31200.0 1.0 0.0 0.005498 -0.030541 0.0 0.0 0.0 0.0
31300.0 1.0 0.0 0.00549 -0.009912 0.0 0.0 0.0 0.0
31400.0 1.0 0.0 0.005482 0.035098 0.0 0.0 0.0 0.0
31500.0 1.0 0.0 0.005476 0.097716 0.0 0.0 0.0 0.0
31600.0 1.0 0.0 0.005472 0.176375 0.0 0.0 0.0 0.0
31700.0 1.0 0.0 0.005471 0.261644 0.0 0.0 0.0 0.0
31800.0 1.0 0.0 0.005471 0.350161 0.0 0.0 0.0 0.0
31900.0 1.0 0.0 0.005474 0.431748 0.0 0.0 0.0 0.0
32000.0 1.0 0.0 0.005479 0.503364 0.0 0.0 0.0 0.0
32100.0 1.0 0.0 0.005486 0.556267 0.0 0.0 0.0 0.0
32200.0 1.0 0.0 0.005494 0.589717 0.0 0.0 0.0 0.0
32300.0 1.0 0.0 0.005502 0.598072 0.0 0.0 0.0 0.0
32400.0 1.0 0.0 0.00551 0.584034 0.0 0.0 0.0 0.0
32500.0 1.0 0.0 0.005518 0.545675 0.0 0.0 0.0 0.0
32600.0 1.0 0.0 0.005524 0.489151 0.0 0.0 0.0 0.0
32700.0 1.0 0.0 0.005529 0.415737 0.0 0.0 0.0 0.0
32800.0 1.0 0.0 0.005531 0.334057 0.0 0.0 0.0 0.0
32900.0 1.0 0.0 0.005531 0.247241 0.0 0.0 0.0 0.0
33000.0 1.0 0.0 0.005529 0.164762 0.0 0.0 0.0 0.0
33100.0 1.0 0.0 0.005525 0.089835 0.0 0.0 0.0 0.0
33200.0 1.0 0.0 0.005519 0.030975 0.0 0.0 0.0 0.0
33300.0 1.0 0.0 0.005512 -0.010283 0.0 0.0 0.0 0.0
33400.0 1.0 0.0 0.005504 -0.027968 0.0 0.0 0.0 0.0
33500.0 1.0 0.0 0.005496 -0.023561 0.0 0.0 0.0 0.0
33600.0 1.0 0.0 0.005488 0.005416 0.0 0.0 0.0 0.0
33700.0 1.0 0.0 0.005481 0.053953 0.0 0.0 0.0 0.0
33800.0 1.0 0.0 0.005476 0.121067 0.0 0.0 0.0 0.0
33900.0 1.0 0.0 0.005473 0.198792 0.0 0.0 0.0 0.0
34000.0 1.0 0.0 0.005472 0.283814 0.0 0.0 0.0 0.0
34100.0 1.0 0.0 0.005474 0.36678 0.0 0.0 0.0 0.0
34200.0 1.0 0.0 0.005477 0.443974 0.0 0.0 0.0 0.0
34300.0 1.0 0.0 0.005483 0.506734 0.0 0.0 0.0 0.0
34400.0 1.0 0.0 0.005489 0.552993 0.0 0.0 0.0 0.0
34500.0 1.0 0.0 0.005497 0.576597 0.0 0.0 0.0 0.0
34600.0 1.0 0.0 0.005505 0.578582 0.0 0.0 0.0 0.0
34700.0 1.0 0.0 0.005513 0.556244 0.0 0.0 0.0 0.0
34800.0 1.0 0.0 0.00552 0.514125 0.0 0.0 0.0 0.0
34900.0 1.0 0.0 0.005525 0.452821 0.0 0.0 0.0 0.0
35000.0 1.0 0.0 0.005529 0.379735 0.0 0.0 0.0 0.0
35100.0 1.0 0.0 0.005531 0.297686 0.0 0.0 0.0 0.0
35200.0 1.0 0.0 0.00553 0.215549 0.0 0.0 0.0 0.0
35300.0 1.0 0.0 0.005528 0.136741 0.0 0.0 0.0 0.0
35400.0 1.0 0.0 0.005523 0.069878 0.0 0.0 0.0 0.0
35500.0 1.0 0.0 0.005517 0.017225 0.0 0.0 0.0 0.0
35600.0 1.0 0.0 0.00551 -0.014511 0.0 0.0 0.0 0.0
35700.0 1.0 0.0 0.005502 -0.025687 0.0 0.0 0.0 0.0
35800.0 1.0 0.0 0.005494 -0.012681 0.0 0.0 0.0 0.0
35900.0 1.0 0.0 0.005487 0.020743 0.0 0.0 0.0 0.0
36000.0 1.0 0.0 0.005481 0.074798 0.0 0.0 0.0 0.0
36100.0 1.0 0.0 0.005477 0.142515 0.0 0.0 0.0 0.0
36200.0 1.0 0.0 0.005474 0.221424 0.0 0.0 0.0 0.0
36300.0 1.0 0.0 0.005474 0.302597 0.0 0.0 0.0 0.0
36400.0 1.0 0.0 0.005476 0.382511 0.0 0.0 0.0 0.0
36500.0 1.0 0.0 0.00548 0.452208 0.0 0.0 0.0 0.0
36600.0 1.0 0.0 0.005486 0.509106 0.0 0.0 0.0 0.0
36700.0 1.0 0.0 0.005493 0.546153 0.0 0.0 0.0 0.0
36800.0 1.0 0.0 0.0055 0.563352 0.0 0.0 0.0 0.0
36900.0 1.0 0.0 0.005508 0.556816 0.0 0.0 0.0 0.0
37000.0 1.0 0.0 0.005515 0.529872 0.0 0.0 0.0 0.0
37100.0 1.0 0.0 0.005522 0.48203 0.0 0.0 0.0 0.0
37200.0 1.0 0.0 0.005526 0.419637 0.0 0.0 0.0 0.0
37300.0 1.0 0.0 0.00553 0.344845 0.0 0.0 0.0 0.0
37400.0 1.0 0.0 0.00553 0.265871 0.0 0.0 0.0 0.0
37500.0 1.0 0.0 0.005529 0.186091 0.0 0.0 0.0 0.0
37600.0 1.0 0.0 0.005526 0.113981 0.0 0.0 0.0 0.0
37700.0 1.0 0.0 0.005521 0.052444 0.0 0.0 0.0 0.0
37800.0 1.0 0.0 0.005515 0.008552 0.0 0.0 0.0 0.0
37900.0 1.0 0.0 0.005508 -0.016827 0.0 0.0 0.0 0.0
38000.0 1.0 0.0 0.0055 -0.019352 0.0 0.0 0.0 0.0
38100.0 1.0 0.0 0.005493 -0.001221 0.0 0.0 0.0 0.0
38200.0 1.0 0.0 0.005486 0.03856 0.0 0.0 0.0 0.0
38300.0 1.0 0.0 0.005481 0.094567 0.0 0.0 0.0 0.0
38400.0 1.0 0.0 0.005477 0.164816 0.0 0.0 0.0 0.0
38500.0 1.0 0.0 0.005475 0.241517 0.0 0.0 0.0 0.0
38600.0 1.0 0.0 0.005476 0.321038 0.0 0.0 0.0 0.0
38700.0 1.0 0.0 0.005478 0.394896 0.0 0.0 0.0 0.0
38800.0 1.0 0.0 0.005483 0.459711 0.0 0.0 0.0 0.0
38900.0 1.0 0.0 0.005489 0.508227 0.0 0.0 0.0 0.0
39000.0 1.0 0.0 0.005496 0.539106 0.0 0.0 0.0 0.0
39100.0 1.0 0.0 0.005503 0.547798 0.0 0.0 0.0 0.0
39200.0 1.0 0.0 0.005511 0.536077 0.0 0.0 0.0 0.0
39300.0 1.0 0.0 0.005517 0.502665 0.0 0.0 0.0 0.0
39400.0 1.0 0.0 0.005523 0.452508 0.0 0.0 0.0 0.0
39500.0 1.0 0.0 0.005527 0.38717 0.0 0.0 0.0 0.0
39600.0 1.0 0.0 0.005529 0.313918 0.0 0.0 0.0 0.0
39700.0 1.0 0.0 0.00553 0.235955 0.0 0.0 0.0 0.0
39800.0 1.0 0.0 0.005528 0.161435 0.0 0.0 0.0 0.0
39900.0 1.0 0.0 0.005524 0.093602 0.0 0.0 0.0 0.0
