! File created by SignalIntegrity v1.3.3: Signal and Power Integrity Tools
! https://github.com/TeledyneLeCroy/SignalIntegrity
# MHz S MA R 50.0
0.0 1.0 0.0 0.0 0.0 0.0 0.0 0.0 0.0
0.0 0.0 1.0 0.0 0.0 0.0 0.0 0.0
0.0 0.0 0.0 0.0 0.005282 0.0 0.0 0.0
0.0 0.0 0.0 0.0 0.0 0.0 0.47307 0.0
0.0 0.0 0.0 0.0 0.0 0.0 0.0 0.0
0.47307 0.0 0.0 0.0 0.0 0.0 0.0 0.0
0.0 0.0
100.0 1.0 0.0 0.0 0.0 0.0 0.0 0.0 0.0
0.0 0.0 1.0 0.0 0.0 0.0 0.0 0.0
0.0 0.0 0.0 0.0 0.005197 -0.753333 0.0 0.0
0.0 0.0 0.0 0.0 0.0 0.0 0.466195 -9.392594
0.0 0.0 0.0 0.0 0.0 0.0 0.0 0.0
0.466195 -9.392594 0.0 0.0 0.0 0.0 0.0 0.0
0.0 0.0
200.0 1.0 0.0 0.0 0.0 0.0 0.0 0.0 0.0
0.0 0.0 1.0 0.0 0.0 0.0 0.0 0.0
0.0 0.0 0.0 0.0 0.005144 -0.168432 0.0 0.0
0.0 0.0 0.0 0.0 0.0 0.0 0.461176 -17.572553
0.0 0.0 0.0 0.0 0.0 0.0 0.0 0.0
0.461176 -17.572553 0.0 0.0 0.0 0.0 0.0 0.0
0.0 0.0
300.0 1.0 0.0 0.0 0.0 0.0 0.0 0.0 0.0
0.0 0.0 1.0 0.0 0.0 0.0 0.0 0.0
0.0 0.0 0.0 0.0 0.005119 0.241257 0.0 0.0
0.0 0.0 0.0 0.0 0.0 0.0 0.458442 -25.98932
0.0 0.0 0.0 0.0 0.0 0.0 0.0 0.0
0.458442 -25.98932 0.0 0.0 0.0 0.0 0.0 0.0
0.0 0.0
400.0 1.0 0.0 0.0 0.0 0.0 0.0 0.0 0.0
0.0 0.0 1.0 0.0 0.0 0.0 0.0 0.0
0.0 0.0 0.0 0.0 0.005112 0.936566 0.0 0.0
0.0 0.0 0.0 0.0 0.0 0.0 0.455322 -34.155446
0.0 0.0 0.0 0.0 0.0 0.0 0.0 0.0
0.455322 -34.155446 0.0 0.0 0.0 0.0 0.0 0.0
0.0 0.0
500.0 1.0 0.0 0.0 0.0 0.0 0.0 0.0 0.0
0.0 0.0 1.0 0.0 0.0 0.0 0.0 0.0
0.0 0.0 0.0 0.0 0.005122 1.469129 0.0 0.0
0.0 0.0 0.0 0.0 0.0 0.0 0.4533 -42.424482
0.0 0.0 0.0 0.0 0.0 0.0 0.0 0.0
0.4533 -42.424482 0.0 0.0 0.0 0.0 0.0 0.0
0.0 0.0
600.0 1.0 0.0 0.0 0.0 0.0 0.0 0.0 0.0
0.0 0.0 1.0 0.0 0.0 0.0 0.0 0.0
0.0 0.0 0.0 0.0 0.005147 2.070441 0.0 0.0
0.0 0.0 0.0 0.0 0.0 0.0 0.450754 -50.571206
0.0 0.0 0.0 0.0 0.0 0.0 0.0 0.0
0.450754 -50.571206 0.0 0.0 0.0 0.0 0.0 0.0
0.0 0.0
700.0 1.0 0.0 0.0 0.0 0.0 0.0 0.0 0.0
0.0 0.0 1.0 0.0 0.0 0.0 0.0 0.0
0.0 0.0 0.0 0.0 0.005184 2.469546 0.0 0.0
0.0 0.0 0.0 0.0 0.0 0.0 0.449018 -58.769311
0.0 0.0 0.0 0.0 0.0 0.0 0.0 0.0
0.449018 -58.769311 0.0 0.0 0.0 0.0 0.0 0.0
0.0 0.0
800.0 1.0 0.0 0.0 0.0 0.0 0.0 0.0 0.0
0.0 0.0 1.0 0.0 0.0 0.0 0.0 0.0
0.0 0.0 0.0 0.0 0.005229 2.831253 0.0 0.0
0.0 0.0 0.0 0.0 0.0 0.0 0.446751 -66.900833
0.0 0.0 0.0 0.0 0.0 0.0 0.0 0.0
0.446751 -66.900833 0.0 0.0 0.0 0.0 0.0 0.0
0.0 0.0
900.0 1.0 0.0 0.0 0.0 0.0 0.0 0.0 0.0
0.0 0.0 1.0 0.0 0.0 0.0 0.0 0.0
0.0 0.0 0.0 0.0 0.005279 2.980997 0.0 0.0
0.0 0.0 0.0 0.0 0.0 0.0 0.445144 -75.051692
0.0 0.0 0.0 0.0 0.0 0.0 0.0 0.0
0.445144 -75.051692 0.0 0.0 0.0 0.0 0.0 0.0
0.0 0.0
1000.0 1.0 0.0 0.0 0.0 0.0 0.0 0.0 0.0
0.0 0.0 1.0 0.0 0.0 0.0 0.0 0.0
0.0 0.0 0.0 0.0 0.00533 3.059461 0.0 0.0
0.0 0.0 0.0 0.0 0.0 0.0 0.443053 -83.168263
0.0 0.0 0.0 0.0 0.0 0.0 0.0 0.0
0.443053 -83.168263 0.0 0.0 0.0 0.0 0.0 0.0
0.0 0.0
1100.0 1.0 0.0 0.0 0.0 0.0 0.0 0.0 0.0
0.0 0.0 1.0 0.0 0.0 0.0 0.0 0.0
0.0 0.0 0.0 0.0 0.005378 2.954184 0.0 0.0
0.0 0.0 0.0 0.0 0.0 0.0 0.441512 -91.281944
0.0 0.0 0.0 0.0 0.0 0.0 0.0 0.0
0.441512 -91.281944 0.0 0.0 0.0 0.0 0.0 0.0
0.0 0.0
1200.0 1.0 0.0 0.0 0.0 0.0 0.0 0.0 0.0
0.0 0.0 1.0 0.0 0.0 0.0 0.0 0.0
0.0 0.0 0.0 0.0 0.005421 2.792642 0.0 0.0
0.0 0.0 0.0 0.0 0.0 0.0 0.439564 -99.382837
0.0 0.0 0.0 0.0 0.0 0.0 0.0 0.0
0.439564 -99.382837 0.0 0.0 0.0 0.0 0.0 0.0
0.0 0.0
1300.0 1.0 0.0 0.0 0.0 0.0 0.0 0.0 0.0
0.0 0.0 1.0 0.0 0.0 0.0 0.0 0.0
0.0 0.0 0.0 0.0 0.005457 2.500557 0.0 0.0
0.0 0.0 0.0 0.0 0.0 0.0 0.438072 -107.465489
0.0 0.0 0.0 0.0 0.0 0.0 0.0 0.0
0.438072 -107.465489 0.0 0.0 0.0 0.0 0.0 0.0
0.0 0.0
1400.0 1.0 0.0 0.0 0.0 0.0 0.0 0.0 0.0
0.0 0.0 1.0 0.0 0.0 0.0 0.0 0.0
0.0 0.0 0.0 0.0 0.005484 2.192902 0.0 0.0
0.0 0.0 0.0 0.0 0.0 0.0 0.436264 -115.550685
0.0 0.0 0.0 0.0 0.0 0.0 0.0 0.0
0.436264 -115.550685 0.0 0.0 0.0 0.0 0.0 0.0
0.0 0.0
1500.0 1.0 0.0 0.0 0.0 0.0 0.0 0.0 0.0
0.0 0.0 1.0 0.0 0.0 0.0 0.0 0.0
0.0 0.0 0.0 0.0 0.005501 1.81645 0.0 0.0
0.0 0.0 0.0 0.0 0.0 0.0 0.434824 -123.607821
0.0 0.0 0.0 0.0 0.0 0.0 0.0 0.0
0.434824 -123.607821 0.0 0.0 0.0 0.0 0.0 0.0
0.0 0.0
1600.0 1.0 0.0 0.0 0.0 0.0 0.0 0.0 0.0
0.0 0.0 1.0 0.0 0.0 0.0 0.0 0.0
0.0 0.0 0.0 0.0 0.005509 1.47224 0.0 0.0
0.0 0.0 0.0 0.0 0.0 0.0 0.433162 -131.678569
0.0 0.0 0.0 0.0 0.0 0.0 0.0 0.0
0.433162 -131.678569 0.0 0.0 0.0 0.0 0.0 0.0
0.0 0.0
1700.0 1.0 0.0 0.0 0.0 0.0 0.0 0.0 0.0
0.0 0.0 1.0 0.0 0.0 0.0 0.0 0.0
0.0 0.0 0.0 0.0 0.005507 1.116362 0.0 0.0
0.0 0.0 0.0 0.0 0.0 0.0 0.431782 -139.71601
0.0 0.0 0.0 0.0 0.0 0.0 0.0 0.0
0.431782 -139.71601 0.0 0.0 0.0 0.0 0.0 0.0
0.0 0.0
1800.0 1.0 0.0 0.0 0.0 0.0 0.0 0.0 0.0
0.0 0.0 1.0 0.0 0.0 0.0 0.0 0.0
0.0 0.0 0.0 0.0 0.005498 0.834391 0.0 0.0
0.0 0.0 0.0 0.0 0.0 0.0 0.430271 -147.774647
0.0 0.0 0.0 0.0 0.0 0.0 0.0 0.0
0.430271 -147.774647 0.0 0.0 0.0 0.0 0.0 0.0
0.0 0.0
1900.0 1.0 0.0 0.0 0.0 0.0 0.0 0.0 0.0
0.0 0.0 1.0 0.0 0.0 0.0 0.0 0.0
0.0 0.0 0.0 0.0 0.005483 0.583545 0.0 0.0
0.0 0.0 0.0 0.0 0.0 0.0 0.428955 -155.798383
0.0 0.0 0.0 0.0 0.0 0.0 0.0 0.0
0.428955 -155.798383 0.0 0.0 0.0 0.0 0.0 0.0
0.0 0.0
2000.0 1.0 0.0 0.0 0.0 0.0 0.0 0.0 0.0
0.0 0.0 1.0 0.0 0.0 0.0 0.0 0.0
0.0 0.0 0.0 0.0 0.005464 0.43252 0.0 0.0
0.0 0.0 0.0 0.0 0.0 0.0 0.427588 -163.84771
0.0 0.0 0.0 0.0 0.0 0.0 0.0 0.0
0.427588 -163.84771 0.0 0.0 0.0 0.0 0.0 0.0
0.0 0.0
2100.0 1.0 0.0 0.0 0.0 0.0 0.0 0.0 0.0
0.0 0.0 1.0 0.0 0.0 0.0 0.0 0.0
0.0 0.0 0.0 0.0 0.005442 0.333938 0.0 0.0
0.0 0.0 0.0 0.0 0.0 0.0 0.426334 -171.863299
0.0 0.0 0.0 0.0 0.0 0.0 0.0 0.0
0.426334 -171.863299 0.0 0.0 0.0 0.0 0.0 0.0
0.0 0.0
2200.0 1.0 0.0 0.0 0.0 0.0 0.0 0.0 0.0
0.0 0.0 1.0 0.0 0.0 0.0 0.0 0.0
0.0 0.0 0.0 0.0 0.005421 0.338901 0.0 0.0
0.0 0.0 0.0 0.0 0.0 0.0 0.425096 -179.90585
0.0 0.0 0.0 0.0 0.0 0.0 0.0 0.0
0.425096 -179.90585 0.0 0.0 0.0 0.0 0.0 0.0
0.0 0.0
2300.0 1.0 0.0 0.0 0.0 0.0 0.0 0.0 0.0
0.0 0.0 1.0 0.0 0.0 0.0 0.0 0.0
0.0 0.0 0.0 0.0 0.005402 0.392536 0.0 0.0
0.0 0.0 0.0 0.0 0.0 0.0 0.423893 172.082234
0.0 0.0 0.0 0.0 0.0 0.0 0.0 0.0
0.423893 172.082234 0.0 0.0 0.0 0.0 0.0 0.0
0.0 0.0
2400.0 1.0 0.0 0.0 0.0 0.0 0.0 0.0 0.0
0.0 0.0 1.0 0.0 0.0 0.0 0.0 0.0
0.0 0.0 0.0 0.0 0.005386 0.529842 0.0 0.0
0.0 0.0 0.0 0.0 0.0 0.0 0.422761 164.044775
0.0 0.0 0.0 0.0 0.0 0.0 0.0 0.0
0.422761 164.044775 0.0 0.0 0.0 0.0 0.0 0.0
0.0 0.0
2500.0 1.0 0.0 0.0 0.0 0.0 0.0 0.0 0.0
0.0 0.0 1.0 0.0 0.0 0.0 0.0 0.0
0.0 0.0 0.0 0.0 0.005377 0.689525 0.0 0.0
0.0 0.0 0.0 0.0 0.0 0.0 0.421597 156.033595
0.0 0.0 0.0 0.0 0.0 0.0 0.0 0.0
0.421597 156.033595 0.0 0.0 0.0 0.0 0.0 0.0
0.0 0.0
2600.0 1.0 0.0 0.0 0.0 0.0 0.0 0.0 0.0
0.0 0.0 1.0 0.0 0.0 0.0 0.0 0.0
0.0 0.0 0.0 0.0 0.005373 0.895472 0.0 0.0
0.0 0.0 0.0 0.0 0.0 0.0 0.420543 148.000668
0.0 0.0 0.0 0.0 0.0 0.0 0.0 0.0
0.420543 148.000668 0.0 0.0 0.0 0.0 0.0 0.0
0.0 0.0
2700.0 1.0 0.0 0.0 0.0 0.0 0.0 0.0 0.0
0.0 0.0 1.0 0.0 0.0 0.0 0.0 0.0
0.0 0.0 0.0 0.0 0.005375 1.085197 0.0 0.0
0.0 0.0 0.0 0.0 0.0 0.0 0.419406 139.988917
0.0 0.0 0.0 0.0 0.0 0.0 0.0 0.0
0.419406 139.988917 0.0 0.0 0.0 0.0 0.0 0.0
0.0 0.0
2800.0 1.0 0.0 0.0 0.0 0.0 0.0 0.0 0.0
0.0 0.0 1.0 0.0 0.0 0.0 0.0 0.0
0.0 0.0 0.0 0.0 0.005383 1.279232 0.0 0.0
0.0 0.0 0.0 0.0 0.0 0.0 0.418407 131.960997
0.0 0.0 0.0 0.0 0.0 0.0 0.0 0.0
0.418407 131.960997 0.0 0.0 0.0 0.0 0.0 0.0
0.0 0.0
2900.0 1.0 0.0 0.0 0.0 0.0 0.0 0.0 0.0
0.0 0.0 1.0 0.0 0.0 0.0 0.0 0.0
0.0 0.0 0.0 0.0 0.005396 1.420978 0.0 0.0
0.0 0.0 0.0 0.0 0.0 0.0 0.417288 123.948742
0.0 0.0 0.0 0.0 0.0 0.0 0.0 0.0
0.417288 123.948742 0.0 0.0 0.0 0.0 0.0 0.0
0.0 0.0
3000.0 1.0 0.0 0.0 0.0 0.0 0.0 0.0 0.0
0.0 0.0 1.0 0.0 0.0 0.0 0.0 0.0
0.0 0.0 0.0 0.0 0.005413 1.535053 0.0 0.0
0.0 0.0 0.0 0.0 0.0 0.0 0.416326 115.926947
0.0 0.0 0.0 0.0 0.0 0.0 0.0 0.0
0.416326 115.926947 0.0 0.0 0.0 0.0 0.0 0.0
0.0 0.0
3100.0 1.0 0.0 0.0 0.0 0.0 0.0 0.0 0.0
0.0 0.0 1.0 0.0 0.0 0.0 0.0 0.0
0.0 0.0 0.0 0.0 0.005433 1.576029 0.0 0.0
0.0 0.0 0.0 0.0 0.0 0.0 0.415224 107.91512
0.0 0.0 0.0 0.0 0.0 0.0 0.0 0.0
0.415224 107.91512 0.0 0.0 0.0 0.0 0.0 0.0
0.0 0.0
3200.0 1.0 0.0 0.0 0.0 0.0 0.0 0.0 0.0
0.0 0.0 1.0 0.0 0.0 0.0 0.0 0.0
0.0 0.0 0.0 0.0 0.005453 1.57662 0.0 0.0
0.0 0.0 0.0 0.0 0.0 0.0 0.414287 99.90066
0.0 0.0 0.0 0.0 0.0 0.0 0.0 0.0
0.414287 99.90066 0.0 0.0 0.0 0.0 0.0 0.0
0.0 0.0
3300.0 1.0 0.0 0.0 0.0 0.0 0.0 0.0 0.0
0.0 0.0 1.0 0.0 0.0 0.0 0.0 0.0
0.0 0.0 0.0 0.0 0.005472 1.503806 0.0 0.0
0.0 0.0 0.0 0.0 0.0 0.0 0.413208 91.890461
0.0 0.0 0.0 0.0 0.0 0.0 0.0 0.0
0.413208 91.890461 0.0 0.0 0.0 0.0 0.0 0.0
0.0 0.0
3400.0 1.0 0.0 0.0 0.0 0.0 0.0 0.0 0.0
0.0 0.0 1.0 0.0 0.0 0.0 0.0 0.0
0.0 0.0 0.0 0.0 0.005488 1.398198 0.0 0.0
0.0 0.0 0.0 0.0 0.0 0.0 0.412291 83.884114
0.0 0.0 0.0 0.0 0.0 0.0 0.0 0.0
0.412291 83.884114 0.0 0.0 0.0 0.0 0.0 0.0
0.0 0.0
3500.0 1.0 0.0 0.0 0.0 0.0 0.0 0.0 0.0
0.0 0.0 1.0 0.0 0.0 0.0 0.0 0.0
0.0 0.0 0.0 0.0 0.005502 1.236779 0.0 0.0
0.0 0.0 0.0 0.0 0.0 0.0 0.411244 75.876504
0.0 0.0 0.0 0.0 0.0 0.0 0.0 0.0
0.411244 75.876504 0.0 0.0 0.0 0.0 0.0 0.0
0.0 0.0
3600.0 1.0 0.0 0.0 0.0 0.0 0.0 0.0 0.0
0.0 0.0 1.0 0.0 0.0 0.0 0.0 0.0
0.0 0.0 0.0 0.0 0.00551 1.064983 0.0 0.0
0.0 0.0 0.0 0.0 0.0 0.0 0.410349 67.878264
0.0 0.0 0.0 0.0 0.0 0.0 0.0 0.0
0.410349 67.878264 0.0 0.0 0.0 0.0 0.0 0.0
0.0 0.0
3700.0 1.0 0.0 0.0 0.0 0.0 0.0 0.0 0.0
0.0 0.0 1.0 0.0 0.0 0.0 0.0 0.0
0.0 0.0 0.0 0.0 0.005514 0.865511 0.0 0.0
0.0 0.0 0.0 0.0 0.0 0.0 0.409344 59.873667
0.0 0.0 0.0 0.0 0.0 0.0 0.0 0.0
0.409344 59.873667 0.0 0.0 0.0 0.0 0.0 0.0
0.0 0.0
3800.0 1.0 0.0 0.0 0.0 0.0 0.0 0.0 0.0
0.0 0.0 1.0 0.0 0.0 0.0 0.0 0.0
0.0 0.0 0.0 0.0 0.005512 0.684448 0.0 0.0
0.0 0.0 0.0 0.0 0.0 0.0 0.408471 51.882659
0.0 0.0 0.0 0.0 0.0 0.0 0.0 0.0
0.408471 51.882659 0.0 0.0 0.0 0.0 0.0 0.0
0.0 0.0
3900.0 1.0 0.0 0.0 0.0 0.0 0.0 0.0 0.0
0.0 0.0 1.0 0.0 0.0 0.0 0.0 0.0
0.0 0.0 0.0 0.0 0.005506 0.505566 0.0 0.0
0.0 0.0 0.0 0.0 0.0 0.0 0.407517 43.880935
0.0 0.0 0.0 0.0 0.0 0.0 0.0 0.0
0.407517 43.880935 0.0 0.0 0.0 0.0 0.0 0.0
0.0 0.0
4000.0 1.0 0.0 0.0 0.0 0.0 0.0 0.0 0.0
0.0 0.0 1.0 0.0 0.0 0.0 0.0 0.0
0.0 0.0 0.0 0.0 0.005496 0.371471 0.0 0.0
0.0 0.0 0.0 0.0 0.0 0.0 0.406667 35.895595
0.0 0.0 0.0 0.0 0.0 0.0 0.0 0.0
0.406667 35.895595 0.0 0.0 0.0 0.0 0.0 0.0
0.0 0.0
4100.0 1.0 0.0 0.0 0.0 0.0 0.0 0.0 0.0
0.0 0.0 1.0 0.0 0.0 0.0 0.0 0.0
0.0 0.0 0.0 0.0 0.005482 0.262857 0.0 0.0
0.0 0.0 0.0 0.0 0.0 0.0 0.405766 27.896229
0.0 0.0 0.0 0.0 0.0 0.0 0.0 0.0
0.405766 27.896229 0.0 0.0 0.0 0.0 0.0 0.0
0.0 0.0
4200.0 1.0 0.0 0.0 0.0 0.0 0.0 0.0 0.0
0.0 0.0 1.0 0.0 0.0 0.0 0.0 0.0
0.0 0.0 0.0 0.0 0.005467 0.215418 0.0 0.0
0.0 0.0 0.0 0.0 0.0 0.0 0.404936 19.914669
0.0 0.0 0.0 0.0 0.0 0.0 0.0 0.0
0.404936 19.914669 0.0 0.0 0.0 0.0 0.0 0.0
0.0 0.0
4300.0 1.0 0.0 0.0 0.0 0.0 0.0 0.0 0.0
0.0 0.0 1.0 0.0 0.0 0.0 0.0 0.0
0.0 0.0 0.0 0.0 0.005452 0.203771 0.0 0.0
0.0 0.0 0.0 0.0 0.0 0.0 0.404086 11.917092
0.0 0.0 0.0 0.0 0.0 0.0 0.0 0.0
0.404086 11.917092 0.0 0.0 0.0 0.0 0.0 0.0
0.0 0.0
4400.0 1.0 0.0 0.0 0.0 0.0 0.0 0.0 0.0
0.0 0.0 1.0 0.0 0.0 0.0 0.0 0.0
0.0 0.0 0.0 0.0 0.005438 0.25465 0.0 0.0
0.0 0.0 0.0 0.0 0.0 0.0 0.403271 3.93752
0.0 0.0 0.0 0.0 0.0 0.0 0.0 0.0
0.403271 3.93752 0.0 0.0 0.0 0.0 0.0 0.0
0.0 0.0
4500.0 1.0 0.0 0.0 0.0 0.0 0.0 0.0 0.0
0.0 0.0 1.0 0.0 0.0 0.0 0.0 0.0
0.0 0.0 0.0 0.0 0.005425 0.335564 0.0 0.0
0.0 0.0 0.0 0.0 0.0 0.0 0.402465 -4.058582
0.0 0.0 0.0 0.0 0.0 0.0 0.0 0.0
0.402465 -4.058582 0.0 0.0 0.0 0.0 0.0 0.0
0.0 0.0
4600.0 1.0 0.0 0.0 0.0 0.0 0.0 0.0 0.0
0.0 0.0 1.0 0.0 0.0 0.0 0.0 0.0
0.0 0.0 0.0 0.0 0.005416 0.464502 0.0 0.0
0.0 0.0 0.0 0.0 0.0 0.0 0.401657 -12.037505
0.0 0.0 0.0 0.0 0.0 0.0 0.0 0.0
0.401657 -12.037505 0.0 0.0 0.0 0.0 0.0 0.0
0.0 0.0
4700.0 1.0 0.0 0.0 0.0 0.0 0.0 0.0 0.0
0.0 0.0 1.0 0.0 0.0 0.0 0.0 0.0
0.0 0.0 0.0 0.0 0.005412 0.603536 0.0 0.0
0.0 0.0 0.0 0.0 0.0 0.0 0.400884 -20.031992
0.0 0.0 0.0 0.0 0.0 0.0 0.0 0.0
0.400884 -20.031992 0.0 0.0 0.0 0.0 0.0 0.0
0.0 0.0
4800.0 1.0 0.0 0.0 0.0 0.0 0.0 0.0 0.0
0.0 0.0 1.0 0.0 0.0 0.0 0.0 0.0
0.0 0.0 0.0 0.0 0.005411 0.764808 0.0 0.0
0.0 0.0 0.0 0.0 0.0 0.0 0.400077 -28.010967
0.0 0.0 0.0 0.0 0.0 0.0 0.0 0.0
0.400077 -28.010967 0.0 0.0 0.0 0.0 0.0 0.0
0.0 0.0
4900.0 1.0 0.0 0.0 0.0 0.0 0.0 0.0 0.0
0.0 0.0 1.0 0.0 0.0 0.0 0.0 0.0
0.0 0.0 0.0 0.0 0.005415 0.909148 0.0 0.0
0.0 0.0 0.0 0.0 0.0 0.0 0.399326 -36.003229
0.0 0.0 0.0 0.0 0.0 0.0 0.0 0.0
0.399326 -36.003229 0.0 0.0 0.0 0.0 0.0 0.0
0.0 0.0
5000.0 1.0 0.0 0.0 0.0 0.0 0.0 0.0 0.0
0.0 0.0 1.0 0.0 0.0 0.0 0.0 0.0
0.0 0.0 0.0 0.0 0.005423 1.047582 0.0 0.0
0.0 0.0 0.0 0.0 0.0 0.0 0.398516 -43.982334
0.0 0.0 0.0 0.0 0.0 0.0 0.0 0.0
0.398516 -43.982334 0.0 0.0 0.0 0.0 0.0 0.0
0.0 0.0
5100.0 1.0 0.0 0.0 0.0 0.0 0.0 0.0 0.0
0.0 0.0 1.0 0.0 0.0 0.0 0.0 0.0
0.0 0.0 0.0 0.0 0.005435 1.1448 0.0 0.0
0.0 0.0 0.0 0.0 0.0 0.0 0.39778 -51.971458
0.0 0.0 0.0 0.0 0.0 0.0 0.0 0.0
0.39778 -51.971458 0.0 0.0 0.0 0.0 0.0 0.0
0.0 0.0
5200.0 1.0 0.0 0.0 0.0 0.0 0.0 0.0 0.0
0.0 0.0 1.0 0.0 0.0 0.0 0.0 0.0
0.0 0.0 0.0 0.0 0.005449 1.215285 0.0 0.0
0.0 0.0 0.0 0.0 0.0 0.0 0.396966 -59.950339
0.0 0.0 0.0 0.0 0.0 0.0 0.0 0.0
0.396966 -59.950339 0.0 0.0 0.0 0.0 0.0 0.0
0.0 0.0
5300.0 1.0 0.0 0.0 0.0 0.0 0.0 0.0 0.0
0.0 0.0 1.0 0.0 0.0 0.0 0.0 0.0
0.0 0.0 0.0 0.0 0.005464 1.231367 0.0 0.0
0.0 0.0 0.0 0.0 0.0 0.0 0.39624 -67.93539
0.0 0.0 0.0 0.0 0.0 0.0 0.0 0.0
0.39624 -67.93539 0.0 0.0 0.0 0.0 0.0 0.0
0.0 0.0
5400.0 1.0 0.0 0.0 0.0 0.0 0.0 0.0 0.0
0.0 0.0 1.0 0.0 0.0 0.0 0.0 0.0
0.0 0.0 0.0 0.0 0.005479 1.213487 0.0 0.0
0.0 0.0 0.0 0.0 0.0 0.0 0.395427 -75.913549
0.0 0.0 0.0 0.0 0.0 0.0 0.0 0.0
0.395427 -75.913549 0.0 0.0 0.0 0.0 0.0 0.0
0.0 0.0
5500.0 1.0 0.0 0.0 0.0 0.0 0.0 0.0 0.0
0.0 0.0 1.0 0.0 0.0 0.0 0.0 0.0
0.0 0.0 0.0 0.0 0.005493 1.142726 0.0 0.0
0.0 0.0 0.0 0.0 0.0 0.0 0.394708 -83.893882
0.0 0.0 0.0 0.0 0.0 0.0 0.0 0.0
0.394708 -83.893882 0.0 0.0 0.0 0.0 0.0 0.0
0.0 0.0
5600.0 1.0 0.0 0.0 0.0 0.0 0.0 0.0 0.0
0.0 0.0 1.0 0.0 0.0 0.0 0.0 0.0
0.0 0.0 0.0 0.0 0.005505 1.045316 0.0 0.0
0.0 0.0 0.0 0.0 0.0 0.0 0.393904 -91.870952
0.0 0.0 0.0 0.0 0.0 0.0 0.0 0.0
0.393904 -91.870952 0.0 0.0 0.0 0.0 0.0 0.0
0.0 0.0
5700.0 1.0 0.0 0.0 0.0 0.0 0.0 0.0 0.0
0.0 0.0 1.0 0.0 0.0 0.0 0.0 0.0
0.0 0.0 0.0 0.0 0.005514 0.90964 0.0 0.0
0.0 0.0 0.0 0.0 0.0 0.0 0.393195 -99.846439
0.0 0.0 0.0 0.0 0.0 0.0 0.0 0.0
0.393195 -99.846439 0.0 0.0 0.0 0.0 0.0 0.0
0.0 0.0
5800.0 1.0 0.0 0.0 0.0 0.0 0.0 0.0 0.0
0.0 0.0 1.0 0.0 0.0 0.0 0.0 0.0
0.0 0.0 0.0 0.0 0.005519 0.765548 0.0 0.0
0.0 0.0 0.0 0.0 0.0 0.0 0.392407 -107.82236
0.0 0.0 0.0 0.0 0.0 0.0 0.0 0.0
0.392407 -107.82236 0.0 0.0 0.0 0.0 0.0 0.0
0.0 0.0
5900.0 1.0 0.0 0.0 0.0 0.0 0.0 0.0 0.0
0.0 0.0 1.0 0.0 0.0 0.0 0.0 0.0
0.0 0.0 0.0 0.0 0.00552 0.605705 0.0 0.0
0.0 0.0 0.0 0.0 0.0 0.0 0.391709 -115.793477
0.0 0.0 0.0 0.0 0.0 0.0 0.0 0.0
0.391709 -115.793477 0.0 0.0 0.0 0.0 0.0 0.0
0.0 0.0
6000.0 1.0 0.0 0.0 0.0 0.0 0.0 0.0 0.0
0.0 0.0 1.0 0.0 0.0 0.0 0.0 0.0
0.0 0.0 0.0 0.0 0.005517 0.460444 0.0 0.0
0.0 0.0 0.0 0.0 0.0 0.0 0.390946 -123.768526
0.0 0.0 0.0 0.0 0.0 0.0 0.0 0.0
0.390946 -123.768526 0.0 0.0 0.0 0.0 0.0 0.0
0.0 0.0
6100.0 1.0 0.0 0.0 0.0 0.0 0.0 0.0 0.0
0.0 0.0 1.0 0.0 0.0 0.0 0.0 0.0
0.0 0.0 0.0 0.0 0.00551 0.323132 0.0 0.0
0.0 0.0 0.0 0.0 0.0 0.0 0.39026 -131.736254
0.0 0.0 0.0 0.0 0.0 0.0 0.0 0.0
0.39026 -131.736254 0.0 0.0 0.0 0.0 0.0 0.0
0.0 0.0
6200.0 1.0 0.0 0.0 0.0 0.0 0.0 0.0 0.0
0.0 0.0 1.0 0.0 0.0 0.0 0.0 0.0
0.0 0.0 0.0 0.0 0.0055 0.22132 0.0 0.0
0.0 0.0 0.0 0.0 0.0 0.0 0.389525 -139.710923
0.0 0.0 0.0 0.0 0.0 0.0 0.0 0.0
0.389525 -139.710923 0.0 0.0 0.0 0.0 0.0 0.0
0.0 0.0
6300.0 1.0 0.0 0.0 0.0 0.0 0.0 0.0 0.0
0.0 0.0 1.0 0.0 0.0 0.0 0.0 0.0
0.0 0.0 0.0 0.0 0.005488 0.145692 0.0 0.0
0.0 0.0 0.0 0.0 0.0 0.0 0.388851 -147.676525
0.0 0.0 0.0 0.0 0.0 0.0 0.0 0.0
0.388851 -147.676525 0.0 0.0 0.0 0.0 0.0 0.0
0.0 0.0
6400.0 1.0 0.0 0.0 0.0 0.0 0.0 0.0 0.0
0.0 0.0 1.0 0.0 0.0 0.0 0.0 0.0
0.0 0.0 0.0 0.0 0.005475 0.118253 0.0 0.0
0.0 0.0 0.0 0.0 0.0 0.0 0.388146 -155.651304
0.0 0.0 0.0 0.0 0.0 0.0 0.0 0.0
0.388146 -155.651304 0.0 0.0 0.0 0.0 0.0 0.0
0.0 0.0
6500.0 1.0 0.0 0.0 0.0 0.0 0.0 0.0 0.0
0.0 0.0 1.0 0.0 0.0 0.0 0.0 0.0
0.0 0.0 0.0 0.0 0.005462 0.124471 0.0 0.0
0.0 0.0 0.0 0.0 0.0 0.0 0.38748 -163.616025
0.0 0.0 0.0 0.0 0.0 0.0 0.0 0.0
0.38748 -163.616025 0.0 0.0 0.0 0.0 0.0 0.0
0.0 0.0
6600.0 1.0 0.0 0.0 0.0 0.0 0.0 0.0 0.0
0.0 0.0 1.0 0.0 0.0 0.0 0.0 0.0
0.0 0.0 0.0 0.0 0.005449 0.179231 0.0 0.0
0.0 0.0 0.0 0.0 0.0 0.0 0.386802 -171.59117
0.0 0.0 0.0 0.0 0.0 0.0 0.0 0.0
0.386802 -171.59117 0.0 0.0 0.0 0.0 0.0 0.0
0.0 0.0
6700.0 1.0 0.0 0.0 0.0 0.0 0.0 0.0 0.0
0.0 0.0 1.0 0.0 0.0 0.0 0.0 0.0
0.0 0.0 0.0 0.0 0.005439 0.261854 0.0 0.0
0.0 0.0 0.0 0.0 0.0 0.0 0.386139 -179.555967
0.0 0.0 0.0 0.0 0.0 0.0 0.0 0.0
0.386139 -179.555967 0.0 0.0 0.0 0.0 0.0 0.0
0.0 0.0
6800.0 1.0 0.0 0.0 0.0 0.0 0.0 0.0 0.0
0.0 0.0 1.0 0.0 0.0 0.0 0.0 0.0
0.0 0.0 0.0 0.0 0.005431 0.380445 0.0 0.0
0.0 0.0 0.0 0.0 0.0 0.0 0.385484 172.468656
0.0 0.0 0.0 0.0 0.0 0.0 0.0 0.0
0.385484 172.468656 0.0 0.0 0.0 0.0 0.0 0.0
0.0 0.0
6900.0 1.0 0.0 0.0 0.0 0.0 0.0 0.0 0.0
0.0 0.0 1.0 0.0 0.0 0.0 0.0 0.0
0.0 0.0 0.0 0.0 0.005428 0.509453 0.0 0.0
0.0 0.0 0.0 0.0 0.0 0.0 0.38482 164.503285
0.0 0.0 0.0 0.0 0.0 0.0 0.0 0.0
0.38482 164.503285 0.0 0.0 0.0 0.0 0.0 0.0
0.0 0.0
7000.0 1.0 0.0 0.0 0.0 0.0 0.0 0.0 0.0
0.0 0.0 1.0 0.0 0.0 0.0 0.0 0.0
0.0 0.0 0.0 0.0 0.005428 0.652736 0.0 0.0
0.0 0.0 0.0 0.0 0.0 0.0 0.384181 156.528243
0.0 0.0 0.0 0.0 0.0 0.0 0.0 0.0
0.384181 156.528243 0.0 0.0 0.0 0.0 0.0 0.0
0.0 0.0
7100.0 1.0 0.0 0.0 0.0 0.0 0.0 0.0 0.0
0.0 0.0 1.0 0.0 0.0 0.0 0.0 0.0
0.0 0.0 0.0 0.0 0.005431 0.783168 0.0 0.0
0.0 0.0 0.0 0.0 0.0 0.0 0.383513 148.562282
0.0 0.0 0.0 0.0 0.0 0.0 0.0 0.0
0.383513 148.562282 0.0 0.0 0.0 0.0 0.0 0.0
0.0 0.0
7200.0 1.0 0.0 0.0 0.0 0.0 0.0 0.0 0.0
0.0 0.0 1.0 0.0 0.0 0.0 0.0 0.0
0.0 0.0 0.0 0.0 0.005439 0.904377 0.0 0.0
0.0 0.0 0.0 0.0 0.0 0.0 0.382885 140.588467
0.0 0.0 0.0 0.0 0.0 0.0 0.0 0.0
0.382885 140.588467 0.0 0.0 0.0 0.0 0.0 0.0
0.0 0.0
7300.0 1.0 0.0 0.0 0.0 0.0 0.0 0.0 0.0
0.0 0.0 1.0 0.0 0.0 0.0 0.0 0.0
0.0 0.0 0.0 0.0 0.005449 0.991729 0.0 0.0
0.0 0.0 0.0 0.0 0.0 0.0 0.382212 132.622265
0.0 0.0 0.0 0.0 0.0 0.0 0.0 0.0
0.382212 132.622265 0.0 0.0 0.0 0.0 0.0 0.0
0.0 0.0
7400.0 1.0 0.0 0.0 0.0 0.0 0.0 0.0 0.0
0.0 0.0 1.0 0.0 0.0 0.0 0.0 0.0
0.0 0.0 0.0 0.0 0.005462 1.052506 0.0 0.0
0.0 0.0 0.0 0.0 0.0 0.0 0.381593 124.65068
0.0 0.0 0.0 0.0 0.0 0.0 0.0 0.0
0.381593 124.65068 0.0 0.0 0.0 0.0 0.0 0.0
0.0 0.0
7500.0 1.0 0.0 0.0 0.0 0.0 0.0 0.0 0.0
0.0 0.0 1.0 0.0 0.0 0.0 0.0 0.0
0.0 0.0 0.0 0.0 0.005475 1.067679 0.0 0.0
0.0 0.0 0.0 0.0 0.0 0.0 0.380919 116.684744
0.0 0.0 0.0 0.0 0.0 0.0 0.0 0.0
0.380919 116.684744 0.0 0.0 0.0 0.0 0.0 0.0
0.0 0.0
7600.0 1.0 0.0 0.0 0.0 0.0 0.0 0.0 0.0
0.0 0.0 1.0 0.0 0.0 0.0 0.0 0.0
0.0 0.0 0.0 0.0 0.005489 1.050406 0.0 0.0
0.0 0.0 0.0 0.0 0.0 0.0 0.380307 108.716237
0.0 0.0 0.0 0.0 0.0 0.0 0.0 0.0
0.380307 108.716237 0.0 0.0 0.0 0.0 0.0 0.0
0.0 0.0
7700.0 1.0 0.0 0.0 0.0 0.0 0.0 0.0 0.0
0.0 0.0 1.0 0.0 0.0 0.0 0.0 0.0
0.0 0.0 0.0 0.0 0.005501 0.988295 0.0 0.0
0.0 0.0 0.0 0.0 0.0 0.0 0.379637 100.751002
0.0 0.0 0.0 0.0 0.0 0.0 0.0 0.0
0.379637 100.751002 0.0 0.0 0.0 0.0 0.0 0.0
0.0 0.0
7800.0 1.0 0.0 0.0 0.0 0.0 0.0 0.0 0.0
0.0 0.0 1.0 0.0 0.0 0.0 0.0 0.0
0.0 0.0 0.0 0.0 0.005512 0.900381 0.0 0.0
0.0 0.0 0.0 0.0 0.0 0.0 0.379034 92.786048
0.0 0.0 0.0 0.0 0.0 0.0 0.0 0.0
0.379034 92.786048 0.0 0.0 0.0 0.0 0.0 0.0
0.0 0.0
7900.0 1.0 0.0 0.0 0.0 0.0 0.0 0.0 0.0
0.0 0.0 1.0 0.0 0.0 0.0 0.0 0.0
0.0 0.0 0.0 0.0 0.00552 0.779844 0.0 0.0
0.0 0.0 0.0 0.0 0.0 0.0 0.378374 84.821706
0.0 0.0 0.0 0.0 0.0 0.0 0.0 0.0
0.378374 84.821706 0.0 0.0 0.0 0.0 0.0 0.0
0.0 0.0
8000.0 1.0 0.0 0.0 0.0 0.0 0.0 0.0 0.0
0.0 0.0 1.0 0.0 0.0 0.0 0.0 0.0
0.0 0.0 0.0 0.0 0.005524 0.649809 0.0 0.0
0.0 0.0 0.0 0.0 0.0 0.0 0.377783 76.860281
0.0 0.0 0.0 0.0 0.0 0.0 0.0 0.0
0.377783 76.860281 0.0 0.0 0.0 0.0 0.0 0.0
0.0 0.0
8100.0 1.0 0.0 0.0 0.0 0.0 0.0 0.0 0.0
0.0 0.0 1.0 0.0 0.0 0.0 0.0 0.0
0.0 0.0 0.0 0.0 0.005525 0.506587 0.0 0.0
0.0 0.0 0.0 0.0 0.0 0.0 0.37714 68.896719
0.0 0.0 0.0 0.0 0.0 0.0 0.0 0.0
0.37714 68.896719 0.0 0.0 0.0 0.0 0.0 0.0
0.0 0.0
8200.0 1.0 0.0 0.0 0.0 0.0 0.0 0.0 0.0
0.0 0.0 1.0 0.0 0.0 0.0 0.0 0.0
0.0 0.0 0.0 0.0 0.005522 0.374639 0.0 0.0
0.0 0.0 0.0 0.0 0.0 0.0 0.376561 60.938314
