! File created by SignalIntegrity v1.2.1: Signal and Power Integrity Tools
! https://github.com/TeledyneLeCroy/SignalIntegrity
# MHz S MA R 50.0
0.0 0.005299 0.0
500.0 0.005109 1.498768
1000.0 0.005318 3.033638
1500.0 0.00549 1.806376
2000.0 0.005453 0.401602
2500.0 0.005366 0.669141
3000.0 0.005403 1.505423
3500.0 0.005491 1.214578
4000.0 0.005486 0.3392
4500.0 0.005416 0.309019
5000.0 0.005414 1.014989
5500.0 0.005484 1.115017
6000.0 0.005508 0.425977
6500.0 0.005453 0.092611
7000.0 0.005419 0.617004
7500.0 0.005467 1.035992
8000.0 0.005516 0.613658
8500.0 0.005487 0.052784
9000.0 0.005433 0.257754
9500.0 0.005447 0.844056
10000.0 0.005506 0.79386
10500.0 0.005513 0.191287
11000.0 0.00546 0.017326
11500.0 0.005437 0.53617
12000.0 0.005484 0.852445
12500.0 0.005522 0.434312
13000.0 0.005492 -0.030995
13500.0 0.005444 0.204665
14000.0 0.00546 0.730317
14500.0 0.005513 0.657879
15000.0 0.005517 0.111669
15500.0 0.005467 -0.023664
16000.0 0.005447 0.46007
16500.0 0.00549 0.744634
17000.0 0.005525 0.360493
17500.0 0.005496 -0.062888
18000.0 0.005453 0.154777
18500.0 0.005466 0.641669
19000.0 0.005515 0.58487
19500.0 0.005519 0.084104
20000.0 0.005474 -0.050843
20500.0 0.005454 0.390713
21000.0 0.005493 0.668894
21500.0 0.005526 0.328377
22000.0 0.005501 -0.072946
22500.0 0.00546 0.109775
23000.0 0.00547 0.566909
23500.0 0.005515 0.539826
24000.0 0.005521 0.079851
24500.0 0.00548 -0.069327
25000.0 0.005459 0.327739
25500.0 0.005493 0.60926
26000.0 0.005526 0.31582
26500.0 0.005505 -0.071207
27000.0 0.005466 0.070232
27500.0 0.005472 0.500905
28000.0 0.005514 0.508528
28500.0 0.005523 0.087534
29000.0 0.005486 -0.081058
29500.0 0.005464 0.270646
30000.0 0.005493 0.558404
30500.0 0.005525 0.312959
31000.0 0.005509 -0.062114
31500.0 0.005471 0.036294
32000.0 0.005474 0.441024
32500.0 0.005513 0.484085
33000.0 0.005524 0.101626
33500.0 0.005491 -0.087074
34000.0 0.005467 0.219062
34500.0 0.005492 0.512564
35000.0 0.005524 0.314694
35500.0 0.005512 -0.048078
36000.0 0.005476 0.007919
36500.0 0.005475 0.385855
37000.0 0.005511 0.462806
37500.0 0.005525 0.119029
38000.0 0.005496 -0.088105
38500.0 0.005471 0.172737
39000.0 0.005491 0.469707
39500.0 0.005523 0.318124
40000.0 0.005515 -0.030641
40500.0 0.005481 -0.015047
41000.0 0.005477 0.334651
41500.0 0.005509 0.442608
42000.0 0.005525 0.137814
42500.0 0.0055 -0.084772
43000.0 0.005474 0.131505
43500.0 0.00549 0.42874
44000.0 0.005521 0.321495
44500.0 0.005517 -0.010921
45000.0 0.005486 -0.032826
45500.0 0.005478 0.287041
46000.0 0.005507 0.422307
46500.0 0.005525 0.156683
47000.0 0.005504 -0.077657
47500.0 0.005478 0.095239
48000.0 0.00549 0.389114
48500.0 0.005519 0.323715
49000.0 0.005519 0.010201
49500.0 0.00549 -0.045697
50000.0 0.005479 0.242873
50500.0 0.005505 0.401256
51000.0 0.005524 0.174719
51500.0 0.005507 -0.067326
52000.0 0.005481 0.063824
52500.0 0.005489 0.35061
53000.0 0.005517 0.32411
53500.0 0.00552 0.031989
54000.0 0.005494 -0.053984
54500.0 0.005481 0.202116
55000.0 0.005503 0.379153
55500.0 0.005523 0.191255
56000.0 0.00551 -0.054336
56500.0 0.005484 0.037136
57000.0 0.005489 0.313214
57500.0 0.005515 0.32228
58000.0 0.005521 0.053812
58500.0 0.005497 -0.058053
59000.0 0.005483 0.164805
59500.0 0.005501 0.355924
60000.0 0.005522 0.205801
60500.0 0.005512 -0.039236
61000.0 0.005488 0.015029
61500.0 0.005488 0.277037
62000.0 0.005513 0.31803
62500.0 0.005522 0.075125
63000.0 0.005501 -0.058298
63500.0 0.005484 0.130997
64000.0 0.005499 0.331649
64500.0 0.005521 0.218011
65000.0 0.005515 -0.02256
65500.0 0.005491 -0.002675
66000.0 0.005489 0.242264
66500.0 0.005511 0.311308
67000.0 0.005522 0.095454
67500.0 0.005504 -0.055143
68000.0 0.005486 0.100749
68500.0 0.005498 0.306512
69000.0 0.00552 0.227649
69500.0 0.005516 -0.004824
70000.0 0.005494 -0.016189
70500.0 0.005489 0.209117
71000.0 0.005509 0.302174
71500.0 0.005522 0.114397
72000.0 0.005507 -0.049026
72500.0 0.005489 0.074097
73000.0 0.005497 0.28077
73500.0 0.005518 0.23458
74000.0 0.005518 0.013481
74500.0 0.005497 -0.025759
75000.0 0.00549 0.177828
75500.0 0.005507 0.290777
76000.0 0.005521 0.131619
76500.0 0.005509 -0.040401
77000.0 0.005491 0.051045
77500.0 0.005496 0.254721
78000.0 0.005516 0.238749
78500.0 0.005519 0.031895
79000.0 0.0055 -0.031667
79500.0 0.00549 0.148619
80000.0 0.005506 0.277332
80500.0 0.005521 0.146848
81000.0 0.005511 -0.029721
81500.0 0.005493 0.031563
82000.0 0.005496 0.228684
82500.0 0.005515 0.240177
83000.0 0.005519 0.049995
83500.0 0.005502 -0.034225
84000.0 0.005491 0.121693
84500.0 0.005504 0.262102
85000.0 0.00552 0.159878
85500.0 0.005513 -0.01744
86000.0 0.005495 0.015577
86500.0 0.005495 0.202988
87000.0 0.005513 0.23895
87500.0 0.00552 0.067397
88000.0 0.005505 -0.033768
88500.0 0.005493 0.09722
89000.0 0.005503 0.24539
89500.0 0.005519 0.170565
90000.0 0.005515 -0.003999
90500.0 0.005498 0.002973
91000.0 0.005495 0.177954
91500.0 0.005511 0.235208
92000.0 0.00552 0.083765
92500.0 0.005507 -0.030654
93000.0 0.005494 0.075331
93500.0 0.005502 0.227519
94000.0 0.005517 0.178824
94500.0 0.005516 0.010177
95000.0 0.0055 -0.006402
95500.0 0.005495 0.153885
96000.0 0.00551 0.22914
96500.0 0.00552 0.098807
97000.0 0.005509 -0.025253
97500.0 0.005496 0.056116
98000.0 0.005501 0.208826
98500.0 0.005516 0.184629
99000.0 0.005517 0.024687
99500.0 0.005502 -0.012741
100000.0 0.005496 0.131058
100500.0 0.005195 0.0
101000.0 0.005195 0.0
101500.0 0.005195 0.0
102000.0 0.005195 0.0
102500.0 0.005195 0.0
103000.0 0.005195 0.0
103500.0 0.005195 0.0
104000.0 0.005195 0.0
104500.0 0.005195 0.0
105000.0 0.005195 0.0
105500.0 0.005195 0.0
106000.0 0.005195 0.0
106500.0 0.005195 0.0
107000.0 0.005195 0.0
107500.0 0.005195 0.0
108000.0 0.005195 0.0
108500.0 0.005195 0.0
109000.0 0.005195 0.0
109500.0 0.005195 0.0
110000.0 0.005195 0.0
110500.0 0.005195 0.0
111000.0 0.005195 0.0
111500.0 0.005195 0.0
112000.0 0.005195 0.0
