! File created by SignalIntegrity v1.3.3: Signal and Power Integrity Tools
! https://github.com/TeledyneLeCroy/SignalIntegrity
# MHz S MA R 50.0
0.0 0.005282 0.0
100.0 0.005197 -0.753333
200.0 0.005144 -0.168432
300.0 0.005119 0.241257
400.0 0.005112 0.936566
500.0 0.005122 1.469129
600.0 0.005147 2.070441
700.0 0.005184 2.469546
800.0 0.005229 2.831253
900.0 0.005279 2.980997
1000.0 0.00533 3.059461
1100.0 0.005378 2.954184
1200.0 0.005421 2.792642
1300.0 0.005457 2.500557
1400.0 0.005484 2.192902
1500.0 0.005501 1.81645
1600.0 0.005509 1.47224
1700.0 0.005507 1.116362
1800.0 0.005498 0.834391
1900.0 0.005483 0.583545
2000.0 0.005464 0.43252
2100.0 0.005442 0.333938
2200.0 0.005421 0.338901
2300.0 0.005402 0.392536
2400.0 0.005386 0.529842
2500.0 0.005377 0.689525
2600.0 0.005373 0.895472
2700.0 0.005375 1.085197
2800.0 0.005383 1.279232
2900.0 0.005396 1.420978
3000.0 0.005413 1.535053
3100.0 0.005433 1.576029
3200.0 0.005453 1.57662
3300.0 0.005472 1.503806
3400.0 0.005488 1.398198
3500.0 0.005502 1.236779
3600.0 0.00551 1.064983
3700.0 0.005514 0.865511
3800.0 0.005512 0.684448
3900.0 0.005506 0.505566
4000.0 0.005496 0.371471
4100.0 0.005482 0.262857
4200.0 0.005467 0.215418
4300.0 0.005452 0.203771
4400.0 0.005438 0.25465
4500.0 0.005425 0.335564
4600.0 0.005416 0.464502
4700.0 0.005412 0.603536
4800.0 0.005411 0.764808
4900.0 0.005415 0.909148
5000.0 0.005423 1.047582
5100.0 0.005435 1.1448
5200.0 0.005449 1.215285
5300.0 0.005464 1.231367
5400.0 0.005479 1.213487
5500.0 0.005493 1.142726
5600.0 0.005505 1.045316
5700.0 0.005514 0.90964
5800.0 0.005519 0.765548
5900.0 0.00552 0.605705
6000.0 0.005517 0.460444
6100.0 0.00551 0.323132
6200.0 0.0055 0.22132
6300.0 0.005488 0.145692
6400.0 0.005475 0.118253
6500.0 0.005462 0.124471
6600.0 0.005449 0.179231
6700.0 0.005439 0.261854
6800.0 0.005431 0.380445
6900.0 0.005428 0.509453
7000.0 0.005428 0.652736
7100.0 0.005431 0.783168
7200.0 0.005439 0.904377
7300.0 0.005449 0.991729
7400.0 0.005462 1.052506
7500.0 0.005475 1.067679
7600.0 0.005489 1.050406
7700.0 0.005501 0.988295
7800.0 0.005512 0.900381
7900.0 0.00552 0.779844
8000.0 0.005524 0.649809
8100.0 0.005525 0.506587
8200.0 0.005522 0.374639
8300.0 0.005516 0.250393
8400.0 0.005507 0.156657
8500.0 0.005496 0.08706
8600.0 0.005483 0.060128
8700.0 0.005471 0.064479
8800.0 0.005459 0.112722
8900.0 0.005449 0.187641
9000.0 0.005442 0.295938
9100.0 0.005437 0.415668
9200.0 0.005437 0.549586
9300.0 0.00544 0.673949
9400.0 0.005446 0.79094
9500.0 0.005455 0.878761
9600.0 0.005466 0.94246
9700.0 0.005479 0.965236
9800.0 0.005492 0.957138
9900.0 0.005504 0.907616
10000.0 0.005514 0.831938
10100.0 0.005522 0.725119
10200.0 0.005527 0.606197
10300.0 0.005528 0.473683
10400.0 0.005526 0.347959
10500.0 0.005521 0.228294
10600.0 0.005513 0.133689
10700.0 0.005503 0.0614
10800.0 0.005491 0.026578
10900.0 0.005479 0.022234
11000.0 0.005468 0.058051
11100.0 0.005458 0.121729
11200.0 0.00545 0.217315
11300.0 0.005445 0.327837
11400.0 0.005443 0.453341
11500.0 0.005445 0.574558
11600.0 0.00545 0.690586
11700.0 0.005458 0.783186
11800.0 0.005468 0.85386
11900.0 0.005479 0.888335
12000.0 0.005491 0.892852
12100.0 0.005503 0.85856
12200.0 0.005513 0.797021
12300.0 0.005522 0.704469
12400.0 0.005527 0.596718
12500.0 0.00553 0.473359
12600.0 0.005529 0.352314
12700.0 0.005526 0.234061
12800.0 0.005519 0.136056
12900.0 0.00551 0.057059
13000.0 0.005499 0.011607
13100.0 0.005488 -0.005453
13200.0 0.005476 0.015711
13300.0 0.005466 0.064828
13400.0 0.005458 0.146491
13500.0 0.005452 0.245632
13600.0 0.005449 0.362717
13700.0 0.005449 0.479886
13800.0 0.005452 0.596045
13900.0 0.005459 0.693635
14000.0 0.005467 0.773126
14100.0 0.005478 0.820266
14200.0 0.005489 0.839511
14300.0 0.005501 0.821714
14400.0 0.005511 0.776216
14500.0 0.00552 0.699075
14600.0 0.005527 0.60381
14700.0 0.005531 0.490329
14800.0 0.005531 0.374477
14900.0 0.005529 0.257791
15000.0 0.005524 0.156054
15100.0 0.005516 0.069928
15200.0 0.005507 0.01275
15300.0 0.005496 -0.017941
15400.0 0.005485 -0.013117
15500.0 0.005474 0.020187
15600.0 0.005465 0.085908
15700.0 0.005458 0.172314
15800.0 0.005454 0.27898
15900.0 0.005453 0.390949
16000.0 0.005454 0.505652
16100.0 0.005459 0.607597
16200.0 0.005466 0.695065
16300.0 0.005476 0.754943
16400.0 0.005486 0.788973
16500.0 0.005497 0.78844
16600.0 0.005508 0.759849
16700.0 0.005517 0.69936
16800.0 0.005525 0.617973
16900.0 0.00553 0.515736
17000.0 0.005532 0.406626
17100.0 0.005531 0.292621
17200.0 0.005528 0.188474
17300.0 0.005522 0.095734
17400.0 0.005513 0.02759
17500.0 0.005503 -0.017075
17600.0 0.005493 -0.028622
17700.0 0.005482 -0.012436
17800.0 0.005473 0.036475
17900.0 0.005465 0.108013
18000.0 0.005459 0.202774
18100.0 0.005457 0.307002
18200.0 0.005457 0.418619
18300.0 0.00546 0.522587
18400.0 0.005465 0.616836
18500.0 0.005473 0.687923
18600.0 0.005483 0.736429
18700.0 0.005493 0.752789
18800.0 0.005504 0.741831
18900.0 0.005513 0.69879
19000.0 0.005522 0.63287
19100.0 0.005528 0.543548
19200.0 0.005532 0.443221
19300.0 0.005533 0.333958
19400.0 0.005531 0.22937
19500.0 0.005526 0.131913
19600.0 0.005519 0.054161
19700.0 0.00551 -0.003275
19800.0 0.0055 -0.030891
19900.0 0.00549 -0.031699
20000.0 0.00548 -0.000571
20100.0 0.005472 0.055047
20200.0 0.005465 0.135789
20300.0 0.005461 0.230337
20400.0 0.005459 0.336142
20500.0 0.005461 0.439929
20600.0 0.005465 0.538398
20700.0 0.005471 0.618975
20800.0 0.005479 0.680292
20900.0 0.005489 0.712873
21000.0 0.005499 0.719207
21100.0 0.005509 0.694189
21200.0 0.005518 0.644737
21300.0 0.005525 0.569953
21400.0 0.00553 0.480411
21500.0 0.005533 0.378088
21600.0 0.005532 0.275491
21700.0 0.005529 0.17546
21800.0 0.005524 0.090301
21900.0 0.005516 0.021537
22000.0 0.005507 -0.020803
22100.0 0.005498 -0.03838
22200.0 0.005488 -0.024975
22300.0 0.005479 0.013499
22400.0 0.005471 0.078941
22500.0 0.005466 0.161346
22600.0 0.005463 0.259114
22700.0 0.005462 0.359669
22800.0 0.005465 0.459943
22900.0 0.005469 0.547249
23000.0 0.005476 0.619606
23100.0 0.005485 0.666723
23200.0 0.005494 0.689817
23300.0 0.005504 0.682626
23400.0 0.005513 0.650511
23500.0 0.005521 0.591529
23600.0 0.005527 0.514787
23700.0 0.005531 0.421706
23800.0 0.005533 0.323705
23900.0 0.005531 0.223791
24000.0 0.005528 0.133708
24100.0 0.005522 0.055953
24200.0 0.005514 0.000536
24300.0 0.005505 -0.032505
24400.0 0.005495 -0.036559
24500.0 0.005486 -0.015372
24600.0 0.005478 0.033457
24700.0 0.005471 0.102135
24800.0 0.005467 0.189272
24900.0 0.005465 0.284072
25000.0 0.005465 0.383025
25100.0 0.005468 0.474447
25200.0 0.005474 0.555129
25300.0 0.005481 0.61495
25400.0 0.00549 0.653284
25500.0 0.005499 0.663444
25600.0 0.005508 0.648716
25700.0 0.005517 0.606524
25800.0 0.005524 0.544104
25900.0 0.005529 0.462402
26000.0 0.005532 0.37151
26100.0 0.005532 0.274378
26200.0 0.00553 0.182165
26300.0 0.005526 0.097851
26400.0 0.005519 0.031651
26500.0 0.005511 -0.015391
26600.0 0.005502 -0.035786
26700.0 0.005493 -0.031922
26800.0 0.005484 -0.000134
26900.0 0.005477 0.053166
27000.0 0.005471 0.127804
27100.0 0.005468 0.213985
27200.0 0.005467 0.308917
27300.0 0.005468 0.40121
27400.0 0.005472 0.487597
27500.0 0.005478 0.557467
27600.0 0.005486 0.609372
27700.0 0.005494 0.635566
27800.0 0.005503 0.638027
27900.0 0.005512 0.612952
28000.0 0.00552 0.566166
28100.0 0.005526 0.497635
28200.0 0.00553 0.416282
28300.0 0.005532 0.324644
28400.0 0.005532 0.233173
28500.0 0.005529 0.14517
28600.0 0.005524 0.070699
28700.0 0.005517 0.011879
28800.0 0.005509 -0.023447
28900.0 0.0055 -0.035989
29000.0 0.005491 -0.021427
29100.0 0.005483 0.015799
29200.0 0.005477 0.076126
29300.0 0.005472 0.151578
29400.0 0.005469 0.239539
29500.0 0.005469 0.329874
29600.0 0.005471 0.41877
29700.0 0.005476 0.496084
29800.0 0.005482 0.559088
29900.0 0.00549 0.599782
30000.0 0.005498 0.618382
30100.0 0.005507 0.610412
30200.0 0.005515 0.579856
30300.0 0.005522 0.525974
30400.0 0.005528 0.456161
30500.0 0.005531 0.372529
30600.0 0.005532 0.284603
30700.0 0.005531 0.195744
30800.0 0.005527 0.11582
30900.0 0.005521 0.047559
31000.0 0.005514 -0.000672
31100.0 0.005506 -0.028501
31200.0 0.005498 -0.030541
31300.0 0.00549 -0.009912
31400.0 0.005482 0.035098
31500.0 0.005476 0.097716
31600.0 0.005472 0.176375
31700.0 0.005471 0.261644
31800.0 0.005471 0.350161
31900.0 0.005474 0.431748
32000.0 0.005479 0.503364
32100.0 0.005486 0.556267
32200.0 0.005494 0.589717
32300.0 0.005502 0.598072
32400.0 0.00551 0.584034
32500.0 0.005518 0.545675
32600.0 0.005524 0.489151
32700.0 0.005529 0.415737
32800.0 0.005531 0.334057
32900.0 0.005531 0.247241
33000.0 0.005529 0.164762
33100.0 0.005525 0.089835
33200.0 0.005519 0.030975
33300.0 0.005512 -0.010283
33400.0 0.005504 -0.027968
33500.0 0.005496 -0.023561
33600.0 0.005488 0.005416
33700.0 0.005481 0.053953
33800.0 0.005476 0.121067
33900.0 0.005473 0.198792
34000.0 0.005472 0.283814
34100.0 0.005474 0.36678
34200.0 0.005477 0.443974
34300.0 0.005483 0.506734
34400.0 0.005489 0.552993
34500.0 0.005497 0.576597
34600.0 0.005505 0.578582
34700.0 0.005513 0.556244
34800.0 0.00552 0.514125
34900.0 0.005525 0.452821
35000.0 0.005529 0.379735
35100.0 0.005531 0.297686
35200.0 0.00553 0.215549
35300.0 0.005528 0.136741
35400.0 0.005523 0.069878
35500.0 0.005517 0.017225
35600.0 0.00551 -0.014511
35700.0 0.005502 -0.025687
35800.0 0.005494 -0.012681
35900.0 0.005487 0.020743
36000.0 0.005481 0.074798
36100.0 0.005477 0.142515
36200.0 0.005474 0.221424
36300.0 0.005474 0.302597
36400.0 0.005476 0.382511
36500.0 0.00548 0.452208
36600.0 0.005486 0.509106
36700.0 0.005493 0.546153
36800.0 0.0055 0.563352
36900.0 0.005508 0.556816
37000.0 0.005515 0.529872
37100.0 0.005522 0.48203
37200.0 0.005526 0.419637
37300.0 0.00553 0.344845
37400.0 0.00553 0.265871
37500.0 0.005529 0.186091
37600.0 0.005526 0.113981
37700.0 0.005521 0.052444
37800.0 0.005515 0.008552
37900.0 0.005508 -0.016827
38000.0 0.0055 -0.019352
38100.0 0.005493 -0.001221
38200.0 0.005486 0.03856
38300.0 0.005481 0.094567
38400.0 0.005477 0.164816
38500.0 0.005475 0.241517
38600.0 0.005476 0.321038
38700.0 0.005478 0.394896
38800.0 0.005483 0.459711
38900.0 0.005489 0.508227
39000.0 0.005496 0.539106
39100.0 0.005503 0.547798
39200.0 0.005511 0.536077
39300.0 0.005517 0.502665
39400.0 0.005523 0.452508
39500.0 0.005527 0.38717
39600.0 0.005529 0.313918
39700.0 0.00553 0.235955
39800.0 0.005528 0.161435
39900.0 0.005524 0.093602
40000.0 0.005519 0.039862
40100.0 0.005513 0.001905
40200.0 0.005505 -0.015057
40300.0 0.005498 -0.012092
40400.0 0.005491 0.012942
40500.0 0.005485 0.05576
40600.0 0.00548 0.115437
40700.0 0.005478 0.184974
40800.0 0.005477 0.26136
40900.0 0.005478 0.336287
41000.0 0.005481 0.406341
41100.0 0.005485 0.463769
41200.0 0.005491 0.50657
41300.0 0.005498 0.529206
41400.0 0.005506 0.532395
41500.0 0.005513 0.513713
41600.0 0.005519 0.476989
41700.0 0.005524 0.422835
41800.0 0.005528 0.357643
41900.0 0.005529 0.284131
42000.0 0.005529 0.210015
42100.0 0.005527 0.138673
42200.0 0.005523 0.077581
42300.0 0.005517 0.029192
42400.0 0.005511 -0.00076
42500.0 0.005504 -0.012091
42600.0 0.005497 -0.001877
42700.0 0.00549 0.027064
42800.0 0.005485 0.07454
42900.0 0.005481 0.134876
43000.0 0.005478 0.205408
43100.0 0.005478 0.278673
43200.0 0.00548 0.350988
43300.0 0.005483 0.414794
43400.0 0.005488 0.467187
43500.0 0.005494 0.502233
43600.0 0.005501 0.519316
43700.0 0.005508 0.51528
43800.0 0.005515 0.492525
43900.0 0.00552 0.450916
44000.0 0.005525 0.395655
44100.0 0.005528 0.328985
44200.0 0.005529 0.257917
44300.0 0.005528 0.185801
44400.0 0.005525 0.12002
44500.0 0.005521 0.063496
44600.0 0.005515 0.022468
44700.0 0.005509 -0.00199
44800.0 0.005502 -0.006009
44900.0 0.005495 0.008694
45000.0 0.005489 0.04303
45100.0 0.005484 0.092323
45200.0 0.005481 0.154814
45300.0 0.005479 0.223622
45400.0 0.005479 0.295467
45500.0 0.005481 0.36275
45600.0 0.005485 0.422341
45700.0 0.00549 0.46766
45800.0 0.005497 0.497329
45900.0 0.005503 0.507167
46000.0 0.00551 0.498534
46100.0 0.005516 0.470222
46200.0 0.005522 0.426435
46300.0 0.005525 0.368612
46400.0 0.005528 0.303067
46500.0 0.005528 0.232841
46600.0 0.005527 0.165075
46700.0 0.005524 0.102982
46800.0 0.005519 0.053042
46900.0 0.005513 0.017186
47000.0 0.005507 -8.8e-05
47100.0 0.0055 0.000749
47200.0 0.005494 0.021399
47300.0 0.005488 0.058535
47400.0 0.005484 0.11104
47500.0 0.005481 0.173135
47600.0 0.00548 0.241738
47700.0 0.005481 0.309834
47800.0 0.005483 0.373875
47900.0 0.005487 0.427253
48000.0 0.005493 0.467611
48100.0 0.005499 0.490243
48200.0 0.005505 0.495213
48300.0 0.005512 0.480561
48400.0 0.005518 0.449198
48500.0 0.005522 0.401891
48600.0 0.005526 0.343965
48700.0 0.005527 0.278112
48800.0 0.005527 0.210989
48900.0 0.005525 0.145915
49000.0 0.005522 0.089472
49100.0 0.005517 0.044164
49200.0 0.005511 0.015121
49300.0 0.005505 0.002798
49400.0 0.005499 0.009869
49500.0 0.005493 0.034052
49600.0 0.005488 0.075246
49700.0 0.005484 0.128526
49800.0 0.005481 0.19154
49900.0 0.005481 0.257657
50000.0 0.005482 0.323533
50100.0 0.005485 0.382338
50200.0 0.005489 0.431336
50300.0 0.005495 0.465071
50400.0 0.005501 0.482784
50500.0 0.005507 0.481497
50600.0 0.005513 0.463126
50700.0 0.005519 0.427463
50800.0 0.005523 0.378962
50900.0 0.005526 0.319664
51000.0 0.005527 0.2557
51100.0 0.005526 0.190247
51200.0 0.005524 0.129815
51300.0 0.00552 0.077335
51400.0 0.005515 0.038311
51500.0 0.00551 0.014122
51600.0 0.005503 0.008132
51700.0 0.005497 0.019272
51800.0 0.005492 0.048204
51900.0 0.005487 0.091212
52000.0 0.005484 0.146474
52100.0 0.005482 0.208247
52200.0 0.005482 0.273234
52300.0 0.005484 0.334959
52400.0 0.005487 0.390145
52500.0 0.005491 0.43313
52600.0 0.005497 0.462136
52700.0 0.005503 0.473578
52800.0 0.005509 0.468133
52900.0 0.005515 0.444863
53000.0 0.00552 0.407072
53100.0 0.005523 0.356224
53200.0 0.005526 0.297649
53300.0 0.005526 0.234305
53400.0 0.005525 0.17241
53500.0 0.005523 0.11513
53600.0 0.005519 0.068226
53700.0 0.005514 0.033733
53800.0 0.005508 0.015734
53900.0 0.005502 0.014094
54000.0 0.005496 0.030437
54100.0 0.005491 0.06201
54200.0 0.005487 0.107899
54300.0 0.005484 0.163059
54400.0 0.005483 0.224751
54500.0 0.005483 0.286697
54600.0 0.005485 0.345648
54700.0 0.005489 0.395574
54800.0 0.005493 0.434196
54900.0 0.005499 0.457117
55000.0 0.005505 0.464169
55100.0 0.005511 0.453426
55200.0 0.005516 0.427266
55300.0 0.00552 0.386291
55400.0 0.005524 0.335091
55500.0 0.005525 0.276128
55600.0 0.005526 0.215251
55700.0 0.005524 0.155636
55800.0 0.005521 0.103118
55900.0 0.005517 0.060274
56000.0 0.005512 0.03166
56100.0 0.005506 0.018104
56200.0 0.0055 0.021943
56300.0 0.005495 0.041585
56400.0 0.00549 0.076815
56500.0 0.005486 0.123652
56600.0 0.005484 0.179758
56700.0 0.005483 0.239546
56800.0 0.005484 0.299666
56900.0 0.005487 0.354249
57000.0 0.00549 0.400371
57100.0 0.005495 0.433301
57200.0 0.005501 0.451831
57300.0 0.005506 0.453393
57400.0 0.005512 0.439198
57500.0 0.005517 0.409169
57600.0 0.005521 0.366887
57700.0 0.005524 0.314344
57800.0 0.005525 0.256766
57900.0 0.005525 0.197235
58000.0 0.005523 0.141466
58100.0 0.00552 0.092377
58200.0 0.005515 0.054908
58300.0 0.00551 0.030604
58400.0 0.005504 0.022571
58500.0 0.005499 0.030136
58600.0 0.005494 0.054005
58700.0 0.005489 0.091061
58800.0 0.005486 0.139752
58900.0 0.005484 0.195032
59000.0 0.005484 0.253939
59100.0 0.005485 0.310642
59200.0 0.005488 0.362091
59300.0 0.005492 0.40307
59400.0 0.005497 0.431785
59500.0 0.005502 0.444827
59600.0 0.005508 0.442561
59700.0 0.005513 0.423982
59800.0 0.005518 0.391828
59900.0 0.005521 0.347349
60000.0 0.005524 0.295162
60100.0 0.005524 0.238001
60200.0 0.005524 0.181357
60300.0 0.005522 0.128295
60400.0 0.005518 0.083952
60500.0 0.005514 0.050504
60600.0 0.005508 0.031599
60700.0 0.005503 0.02754
60800.0 0.005498 0.039744
60900.0 0.005493 0.066178
61000.0 0.005489 0.105908
61100.0 0.005486 0.154798
61200.0 0.005485 0.210161
61300.0 0.005485 0.266666
61400.0 0.005486 0.321033
61500.0 0.005489 0.368045
61600.0 0.005493 0.405186
61700.0 0.005498 0.428617
61800.0 0.005504 0.437673
61900.0 0.005509 0.430695
62000.0 0.005514 0.409346
62100.0 0.005518 0.37426
62200.0 0.005521 0.329191
62300.0 0.005523 0.276514
62400.0 0.005524 0.221258
62500.0 0.005523 0.166513
62600.0 0.00552 0.117443
62700.0 0.005516 0.076658
62800.0 0.005512 0.048287
62900.0 0.005507 0.033388
63000.0 0.005501 0.034165
63100.0 0.005496 0.049469
63200.0 0.005492 0.079222
63300.0 0.005488 0.120046
63400.0 0.005486 0.169903
63500.0 0.005485 0.223854
63600.0 0.005486 0.278853
63700.0 0.005488 0.329576
63800.0 0.005491 0.373252
63900.0 0.005495 0.405475
64000.0 0.0055 0.424933
64100.0 0.005505 0.429127
64200.0 0.00551 0.418895
64300.0 0.005515 0.39402
64400.0 0.005519 0.357504
64500.0 0.005521 0.311102
64600.0 0.005523 0.259366
64700.0 0.005523 0.205175
64800.0 0.005521 0.1536
64900.0 0.005519 0.107515
65000.0 0.005515 0.07135
65100.0 0.00551 0.046856
65200.0 0.005505 0.036826
65300.0 0.0055 0.041077
65400.0 0.005495 0.06021
65500.0 0.005491 0.091845
65600.0 0.005488 0.134462
65700.0 0.005486 0.183887
65800.0 0.005486 0.237211
65900.0 0.005486 0.28945
66000.0 0.005489 0.337486
66100.0 0.005492 0.376778
66200.0 0.005496 0.405241
66300.0 0.005501 0.419883
66400.0 0.005506 0.420537
66500.0 0.005511 0.406351
66600.0 0.005515 0.379347
66700.0 0.005519 0.340745
66800.0 0.005521 0.294372
66900.0 0.005522 0.242859
67000.0 0.005522 0.190964
67100.0 0.00552 0.141696
67200.0 0.005517 0.099633
67300.0 0.005513 0.067037
67400.0 0.005509 0.047251
67500.0 0.005504 0.040864
67600.0 0.005499 0.04926
67700.0 0.005494 0.070887
67800.0 0.00549 0.105002
67900.0 0.005488 0.14807
68000.0 0.005486 0.197703
68100.0 0.005486 0.24916
68200.0 0.005487 0.299418
68300.0 0.00549 0.343709
68400.0 0.005493 0.379588
68500.0 0.005498 0.403439
68600.0 0.005502 0.414416
68700.0 0.005507 0.410846
68800.0 0.005512 0.393969
68900.0 0.005516 0.364238
69000.0 0.005519 0.324825
69100.0 0.005521 0.277867
69200.0 0.005522 0.227766
69300.0 0.005521 0.177448
69400.0 0.005519 0.131514
69500.0 0.005516 0.09259
69600.0 0.005512 0.0644
69700.0 0.005507 0.048269
69800.0 0.005502 0.046191
69900.0 0.005498 0.057551
70000.0 0.005493 0.082237
70100.0 0.00549 0.117609
70200.0 0.005487 0.161695
70300.0 0.005486 0.210373
70400.0 0.005487 0.260632
70500.0 0.005488 0.307897
70600.0 0.005491 0.349279
70700.0 0.005495 0.380926
70800.0 0.005499 0.401181
70900.0 0.005504 0.407848
71000.0 0.005508 0.401201
71100.0 0.005513 0.381097
71200.0 0.005516 0.349828
71300.0 0.005519 0.309085
71400.0 0.00552 0.262677
71500.0 0.005521 0.213389
71600.0 0.00552 0.165645
71700.0 0.005517 0.1223
71800.0 0.005514 0.08733
71900.0 0.00551 0.062628
72000.0 0.005505 0.050784
72100.0 0.005501 0.051951
72200.0 0.005496 0.066776
72300.0 0.005492 0.093379
72400.0 0.005489 0.13047
72500.0 0.005487 0.17445
72600.0 0.005487 0.222697
72700.0 0.005487 0.27075
72800.0 0.005489 0.315688
72900.0 0.005492 0.35333
73000.0 0.005496 0.381586
73100.0 0.0055 0.397596
73200.0 0.005505 0.400948
73300.0 0.005509 0.390712
73400.0 0.005513 0.368456
73500.0 0.005516 0.335193
73600.0 0.005519 0.294182
73700.0 0.00552 0.24783
73800.0 0.00552 0.200321
73900.0 0.005519 0.154544
74000.0 0.005516 0.114596
74100.0 0.005513 0.08282
74200.0 0.005508 0.062239
74300.0 0.005504 0.053773
74400.0 0.005499 0.058675
74500.0 0.005495 0.075958
74600.0 0.005492 0.104898
74700.0 0.005489 0.142687
74800.0 0.005487 0.187009
74900.0 0.005487 0.233882
75000.0 0.005488 0.280287
75100.0 0.00549 0.322107
75200.0 0.005493 0.356727
75300.0 0.005497 0.380978
75400.0 0.005501 0.393618
75500.0 0.005505 0.393188
75600.0 0.00551 0.380339
75700.0 0.005513 0.355544
75800.0 0.005516 0.321281
75900.0 0.005518 0.279606
76000.0 0.005519 0.234233
76100.0 0.005519 0.188017
76200.0 0.005517 0.144989
76300.0 0.005515 0.107809
76400.0 0.005511 0.079835
76500.0 0.005507 0.062593
76600.0 0.005502 0.057955
76700.0 0.005498 0.065686
76800.0 0.005494 0.085776
76900.0 0.005491 0.116098
77000.0 0.005488 0.154921
77100.0 0.005487 0.198668
