! File created by SignalIntegrity v1.2.1: Signal and Power Integrity Tools
! https://github.com/TeledyneLeCroy/SignalIntegrity
# MHz S MA R 50.0
0.0 1.0 0.0 0.0 0.0 0.0 0.0 1.0 0.0
0.0 0.0 0.0 0.0 0.005299 0.0 0.0 0.0
0.0 0.0
500.0 1.0 0.0 0.0 0.0 0.0 0.0 1.0 0.0
0.0 0.0 0.0 0.0 0.005109 1.498768 0.0 0.0
0.0 0.0
1000.0 1.0 0.0 0.0 0.0 0.0 0.0 1.0 0.0
0.0 0.0 0.0 0.0 0.005318 3.033638 0.0 0.0
0.0 0.0
1500.0 1.0 0.0 0.0 0.0 0.0 0.0 1.0 0.0
0.0 0.0 0.0 0.0 0.00549 1.806376 0.0 0.0
0.0 0.0
2000.0 1.0 0.0 0.0 0.0 0.0 0.0 1.0 0.0
0.0 0.0 0.0 0.0 0.005453 0.401602 0.0 0.0
0.0 0.0
2500.0 1.0 0.0 0.0 0.0 0.0 0.0 1.0 0.0
0.0 0.0 0.0 0.0 0.005366 0.669141 0.0 0.0
0.0 0.0
3000.0 1.0 0.0 0.0 0.0 0.0 0.0 1.0 0.0
0.0 0.0 0.0 0.0 0.005403 1.505423 0.0 0.0
0.0 0.0
3500.0 1.0 0.0 0.0 0.0 0.0 0.0 1.0 0.0
0.0 0.0 0.0 0.0 0.005491 1.214578 0.0 0.0
0.0 0.0
4000.0 1.0 0.0 0.0 0.0 0.0 0.0 1.0 0.0
0.0 0.0 0.0 0.0 0.005486 0.3392 0.0 0.0
0.0 0.0
4500.0 1.0 0.0 0.0 0.0 0.0 0.0 1.0 0.0
0.0 0.0 0.0 0.0 0.005416 0.309019 0.0 0.0
0.0 0.0
5000.0 1.0 0.0 0.0 0.0 0.0 0.0 1.0 0.0
0.0 0.0 0.0 0.0 0.005414 1.014989 0.0 0.0
0.0 0.0
5500.0 1.0 0.0 0.0 0.0 0.0 0.0 1.0 0.0
0.0 0.0 0.0 0.0 0.005484 1.115017 0.0 0.0
0.0 0.0
6000.0 1.0 0.0 0.0 0.0 0.0 0.0 1.0 0.0
0.0 0.0 0.0 0.0 0.005508 0.425977 0.0 0.0
0.0 0.0
6500.0 1.0 0.0 0.0 0.0 0.0 0.0 1.0 0.0
0.0 0.0 0.0 0.0 0.005453 0.092611 0.0 0.0
0.0 0.0
7000.0 1.0 0.0 0.0 0.0 0.0 0.0 1.0 0.0
0.0 0.0 0.0 0.0 0.005419 0.617004 0.0 0.0
0.0 0.0
7500.0 1.0 0.0 0.0 0.0 0.0 0.0 1.0 0.0
0.0 0.0 0.0 0.0 0.005467 1.035992 0.0 0.0
0.0 0.0
8000.0 1.0 0.0 0.0 0.0 0.0 0.0 1.0 0.0
0.0 0.0 0.0 0.0 0.005516 0.613658 0.0 0.0
0.0 0.0
8500.0 1.0 0.0 0.0 0.0 0.0 0.0 1.0 0.0
0.0 0.0 0.0 0.0 0.005487 0.052784 0.0 0.0
0.0 0.0
9000.0 1.0 0.0 0.0 0.0 0.0 0.0 1.0 0.0
0.0 0.0 0.0 0.0 0.005433 0.257754 0.0 0.0
0.0 0.0
9500.0 1.0 0.0 0.0 0.0 0.0 0.0 1.0 0.0
0.0 0.0 0.0 0.0 0.005447 0.844056 0.0 0.0
0.0 0.0
10000.0 1.0 0.0 0.0 0.0 0.0 0.0 1.0 0.0
0.0 0.0 0.0 0.0 0.005506 0.79386 0.0 0.0
0.0 0.0
10500.0 1.0 0.0 0.0 0.0 0.0 0.0 1.0 0.0
0.0 0.0 0.0 0.0 0.005513 0.191287 0.0 0.0
0.0 0.0
11000.0 1.0 0.0 0.0 0.0 0.0 0.0 1.0 0.0
0.0 0.0 0.0 0.0 0.00546 0.017326 0.0 0.0
0.0 0.0
11500.0 1.0 0.0 0.0 0.0 0.0 0.0 1.0 0.0
0.0 0.0 0.0 0.0 0.005437 0.53617 0.0 0.0
0.0 0.0
12000.0 1.0 0.0 0.0 0.0 0.0 0.0 1.0 0.0
0.0 0.0 0.0 0.0 0.005484 0.852445 0.0 0.0
0.0 0.0
12500.0 1.0 0.0 0.0 0.0 0.0 0.0 1.0 0.0
0.0 0.0 0.0 0.0 0.005522 0.434312 0.0 0.0
0.0 0.0
13000.0 1.0 0.0 0.0 0.0 0.0 0.0 1.0 0.0
0.0 0.0 0.0 0.0 0.005492 -0.030995 0.0 0.0
0.0 0.0
13500.0 1.0 0.0 0.0 0.0 0.0 0.0 1.0 0.0
0.0 0.0 0.0 0.0 0.005444 0.204665 0.0 0.0
0.0 0.0
14000.0 1.0 0.0 0.0 0.0 0.0 0.0 1.0 0.0
0.0 0.0 0.0 0.0 0.00546 0.730317 0.0 0.0
0.0 0.0
14500.0 1.0 0.0 0.0 0.0 0.0 0.0 1.0 0.0
0.0 0.0 0.0 0.0 0.005513 0.657879 0.0 0.0
0.0 0.0
15000.0 1.0 0.0 0.0 0.0 0.0 0.0 1.0 0.0
0.0 0.0 0.0 0.0 0.005517 0.111669 0.0 0.0
0.0 0.0
15500.0 1.0 0.0 0.0 0.0 0.0 0.0 1.0 0.0
0.0 0.0 0.0 0.0 0.005467 -0.023664 0.0 0.0
0.0 0.0
16000.0 1.0 0.0 0.0 0.0 0.0 0.0 1.0 0.0
0.0 0.0 0.0 0.0 0.005447 0.46007 0.0 0.0
0.0 0.0
16500.0 1.0 0.0 0.0 0.0 0.0 0.0 1.0 0.0
0.0 0.0 0.0 0.0 0.00549 0.744634 0.0 0.0
0.0 0.0
17000.0 1.0 0.0 0.0 0.0 0.0 0.0 1.0 0.0
0.0 0.0 0.0 0.0 0.005525 0.360493 0.0 0.0
0.0 0.0
17500.0 1.0 0.0 0.0 0.0 0.0 0.0 1.0 0.0
0.0 0.0 0.0 0.0 0.005496 -0.062888 0.0 0.0
0.0 0.0
18000.0 1.0 0.0 0.0 0.0 0.0 0.0 1.0 0.0
0.0 0.0 0.0 0.0 0.005453 0.154777 0.0 0.0
0.0 0.0
18500.0 1.0 0.0 0.0 0.0 0.0 0.0 1.0 0.0
0.0 0.0 0.0 0.0 0.005466 0.641669 0.0 0.0
0.0 0.0
19000.0 1.0 0.0 0.0 0.0 0.0 0.0 1.0 0.0
0.0 0.0 0.0 0.0 0.005515 0.58487 0.0 0.0
0.0 0.0
19500.0 1.0 0.0 0.0 0.0 0.0 0.0 1.0 0.0
0.0 0.0 0.0 0.0 0.005519 0.084104 0.0 0.0
0.0 0.0
20000.0 1.0 0.0 0.0 0.0 0.0 0.0 1.0 0.0
0.0 0.0 0.0 0.0 0.005474 -0.050843 0.0 0.0
0.0 0.0
20500.0 1.0 0.0 0.0 0.0 0.0 0.0 1.0 0.0
0.0 0.0 0.0 0.0 0.005454 0.390713 0.0 0.0
0.0 0.0
21000.0 1.0 0.0 0.0 0.0 0.0 0.0 1.0 0.0
0.0 0.0 0.0 0.0 0.005493 0.668894 0.0 0.0
0.0 0.0
21500.0 1.0 0.0 0.0 0.0 0.0 0.0 1.0 0.0
0.0 0.0 0.0 0.0 0.005526 0.328377 0.0 0.0
0.0 0.0
22000.0 1.0 0.0 0.0 0.0 0.0 0.0 1.0 0.0
0.0 0.0 0.0 0.0 0.005501 -0.072946 0.0 0.0
0.0 0.0
22500.0 1.0 0.0 0.0 0.0 0.0 0.0 1.0 0.0
0.0 0.0 0.0 0.0 0.00546 0.109775 0.0 0.0
0.0 0.0
23000.0 1.0 0.0 0.0 0.0 0.0 0.0 1.0 0.0
0.0 0.0 0.0 0.0 0.00547 0.566909 0.0 0.0
0.0 0.0
23500.0 1.0 0.0 0.0 0.0 0.0 0.0 1.0 0.0
0.0 0.0 0.0 0.0 0.005515 0.539826 0.0 0.0
0.0 0.0
24000.0 1.0 0.0 0.0 0.0 0.0 0.0 1.0 0.0
0.0 0.0 0.0 0.0 0.005521 0.079851 0.0 0.0
0.0 0.0
24500.0 1.0 0.0 0.0 0.0 0.0 0.0 1.0 0.0
0.0 0.0 0.0 0.0 0.00548 -0.069327 0.0 0.0
0.0 0.0
25000.0 1.0 0.0 0.0 0.0 0.0 0.0 1.0 0.0
0.0 0.0 0.0 0.0 0.005459 0.327739 0.0 0.0
0.0 0.0
25500.0 1.0 0.0 0.0 0.0 0.0 0.0 1.0 0.0
0.0 0.0 0.0 0.0 0.005493 0.60926 0.0 0.0
0.0 0.0
26000.0 1.0 0.0 0.0 0.0 0.0 0.0 1.0 0.0
0.0 0.0 0.0 0.0 0.005526 0.31582 0.0 0.0
0.0 0.0
26500.0 1.0 0.0 0.0 0.0 0.0 0.0 1.0 0.0
0.0 0.0 0.0 0.0 0.005505 -0.071207 0.0 0.0
0.0 0.0
27000.0 1.0 0.0 0.0 0.0 0.0 0.0 1.0 0.0
0.0 0.0 0.0 0.0 0.005466 0.070232 0.0 0.0
0.0 0.0
27500.0 1.0 0.0 0.0 0.0 0.0 0.0 1.0 0.0
0.0 0.0 0.0 0.0 0.005472 0.500905 0.0 0.0
0.0 0.0
28000.0 1.0 0.0 0.0 0.0 0.0 0.0 1.0 0.0
0.0 0.0 0.0 0.0 0.005514 0.508528 0.0 0.0
0.0 0.0
28500.0 1.0 0.0 0.0 0.0 0.0 0.0 1.0 0.0
0.0 0.0 0.0 0.0 0.005523 0.087534 0.0 0.0
0.0 0.0
29000.0 1.0 0.0 0.0 0.0 0.0 0.0 1.0 0.0
0.0 0.0 0.0 0.0 0.005486 -0.081058 0.0 0.0
0.0 0.0
29500.0 1.0 0.0 0.0 0.0 0.0 0.0 1.0 0.0
0.0 0.0 0.0 0.0 0.005464 0.270646 0.0 0.0
0.0 0.0
30000.0 1.0 0.0 0.0 0.0 0.0 0.0 1.0 0.0
0.0 0.0 0.0 0.0 0.005493 0.558404 0.0 0.0
0.0 0.0
30500.0 1.0 0.0 0.0 0.0 0.0 0.0 1.0 0.0
0.0 0.0 0.0 0.0 0.005525 0.312959 0.0 0.0
0.0 0.0
31000.0 1.0 0.0 0.0 0.0 0.0 0.0 1.0 0.0
0.0 0.0 0.0 0.0 0.005509 -0.062114 0.0 0.0
0.0 0.0
31500.0 1.0 0.0 0.0 0.0 0.0 0.0 1.0 0.0
0.0 0.0 0.0 0.0 0.005471 0.036294 0.0 0.0
0.0 0.0
32000.0 1.0 0.0 0.0 0.0 0.0 0.0 1.0 0.0
0.0 0.0 0.0 0.0 0.005474 0.441024 0.0 0.0
0.0 0.0
32500.0 1.0 0.0 0.0 0.0 0.0 0.0 1.0 0.0
0.0 0.0 0.0 0.0 0.005513 0.484085 0.0 0.0
0.0 0.0
33000.0 1.0 0.0 0.0 0.0 0.0 0.0 1.0 0.0
0.0 0.0 0.0 0.0 0.005524 0.101626 0.0 0.0
0.0 0.0
33500.0 1.0 0.0 0.0 0.0 0.0 0.0 1.0 0.0
0.0 0.0 0.0 0.0 0.005491 -0.087074 0.0 0.0
0.0 0.0
34000.0 1.0 0.0 0.0 0.0 0.0 0.0 1.0 0.0
0.0 0.0 0.0 0.0 0.005467 0.219062 0.0 0.0
0.0 0.0
34500.0 1.0 0.0 0.0 0.0 0.0 0.0 1.0 0.0
0.0 0.0 0.0 0.0 0.005492 0.512564 0.0 0.0
0.0 0.0
35000.0 1.0 0.0 0.0 0.0 0.0 0.0 1.0 0.0
0.0 0.0 0.0 0.0 0.005524 0.314694 0.0 0.0
0.0 0.0
35500.0 1.0 0.0 0.0 0.0 0.0 0.0 1.0 0.0
0.0 0.0 0.0 0.0 0.005512 -0.048078 0.0 0.0
0.0 0.0
36000.0 1.0 0.0 0.0 0.0 0.0 0.0 1.0 0.0
0.0 0.0 0.0 0.0 0.005476 0.007919 0.0 0.0
0.0 0.0
36500.0 1.0 0.0 0.0 0.0 0.0 0.0 1.0 0.0
0.0 0.0 0.0 0.0 0.005475 0.385855 0.0 0.0
0.0 0.0
37000.0 1.0 0.0 0.0 0.0 0.0 0.0 1.0 0.0
0.0 0.0 0.0 0.0 0.005511 0.462806 0.0 0.0
0.0 0.0
37500.0 1.0 0.0 0.0 0.0 0.0 0.0 1.0 0.0
0.0 0.0 0.0 0.0 0.005525 0.119029 0.0 0.0
0.0 0.0
38000.0 1.0 0.0 0.0 0.0 0.0 0.0 1.0 0.0
0.0 0.0 0.0 0.0 0.005496 -0.088105 0.0 0.0
0.0 0.0
38500.0 1.0 0.0 0.0 0.0 0.0 0.0 1.0 0.0
0.0 0.0 0.0 0.0 0.005471 0.172737 0.0 0.0
0.0 0.0
39000.0 1.0 0.0 0.0 0.0 0.0 0.0 1.0 0.0
0.0 0.0 0.0 0.0 0.005491 0.469707 0.0 0.0
0.0 0.0
39500.0 1.0 0.0 0.0 0.0 0.0 0.0 1.0 0.0
0.0 0.0 0.0 0.0 0.005523 0.318124 0.0 0.0
0.0 0.0
40000.0 1.0 0.0 0.0 0.0 0.0 0.0 1.0 0.0
0.0 0.0 0.0 0.0 0.005515 -0.030641 0.0 0.0
0.0 0.0
40500.0 1.0 0.0 0.0 0.0 0.0 0.0 1.0 0.0
0.0 0.0 0.0 0.0 0.005481 -0.015047 0.0 0.0
0.0 0.0
41000.0 1.0 0.0 0.0 0.0 0.0 0.0 1.0 0.0
0.0 0.0 0.0 0.0 0.005477 0.334651 0.0 0.0
0.0 0.0
41500.0 1.0 0.0 0.0 0.0 0.0 0.0 1.0 0.0
0.0 0.0 0.0 0.0 0.005509 0.442608 0.0 0.0
0.0 0.0
42000.0 1.0 0.0 0.0 0.0 0.0 0.0 1.0 0.0
0.0 0.0 0.0 0.0 0.005525 0.137814 0.0 0.0
0.0 0.0
42500.0 1.0 0.0 0.0 0.0 0.0 0.0 1.0 0.0
0.0 0.0 0.0 0.0 0.0055 -0.084772 0.0 0.0
0.0 0.0
43000.0 1.0 0.0 0.0 0.0 0.0 0.0 1.0 0.0
0.0 0.0 0.0 0.0 0.005474 0.131505 0.0 0.0
0.0 0.0
43500.0 1.0 0.0 0.0 0.0 0.0 0.0 1.0 0.0
0.0 0.0 0.0 0.0 0.00549 0.42874 0.0 0.0
0.0 0.0
44000.0 1.0 0.0 0.0 0.0 0.0 0.0 1.0 0.0
0.0 0.0 0.0 0.0 0.005521 0.321495 0.0 0.0
0.0 0.0
44500.0 1.0 0.0 0.0 0.0 0.0 0.0 1.0 0.0
0.0 0.0 0.0 0.0 0.005517 -0.010921 0.0 0.0
0.0 0.0
45000.0 1.0 0.0 0.0 0.0 0.0 0.0 1.0 0.0
0.0 0.0 0.0 0.0 0.005486 -0.032826 0.0 0.0
0.0 0.0
45500.0 1.0 0.0 0.0 0.0 0.0 0.0 1.0 0.0
0.0 0.0 0.0 0.0 0.005478 0.287041 0.0 0.0
0.0 0.0
46000.0 1.0 0.0 0.0 0.0 0.0 0.0 1.0 0.0
0.0 0.0 0.0 0.0 0.005507 0.422307 0.0 0.0
0.0 0.0
46500.0 1.0 0.0 0.0 0.0 0.0 0.0 1.0 0.0
0.0 0.0 0.0 0.0 0.005525 0.156683 0.0 0.0
0.0 0.0
47000.0 1.0 0.0 0.0 0.0 0.0 0.0 1.0 0.0
0.0 0.0 0.0 0.0 0.005504 -0.077657 0.0 0.0
0.0 0.0
47500.0 1.0 0.0 0.0 0.0 0.0 0.0 1.0 0.0
0.0 0.0 0.0 0.0 0.005478 0.095239 0.0 0.0
0.0 0.0
48000.0 1.0 0.0 0.0 0.0 0.0 0.0 1.0 0.0
0.0 0.0 0.0 0.0 0.00549 0.389114 0.0 0.0
0.0 0.0
48500.0 1.0 0.0 0.0 0.0 0.0 0.0 1.0 0.0
0.0 0.0 0.0 0.0 0.005519 0.323715 0.0 0.0
0.0 0.0
49000.0 1.0 0.0 0.0 0.0 0.0 0.0 1.0 0.0
0.0 0.0 0.0 0.0 0.005519 0.010201 0.0 0.0
0.0 0.0
49500.0 1.0 0.0 0.0 0.0 0.0 0.0 1.0 0.0
0.0 0.0 0.0 0.0 0.00549 -0.045697 0.0 0.0
0.0 0.0
50000.0 1.0 0.0 0.0 0.0 0.0 0.0 1.0 0.0
0.0 0.0 0.0 0.0 0.005479 0.242873 0.0 0.0
0.0 0.0
50500.0 1.0 0.0 0.0 0.0 0.0 0.0 1.0 0.0
0.0 0.0 0.0 0.0 0.005505 0.401256 0.0 0.0
0.0 0.0
51000.0 1.0 0.0 0.0 0.0 0.0 0.0 1.0 0.0
0.0 0.0 0.0 0.0 0.005524 0.174719 0.0 0.0
0.0 0.0
51500.0 1.0 0.0 0.0 0.0 0.0 0.0 1.0 0.0
0.0 0.0 0.0 0.0 0.005507 -0.067326 0.0 0.0
0.0 0.0
52000.0 1.0 0.0 0.0 0.0 0.0 0.0 1.0 0.0
0.0 0.0 0.0 0.0 0.005481 0.063824 0.0 0.0
0.0 0.0
52500.0 1.0 0.0 0.0 0.0 0.0 0.0 1.0 0.0
0.0 0.0 0.0 0.0 0.005489 0.35061 0.0 0.0
0.0 0.0
53000.0 1.0 0.0 0.0 0.0 0.0 0.0 1.0 0.0
0.0 0.0 0.0 0.0 0.005517 0.32411 0.0 0.0
0.0 0.0
53500.0 1.0 0.0 0.0 0.0 0.0 0.0 1.0 0.0
0.0 0.0 0.0 0.0 0.00552 0.031989 0.0 0.0
0.0 0.0
54000.0 1.0 0.0 0.0 0.0 0.0 0.0 1.0 0.0
0.0 0.0 0.0 0.0 0.005494 -0.053984 0.0 0.0
0.0 0.0
54500.0 1.0 0.0 0.0 0.0 0.0 0.0 1.0 0.0
0.0 0.0 0.0 0.0 0.005481 0.202116 0.0 0.0
0.0 0.0
55000.0 1.0 0.0 0.0 0.0 0.0 0.0 1.0 0.0
0.0 0.0 0.0 0.0 0.005503 0.379153 0.0 0.0
0.0 0.0
55500.0 1.0 0.0 0.0 0.0 0.0 0.0 1.0 0.0
0.0 0.0 0.0 0.0 0.005523 0.191255 0.0 0.0
0.0 0.0
56000.0 1.0 0.0 0.0 0.0 0.0 0.0 1.0 0.0
0.0 0.0 0.0 0.0 0.00551 -0.054336 0.0 0.0
0.0 0.0
56500.0 1.0 0.0 0.0 0.0 0.0 0.0 1.0 0.0
0.0 0.0 0.0 0.0 0.005484 0.037136 0.0 0.0
0.0 0.0
57000.0 1.0 0.0 0.0 0.0 0.0 0.0 1.0 0.0
0.0 0.0 0.0 0.0 0.005489 0.313214 0.0 0.0
0.0 0.0
57500.0 1.0 0.0 0.0 0.0 0.0 0.0 1.0 0.0
0.0 0.0 0.0 0.0 0.005515 0.32228 0.0 0.0
0.0 0.0
58000.0 1.0 0.0 0.0 0.0 0.0 0.0 1.0 0.0
0.0 0.0 0.0 0.0 0.005521 0.053812 0.0 0.0
0.0 0.0
58500.0 1.0 0.0 0.0 0.0 0.0 0.0 1.0 0.0
0.0 0.0 0.0 0.0 0.005497 -0.058053 0.0 0.0
0.0 0.0
59000.0 1.0 0.0 0.0 0.0 0.0 0.0 1.0 0.0
0.0 0.0 0.0 0.0 0.005483 0.164805 0.0 0.0
0.0 0.0
59500.0 1.0 0.0 0.0 0.0 0.0 0.0 1.0 0.0
0.0 0.0 0.0 0.0 0.005501 0.355924 0.0 0.0
0.0 0.0
60000.0 1.0 0.0 0.0 0.0 0.0 0.0 1.0 0.0
0.0 0.0 0.0 0.0 0.005522 0.205801 0.0 0.0
0.0 0.0
60500.0 1.0 0.0 0.0 0.0 0.0 0.0 1.0 0.0
0.0 0.0 0.0 0.0 0.005512 -0.039236 0.0 0.0
0.0 0.0
61000.0 1.0 0.0 0.0 0.0 0.0 0.0 1.0 0.0
0.0 0.0 0.0 0.0 0.005488 0.015029 0.0 0.0
0.0 0.0
61500.0 1.0 0.0 0.0 0.0 0.0 0.0 1.0 0.0
0.0 0.0 0.0 0.0 0.005488 0.277037 0.0 0.0
0.0 0.0
62000.0 1.0 0.0 0.0 0.0 0.0 0.0 1.0 0.0
0.0 0.0 0.0 0.0 0.005513 0.31803 0.0 0.0
0.0 0.0
62500.0 1.0 0.0 0.0 0.0 0.0 0.0 1.0 0.0
0.0 0.0 0.0 0.0 0.005522 0.075125 0.0 0.0
0.0 0.0
63000.0 1.0 0.0 0.0 0.0 0.0 0.0 1.0 0.0
0.0 0.0 0.0 0.0 0.005501 -0.058298 0.0 0.0
0.0 0.0
63500.0 1.0 0.0 0.0 0.0 0.0 0.0 1.0 0.0
0.0 0.0 0.0 0.0 0.005484 0.130997 0.0 0.0
0.0 0.0
64000.0 1.0 0.0 0.0 0.0 0.0 0.0 1.0 0.0
0.0 0.0 0.0 0.0 0.005499 0.331649 0.0 0.0
0.0 0.0
64500.0 1.0 0.0 0.0 0.0 0.0 0.0 1.0 0.0
0.0 0.0 0.0 0.0 0.005521 0.218011 0.0 0.0
0.0 0.0
65000.0 1.0 0.0 0.0 0.0 0.0 0.0 1.0 0.0
0.0 0.0 0.0 0.0 0.005515 -0.02256 0.0 0.0
0.0 0.0
65500.0 1.0 0.0 0.0 0.0 0.0 0.0 1.0 0.0
0.0 0.0 0.0 0.0 0.005491 -0.002675 0.0 0.0
0.0 0.0
66000.0 1.0 0.0 0.0 0.0 0.0 0.0 1.0 0.0
0.0 0.0 0.0 0.0 0.005489 0.242264 0.0 0.0
0.0 0.0
66500.0 1.0 0.0 0.0 0.0 0.0 0.0 1.0 0.0
0.0 0.0 0.0 0.0 0.005511 0.311308 0.0 0.0
0.0 0.0
67000.0 1.0 0.0 0.0 0.0 0.0 0.0 1.0 0.0
0.0 0.0 0.0 0.0 0.005522 0.095454 0.0 0.0
0.0 0.0
67500.0 1.0 0.0 0.0 0.0 0.0 0.0 1.0 0.0
0.0 0.0 0.0 0.0 0.005504 -0.055143 0.0 0.0
0.0 0.0
68000.0 1.0 0.0 0.0 0.0 0.0 0.0 1.0 0.0
0.0 0.0 0.0 0.0 0.005486 0.100749 0.0 0.0
0.0 0.0
68500.0 1.0 0.0 0.0 0.0 0.0 0.0 1.0 0.0
0.0 0.0 0.0 0.0 0.005498 0.306512 0.0 0.0
0.0 0.0
69000.0 1.0 0.0 0.0 0.0 0.0 0.0 1.0 0.0
0.0 0.0 0.0 0.0 0.00552 0.227649 0.0 0.0
0.0 0.0
69500.0 1.0 0.0 0.0 0.0 0.0 0.0 1.0 0.0
0.0 0.0 0.0 0.0 0.005516 -0.004824 0.0 0.0
0.0 0.0
70000.0 1.0 0.0 0.0 0.0 0.0 0.0 1.0 0.0
0.0 0.0 0.0 0.0 0.005494 -0.016189 0.0 0.0
0.0 0.0
70500.0 1.0 0.0 0.0 0.0 0.0 0.0 1.0 0.0
0.0 0.0 0.0 0.0 0.005489 0.209117 0.0 0.0
0.0 0.0
71000.0 1.0 0.0 0.0 0.0 0.0 0.0 1.0 0.0
0.0 0.0 0.0 0.0 0.005509 0.302174 0.0 0.0
0.0 0.0
71500.0 1.0 0.0 0.0 0.0 0.0 0.0 1.0 0.0
0.0 0.0 0.0 0.0 0.005522 0.114397 0.0 0.0
0.0 0.0
72000.0 1.0 0.0 0.0 0.0 0.0 0.0 1.0 0.0
0.0 0.0 0.0 0.0 0.005507 -0.049026 0.0 0.0
0.0 0.0
72500.0 1.0 0.0 0.0 0.0 0.0 0.0 1.0 0.0
0.0 0.0 0.0 0.0 0.005489 0.074097 0.0 0.0
0.0 0.0
73000.0 1.0 0.0 0.0 0.0 0.0 0.0 1.0 0.0
0.0 0.0 0.0 0.0 0.005497 0.28077 0.0 0.0
0.0 0.0
73500.0 1.0 0.0 0.0 0.0 0.0 0.0 1.0 0.0
0.0 0.0 0.0 0.0 0.005518 0.23458 0.0 0.0
0.0 0.0
74000.0 1.0 0.0 0.0 0.0 0.0 0.0 1.0 0.0
0.0 0.0 0.0 0.0 0.005518 0.013481 0.0 0.0
0.0 0.0
74500.0 1.0 0.0 0.0 0.0 0.0 0.0 1.0 0.0
0.0 0.0 0.0 0.0 0.005497 -0.025759 0.0 0.0
0.0 0.0
75000.0 1.0 0.0 0.0 0.0 0.0 0.0 1.0 0.0
0.0 0.0 0.0 0.0 0.00549 0.177828 0.0 0.0
0.0 0.0
75500.0 1.0 0.0 0.0 0.0 0.0 0.0 1.0 0.0
0.0 0.0 0.0 0.0 0.005507 0.290777 0.0 0.0
0.0 0.0
76000.0 1.0 0.0 0.0 0.0 0.0 0.0 1.0 0.0
0.0 0.0 0.0 0.0 0.005521 0.131619 0.0 0.0
0.0 0.0
76500.0 1.0 0.0 0.0 0.0 0.0 0.0 1.0 0.0
0.0 0.0 0.0 0.0 0.005509 -0.040401 0.0 0.0
0.0 0.0
77000.0 1.0 0.0 0.0 0.0 0.0 0.0 1.0 0.0
0.0 0.0 0.0 0.0 0.005491 0.051045 0.0 0.0
0.0 0.0
77500.0 1.0 0.0 0.0 0.0 0.0 0.0 1.0 0.0
0.0 0.0 0.0 0.0 0.005496 0.254721 0.0 0.0
0.0 0.0
78000.0 1.0 0.0 0.0 0.0 0.0 0.0 1.0 0.0
0.0 0.0 0.0 0.0 0.005516 0.238749 0.0 0.0
0.0 0.0
78500.0 1.0 0.0 0.0 0.0 0.0 0.0 1.0 0.0
0.0 0.0 0.0 0.0 0.005519 0.031895 0.0 0.0
0.0 0.0
79000.0 1.0 0.0 0.0 0.0 0.0 0.0 1.0 0.0
0.0 0.0 0.0 0.0 0.0055 -0.031667 0.0 0.0
0.0 0.0
79500.0 1.0 0.0 0.0 0.0 0.0 0.0 1.0 0.0
0.0 0.0 0.0 0.0 0.00549 0.148619 0.0 0.0
0.0 0.0
80000.0 1.0 0.0 0.0 0.0 0.0 0.0 1.0 0.0
0.0 0.0 0.0 0.0 0.005506 0.277332 0.0 0.0
0.0 0.0
80500.0 1.0 0.0 0.0 0.0 0.0 0.0 1.0 0.0
0.0 0.0 0.0 0.0 0.005521 0.146848 0.0 0.0
0.0 0.0
81000.0 1.0 0.0 0.0 0.0 0.0 0.0 1.0 0.0
0.0 0.0 0.0 0.0 0.005511 -0.029721 0.0 0.0
0.0 0.0
81500.0 1.0 0.0 0.0 0.0 0.0 0.0 1.0 0.0
0.0 0.0 0.0 0.0 0.005493 0.031563 0.0 0.0
0.0 0.0
82000.0 1.0 0.0 0.0 0.0 0.0 0.0 1.0 0.0
0.0 0.0 0.0 0.0 0.005496 0.228684 0.0 0.0
0.0 0.0
82500.0 1.0 0.0 0.0 0.0 0.0 0.0 1.0 0.0
0.0 0.0 0.0 0.0 0.005515 0.240177 0.0 0.0
0.0 0.0
83000.0 1.0 0.0 0.0 0.0 0.0 0.0 1.0 0.0
0.0 0.0 0.0 0.0 0.005519 0.049995 0.0 0.0
0.0 0.0
83500.0 1.0 0.0 0.0 0.0 0.0 0.0 1.0 0.0
0.0 0.0 0.0 0.0 0.005502 -0.034225 0.0 0.0
0.0 0.0
84000.0 1.0 0.0 0.0 0.0 0.0 0.0 1.0 0.0
0.0 0.0 0.0 0.0 0.005491 0.121693 0.0 0.0
0.0 0.0
84500.0 1.0 0.0 0.0 0.0 0.0 0.0 1.0 0.0
0.0 0.0 0.0 0.0 0.005504 0.262102 0.0 0.0
0.0 0.0
85000.0 1.0 0.0 0.0 0.0 0.0 0.0 1.0 0.0
0.0 0.0 0.0 0.0 0.00552 0.159878 0.0 0.0
0.0 0.0
85500.0 1.0 0.0 0.0 0.0 0.0 0.0 1.0 0.0
0.0 0.0 0.0 0.0 0.005513 -0.01744 0.0 0.0
0.0 0.0
86000.0 1.0 0.0 0.0 0.0 0.0 0.0 1.0 0.0
0.0 0.0 0.0 0.0 0.005495 0.015577 0.0 0.0
0.0 0.0
86500.0 1.0 0.0 0.0 0.0 0.0 0.0 1.0 0.0
0.0 0.0 0.0 0.0 0.005495 0.202988 0.0 0.0
0.0 0.0
87000.0 1.0 0.0 0.0 0.0 0.0 0.0 1.0 0.0
0.0 0.0 0.0 0.0 0.005513 0.23895 0.0 0.0
0.0 0.0
87500.0 1.0 0.0 0.0 0.0 0.0 0.0 1.0 0.0
0.0 0.0 0.0 0.0 0.00552 0.067397 0.0 0.0
0.0 0.0
88000.0 1.0 0.0 0.0 0.0 0.0 0.0 1.0 0.0
0.0 0.0 0.0 0.0 0.005505 -0.033768 0.0 0.0
0.0 0.0
88500.0 1.0 0.0 0.0 0.0 0.0 0.0 1.0 0.0
0.0 0.0 0.0 0.0 0.005493 0.09722 0.0 0.0
0.0 0.0
89000.0 1.0 0.0 0.0 0.0 0.0 0.0 1.0 0.0
0.0 0.0 0.0 0.0 0.005503 0.24539 0.0 0.0
0.0 0.0
89500.0 1.0 0.0 0.0 0.0 0.0 0.0 1.0 0.0
0.0 0.0 0.0 0.0 0.005519 0.170565 0.0 0.0
0.0 0.0
90000.0 1.0 0.0 0.0 0.0 0.0 0.0 1.0 0.0
0.0 0.0 0.0 0.0 0.005515 -0.003999 0.0 0.0
0.0 0.0
90500.0 1.0 0.0 0.0 0.0 0.0 0.0 1.0 0.0
0.0 0.0 0.0 0.0 0.005498 0.002973 0.0 0.0
0.0 0.0
91000.0 1.0 0.0 0.0 0.0 0.0 0.0 1.0 0.0
0.0 0.0 0.0 0.0 0.005495 0.177954 0.0 0.0
0.0 0.0
91500.0 1.0 0.0 0.0 0.0 0.0 0.0 1.0 0.0
0.0 0.0 0.0 0.0 0.005511 0.235208 0.0 0.0
0.0 0.0
92000.0 1.0 0.0 0.0 0.0 0.0 0.0 1.0 0.0
0.0 0.0 0.0 0.0 0.00552 0.083765 0.0 0.0
0.0 0.0
92500.0 1.0 0.0 0.0 0.0 0.0 0.0 1.0 0.0
0.0 0.0 0.0 0.0 0.005507 -0.030654 0.0 0.0
0.0 0.0
93000.0 1.0 0.0 0.0 0.0 0.0 0.0 1.0 0.0
0.0 0.0 0.0 0.0 0.005494 0.075331 0.0 0.0
0.0 0.0
93500.0 1.0 0.0 0.0 0.0 0.0 0.0 1.0 0.0
0.0 0.0 0.0 0.0 0.005502 0.227519 0.0 0.0
0.0 0.0
94000.0 1.0 0.0 0.0 0.0 0.0 0.0 1.0 0.0
0.0 0.0 0.0 0.0 0.005517 0.178824 0.0 0.0
0.0 0.0
94500.0 1.0 0.0 0.0 0.0 0.0 0.0 1.0 0.0
0.0 0.0 0.0 0.0 0.005516 0.010177 0.0 0.0
0.0 0.0
95000.0 1.0 0.0 0.0 0.0 0.0 0.0 1.0 0.0
0.0 0.0 0.0 0.0 0.0055 -0.006402 0.0 0.0
0.0 0.0
95500.0 1.0 0.0 0.0 0.0 0.0 0.0 1.0 0.0
0.0 0.0 0.0 0.0 0.005495 0.153885 0.0 0.0
0.0 0.0
96000.0 1.0 0.0 0.0 0.0 0.0 0.0 1.0 0.0
0.0 0.0 0.0 0.0 0.00551 0.22914 0.0 0.0
0.0 0.0
96500.0 1.0 0.0 0.0 0.0 0.0 0.0 1.0 0.0
0.0 0.0 0.0 0.0 0.00552 0.098807 0.0 0.0
0.0 0.0
97000.0 1.0 0.0 0.0 0.0 0.0 0.0 1.0 0.0
0.0 0.0 0.0 0.0 0.005509 -0.025253 0.0 0.0
0.0 0.0
97500.0 1.0 0.0 0.0 0.0 0.0 0.0 1.0 0.0
0.0 0.0 0.0 0.0 0.005496 0.056116 0.0 0.0
0.0 0.0
98000.0 1.0 0.0 0.0 0.0 0.0 0.0 1.0 0.0
0.0 0.0 0.0 0.0 0.005501 0.208826 0.0 0.0
0.0 0.0
98500.0 1.0 0.0 0.0 0.0 0.0 0.0 1.0 0.0
0.0 0.0 0.0 0.0 0.005516 0.184629 0.0 0.0
0.0 0.0
99000.0 1.0 0.0 0.0 0.0 0.0 0.0 1.0 0.0
0.0 0.0 0.0 0.0 0.005517 0.024687 0.0 0.0
0.0 0.0
99500.0 1.0 0.0 0.0 0.0 0.0 0.0 1.0 0.0
0.0 0.0 0.0 0.0 0.005502 -0.012741 0.0 0.0
0.0 0.0
100000.0 1.0 0.0 0.0 0.0 0.0 0.0 1.0 0.0
0.0 0.0 0.0 0.0 0.005496 0.131058 0.0 0.0
0.0 0.0
100500.0 1.0 0.0 0.0 0.0 0.0 0.0 1.0 0.0
0.0 0.0 0.0 0.0 0.005195 0.0 0.0 0.0
0.0 0.0
101000.0 1.0 0.0 0.0 0.0 0.0 0.0 1.0 0.0
0.0 0.0 0.0 0.0 0.005195 0.0 0.0 0.0
0.0 0.0
101500.0 1.0 0.0 0.0 0.0 0.0 0.0 1.0 0.0
0.0 0.0 0.0 0.0 0.005195 0.0 0.0 0.0
0.0 0.0
102000.0 1.0 0.0 0.0 0.0 0.0 0.0 1.0 0.0
0.0 0.0 0.0 0.0 0.005195 0.0 0.0 0.0
0.0 0.0
102500.0 1.0 0.0 0.0 0.0 0.0 0.0 1.0 0.0
0.0 0.0 0.0 0.0 0.005195 0.0 0.0 0.0
0.0 0.0
103000.0 1.0 0.0 0.0 0.0 0.0 0.0 1.0 0.0
0.0 0.0 0.0 0.0 0.005195 0.0 0.0 0.0
0.0 0.0
103500.0 1.0 0.0 0.0 0.0 0.0 0.0 1.0 0.0
0.0 0.0 0.0 0.0 0.005195 0.0 0.0 0.0
0.0 0.0
104000.0 1.0 0.0 0.0 0.0 0.0 0.0 1.0 0.0
0.0 0.0 0.0 0.0 0.005195 0.0 0.0 0.0
0.0 0.0
104500.0 1.0 0.0 0.0 0.0 0.0 0.0 1.0 0.0
0.0 0.0 0.0 0.0 0.005195 0.0 0.0 0.0
0.0 0.0
105000.0 1.0 0.0 0.0 0.0 0.0 0.0 1.0 0.0
0.0 0.0 0.0 0.0 0.005195 0.0 0.0 0.0
0.0 0.0
105500.0 1.0 0.0 0.0 0.0 0.0 0.0 1.0 0.0
0.0 0.0 0.0 0.0 0.005195 0.0 0.0 0.0
0.0 0.0
106000.0 1.0 0.0 0.0 0.0 0.0 0.0 1.0 0.0
0.0 0.0 0.0 0.0 0.005195 0.0 0.0 0.0
0.0 0.0
106500.0 1.0 0.0 0.0 0.0 0.0 0.0 1.0 0.0
0.0 0.0 0.0 0.0 0.005195 0.0 0.0 0.0
0.0 0.0
107000.0 1.0 0.0 0.0 0.0 0.0 0.0 1.0 0.0
0.0 0.0 0.0 0.0 0.005195 0.0 0.0 0.0
0.0 0.0
107500.0 1.0 0.0 0.0 0.0 0.0 0.0 1.0 0.0
0.0 0.0 0.0 0.0 0.005195 0.0 0.0 0.0
0.0 0.0
108000.0 1.0 0.0 0.0 0.0 0.0 0.0 1.0 0.0
0.0 0.0 0.0 0.0 0.005195 0.0 0.0 0.0
0.0 0.0
108500.0 1.0 0.0 0.0 0.0 0.0 0.0 1.0 0.0
0.0 0.0 0.0 0.0 0.005195 0.0 0.0 0.0
0.0 0.0
109000.0 1.0 0.0 0.0 0.0 0.0 0.0 1.0 0.0
0.0 0.0 0.0 0.0 0.005195 0.0 0.0 0.0
0.0 0.0
109500.0 1.0 0.0 0.0 0.0 0.0 0.0 1.0 0.0
0.0 0.0 0.0 0.0 0.005195 0.0 0.0 0.0
0.0 0.0
110000.0 1.0 0.0 0.0 0.0 0.0 0.0 1.0 0.0
0.0 0.0 0.0 0.0 0.005195 0.0 0.0 0.0
0.0 0.0
110500.0 1.0 0.0 0.0 0.0 0.0 0.0 1.0 0.0
