! File created by SignalIntegrity v1.3.3: Signal and Power Integrity Tools
! https://github.com/TeledyneLeCroy/SignalIntegrity
# MHz S MA R 50.0
0.0 0.47307 0.0 0.47307 0.0 0.0 0.0 0.0 0.0
100.0 0.466195 -9.392594 0.466195 -9.392594 0.0 0.0 0.0 0.0
200.0 0.461176 -17.572553 0.461176 -17.572553 0.0 0.0 0.0 0.0
300.0 0.458442 -25.98932 0.458442 -25.98932 0.0 0.0 0.0 0.0
400.0 0.455322 -34.155446 0.455322 -34.155446 0.0 0.0 0.0 0.0
500.0 0.4533 -42.424482 0.4533 -42.424482 0.0 0.0 0.0 0.0
600.0 0.450754 -50.571206 0.450754 -50.571206 0.0 0.0 0.0 0.0
700.0 0.449018 -58.769311 0.449018 -58.769311 0.0 0.0 0.0 0.0
800.0 0.446751 -66.900833 0.446751 -66.900833 0.0 0.0 0.0 0.0
900.0 0.445144 -75.051692 0.445144 -75.051692 0.0 0.0 0.0 0.0
1000.0 0.443053 -83.168263 0.443053 -83.168263 0.0 0.0 0.0 0.0
1100.0 0.441512 -91.281944 0.441512 -91.281944 0.0 0.0 0.0 0.0
1200.0 0.439564 -99.382837 0.439564 -99.382837 0.0 0.0 0.0 0.0
1300.0 0.438072 -107.465489 0.438072 -107.465489 0.0 0.0 0.0 0.0
1400.0 0.436264 -115.550685 0.436264 -115.550685 0.0 0.0 0.0 0.0
1500.0 0.434824 -123.607821 0.434824 -123.607821 0.0 0.0 0.0 0.0
1600.0 0.433162 -131.678569 0.433162 -131.678569 0.0 0.0 0.0 0.0
1700.0 0.431782 -139.71601 0.431782 -139.71601 0.0 0.0 0.0 0.0
1800.0 0.430271 -147.774647 0.430271 -147.774647 0.0 0.0 0.0 0.0
1900.0 0.428955 -155.798383 0.428955 -155.798383 0.0 0.0 0.0 0.0
2000.0 0.427588 -163.84771 0.427588 -163.84771 0.0 0.0 0.0 0.0
2100.0 0.426334 -171.863299 0.426334 -171.863299 0.0 0.0 0.0 0.0
2200.0 0.425096 -179.90585 0.425096 -179.90585 0.0 0.0 0.0 0.0
2300.0 0.423893 172.082234 0.423893 172.082234 0.0 0.0 0.0 0.0
2400.0 0.422761 164.044775 0.422761 164.044775 0.0 0.0 0.0 0.0
2500.0 0.421597 156.033595 0.421597 156.033595 0.0 0.0 0.0 0.0
2600.0 0.420543 148.000668 0.420543 148.000668 0.0 0.0 0.0 0.0
2700.0 0.419406 139.988917 0.419406 139.988917 0.0 0.0 0.0 0.0
2800.0 0.418407 131.960997 0.418407 131.960997 0.0 0.0 0.0 0.0
2900.0 0.417288 123.948742 0.417288 123.948742 0.0 0.0 0.0 0.0
3000.0 0.416326 115.926947 0.416326 115.926947 0.0 0.0 0.0 0.0
3100.0 0.415224 107.91512 0.415224 107.91512 0.0 0.0 0.0 0.0
3200.0 0.414287 99.90066 0.414287 99.90066 0.0 0.0 0.0 0.0
3300.0 0.413208 91.890461 0.413208 91.890461 0.0 0.0 0.0 0.0
3400.0 0.412291 83.884114 0.412291 83.884114 0.0 0.0 0.0 0.0
3500.0 0.411244 75.876504 0.411244 75.876504 0.0 0.0 0.0 0.0
3600.0 0.410349 67.878264 0.410349 67.878264 0.0 0.0 0.0 0.0
3700.0 0.409344 59.873667 0.409344 59.873667 0.0 0.0 0.0 0.0
3800.0 0.408471 51.882659 0.408471 51.882659 0.0 0.0 0.0 0.0
3900.0 0.407517 43.880935 0.407517 43.880935 0.0 0.0 0.0 0.0
4000.0 0.406667 35.895595 0.406667 35.895595 0.0 0.0 0.0 0.0
4100.0 0.405766 27.896229 0.405766 27.896229 0.0 0.0 0.0 0.0
4200.0 0.404936 19.914669 0.404936 19.914669 0.0 0.0 0.0 0.0
4300.0 0.404086 11.917092 0.404086 11.917092 0.0 0.0 0.0 0.0
4400.0 0.403271 3.93752 0.403271 3.93752 0.0 0.0 0.0 0.0
4500.0 0.402465 -4.058582 0.402465 -4.058582 0.0 0.0 0.0 0.0
4600.0 0.401657 -12.037505 0.401657 -12.037505 0.0 0.0 0.0 0.0
4700.0 0.400884 -20.031992 0.400884 -20.031992 0.0 0.0 0.0 0.0
4800.0 0.400077 -28.010967 0.400077 -28.010967 0.0 0.0 0.0 0.0
4900.0 0.399326 -36.003229 0.399326 -36.003229 0.0 0.0 0.0 0.0
5000.0 0.398516 -43.982334 0.398516 -43.982334 0.0 0.0 0.0 0.0
5100.0 0.39778 -51.971458 0.39778 -51.971458 0.0 0.0 0.0 0.0
5200.0 0.396966 -59.950339 0.396966 -59.950339 0.0 0.0 0.0 0.0
5300.0 0.39624 -67.93539 0.39624 -67.93539 0.0 0.0 0.0 0.0
5400.0 0.395427 -75.913549 0.395427 -75.913549 0.0 0.0 0.0 0.0
5500.0 0.394708 -83.893882 0.394708 -83.893882 0.0 0.0 0.0 0.0
5600.0 0.393904 -91.870952 0.393904 -91.870952 0.0 0.0 0.0 0.0
5700.0 0.393195 -99.846439 0.393195 -99.846439 0.0 0.0 0.0 0.0
5800.0 0.392407 -107.82236 0.392407 -107.82236 0.0 0.0 0.0 0.0
5900.0 0.391709 -115.793477 0.391709 -115.793477 0.0 0.0 0.0 0.0
6000.0 0.390946 -123.768526 0.390946 -123.768526 0.0 0.0 0.0 0.0
6100.0 0.39026 -131.736254 0.39026 -131.736254 0.0 0.0 0.0 0.0
6200.0 0.389525 -139.710923 0.389525 -139.710923 0.0 0.0 0.0 0.0
6300.0 0.388851 -147.676525 0.388851 -147.676525 0.0 0.0 0.0 0.0
6400.0 0.388146 -155.651304 0.388146 -155.651304 0.0 0.0 0.0 0.0
6500.0 0.38748 -163.616025 0.38748 -163.616025 0.0 0.0 0.0 0.0
6600.0 0.386802 -171.59117 0.386802 -171.59117 0.0 0.0 0.0 0.0
6700.0 0.386139 -179.555967 0.386139 -179.555967 0.0 0.0 0.0 0.0
6800.0 0.385484 172.468656 0.385484 172.468656 0.0 0.0 0.0 0.0
6900.0 0.38482 164.503285 0.38482 164.503285 0.0 0.0 0.0 0.0
7000.0 0.384181 156.528243 0.384181 156.528243 0.0 0.0 0.0 0.0
7100.0 0.383513 148.562282 0.383513 148.562282 0.0 0.0 0.0 0.0
7200.0 0.382885 140.588467 0.382885 140.588467 0.0 0.0 0.0 0.0
7300.0 0.382212 132.622265 0.382212 132.622265 0.0 0.0 0.0 0.0
7400.0 0.381593 124.65068 0.381593 124.65068 0.0 0.0 0.0 0.0
7500.0 0.380919 116.684744 0.380919 116.684744 0.0 0.0 0.0 0.0
7600.0 0.380307 108.716237 0.380307 108.716237 0.0 0.0 0.0 0.0
7700.0 0.379637 100.751002 0.379637 100.751002 0.0 0.0 0.0 0.0
7800.0 0.379034 92.786048 0.379034 92.786048 0.0 0.0 0.0 0.0
7900.0 0.378374 84.821706 0.378374 84.821706 0.0 0.0 0.0 0.0
8000.0 0.377783 76.860281 0.377783 76.860281 0.0 0.0 0.0 0.0
8100.0 0.37714 68.896719 0.37714 68.896719 0.0 0.0 0.0 0.0
8200.0 0.376561 60.938314 0.376561 60.938314 0.0 0.0 0.0 0.0
8300.0 0.375938 52.975181 0.375938 52.975181 0.0 0.0 0.0 0.0
8400.0 0.37537 45.01895 0.37537 45.01895 0.0 0.0 0.0 0.0
8500.0 0.374771 37.055812 0.374771 37.055812 0.0 0.0 0.0 0.0
8600.0 0.374211 29.100797 0.374211 29.100797 0.0 0.0 0.0 0.0
8700.0 0.373633 21.137337 0.373633 21.137337 0.0 0.0 0.0 0.0
8800.0 0.373077 13.182708 0.373077 13.182708 0.0 0.0 0.0 0.0
8900.0 0.372516 5.218898 0.372516 5.218898 0.0 0.0 0.0 0.0
9000.0 0.371959 -2.735871 0.371959 -2.735871 0.0 0.0 0.0 0.0
9100.0 0.371409 -10.699698 0.371409 -10.699698 0.0 0.0 0.0 0.0
9200.0 0.370847 -18.654752 0.370847 -18.654752 0.0 0.0 0.0 0.0
9300.0 0.370304 -26.617938 0.370304 -26.617938 0.0 0.0 0.0 0.0
9400.0 0.369734 -34.573099 0.369734 -34.573099 0.0 0.0 0.0 0.0
9500.0 0.369196 -42.534811 0.369196 -42.534811 0.0 0.0 0.0 0.0
9600.0 0.368619 -50.489722 0.368619 -50.489722 0.0 0.0 0.0 0.0
9700.0 0.368084 -58.449171 0.368084 -58.449171 0.0 0.0 0.0 0.0
9800.0 0.367503 -66.403491 0.367503 -66.403491 0.0 0.0 0.0 0.0
9900.0 0.366972 -74.360147 0.366972 -74.360147 0.0 0.0 0.0 0.0
10000.0 0.366393 -82.313719 0.366393 -82.313719 0.0 0.0 0.0 0.0
10100.0 0.365868 -90.267457 0.365868 -90.267457 0.0 0.0 0.0 0.0
10200.0 0.365297 -98.220401 0.365297 -98.220401 0.0 0.0 0.0 0.0
10300.0 0.36478 -106.171542 0.36478 -106.171542 0.0 0.0 0.0 0.0
10400.0 0.364221 -114.124229 0.364221 -114.124229 0.0 0.0 0.0 0.0
10500.0 0.363712 -122.073458 0.363712 -122.073458 0.0 0.0 0.0 0.0
10600.0 0.36317 -130.026398 0.36317 -130.026398 0.0 0.0 0.0 0.0
10700.0 0.362669 -137.974583 0.362669 -137.974583 0.0 0.0 0.0 0.0
10800.0 0.362143 -145.928238 0.362143 -145.928238 0.0 0.0 0.0 0.0
10900.0 0.361646 -153.876212 0.361646 -153.876212 0.0 0.0 0.0 0.0
11000.0 0.361135 -161.830819 0.361135 -161.830819 0.0 0.0 0.0 0.0
11100.0 0.360638 -169.779184 0.360638 -169.779184 0.0 0.0 0.0 0.0
11200.0 0.360138 -177.734632 0.360138 -177.734632 0.0 0.0 0.0 0.0
11300.0 0.359638 174.316359 0.359638 174.316359 0.0 0.0 0.0 0.0
11400.0 0.359145 166.360552 0.359145 166.360552 0.0 0.0 0.0 0.0
11500.0 0.35864 158.410997 0.35864 158.410997 0.0 0.0 0.0 0.0
11600.0 0.358151 150.455588 0.358151 150.455588 0.0 0.0 0.0 0.0
11700.0 0.357639 142.505842 0.357639 142.505842 0.0 0.0 0.0 0.0
11800.0 0.357154 134.551689 0.357154 134.551689 0.0 0.0 0.0 0.0
11900.0 0.356637 126.602189 0.356637 126.602189 0.0 0.0 0.0 0.0
12000.0 0.356156 118.650037 0.356156 118.650037 0.0 0.0 0.0 0.0
12100.0 0.355638 110.701124 0.355638 110.701124 0.0 0.0 0.0 0.0
12200.0 0.355163 102.751417 0.355163 102.751417 0.0 0.0 0.0 0.0
12300.0 0.35465 94.803203 0.35465 94.803203 0.0 0.0 0.0 0.0
12400.0 0.354182 86.85598 0.354182 86.85598 0.0 0.0 0.0 0.0
12500.0 0.353679 78.908302 0.353679 78.908302 0.0 0.0 0.0 0.0
12600.0 0.35322 70.963206 0.35322 70.963206 0.0 0.0 0.0 0.0
12700.0 0.352731 63.015685 0.352731 63.015685 0.0 0.0 0.0 0.0
12800.0 0.35228 55.072072 0.35228 55.072072 0.0 0.0 0.0 0.0
12900.0 0.351805 47.124252 0.351805 47.124252 0.0 0.0 0.0 0.0
13000.0 0.351362 39.181376 0.351362 39.181376 0.0 0.0 0.0 0.0
13100.0 0.350901 31.232901 0.350901 31.232901 0.0 0.0 0.0 0.0
13200.0 0.35046 23.290113 0.35046 23.290113 0.0 0.0 0.0 0.0
13300.0 0.35001 15.340878 0.35001 15.340878 0.0 0.0 0.0 0.0
13400.0 0.349568 7.397778 0.349568 7.397778 0.0 0.0 0.0 0.0
13500.0 0.349125 -0.55199 0.349125 -0.55199 0.0 0.0 0.0 0.0
13600.0 0.348678 -8.495486 0.348678 -8.495486 0.0 0.0 0.0 0.0
13700.0 0.348239 -16.445249 0.348239 -16.445249 0.0 0.0 0.0 0.0
13800.0 0.347785 -24.388943 0.347785 -24.388943 0.0 0.0 0.0 0.0
13900.0 0.347346 -32.337972 0.347346 -32.337972 0.0 0.0 0.0 0.0
14000.0 0.346885 -40.28151 0.346885 -40.28151 0.0 0.0 0.0 0.0
14100.0 0.346447 -48.229069 0.346447 -48.229069 0.0 0.0 0.0 0.0
14200.0 0.34598 -56.172106 0.34598 -56.172106 0.0 0.0 0.0 0.0
14300.0 0.345544 -64.117643 0.345544 -64.117643 0.0 0.0 0.0 0.0
14400.0 0.345076 -72.060001 0.345076 -72.060001 0.0 0.0 0.0 0.0
14500.0 0.344644 -80.003298 0.344644 -80.003298 0.0 0.0 0.0 0.0
14600.0 0.34418 -87.945052 0.34418 -87.945052 0.0 0.0 0.0 0.0
14700.0 0.343754 -95.886278 0.343754 -95.886278 0.0 0.0 0.0 0.0
14800.0 0.343298 -103.827758 0.343298 -103.827758 0.0 0.0 0.0 0.0
14900.0 0.342879 -111.767422 0.342879 -111.767422 0.0 0.0 0.0 0.0
15000.0 0.342433 -119.709117 0.342433 -119.709117 0.0 0.0 0.0 0.0
15100.0 0.342021 -127.647927 0.342021 -127.647927 0.0 0.0 0.0 0.0
15200.0 0.341587 -135.590326 0.341587 -135.590326 0.0 0.0 0.0 0.0
15300.0 0.341179 -143.528999 0.341179 -143.528999 0.0 0.0 0.0 0.0
15400.0 0.340756 -151.472424 0.340756 -151.472424 0.0 0.0 0.0 0.0
15500.0 0.340349 -159.411506 0.340349 -159.411506 0.0 0.0 0.0 0.0
15600.0 0.339934 -167.35598 0.339934 -167.35598 0.0 0.0 0.0 0.0
15700.0 0.339525 -175.295727 0.339525 -175.295727 0.0 0.0 0.0 0.0
15800.0 0.339115 176.759073 0.339115 176.759073 0.0 0.0 0.0 0.0
15900.0 0.3387 168.818724 0.3387 168.818724 0.0 0.0 0.0 0.0
16000.0 0.338292 160.873411 0.338292 160.873411 0.0 0.0 0.0 0.0
16100.0 0.337871 152.932771 0.337871 152.932771 0.0 0.0 0.0 0.0
16200.0 0.337464 144.988109 0.337464 144.988109 0.0 0.0 0.0 0.0
16300.0 0.337037 137.047598 0.337037 137.047598 0.0 0.0 0.0 0.0
16400.0 0.336632 129.10431 0.336632 129.10431 0.0 0.0 0.0 0.0
16500.0 0.336202 121.164289 0.336202 121.164289 0.0 0.0 0.0 0.0
16600.0 0.3358 113.222879 0.3358 113.222879 0.0 0.0 0.0 0.0
16700.0 0.335372 105.283515 0.335372 105.283515 0.0 0.0 0.0 0.0
16800.0 0.334975 97.344147 0.334975 97.344147 0.0 0.0 0.0 0.0
16900.0 0.334552 89.405344 0.334552 89.405344 0.0 0.0 0.0 0.0
17000.0 0.334163 81.467814 0.334163 81.467814 0.0 0.0 0.0 0.0
17100.0 0.333749 73.529243 0.333749 73.529243 0.0 0.0 0.0 0.0
17200.0 0.333367 65.593054 0.333367 65.593054 0.0 0.0 0.0 0.0
17300.0 0.332965 57.654265 0.332965 57.654265 0.0 0.0 0.0 0.0
17400.0 0.332589 49.718771 0.332589 49.718771 0.0 0.0 0.0 0.0
17500.0 0.332197 41.779349 0.332197 41.779349 0.0 0.0 0.0 0.0
17600.0 0.331825 33.843941 0.331825 33.843941 0.0 0.0 0.0 0.0
17700.0 0.331442 25.903661 0.331442 25.903661 0.0 0.0 0.0 0.0
17800.0 0.331071 17.967919 0.331071 17.967919 0.0 0.0 0.0 0.0
17900.0 0.330693 10.02685 0.330693 10.02685 0.0 0.0 0.0 0.0
18000.0 0.330318 2.090635 0.330318 2.090635 0.0 0.0 0.0 0.0
18100.0 0.329944 -5.850843 0.329944 -5.850843 0.0 0.0 0.0 0.0
18200.0 0.329562 -13.787396 0.329562 -13.787396 0.0 0.0 0.0 0.0
18300.0 0.329188 -21.72867 0.329188 -21.72867 0.0 0.0 0.0 0.0
18400.0 0.328799 -29.665235 0.328799 -29.665235 0.0 0.0 0.0 0.0
18500.0 0.328424 -37.60561 0.328424 -37.60561 0.0 0.0 0.0 0.0
18600.0 0.328029 -45.541825 0.328029 -45.541825 0.0 0.0 0.0 0.0
18700.0 0.327655 -53.480705 0.327655 -53.480705 0.0 0.0 0.0 0.0
18800.0 0.327257 -61.416317 0.327257 -61.416317 0.0 0.0 0.0 0.0
18900.0 0.326884 -69.35336 0.326884 -69.35336 0.0 0.0 0.0 0.0
19000.0 0.326487 -77.288339 0.326487 -77.288339 0.0 0.0 0.0 0.0
19100.0 0.326119 -85.223549 0.326119 -85.223549 0.0 0.0 0.0 0.0
19200.0 0.325727 -93.158122 0.325727 -93.158122 0.0 0.0 0.0 0.0
19300.0 0.325364 -101.091836 0.325364 -101.091836 0.0 0.0 0.0 0.0
19400.0 0.32498 -109.026428 0.32498 -109.026428 0.0 0.0 0.0 0.0
19500.0 0.324623 -116.959225 0.324623 -116.959225 0.0 0.0 0.0 0.0
19600.0 0.324248 -124.894331 0.324248 -124.894331 0.0 0.0 0.0 0.0
19700.0 0.323896 -132.826867 0.323896 -132.826867 0.0 0.0 0.0 0.0
19800.0 0.32353 -140.762891 0.32353 -140.762891 0.0 0.0 0.0 0.0
19900.0 0.323181 -148.695728 0.323181 -148.695728 0.0 0.0 0.0 0.0
20000.0 0.322821 -156.632843 0.322821 -156.632843 0.0 0.0 0.0 0.0
20100.0 0.322471 -164.566311 0.322471 -164.566311 0.0 0.0 0.0 0.0
20200.0 0.322116 -172.504372 0.322116 -172.504372 0.0 0.0 0.0 0.0
20300.0 0.321762 179.561493 0.321762 179.561493 0.0 0.0 0.0 0.0
20400.0 0.321409 171.622934 0.321409 171.622934 0.0 0.0 0.0 0.0
20500.0 0.321048 163.688359 0.321048 163.688359 0.0 0.0 0.0 0.0
20600.0 0.320696 155.749959 0.320696 155.749959 0.0 0.0 0.0 0.0
20700.0 0.32033 147.815331 0.32033 147.815331 0.0 0.0 0.0 0.0
20800.0 0.319977 139.877793 0.319977 139.877793 0.0 0.0 0.0 0.0
20900.0 0.319607 131.943503 0.319607 131.943503 0.0 0.0 0.0 0.0
21000.0 0.319255 124.007401 0.319255 124.007401 0.0 0.0 0.0 0.0
21100.0 0.318884 116.073702 0.318884 116.073702 0.0 0.0 0.0 0.0
21200.0 0.318536 108.13934 0.318536 108.13934 0.0 0.0 0.0 0.0
21300.0 0.318167 100.206251 0.318167 100.206251 0.0 0.0 0.0 0.0
21400.0 0.317824 92.273596 0.317824 92.273596 0.0 0.0 0.0 0.0
21500.0 0.317462 84.340889 0.317462 84.340889 0.0 0.0 0.0 0.0
21600.0 0.317125 76.409596 0.317125 76.409596 0.0 0.0 0.0 0.0
21700.0 0.316771 68.47687 0.316771 68.47687 0.0 0.0 0.0 0.0
21800.0 0.316441 60.546393 0.316441 60.546393 0.0 0.0 0.0 0.0
21900.0 0.316096 52.613205 0.316096 52.613205 0.0 0.0 0.0 0.0
22000.0 0.315771 44.682954 0.315771 44.682954 0.0 0.0 0.0 0.0
22100.0 0.315433 36.748972 0.315433 36.748972 0.0 0.0 0.0 0.0
22200.0 0.315109 28.818474 0.315109 28.818474 0.0 0.0 0.0 0.0
22300.0 0.314778 20.883607 0.314778 20.883607 0.0 0.0 0.0 0.0
22400.0 0.314452 12.952621 0.314452 12.952621 0.0 0.0 0.0 0.0
22500.0 0.314124 5.01707 0.314124 5.01707 0.0 0.0 0.0 0.0
22600.0 0.313793 -2.914374 0.313793 -2.914374 0.0 0.0 0.0 0.0
22700.0 0.313465 -10.850139 0.313465 -10.850139 0.0 0.0 0.0 0.0
22800.0 0.313128 -18.781789 0.313128 -18.781789 0.0 0.0 0.0 0.0
22900.0 0.312799 -26.717145 0.312799 -26.717145 0.0 0.0 0.0 0.0
23000.0 0.312456 -34.648645 0.312456 -34.648645 0.0 0.0 0.0 0.0
23100.0 0.312126 -42.582972 0.312126 -42.582972 0.0 0.0 0.0 0.0
23200.0 0.311778 -50.514005 0.311778 -50.514005 0.0 0.0 0.0 0.0
23300.0 0.311449 -58.446851 0.311449 -58.446851 0.0 0.0 0.0 0.0
23400.0 0.3111 -66.377271 0.3111 -66.377271 0.0 0.0 0.0 0.0
23500.0 0.310773 -74.308467 0.310773 -74.308467 0.0 0.0 0.0 0.0
23600.0 0.310426 -82.238368 0.310426 -82.238368 0.0 0.0 0.0 0.0
23700.0 0.310103 -90.168073 0.310103 -90.168073 0.0 0.0 0.0 0.0
23800.0 0.309761 -98.097772 0.309761 -98.097772 0.0 0.0 0.0 0.0
23900.0 0.309444 -106.02642 0.309444 -106.02642 0.0 0.0 0.0 0.0
24000.0 0.30911 -113.956374 0.30911 -113.956374 0.0 0.0 0.0 0.0
24100.0 0.308798 -121.884549 0.308798 -121.884549 0.0 0.0 0.0 0.0
24200.0 0.308471 -129.81521 0.308471 -129.81521 0.0 0.0 0.0 0.0
24300.0 0.308162 -137.743487 0.308162 -137.743487 0.0 0.0 0.0 0.0
24400.0 0.307843 -145.675154 0.307843 -145.675154 0.0 0.0 0.0 0.0
24500.0 0.307534 -153.603952 0.307534 -153.603952 0.0 0.0 0.0 0.0
24600.0 0.307219 -161.536659 0.307219 -161.536659 0.0 0.0 0.0 0.0
24700.0 0.306908 -169.466139 0.306908 -169.466139 0.0 0.0 0.0 0.0
24800.0 0.306596 -177.399621 0.306596 -177.399621 0.0 0.0 0.0 0.0
24900.0 0.30628 174.670327 0.30628 174.670327 0.0 0.0 0.0 0.0
25000.0 0.305968 166.736591 0.305968 166.736591 0.0 0.0 0.0 0.0
25100.0 0.305647 158.806279 0.305647 158.806279 0.0 0.0 0.0 0.0
25200.0 0.305334 150.872937 0.305334 150.872937 0.0 0.0 0.0 0.0
25300.0 0.305008 142.94276 0.305008 142.94276 0.0 0.0 0.0 0.0
25400.0 0.304695 135.01043 0.304695 135.01043 0.0 0.0 0.0 0.0
25500.0 0.304366 127.080713 0.304366 127.080713 0.0 0.0 0.0 0.0
25600.0 0.304055 119.149825 0.304055 119.149825 0.0 0.0 0.0 0.0
25700.0 0.303727 111.220712 0.303727 111.220712 0.0 0.0 0.0 0.0
25800.0 0.303419 103.291407 0.303419 103.291407 0.0 0.0 0.0 0.0
25900.0 0.303094 95.362803 0.303094 95.362803 0.0 0.0 0.0 0.0
26000.0 0.302791 87.434908 0.302791 87.434908 0.0 0.0 0.0 0.0
26100.0 0.302472 79.506504 0.302472 79.506504 0.0 0.0 0.0 0.0
26200.0 0.302175 71.579597 0.302175 71.579597 0.0 0.0 0.0 0.0
26300.0 0.301864 63.650971 0.301864 63.650971 0.0 0.0 0.0 0.0
26400.0 0.301572 55.724507 0.301572 55.724507 0.0 0.0 0.0 0.0
26500.0 0.301269 47.795261 0.301269 47.795261 0.0 0.0 0.0 0.0
26600.0 0.300979 39.868728 0.300979 39.868728 0.0 0.0 0.0 0.0
26700.0 0.300682 31.93863 0.300682 31.93863 0.0 0.0 0.0 0.0
26800.0 0.300392 24.011681 0.300392 24.011681 0.0 0.0 0.0 0.0
26900.0 0.300098 16.080755 0.300098 16.080755 0.0 0.0 0.0 0.0
27000.0 0.299806 8.153289 0.299806 8.153289 0.0 0.0 0.0 0.0
27100.0 0.299513 0.221835 0.299513 0.221835 0.0 0.0 0.0 0.0
27200.0 0.299215 -7.706007 0.299215 -7.706007 0.0 0.0 0.0 0.0
27300.0 0.298921 -15.637475 0.298921 -15.637475 0.0 0.0 0.0 0.0
27400.0 0.298618 -23.565387 0.298618 -23.565387 0.0 0.0 0.0 0.0
27500.0 0.298323 -31.496271 0.298323 -31.496271 0.0 0.0 0.0 0.0
27600.0 0.298014 -39.42391 0.298014 -39.42391 0.0 0.0 0.0 0.0
27700.0 0.297718 -47.353682 0.297718 -47.353682 0.0 0.0 0.0 0.0
27800.0 0.297406 -55.280803 0.297406 -55.280803 0.0 0.0 0.0 0.0
27900.0 0.297111 -63.209146 0.297111 -63.209146 0.0 0.0 0.0 0.0
28000.0 0.296799 -71.135702 0.296799 -71.135702 0.0 0.0 0.0 0.0
28100.0 0.296507 -79.062589 0.296507 -79.062589 0.0 0.0 0.0 0.0
28200.0 0.296199 -86.988765 0.296199 -86.988765 0.0 0.0 0.0 0.0
28300.0 0.295911 -94.914462 0.295911 -94.914462 0.0 0.0 0.0 0.0
28400.0 0.295608 -102.840629 0.295608 -102.840629 0.0 0.0 0.0 0.0
28500.0 0.295324 -110.765615 0.295324 -110.765615 0.0 0.0 0.0 0.0
28600.0 0.295028 -118.692222 0.295028 -118.692222 0.0 0.0 0.0 0.0
28700.0 0.294749 -126.617053 0.294749 -126.617053 0.0 0.0 0.0 0.0
28800.0 0.294459 -134.544484 0.294459 -134.544484 0.0 0.0 0.0 0.0
28900.0 0.294182 -142.469645 0.294182 -142.469645 0.0 0.0 0.0 0.0
29000.0 0.293897 -150.39809 0.293897 -150.39809 0.0 0.0 0.0 0.0
29100.0 0.293619 -158.323867 0.293619 -158.323867 0.0 0.0 0.0 0.0
29200.0 0.293337 -166.253246 0.293337 -166.253246 0.0 0.0 0.0 0.0
29300.0 0.293056 -174.179672 0.293056 -174.179672 0.0 0.0 0.0 0.0
29400.0 0.292775 177.890371 0.292775 177.890371 0.0 0.0 0.0 0.0
29500.0 0.292489 169.9635 0.292489 169.9635 0.0 0.0 0.0 0.0
29600.0 0.292208 162.033516 0.292208 162.033516 0.0 0.0 0.0 0.0
29700.0 0.291917 154.106551 0.291917 154.106551 0.0 0.0 0.0 0.0
29800.0 0.291635 146.177153 0.291635 146.177153 0.0 0.0 0.0 0.0
29900.0 0.29134 138.250457 0.29134 138.250457 0.0 0.0 0.0 0.0
30000.0 0.291058 130.322167 0.291058 130.322167 0.0 0.0 0.0 0.0
30100.0 0.290762 122.39599 0.290762 122.39599 0.0 0.0 0.0 0.0
30200.0 0.290482 114.469104 0.290482 114.469104 0.0 0.0 0.0 0.0
30300.0 0.290187 106.543491 0.290187 106.543491 0.0 0.0 0.0 0.0
30400.0 0.289911 98.61802 0.289911 98.61802 0.0 0.0 0.0 0.0
30500.0 0.28962 90.692789 0.28962 90.692789 0.0 0.0 0.0 0.0
30600.0 0.289349 82.768462 0.289349 82.768462 0.0 0.0 0.0 0.0
30700.0 0.289064 74.843262 0.289064 74.843262 0.0 0.0 0.0 0.0
30800.0 0.288797 66.919622 0.288797 66.919622 0.0 0.0 0.0 0.0
30900.0 0.288519 58.994042 0.288519 58.994042 0.0 0.0 0.0 0.0
31000.0 0.288256 51.070573 0.288256 51.070573 0.0 0.0 0.0 0.0
31100.0 0.287984 43.144282 0.287984 43.144282 0.0 0.0 0.0 0.0
31200.0 0.287722 35.220556 0.287722 35.220556 0.0 0.0 0.0 0.0
31300.0 0.287455 27.293419 0.287455 27.293419 0.0 0.0 0.0 0.0
31400.0 0.287192 19.369203 0.287192 19.369203 0.0 0.0 0.0 0.0
