! File created by SignalIntegrity v1.3.3: Signal and Power Integrity Tools
! https://github.com/TeledyneLeCroy/SignalIntegrity
# MHz S MA R 50.0
0.0 0.47307 0.0
100.0 0.466195 -9.392594
200.0 0.461176 -17.572553
300.0 0.458442 -25.98932
400.0 0.455322 -34.155446
500.0 0.4533 -42.424482
600.0 0.450754 -50.571206
700.0 0.449018 -58.769311
800.0 0.446751 -66.900833
900.0 0.445144 -75.051692
1000.0 0.443053 -83.168263
1100.0 0.441512 -91.281944
1200.0 0.439564 -99.382837
1300.0 0.438072 -107.465489
1400.0 0.436264 -115.550685
1500.0 0.434824 -123.607821
1600.0 0.433162 -131.678569
1700.0 0.431782 -139.71601
1800.0 0.430271 -147.774647
1900.0 0.428955 -155.798383
2000.0 0.427588 -163.84771
2100.0 0.426334 -171.863299
2200.0 0.425096 -179.90585
2300.0 0.423893 172.082234
2400.0 0.422761 164.044775
2500.0 0.421597 156.033595
2600.0 0.420543 148.000668
2700.0 0.419406 139.988917
2800.0 0.418407 131.960997
2900.0 0.417288 123.948742
3000.0 0.416326 115.926947
3100.0 0.415224 107.91512
3200.0 0.414287 99.90066
3300.0 0.413208 91.890461
3400.0 0.412291 83.884114
3500.0 0.411244 75.876504
3600.0 0.410349 67.878264
3700.0 0.409344 59.873667
3800.0 0.408471 51.882659
3900.0 0.407517 43.880935
4000.0 0.406667 35.895595
4100.0 0.405766 27.896229
4200.0 0.404936 19.914669
4300.0 0.404086 11.917092
4400.0 0.403271 3.93752
4500.0 0.402465 -4.058582
4600.0 0.401657 -12.037505
4700.0 0.400884 -20.031992
4800.0 0.400077 -28.010967
4900.0 0.399326 -36.003229
5000.0 0.398516 -43.982334
5100.0 0.39778 -51.971458
5200.0 0.396966 -59.950339
5300.0 0.39624 -67.93539
5400.0 0.395427 -75.913549
5500.0 0.394708 -83.893882
5600.0 0.393904 -91.870952
5700.0 0.393195 -99.846439
5800.0 0.392407 -107.82236
5900.0 0.391709 -115.793477
6000.0 0.390946 -123.768526
6100.0 0.39026 -131.736254
6200.0 0.389525 -139.710923
6300.0 0.388851 -147.676525
6400.0 0.388146 -155.651304
6500.0 0.38748 -163.616025
6600.0 0.386802 -171.59117
6700.0 0.386139 -179.555967
6800.0 0.385484 172.468656
6900.0 0.38482 164.503285
7000.0 0.384181 156.528243
7100.0 0.383513 148.562282
7200.0 0.382885 140.588467
7300.0 0.382212 132.622265
7400.0 0.381593 124.65068
7500.0 0.380919 116.684744
7600.0 0.380307 108.716237
7700.0 0.379637 100.751002
7800.0 0.379034 92.786048
7900.0 0.378374 84.821706
8000.0 0.377783 76.860281
8100.0 0.37714 68.896719
8200.0 0.376561 60.938314
8300.0 0.375938 52.975181
8400.0 0.37537 45.01895
8500.0 0.374771 37.055812
8600.0 0.374211 29.100797
8700.0 0.373633 21.137337
8800.0 0.373077 13.182708
8900.0 0.372516 5.218898
9000.0 0.371959 -2.735871
9100.0 0.371409 -10.699698
9200.0 0.370847 -18.654752
9300.0 0.370304 -26.617938
9400.0 0.369734 -34.573099
9500.0 0.369196 -42.534811
9600.0 0.368619 -50.489722
9700.0 0.368084 -58.449171
9800.0 0.367503 -66.403491
9900.0 0.366972 -74.360147
10000.0 0.366393 -82.313719
10100.0 0.365868 -90.267457
10200.0 0.365297 -98.220401
10300.0 0.36478 -106.171542
10400.0 0.364221 -114.124229
10500.0 0.363712 -122.073458
10600.0 0.36317 -130.026398
10700.0 0.362669 -137.974583
10800.0 0.362143 -145.928238
10900.0 0.361646 -153.876212
11000.0 0.361135 -161.830819
11100.0 0.360638 -169.779184
11200.0 0.360138 -177.734632
11300.0 0.359638 174.316359
11400.0 0.359145 166.360552
11500.0 0.35864 158.410997
11600.0 0.358151 150.455588
11700.0 0.357639 142.505842
11800.0 0.357154 134.551689
11900.0 0.356637 126.602189
12000.0 0.356156 118.650037
12100.0 0.355638 110.701124
12200.0 0.355163 102.751417
12300.0 0.35465 94.803203
12400.0 0.354182 86.85598
12500.0 0.353679 78.908302
12600.0 0.35322 70.963206
12700.0 0.352731 63.015685
12800.0 0.35228 55.072072
12900.0 0.351805 47.124252
13000.0 0.351362 39.181376
13100.0 0.350901 31.232901
13200.0 0.35046 23.290113
13300.0 0.35001 15.340878
13400.0 0.349568 7.397778
13500.0 0.349125 -0.55199
13600.0 0.348678 -8.495486
13700.0 0.348239 -16.445249
13800.0 0.347785 -24.388943
13900.0 0.347346 -32.337972
14000.0 0.346885 -40.28151
14100.0 0.346447 -48.229069
14200.0 0.34598 -56.172106
14300.0 0.345544 -64.117643
14400.0 0.345076 -72.060001
14500.0 0.344644 -80.003298
14600.0 0.34418 -87.945052
14700.0 0.343754 -95.886278
14800.0 0.343298 -103.827758
14900.0 0.342879 -111.767422
15000.0 0.342433 -119.709117
15100.0 0.342021 -127.647927
15200.0 0.341587 -135.590326
15300.0 0.341179 -143.528999
15400.0 0.340756 -151.472424
15500.0 0.340349 -159.411506
15600.0 0.339934 -167.35598
15700.0 0.339525 -175.295727
15800.0 0.339115 176.759073
15900.0 0.3387 168.818724
16000.0 0.338292 160.873411
16100.0 0.337871 152.932771
16200.0 0.337464 144.988109
16300.0 0.337037 137.047598
16400.0 0.336632 129.10431
16500.0 0.336202 121.164289
16600.0 0.3358 113.222879
16700.0 0.335372 105.283515
16800.0 0.334975 97.344147
16900.0 0.334552 89.405344
17000.0 0.334163 81.467814
17100.0 0.333749 73.529243
17200.0 0.333367 65.593054
17300.0 0.332965 57.654265
17400.0 0.332589 49.718771
17500.0 0.332197 41.779349
17600.0 0.331825 33.843941
17700.0 0.331442 25.903661
17800.0 0.331071 17.967919
17900.0 0.330693 10.02685
18000.0 0.330318 2.090635
18100.0 0.329944 -5.850843
18200.0 0.329562 -13.787396
18300.0 0.329188 -21.72867
18400.0 0.328799 -29.665235
18500.0 0.328424 -37.60561
18600.0 0.328029 -45.541825
18700.0 0.327655 -53.480705
18800.0 0.327257 -61.416317
18900.0 0.326884 -69.35336
19000.0 0.326487 -77.288339
19100.0 0.326119 -85.223549
19200.0 0.325727 -93.158122
19300.0 0.325364 -101.091836
19400.0 0.32498 -109.026428
19500.0 0.324623 -116.959225
19600.0 0.324248 -124.894331
19700.0 0.323896 -132.826867
19800.0 0.32353 -140.762891
19900.0 0.323181 -148.695728
20000.0 0.322821 -156.632843
20100.0 0.322471 -164.566311
20200.0 0.322116 -172.504372
20300.0 0.321762 179.561493
20400.0 0.321409 171.622934
20500.0 0.321048 163.688359
20600.0 0.320696 155.749959
20700.0 0.32033 147.815331
20800.0 0.319977 139.877793
20900.0 0.319607 131.943503
21000.0 0.319255 124.007401
21100.0 0.318884 116.073702
21200.0 0.318536 108.13934
21300.0 0.318167 100.206251
21400.0 0.317824 92.273596
21500.0 0.317462 84.340889
21600.0 0.317125 76.409596
21700.0 0.316771 68.47687
21800.0 0.316441 60.546393
21900.0 0.316096 52.613205
22000.0 0.315771 44.682954
22100.0 0.315433 36.748972
22200.0 0.315109 28.818474
22300.0 0.314778 20.883607
22400.0 0.314452 12.952621
22500.0 0.314124 5.01707
22600.0 0.313793 -2.914374
22700.0 0.313465 -10.850139
22800.0 0.313128 -18.781789
22900.0 0.312799 -26.717145
23000.0 0.312456 -34.648645
23100.0 0.312126 -42.582972
23200.0 0.311778 -50.514005
23300.0 0.311449 -58.446851
23400.0 0.3111 -66.377271
23500.0 0.310773 -74.308467
23600.0 0.310426 -82.238368
23700.0 0.310103 -90.168073
23800.0 0.309761 -98.097772
23900.0 0.309444 -106.02642
24000.0 0.30911 -113.956374
24100.0 0.308798 -121.884549
24200.0 0.308471 -129.81521
24300.0 0.308162 -137.743487
24400.0 0.307843 -145.675154
24500.0 0.307534 -153.603952
24600.0 0.307219 -161.536659
24700.0 0.306908 -169.466139
24800.0 0.306596 -177.399621
24900.0 0.30628 174.670327
25000.0 0.305968 166.736591
25100.0 0.305647 158.806279
25200.0 0.305334 150.872937
25300.0 0.305008 142.94276
25400.0 0.304695 135.01043
25500.0 0.304366 127.080713
25600.0 0.304055 119.149825
25700.0 0.303727 111.220712
25800.0 0.303419 103.291407
25900.0 0.303094 95.362803
26000.0 0.302791 87.434908
26100.0 0.302472 79.506504
26200.0 0.302175 71.579597
26300.0 0.301864 63.650971
26400.0 0.301572 55.724507
26500.0 0.301269 47.795261
26600.0 0.300979 39.868728
26700.0 0.300682 31.93863
26800.0 0.300392 24.011681
26900.0 0.300098 16.080755
27000.0 0.299806 8.153289
27100.0 0.299513 0.221835
27200.0 0.299215 -7.706007
27300.0 0.298921 -15.637475
27400.0 0.298618 -23.565387
27500.0 0.298323 -31.496271
27600.0 0.298014 -39.42391
27700.0 0.297718 -47.353682
27800.0 0.297406 -55.280803
27900.0 0.297111 -63.209146
28000.0 0.296799 -71.135702
28100.0 0.296507 -79.062589
28200.0 0.296199 -86.988765
28300.0 0.295911 -94.914462
28400.0 0.295608 -102.840629
28500.0 0.295324 -110.765615
28600.0 0.295028 -118.692222
28700.0 0.294749 -126.617053
28800.0 0.294459 -134.544484
28900.0 0.294182 -142.469645
29000.0 0.293897 -150.39809
29100.0 0.293619 -158.323867
29200.0 0.293337 -166.253246
29300.0 0.293056 -174.179672
29400.0 0.292775 177.890371
29500.0 0.292489 169.9635
29600.0 0.292208 162.033516
29700.0 0.291917 154.106551
29800.0 0.291635 146.177153
29900.0 0.29134 138.250457
30000.0 0.291058 130.322167
30100.0 0.290762 122.39599
30200.0 0.290482 114.469104
30300.0 0.290187 106.543491
30400.0 0.289911 98.61802
30500.0 0.28962 90.692789
30600.0 0.289349 82.768462
30700.0 0.289064 74.843262
30800.0 0.288797 66.919622
30900.0 0.288519 58.994042
31000.0 0.288256 51.070573
31100.0 0.287984 43.144282
31200.0 0.287722 35.220556
31300.0 0.287455 27.293419
31400.0 0.287192 19.369203
31500.0 0.286926 11.441341
31600.0 0.28666 3.516642
31700.0 0.286394 -4.411578
31800.0 0.286122 -12.336549
31900.0 0.285855 -20.264599
32000.0 0.285578 -28.18952
32100.0 0.28531 -36.116849
32200.0 0.285029 -44.041416
32300.0 0.28476 -51.967593
32400.0 0.284477 -59.891638
32500.0 0.28421 -67.816469
32600.0 0.283928 -75.740032
32700.0 0.283663 -83.6636
32800.0 0.283385 -91.586932
32900.0 0.283125 -99.509577
33000.0 0.282852 -107.433071
33100.0 0.282596 -115.355283
33200.0 0.282329 -123.279354
33300.0 0.282076 -131.201643
33400.0 0.281814 -139.126598
33500.0 0.281562 -147.04935
33600.0 0.281304 -154.975277
33700.0 0.281051 -162.89867
33800.0 0.280794 -170.825391
33900.0 0.280537 -178.749357
34000.0 0.280281 173.323541
34100.0 0.280019 165.399264
34200.0 0.279762 157.472338
34300.0 0.279496 149.548105
34400.0 0.279239 141.621913
34500.0 0.27897 133.698041
34600.0 0.278713 125.773005
34700.0 0.278443 117.849664
34800.0 0.278189 109.925965
34900.0 0.277921 102.003115
35000.0 0.27767 94.080657
35100.0 0.277407 86.158056
35200.0 0.27716 78.236506
35300.0 0.276903 70.313786
35400.0 0.27666 62.392677
35500.0 0.276409 54.469461
35600.0 0.276169 46.548326
35700.0 0.275922 38.624355
35800.0 0.275682 30.70285
35900.0 0.275438 22.77808
36000.0 0.275197 14.85607
36100.0 0.274953 6.930702
36200.0 0.274708 -0.991727
36300.0 0.274464 -8.917284
36400.0 0.274214 -16.839879
36500.0 0.273968 -24.765106
36600.0 0.273713 -32.687556
36700.0 0.273467 -40.611961
36800.0 0.273208 -48.534013
36900.0 0.272962 -56.457265
37000.0 0.272703 -64.378825
37100.0 0.272459 -72.300833
37200.0 0.272201 -80.222015
37300.0 0.27196 -88.14295
37400.0 0.271707 -96.064047
37500.0 0.271469 -103.984293
37600.0 0.271221 -111.905697
37700.0 0.270987 -119.825734
37800.0 0.270744 -127.747813
37900.0 0.270512 -135.668089
38000.0 0.270273 -143.591067
38100.0 0.270041 -151.511881
38200.0 0.269805 -159.435753
38300.0 0.269571 -167.357184
38400.0 0.269335 -175.281697
38500.0 0.269098 176.796393
38600.0 0.268862 168.87169
38700.0 0.26862 160.949596
38800.0 0.268384 153.025242
38900.0 0.268138 145.103301
39000.0 0.267901 137.179791
39100.0 0.267654 129.258265
39200.0 0.267418 121.335923
39300.0 0.26717 113.414906
39400.0 0.266937 105.493811
39500.0 0.266692 97.573194
39600.0 0.266462 89.653168
39700.0 0.266222 81.732671
39800.0 0.265996 73.813344
39900.0 0.265761 65.8926
40000.0 0.265538 57.973516
40100.0 0.265308 50.052196
40200.0 0.265087 42.132943
40300.0 0.26486 34.210862
40400.0 0.264639 26.29118
40500.0 0.264414 18.368374
40600.0 0.26419 10.448207
40700.0 0.263966 2.52494
40800.0 0.263737 -5.395568
40900.0 0.263512 -13.318864
41000.0 0.263279 -21.239443
41100.0 0.263052 -29.162275
41200.0 0.262815 -37.082639
41300.0 0.262588 -45.004584
41400.0 0.262349 -52.924536
41500.0 0.262122 -60.845353
41600.0 0.261883 -68.76487
41700.0 0.261658 -76.684559
41800.0 0.261421 -84.603809
41900.0 0.261199 -92.522609
42000.0 0.260967 -100.441912
42100.0 0.260748 -108.360225
42200.0 0.26052 -116.279953
42300.0 0.260304 -124.198235
42400.0 0.260081 -132.1187
42500.0 0.259866 -140.037335
42600.0 0.259646 -147.958679
42700.0 0.259431 -155.87788
42800.0 0.259213 -163.800017
42900.0 0.258995 -171.719785
43000.0 0.258778 -179.642404
43100.0 0.258556 172.437452
43200.0 0.258338 164.514818
43300.0 0.258113 156.594602
43400.0 0.257894 148.672462
43500.0 0.257666 140.752482
43600.0 0.257447 132.83126
43700.0 0.257217 124.911717
43800.0 0.257 116.991647
43900.0 0.256771 109.072567
44000.0 0.256556 101.15364
44100.0 0.25633 93.23486
44200.0 0.256119 85.316839
44300.0 0.255897 77.398057
44400.0 0.255689 69.480551
44500.0 0.255472 61.561419
44600.0 0.255266 53.643998
44700.0 0.255054 45.72424
44800.0 0.254849 37.806551
44900.0 0.254639 29.886056
45000.0 0.254433 21.967912
45100.0 0.254224 14.046786
45200.0 0.254015 6.1282
45300.0 0.253806 -1.793249
45400.0 0.253593 -9.712096
45500.0 0.253383 -17.633428
45600.0 0.253165 -25.552266
45700.0 0.252954 -33.473027
45800.0 0.252733 -41.391602
45900.0 0.252522 -49.31144
46000.0 0.2523 -57.229616
46100.0 0.252089 -65.148374
46200.0 0.251867 -73.066188
46300.0 0.251659 -80.983943
46400.0 0.25144 -88.901605
46500.0 0.251235 -96.818641
46600.0 0.25102 -104.736478
46700.0 0.250817 -112.653203
46800.0 0.250607 -120.571559
46900.0 0.250406 -128.488392
47000.0 0.2502 -136.407515
47100.0 0.25 -144.324774
47200.0 0.249796 -152.244729
47300.0 0.249595 -160.16255
47400.0 0.249392 -168.083183
47500.0 0.249188 -176.001505
47600.0 0.248986 176.077538
47700.0 0.248779 168.158941
47800.0 0.248575 160.238126
47900.0 0.248365 152.319553
48000.0 0.24816 144.399351
48100.0 0.247948 136.48107
48200.0 0.247744 128.561831
48300.0 0.247531 120.643984
48400.0 0.247329 112.725859
48500.0 0.247117 104.808413
48600.0 0.246917 96.891319
48700.0 0.246708 88.974072
48800.0 0.246512 81.057728
48900.0 0.246307 73.140369
49000.0 0.246113 65.224381
49100.0 0.245913 57.306593
49200.0 0.245721 49.390566
49300.0 0.245523 41.472128
49400.0 0.245332 33.555768
49500.0 0.245136 25.63664
49600.0 0.244943 17.719826
49700.0 0.244748 9.800171
49800.0 0.244552 1.882969
49900.0 0.244356 -6.036874
50000.0 0.244156 -13.954261
50100.0 0.243959 -21.873861
50200.0 0.243755 -29.791172
50300.0 0.243558 -37.710119
50400.0 0.243351 -45.627145
50500.0 0.243154 -53.545156
50600.0 0.242946 -61.461815
50700.0 0.24275 -69.378812
50800.0 0.242544 -77.295192
50900.0 0.24235 -85.211312
51000.0 0.242147 -93.127654
51100.0 0.241955 -101.043212
51200.0 0.241756 -108.959836
51300.0 0.241567 -116.875233
51400.0 0.241372 -124.792443
51500.0 0.241184 -132.708055
51600.0 0.240992 -140.626035
51700.0 0.240805 -148.542113
51800.0 0.240615 -156.460859
51900.0 0.240426 -164.377475
52000.0 0.240236 -172.296773
52100.0 0.240045 179.786186
52200.0 0.239855 171.866713
52300.0 0.23966 163.949491
52400.0 0.23947 156.030302
52500.0 0.239272 148.113182
52600.0 0.239081 140.194696
52700.0 0.238882 132.277902
52800.0 0.238692 124.3604
52900.0 0.238493 116.444018
53000.0 0.238304 108.527575
53100.0 0.238107 100.611521
53200.0 0.237921 92.695995
53300.0 0.237727 84.78004
53400.0 0.237543 76.865121
53500.0 0.237353 68.948959
53600.0 0.237172 61.03426
53700.0 0.236985 53.117612
53800.0 0.236805 45.202776
53900.0 0.236621 37.285479
54000.0 0.236441 29.370273
54100.0 0.236258 21.452347
54200.0 0.236076 13.536706
54300.0 0.235893 5.618363
54400.0 0.235708 -2.297608
54500.0 0.235524 -10.216011
54600.0 0.235335 -18.132098
54700.0 0.235151 -26.050149
54800.0 0.234958 -33.966113
54900.0 0.234773 -41.883452
55000.0 0.234579 -49.799126
55100.0 0.234394 -57.715539
55200.0 0.2342 -65.630894
55300.0 0.234016 -73.54637
55400.0 0.233824 -81.461535
55500.0 0.233642 -89.37626
55600.0 0.233453 -97.291493
55700.0 0.233274 -105.205799
55800.0 0.233088 -113.121405
55900.0 0.232911 -121.035674
56000.0 0.232728 -128.95191
56100.0 0.232553 -136.866472
56200.0 0.232373 -144.78346
56300.0 0.232197 -152.698505
56400.0 0.232018 -160.616176
56500.0 0.23184 -168.531718
56600.0 0.231662 -176.449814
56700.0 0.231481 175.634297
56800.0 0.231303 167.71617
56900.0 0.231119 159.800183
57000.0 0.23094 151.88246
57100.0 0.230754 143.966636
57200.0 0.230576 136.049685
57300.0 0.230388 128.134201
57400.0 0.23021 120.218235
57500.0 0.230024 112.303126
57600.0 0.229847 104.388152
57700.0 0.229663 96.473293
57800.0 0.229489 88.559121
57900.0 0.229307 80.644267
58000.0 0.229136 72.730572
58100.0 0.228958 64.815432
58200.0 0.228788 56.901843
58300.0 0.228613 48.986178
58400.0 0.228444 41.072381
58500.0 0.228271 33.156088
58600.0 0.228101 25.241901
58700.0 0.227929 17.325053
58800.0 0.227756 9.410463
58900.0 0.227584 1.493309
59000.0 0.227409 -6.421554
59100.0 0.227236 -14.338651
59200.0 0.227057 -22.253571
59300.0 0.226883 -30.170225
59400.0 0.226701 -38.084991
59500.0 0.226527 -46.000895
59600.0 0.226344 -53.915384
59700.0 0.226171 -61.830389
59800.0 0.225988 -69.744618
59900.0 0.225816 -77.658769
60000.0 0.225635 -85.572901
60100.0 0.225465 -93.486424
60200.0 0.225288 -101.400719
60300.0 0.22512 -109.313952
60400.0 0.224945 -117.228692
60500.0 0.224779 -125.141991
60600.0 0.224608 -133.057385
60700.0 0.224442 -140.971031
60800.0 0.224273 -148.887139
60900.0 0.224107 -156.801265
61000.0 0.223939 -164.717963
61100.0 0.22377 -172.632536
61200.0 0.223603 179.450469
61300.0 0.223432 171.535625
61400.0 0.223264 163.61873
61500.0 0.22309 155.703862
61600.0 0.222921 147.787474
61700.0 0.222746 139.872811
61800.0 0.222577 131.957244
61900.0 0.222401 124.042919
62000.0 0.222234 116.12832
62100.0 0.222059 108.214322
62200.0 0.221893 100.30064
62300.0 0.22172 92.386813
62400.0 0.221556 84.473824
62500.0 0.221386 76.559916
62600.0 0.221225 68.647285
62700.0 0.221058 60.733028
62800.0 0.220898 52.820409
62900.0 0.220734 44.905609
63000.0 0.220574 36.992729
63100.0 0.220411 29.077336
63200.0 0.22025 21.164064
63300.0 0.220088 13.248199
63400.0 0.219924 5.33456
63500.0 0.219761 -2.581503
63600.0 0.219594 -10.495358
63700.0 0.219431 -18.411259
63800.0 0.219261 -26.325125
63900.0 0.219097 -34.24051
64000.0 0.218925 -42.154207
64100.0 0.218761 -50.068822
64200.0 0.218588 -57.98227
64300.0 0.218424 -65.896025
64400.0 0.218252 -73.809281
64500.0 0.21809 -81.722273
64600.0 0.217921 -89.63552
64700.0 0.217761 -97.548001
64800.0 0.217594 -105.461497
64900.0 0.217436 -113.373801
65000.0 0.217272 -121.287798
65100.0 0.217115 -129.200251
65200.0 0.216954 -137.114905
65300.0 0.216797 -145.027739
65400.0 0.216638 -152.943055
65500.0 0.21648 -160.856352
65600.0 0.216321 -168.772157
65700.0 0.216161 -176.685846
65800.0 0.216003 175.398178
65900.0 0.215841 167.48429
66000.0 0.215682 159.568534
66100.0 0.215517 151.654682
66200.0 0.215358 143.739517
66300.0 0.215192 135.825899
66400.0 0.215033 127.911586
66500.0 0.214867 119.998291
66600.0 0.214709 112.084916
66700.0 0.214544 104.171893
66800.0 0.214388 96.259357
66900.0 0.214225 88.346426
67000.0 0.214072 80.434477
67100.0 0.213912 72.52139
67200.0 0.213759 64.609695
67300.0 0.213602 56.696212
67400.0 0.213451 48.784451
67500.0 0.213296 40.870423
67600.0 0.213144 32.958368
67700.0 0.21299 25.043793
67800.0 0.212837 17.131355
67900.0 0.212683 9.216396
68000.0 0.212527 1.303629
68100.0 0.212373 -6.611423
68200.0 0.212214 -14.524357
68300.0 0.21206 -22.439154
68400.0 0.211898 -30.352065
68500.0 0.211743 -38.26629
68600.0 0.21158 -46.179032
68700.0 0.211424 -54.092483
68800.0 0.211261 -62.005015
68900.0 0.211107 -69.917658
69000.0 0.210944 -77.83007
69100.0 0.210791 -85.742042
69200.0 0.210631 -93.654531
69300.0 0.21048 -101.566101
69400.0 0.210323 -109.478914
69500.0 0.210174 -117.390406
69600.0 0.210019 -125.303757
69700.0 0.209871 -133.215463
69800.0 0.209719 -141.129459
69900.0 0.20957 -149.041564
70000.0 0.209419 -156.956156
70100.0 0.209269 -164.868698
70200.0 0.209119 -172.783674
70300.0 0.208967 179.303451
70400.0 0.208817 171.388425
70500.0 0.208662 163.475416
70600.0 0.208512 155.560717
70700.0 0.208355 147.647794
70800.0 0.208205 139.733756
70900.0 0.208048 131.82108
71000.0 0.207898 123.907909
71100.0 0.20774 115.99553
71200.0 0.207592 108.083258
71300.0 0.207436 100.171092
71400.0 0.207289 92.259578
71500.0 0.207135 84.347431
71600.0 0.20699 76.436405
71700.0 0.206839 68.524038
71800.0 0.206695 60.613176
71900.0 0.206547 52.700381
72000.0 0.206403 44.789391
72100.0 0.206256 36.876063
