! .\\xraymmde.s4p
!
! written by LeCroy Virtual Probe(tm)
!
! freq S11 S12 S13 S14 
! S21 S22 S23 S24 
! S31 S32 S33 S34 
! S41 S42 S43 S44 
! 
# MHz S MA R 50.00
    0.000   0.008938  -0.000085   0.989781   0.000004   0.000273 -179.993801   0.001029 -179.999790 
  0.989985   0.000005   0.009444  -0.000080   0.000278 -179.996393   0.000892   0.001758 
  0.000276 -179.994821   0.000996 -179.999671   0.024570  -0.000163   0.984798   0.000003 
  0.000296 -179.997541   0.000847   0.001850   0.985077   0.000004   0.025059  -0.000160 
   50.000   0.024526 -123.178576   0.952830 -62.418887   0.000697 139.679152   0.000583  17.682982 
  0.953224 -62.432429   0.030100 -108.509548   0.000189 153.530928   0.000667 -41.463641 
  0.000491 101.900920   0.000557  26.453606   0.245747  21.987738   0.923473 -66.417707 
  0.000213 133.698966   0.000666 -93.648363   0.923885 -66.421609   0.246488  16.961559 
  100.000   0.031466 140.555671   0.926305 -122.978022   0.001921  79.503328   0.000421  -5.667023 
  0.926540 -122.972870   0.036474 178.236463   0.000419   2.784676   0.001975 -145.125269 
  0.001788  72.898979   0.000762 -56.586157   0.198479 -29.245085   0.910826 -128.994450 
  0.000773  45.738064   0.002160 -156.387326   0.911154 -128.986861   0.196543 -44.055334 
  150.000   0.017332  53.086924   0.905396 176.899011   0.000642  51.278371   0.000708 -94.242161 
  0.905069 176.880269   0.016760 126.098980   0.000714 -126.878235   0.001580 156.255133 
  0.000800  58.021200   0.000598 -156.208975   0.083146  44.954681   0.903882 165.727254 
  0.001095 -81.664066   0.001548 169.116951   0.903457 165.707835   0.068258  69.663015 
  200.000   0.013379 -136.675762   0.885856 116.972761   0.001853 112.686367   0.001077 -164.317036 
  0.886225 116.956441   0.014249 -152.816896   0.000916 -164.722110   0.001443 -61.004436 
  0.001662 104.382927   0.001308 176.028865   0.243029  12.967957   0.860337 102.264020 
  0.001291 -134.274212   0.001475 -82.236574   0.860731 102.255677   0.239455   8.119394 
  250.000   0.024826 141.785431   0.867712  57.264230   0.004126  59.416047   0.001402 176.611733 
  0.868303  57.229971   0.025726 163.049420   0.001439 121.355726   0.004586 -135.832829 
  0.004020  57.382466   0.001792 109.799626   0.154030 -29.754373   0.858717  39.795862 
  0.001913 -175.512019   0.004580 -139.071106   0.859339  39.764012   0.144495 -51.626608 
  300.000   0.011242  94.317235   0.850612  -2.275150   0.001927 -10.756762   0.002194  96.364101 
  0.850978  -2.305233   0.010837 121.183688   0.001717  25.411440   0.003031 158.286883 
  0.002207  -2.362853   0.001951  37.158364   0.120433  41.987226   0.845166 -25.090379 
  0.002315  97.187374   0.003119 169.180667   0.845482 -25.121396   0.104700  56.552235 
  350.000   0.023608 -171.366856   0.834664 -61.824061   0.001801 160.413722   0.002082  27.053597 
  0.835078 -61.840706   0.023422 -148.628112   0.001989 -24.259981   0.001706 -152.900665 
  0.001479 154.854234   0.002572 -22.268820   0.217633   6.133919   0.815206 -87.990062 
  0.002108  27.607318   0.002303 -159.269409   0.815605 -87.999740   0.210703  -1.527007 
  400.000   0.037987 148.283824   0.818878 -121.254098   0.007451  42.650364   0.002347 -10.541426 
  0.819329 -121.240342   0.034995 157.895710   0.002919 -82.461311   0.008694 -142.922364 
  0.007368  42.862851   0.003066 -85.273173   0.099336 -23.580637   0.815684 -151.234475 
  0.002859 -10.525793   0.008656 -142.348537   0.816159 -151.216646   0.082351 -54.120650 
  450.000   0.024746 144.381753   0.804603 179.409319   0.010042 -36.823330   0.004244 -93.806917 
  0.804825 179.409711   0.008339  54.541822   0.003348 -159.084028   0.011582 171.405771 
  0.010139 -34.849511   0.003459 -158.515452   0.145704  42.235119   0.795884 144.145113 
  0.004393 -91.573489   0.011716 174.528019   0.796117 144.142648   0.133342  40.659931 
  500.000   0.043056 152.412632   0.789694 120.090369   0.010097 -115.692984   0.004365 -171.023498 
  0.790135 120.096649   0.037172 -107.409090   0.003036 148.928016   0.011011 129.499681 
  0.010022 -115.069196   0.003062 149.958785   0.195937   5.576796   0.774473  81.392724 
  0.004779 -173.015411   0.011336 131.673148   0.774870  81.394238   0.182426 -16.406857 
  550.000   0.048219 113.357308   0.776058  60.941321   0.010010 174.311017   0.003381 125.621503 
  0.776006  60.917560   0.050328 -161.688712   0.003316 112.031233   0.009108  91.772227 
  0.010150 173.341027   0.002991 106.127615   0.092829   7.712410   0.773162  17.595121 
  0.003971 128.310033   0.008694  90.183992   0.773073  17.578153   0.021135 -73.264034 
  600.000   0.016121  70.371487   0.763441   1.767440   0.008368 150.251705   0.003928  79.829686 
  0.763728   1.772537   0.028179 174.271210   0.004282  46.749575   0.004905   3.540963 
  0.008386 148.031817   0.004580  50.657180   0.186348  28.902862   0.748177 -46.452558 
  0.003930  71.988858   0.004413  -4.417377   0.748413 -46.463972   0.164246  40.050396 
  650.000   0.029468 -177.856481   0.750403 -57.409208   0.009501 129.577424   0.004580  22.404147 
  0.750371 -57.406405   0.035559 -147.154700   0.005181 -17.391462   0.006950 -118.518950 
  0.009253 129.042506   0.005509 -21.143583   0.180982  -5.918936   0.736012 -108.949101 
  0.004335  24.936020   0.006871 -120.924450   0.736021 -108.962892   0.164504 -16.776675 
  700.000   0.041234 135.069069   0.737639 -116.457188   0.007673  82.347324   0.005479 -30.918235 
  0.737664 -116.469146   0.047039 -173.360673   0.005160 -80.947506   0.008845 -172.713616 
  0.007810  83.341484   0.005425 -83.424005   0.086638  21.787549   0.732752 -173.022584 
  0.005621 -33.966111   0.008714 -168.609787   0.732785 -173.030236   0.032576  41.561100 
  750.000   0.011795 115.948297   0.726212 -175.621905   0.002113 -120.863089   0.006277 -102.176229 
  0.726049 -175.614795   0.025110 -179.303159   0.005477 -144.688806   0.005712 -176.415474 
  0.001924 -119.859120   0.005803 -141.062071   0.199642  22.785382   0.707382 123.264968 
  0.006180 -103.081055   0.006275 -171.739418   0.707318 123.262501   0.185638  28.015361 
  800.000   0.035546 -171.912931   0.713533 125.421997   0.007847 -176.136188   0.005899 -166.740130 
  0.713253 125.436147   0.041117 -144.224117   0.005917 151.283244   0.007001 179.415175 
  0.007617 -176.243305   0.005855 154.317114   0.162553 -14.124898   0.699704  60.971789 
  0.005857 -167.444423   0.007080 177.924617   0.699355  60.974200   0.158079 -18.326701 
  850.000   0.044282 145.101637   0.701298  66.491744   0.008867 -174.333001   0.006061 131.168109 
  0.701467  66.482962   0.050556 -172.783336   0.006046 102.412388   0.002056  54.948148 
  0.008970 -176.344858   0.006302 104.594983   0.092751  41.331927   0.690988  -3.390660 
  0.005877 129.411124   0.001653  44.440994   0.690998  -3.404137   0.089604  28.939104 
  900.000   0.016515 133.570285   0.690761   7.545023   0.019310 176.495117   0.004439  67.642278 
  0.690712   7.576365   0.024718 179.507532   0.007822  33.716351   0.013923 -76.813772 
  0.019086 175.713622   0.008164  39.460005   0.245888  23.533165   0.657703 -66.253170 
  0.004340  67.236654   0.014127 -79.340623   0.657636 -66.251714   0.236401   4.683135 
  950.000   0.032825 -171.984888   0.679566 -51.413851   0.027069 135.508787   0.003785  49.104660 
  0.679543 -51.385111   0.037662 -135.513773   0.009337 -37.332178   0.023351 -131.215324 
  0.026896 135.408266   0.009188 -36.154300   0.248539 -16.803448   0.648887 -126.966880 
  0.003662  45.044350   0.023033 -131.434724   0.648884 -126.938238   0.228754 -45.943580 
 1000.000   0.030783 153.563531   0.668430 -110.285707   0.021587  97.920162   0.006476  -5.037371 
  0.668504 -110.243746   0.043458 -154.397544   0.008570 -106.223184   0.016285 173.034508 
  0.021630  98.103141   0.008496 -106.867749   0.137739 -40.806404   0.657605 170.716579 
  0.006417  -7.602959   0.016016 174.633073   0.657704 170.743376   0.085912 -94.901727 
 1050.000   0.018466 -122.793796   0.657618 -169.218754   0.013815 101.689743   0.007295 -75.410859 
  0.657924 -169.198974   0.037840 -133.687380   0.008255 -169.104568   0.002150  -3.803827 
  0.013838 100.630658   0.008433 -165.469364   0.091290 -21.149597   0.653595 107.658631 
  0.007214 -76.410079   0.001913 -10.399589   0.653741 107.680663   0.050227   7.407954 
 1100.000   0.060854 -147.398432   0.646320 131.890341   0.014615 100.180715   0.007574 -138.570416 
  0.646682 131.894409   0.067335 -140.261642   0.008440 131.346395   0.013062 -95.021602 
  0.014710 100.222418   0.008170 134.139322   0.069200 -14.008669   0.644438  45.059291 
  0.007571 -137.821448   0.013091 -93.336782   0.644902  45.057117   0.050369 -16.975651 
 1150.000   0.060019 168.666489   0.635471  73.135904   0.007554 149.907324   0.007464 154.851507 
  0.635742  73.158822   0.064765 -174.253152   0.008858  71.307848   0.010046 -75.853909 
  0.007648 148.471704   0.008386  74.799356   0.105527  26.801452   0.629849 -17.546671 
  0.007452 154.231038   0.010617 -76.362531   0.630167 -17.519459   0.086413  44.570647 
 1200.000   0.024206 145.401106   0.626403  14.341696   0.031686 151.126410   0.006005 102.304750 
  0.626197  14.318926   0.027687 165.490280   0.010256  10.862158   0.031544 -69.744489 
  0.031658 151.028740   0.010060  11.068053   0.164868  -0.187707   0.613545 -79.224382 
  0.005987 100.977438   0.031347 -70.297087   0.613381 -79.241797   0.160484   9.833349 
 1250.000   0.020765 -148.111839   0.616333 -44.503499   0.045839 106.382761   0.007699  60.634894 
  0.616577 -44.531365   0.022169 -140.443049   0.011325 -59.357942   0.047030 -108.210621 
  0.045883 106.403621   0.011001 -56.462138   0.107467 -27.597792   0.607457 -141.227582 
  0.007417  60.097098   0.047079 -107.656304   0.607579 -141.250143   0.120545 -17.579888 
 1300.000   0.023299 -154.273842   0.606953 -103.380491   0.025962  78.412951   0.008639  -6.313299 
  0.607028 -103.375557   0.017766 -146.694971   0.009747 -123.449534   0.030663 -128.586793 
  0.026119  78.593362   0.009323 -120.163571   0.094936  26.073853   0.596546 155.806938 
  0.008351  -6.385154   0.030895 -128.140288   0.596445 155.825738   0.116576   9.952232 
 1350.000   0.025718 -135.371563   0.596573 -162.310450   0.041175 127.320243   0.008616 -49.199155 
  0.596727 -162.339389   0.020689 -70.680675   0.010923 -173.121081   0.045028 -85.618373 
  0.041336 127.206703   0.010138 -171.274325   0.175419   6.542988   0.580304  93.518819 
  0.008188 -49.302267   0.045041 -85.445769   0.580488  93.511642   0.176012 -10.446201 
 1400.000   0.028722 -151.209524   0.583565 138.920481   0.089104  86.358381   0.015212 -102.340020 
  0.583949 138.888437   0.040265 -87.500097   0.013798 120.040685   0.096087 -113.962187 
  0.089139  86.382512   0.013364 120.338987   0.142448 -13.816745   0.570235  31.289537 
  0.014419 -101.628601   0.096289 -113.725623   0.570899  31.264300   0.114839 -36.084734 
 1450.000   0.009896 -155.013372   0.573330  80.540035   0.099324  32.031487   0.019629 172.750938 
  0.573526  80.543969   0.037395 -98.302741   0.012874  40.285774   0.112494 -155.729534 
  0.099436  32.059122   0.012198  42.385071   0.141611   3.071657   0.558640 -31.464392 
  0.019528 172.625603   0.112429 -155.517536   0.558730 -31.454359   0.100199  14.878226 
 1500.000   0.027135 -76.869556   0.567291  22.020353   0.064245 -21.113226   0.017698  88.804689 
  0.567573  22.035227   0.039924 -90.666278   0.009354 -21.532157   0.083615 168.476139 
  0.063971 -20.958790   0.008805 -19.717732   0.190206 -14.721231   0.544083 -93.807511 
  0.017126  87.416142   0.083440 168.569891   0.544314 -93.774061   0.184069  -2.076795 
 1550.000   0.038358 -98.168671   0.560236 -36.831839   0.012339 -27.190770   0.012642  22.078623 
  0.560447 -36.825884   0.035584 -103.325044   0.009562 -60.787295   0.046669 165.014614 
  0.012328 -27.153481   0.009207 -56.625664   0.129673 -41.045936   0.540084 -156.641606 
  0.012350  20.094632   0.046371 165.240202   0.540293 -156.623118   0.155939 -25.891437 
 1600.000   0.041270 -88.906492   0.551380 -95.729588   0.040328  21.342745   0.012449 -32.680466 
  0.551613 -95.746874   0.026084 -53.504400   0.012046 -128.343399   0.055952 170.950766 
  0.040268  21.509678   0.011658 -125.363687   0.079637  -5.877954   0.532439 139.639940 
  0.012515 -34.266819   0.055858 171.127768   0.532564 139.629199   0.118565 -16.020557 
 1650.000   0.073009 -99.526764   0.540421 -154.452194   0.053695 -25.542554   0.013204 -99.936486 
  0.540857 -154.475104   0.071197 -58.601823   0.010955 164.431847   0.057849 137.160535 
  0.053558 -25.175726   0.010460 168.425843   0.105386  -4.654702   0.524880  75.932514 
  0.013070 -101.906100   0.057338 137.183361   0.525334  75.935046   0.121271 -12.082138 
 1700.000   0.083063 -134.656285   0.531517 147.029177   0.044284 -71.557762   0.010567 -161.912051 
  0.531695 147.024610   0.086114 -96.781431   0.010852 115.120910   0.032705  85.243427 
  0.044292 -71.431430   0.010633 118.307211   0.088035  25.635534   0.515016  11.817183 
  0.010581 -163.271350   0.032361  85.070750   0.515328  11.809006   0.120067  10.760532 
 1750.000   0.058091 -169.292105   0.525237  88.494163   0.035620 -114.872608   0.009297 154.903457 
  0.525080  88.448490   0.051758 -133.859575   0.013754  51.802859   0.015012 -38.980454 
  0.035593 -115.276153   0.013761  53.495117   0.194704  26.126366   0.495879 -51.469317 
  0.008860 151.255791   0.015071 -40.055257   0.495722 -51.519077   0.210285   6.422061 
 1800.000   0.028608 -174.287388   0.517947  29.669293   0.040798 -173.274703   0.010812 116.821043 
  0.518180  29.648075   0.014439 -74.052636   0.015723 -24.736041   0.038997 -119.439312 
  0.040707 -173.602945   0.015480 -23.173673   0.214385  -2.618376   0.485439 -113.972587 
  0.010290 115.382362   0.039088 -119.034136   0.485452 -113.976977   0.222213 -18.842774 
 1850.000   0.022043 174.615505   0.509032 -29.056018   0.056899 124.382518   0.016163  60.040926 
  0.509034 -29.082392   0.042304 -62.456585   0.015086 -103.597289   0.060949 -167.012107 
  0.056955 124.537730   0.014772 -102.318210   0.143078   1.464108   0.478207 -177.899306 
  0.015605  59.141041   0.060716 -166.845031   0.478198 -177.922968   0.160379 -19.606342 
 1900.000   0.010937  69.353327   0.500229 -87.623515   0.068475  69.394935   0.020980 -13.915904 
  0.500498 -87.594961   0.045064 -76.828195   0.011968 178.258273   0.066900 140.662930 
  0.068548  69.538986   0.011544 178.441043   0.230969  16.380256   0.460267 118.091983 
  0.020731 -14.058712   0.066700 140.536284   0.460443 118.151402   0.217296 -15.748790 
 1950.000   0.031059 -36.173107   0.492703 -146.205503   0.066335  25.007336   0.021419 -91.588450 
  0.492973 -146.179161   0.046086 -85.045918   0.006435 122.777030   0.054021  79.820523 
  0.066398  25.193625   0.006154 123.837312   0.300740  -7.758710   0.446802  56.283570 
  0.021433 -92.132082   0.054098  79.429652   0.447158  56.302845   0.226745 -48.287986 
 2000.000   0.036730 -84.933543   0.486078 155.188456   0.056100 -13.791631   0.019420 -163.677877 
  0.486359 155.198327   0.036780 -110.086910   0.005769 100.317463   0.038748   5.765224 
  0.056281 -13.881961   0.005793  99.137760   0.257203 -30.563354   0.452240  -5.122557 
  0.019259 -165.372333   0.039137   5.682334   0.452578  -5.118421   0.101067 -92.835107 
 2050.000   0.027381 -110.157183   0.479427  96.539254   0.035905 -48.769911   0.016302 135.167099 
  0.479850  96.544499   0.007336 -124.986597   0.007956  48.258147   0.031070 -69.254288 
  0.035718 -49.261477   0.008064  50.776316   0.182401 -41.448261   0.457618 -67.049126 
  0.016463 133.692779   0.031509 -68.423994   0.457966 -67.051063   0.056866  54.498574 
 2100.000   0.025805 -111.290467   0.472445  37.793689   0.007282 -88.373279   0.014154  86.263163 
  0.473050  37.749291   0.025606 -22.854757   0.009702 -12.878609   0.027525 -114.741571 
  0.007112 -88.043547   0.009894 -10.859250   0.113472 -38.284329   0.459905 -128.976995 
  0.014180  83.936375   0.027727 -113.376383   0.460340 -129.023128   0.116446  22.670536 
 2150.000   0.029123 -148.445619   0.464965 -20.963565   0.023031  57.905222   0.015002  36.509378 
  0.465270 -20.969347   0.035949 -61.313672   0.010067 -76.008209   0.032451 -144.709809 
  0.022887  58.267436   0.010190 -75.798791   0.101267  -0.948564   0.455135 168.851857 
  0.014867  36.048927   0.032375 -144.188051   0.455263 168.837189   0.120769  25.219015 
 2200.000   0.020819 158.939406   0.457073 -79.583515   0.044370  23.833871   0.016658 -19.331920 
  0.457732 -79.567134   0.022668 -94.987321   0.010316 -135.948179   0.039844 169.679876 
  0.044337  23.830676   0.010485 -133.719494   0.150958  -5.609390   0.443983 107.030213 
  0.016971 -20.603334   0.039326 169.839861   0.444560 107.022211   0.165788  22.458695 
 2250.000   0.007486  96.940374   0.450144 -138.154176   0.050503  -6.567144   0.016648 -83.699392 
  0.450573 -138.186751   0.010619 -82.414421   0.012002 170.082922   0.034851 113.067113 
  0.050414  -6.486044   0.012160 171.243090   0.116739 -21.263879   0.436760  45.310440 
  0.016644 -84.616664   0.034584 112.812682   0.437155  45.276724   0.163635   8.425120 
 2300.000   0.006688 -156.061762   0.443070 163.198486   0.043491 -26.462162   0.014959 -146.189608 
  0.443422 163.249490   0.009371 -92.757955   0.014361 109.715468   0.018210  60.137005 
  0.043177 -26.699418   0.014466 109.461560   0.084516  10.676390   0.431515 -16.940973 
  0.014874 -146.084225   0.018328  59.411831   0.431860 -16.903812   0.144756  11.763172 
 2350.000   0.010007 173.850824   0.436030 104.614861   0.037623 -27.561545   0.014806 154.354324 
  0.436525 104.593863   0.002939 143.203429   0.014866  41.183571   0.009891 127.576087 
  0.037170 -27.700754   0.015087  41.181711   0.126133  11.319187   0.424634 -79.052325 
  0.015072 153.918472   0.009523 124.440708   0.425099 -79.077881   0.154654  10.819200 
 2400.000   0.009184 -161.998290   0.427949  45.959660   0.045620 -39.069679   0.014363  88.662657 
  0.428362  45.956407   0.010200   8.714082   0.013800 -19.494235   0.031170  95.616033 
  0.045411 -39.012788   0.013807 -18.100862   0.102162   5.726283   0.417355 -141.149112 
  0.014982  88.222700   0.031159  94.926242   0.417614 -141.148816   0.134264   9.610020 
 2450.000   0.026502 -165.233603   0.420910 -12.558036   0.039785 -71.171672   0.013492  30.069438 
  0.421099 -12.553584   0.012466 -80.459648   0.013716 -76.527523   0.039406  53.640166 
  0.039718 -71.159677   0.013876 -77.062730   0.108228  28.880457   0.408890 156.525962 
  0.013794  30.562582   0.039489  53.147217   0.409121 156.540428   0.139879  19.949539 
 2500.000   0.031921 160.711549   0.414187 -71.056686   0.015550 -101.450813   0.014277 -23.760970 
  0.414472 -71.056230   0.013196 -167.508952   0.013943 -139.978989   0.035756  26.640854 
  0.015517 -102.179598   0.014230 -138.841445   0.137851  20.506632   0.399254  93.795762 
  0.014834 -24.207862   0.036103  26.414123   0.399471  93.809610   0.152377  13.985747 
 2550.000   0.023733 151.687192   0.408795 -129.793734   0.015280  -0.846772   0.015919 -83.110427 
  0.408986 -129.798771   0.007725 138.346944   0.015049 156.612598   0.035743  11.727610 
  0.015041  -0.982522   0.015237 156.690635   0.112607  21.883146   0.392371  30.237625 
  0.016152 -83.460809   0.036098  11.842710   0.392529  30.238146   0.127273  16.146270 
 2600.000   0.031285 172.490192   0.402855 171.512104   0.026810 -36.800126   0.014912 -139.166699 
  0.403149 171.556707   0.009199 -134.774017   0.016361  91.645596   0.037189  -8.090569 
  0.026901 -37.132115   0.016767  92.631886   0.137548  33.066971   0.385577 -33.438944 
  0.015605 -140.002154   0.037566  -7.856354   0.385570 -33.385402   0.149500  24.754929 
 2650.000   0.040892 153.385868   0.396535 112.910850   0.017255 -84.193029   0.015261 167.193059 
  0.397367 112.893558   0.020357 -165.738540   0.016830  24.089331   0.031285 -31.877556 
