!UUTPORTS:-2,1 CABLE SERIAL NUMBER 09-11-604
! 11/2/2010 1:55:36 PM
! RESWITHCABLESETTEST.S2P
! CHANNEL.1
! TR.MEASUREMENT
! CORRECTED.DATA
# GHZ S RI R 50.0
! FREQ.GHZ         S11RE         S11M         S21RE         S21M         S12RE         S12M         S22RE         S22M         
!; PortSelection: Port_12
   0.010000000     0.0030051    0.0043302     0.9875764   -0.1426829     0.9881007   -0.1446540     0.0025849    0.0044232 
   0.015000000     0.0041984    0.0053084     0.9742354   -0.2124405     0.9739364   -0.2128694     0.0039003    0.0055566 
   0.020000000     0.0055749    0.0066146     0.9560387   -0.2807249     0.9559894   -0.2815282     0.0057177    0.0066240 
   0.025000000     0.0070377    0.0074053     0.9337133   -0.3477890     0.9329296   -0.3478466     0.0070203    0.0065165 
   0.030000000     0.0081377    0.0073355     0.9088086   -0.4130637     0.9092304   -0.4123130     0.0132812    0.0039271 
   0.035000000     0.0143344    0.0041498     0.8790026   -0.4764748     0.8794562   -0.4758575     0.0130723    0.0048848 
   0.040000000     0.0132244    0.0047573     0.8417453   -0.5365587     0.8418571   -0.5362327     0.0130168    0.0052251 
   0.045000000     0.0134446    0.0050758     0.8008895   -0.5939802     0.8009114   -0.5939537     0.0142044    0.0046841 
   0.050000000     0.0143321    0.0046008     0.7567372   -0.6490853     0.7565259   -0.6488497     0.0143778    0.0048072 
   0.055000000     0.0141733    0.0046640     0.7082856   -0.7004619     0.7083541   -0.7002142     0.0147628    0.0042326 
   0.060000000     0.0155275    0.0045356     0.6599282   -0.7500268     0.6586121   -0.7501670     0.0146249    0.0089189 
   0.065000000     0.0162398    0.0039363     0.6039769   -0.7939184     0.6035799   -0.7937359     0.0161242    0.0069008 
   0.070000000     0.0165846    0.0092912     0.5476810   -0.8360857     0.5468525   -0.8359417     0.0170037    0.0055946 
   0.075000000     0.0178345    0.0074207     0.4862341   -0.8709426     0.4862078   -0.8711855     0.0179696    0.0045909 
   0.080000000     0.0182321    0.0056355     0.4227702   -0.9030432     0.4221365   -0.9034502     0.0188518    0.0037829 
   0.085000000     0.0188376    0.0043581     0.3576677   -0.9302663     0.3580221   -0.9306363     0.0195296    0.0025515 
   0.090000000     0.0201165    0.0033986     0.2909298   -0.9524108     0.2909915   -0.9521230     0.0204876    0.0011318 
   0.095000000     0.0199589    0.0018395     0.2225954   -0.9699121     0.2217527   -0.9695994     0.0199610   -0.0002953 
   0.100000000     0.0208909    0.0012328     0.1529608   -0.9832858     0.1535102   -0.9823136     0.0211003   -0.0017274 
   0.105000000     0.0208658   -0.0009309     0.0832157   -0.9912731     0.0837965   -0.9909759     0.0209586   -0.0027647 
   0.110000000     0.0205371   -0.0020670     0.0131275   -0.9939613     0.0131481   -0.9941339     0.0201521   -0.0044104 
   0.115000000     0.0203271   -0.0030746    -0.0570269   -0.9914344    -0.0575547   -0.9920378     0.0197273   -0.0063281 
   0.120000000     0.0198642   -0.0048018    -0.1261336   -0.9856187    -0.1269420   -0.9852652     0.0191540   -0.0067707 
   0.125000000     0.0201999   -0.0048915    -0.1958817   -0.9737848    -0.1960970   -0.9741884     0.0179000   -0.0086581 
   0.130000000     0.0189730   -0.0066101    -0.2639871   -0.9573087    -0.2648777   -0.9573852     0.0170039   -0.0096282 
   0.135000000     0.0183166   -0.0077175    -0.3311868   -0.9363132    -0.3317774   -0.9365078     0.0157099   -0.0104092 
   0.140000000     0.0170504   -0.0091521    -0.3960436   -0.9105650    -0.3962207   -0.9112153     0.0145418   -0.0117066 
   0.145000000     0.0159023   -0.0092460    -0.4602720   -0.8803343    -0.4603841   -0.8802566     0.0135456   -0.0126108 
   0.150000000     0.0145901   -0.0104876    -0.5208076   -0.8452497    -0.5206831   -0.8451437     0.0119285   -0.0132415 
   0.155000000     0.0127609   -0.0110997    -0.5791329   -0.8064816    -0.5787387   -0.8068178     0.0100741   -0.0143440 
   0.160000000     0.0115256   -0.0112164    -0.6341407   -0.7640438    -0.6350300   -0.7642781     0.0103302   -0.0148520 
   0.165000000     0.0107193   -0.0106869    -0.6866933   -0.7176417    -0.6870820   -0.7176127     0.0074256   -0.0150778 
   0.170000000     0.0089955   -0.0114986    -0.7353405   -0.6670741    -0.7357637   -0.6663499     0.0058369   -0.0153215 
   0.175000000     0.0076560   -0.0114306    -0.7815570   -0.6126867    -0.7807915   -0.6131297     0.0042033   -0.0146584 
   0.180000000     0.0060508   -0.0108141    -0.8224261   -0.5562092    -0.8235330   -0.5559894     0.0020527   -0.0149738 
   0.185000000     0.0045227   -0.0101845    -0.8597000   -0.4975947    -0.8602688   -0.4976606     0.0005456   -0.0140749 
   0.190000000     0.0036329   -0.0097417    -0.8931114   -0.4358741    -0.8933555   -0.4344736    -0.0014195   -0.0129173 
   0.195000000     0.0024765   -0.0092066    -0.9219214   -0.3705221    -0.9221005   -0.3698636    -0.0032567   -0.0118190 
   0.200000000     0.0012108   -0.0079464    -0.9459258   -0.3046949    -0.9460197   -0.3046728    -0.0042356   -0.0098953 
   0.205000000    -0.0002744   -0.0070627    -0.9650722   -0.2373103    -0.9654946   -0.2367101    -0.0062198   -0.0080454 
   0.210000000    -0.0014654   -0.0048212    -0.9797805   -0.1684045    -0.9802800   -0.1677480    -0.0070774   -0.0059064 
   0.215000000    -0.0020645   -0.0026704    -0.9887434   -0.0980926    -0.9889742   -0.0981898    -0.0082242   -0.0038784 
   0.220000000    -0.0023838   -0.0006669    -0.9934298   -0.0281056    -0.9941189   -0.0276165    -0.0086121   -0.0018232 
   0.225000000    -0.0023080    0.0010355    -0.9938412    0.0435311    -0.9930392    0.0432712    -0.0090590    0.0005279 
   0.230000000    -0.0016664    0.0029622    -0.9881676    0.1135217    -0.9876710    0.1136560    -0.0089588    0.0037720 
   0.235000000    -0.0005736    0.0040134    -0.9773905    0.1841605    -0.9771783    0.1836409    -0.0081767    0.0065269 
   0.240000000     0.0004010    0.0067102    -0.9636634    0.2519824    -0.9630213    0.2520714    -0.0024295    0.0089717 
   0.245000000     0.0020970    0.0076244    -0.9425104    0.3191358    -0.9420905    0.3195426    -0.0021920    0.0100162 
   0.250000000     0.0037798    0.0091912    -0.9173204    0.3861608    -0.9162907    0.3857776    -0.0010342    0.0116917 
   0.255000000     0.0059822    0.0095353    -0.8866314    0.4497241    -0.8867794    0.4497900     0.0007678    0.0130301 
   0.260000000     0.0083434    0.0101964    -0.8528928    0.5111899    -0.8523968    0.5121599     0.0025371    0.0140228 
   0.265000000     0.0106069    0.0102604    -0.8142145    0.5705264    -0.8136600    0.5703167     0.0049999    0.0142746 
   0.270000000     0.0130178    0.0106749    -0.7712738    0.6274960    -0.7714911    0.6265230     0.0075899    0.0151872 
   0.275000000     0.0151440    0.0094572    -0.7234874    0.6790553    -0.7240594    0.6797499     0.0089619    0.0157411 
   0.280000000     0.0182391    0.0085429    -0.6760997    0.7296621    -0.6753534    0.7300209     0.0093815    0.0203859 
   0.285000000     0.0184771    0.0068558    -0.6219851    0.7747826    -0.6223674    0.7748508     0.0128228    0.0174579 
   0.290000000     0.0204362    0.0053185    -0.5652742    0.8165921    -0.5632056    0.8168567     0.0155867    0.0155068 
   0.295000000     0.0217693   -0.0006364    -0.5074540    0.8552936    -0.5079617    0.8562048     0.0176085    0.0129404 
   0.300000000     0.0225077   -0.0018539    -0.4441908    0.8895196    -0.4443994    0.8888282     0.0191297    0.0114911 
   0.305000000     0.0227577   -0.0031820    -0.3800523    0.9166983    -0.3807076    0.9174169     0.0201717    0.0086951 
   0.310000000     0.0230061   -0.0049069    -0.3136786    0.9418805    -0.3140577    0.9418619     0.0212279    0.0065617 
   0.315000000     0.0222133   -0.0072723    -0.2482375    0.9624673    -0.2471935    0.9624723     0.0184871   -0.0016775 
   0.320000000     0.0218825   -0.0090705    -0.1781729    0.9762990    -0.1779596    0.9763052     0.0189986   -0.0021856 
   0.325000000     0.0207048   -0.0107550    -0.1087673    0.9858605    -0.1082848    0.9860822     0.0182786   -0.0030223 
   0.330000000     0.0188042   -0.0127210    -0.0386874    0.9901890    -0.0376471    0.9913775     0.0175387   -0.0044708 
   0.335000000     0.0175329   -0.0142449     0.0312793    0.9906892     0.0314070    0.9910280     0.0165335   -0.0056009 
   0.340000000     0.0162330   -0.0147861     0.1024977    0.9847392     0.1015164    0.9851031     0.0155167   -0.0067897 
   0.345000000     0.0125736   -0.0158252     0.1711532    0.9752301     0.1705368    0.9752821     0.0145074   -0.0081134 
   0.350000000     0.0112697   -0.0167523     0.2400253    0.9615830     0.2389504    0.9616935     0.0124688   -0.0093667 
   0.355000000     0.0093125   -0.0166375     0.3065407    0.9413670     0.3065286    0.9407887     0.0108509   -0.0102514 
   0.360000000     0.0078712   -0.0167374     0.3724263    0.9169191     0.3725048    0.9162208     0.0098183   -0.0104170 
   0.365000000     0.0045167   -0.0166580     0.4363121    0.8873909     0.4365845    0.8877683     0.0084710   -0.0102371 
   0.370000000     0.0032795   -0.0157163     0.4970480    0.8550124     0.4977524    0.8546609     0.0062592   -0.0099537 
   0.375000000     0.0007555   -0.0160454     0.5561838    0.8174433     0.5563843    0.8174582     0.0046456   -0.0093017 
   0.380000000    -0.0015977   -0.0144016     0.6126283    0.7754397     0.6130028    0.7749752     0.0037341   -0.0089766 
   0.385000000    -0.0025293   -0.0130549     0.6670114    0.7295409     0.6654400    0.7297269     0.0020711   -0.0079756 
   0.390000000    -0.0042470   -0.0114187     0.7158039    0.6808090     0.7153917    0.6809288     0.0006317   -0.0068277 
   0.395000000    -0.0054531   -0.0093745     0.7618032    0.6279199     0.7615646    0.6287088    -0.0002138   -0.0054452 
   0.400000000    -0.0061677   -0.0076865     0.8050109    0.5717570     0.8037272    0.5725247    -0.0003734   -0.0041183 
   0.405000000    -0.0069646   -0.0056089     0.8424137    0.5148209     0.8422697    0.5148168    -0.0021047   -0.0021025 
   0.410000000    -0.0078537   -0.0028362     0.8759069    0.4537708     0.8761069    0.4536532    -0.0022058   -0.0004914 
   0.415000000    -0.0073120   -0.0012354     0.9054149    0.3906406     0.9062229    0.3903166    -0.0020011    0.0011494 
   0.420000000    -0.0078819    0.0008132     0.9313995    0.3256059     0.9312003    0.3248829    -0.0018565    0.0028628 
   0.425000000    -0.0072895    0.0035459     0.9512629    0.2596856     0.9516599    0.2590944    -0.0013152    0.0040770 
   0.430000000    -0.0070221    0.0052780     0.9670640    0.1909472     0.9670070    0.1909050    -0.0012230    0.0061187 
   0.435000000    -0.0060920    0.0067016     0.9781025    0.1225317     0.9778824    0.1218152    -0.0001940    0.0076129 
   0.440000000    -0.0052737    0.0082618     0.9839920    0.0528245     0.9840689    0.0520861     0.0011175    0.0085058 
   0.445000000    -0.0036585    0.0095687     0.9850422   -0.0171700     0.9850660   -0.0165253     0.0020824    0.0100229 
   0.450000000    -0.0019139    0.0115702     0.9808499   -0.0857424     0.9807281   -0.0861803     0.0034275    0.0110439 
   0.455000000    -0.0005894    0.0121472     0.9722364   -0.1550668     0.9722127   -0.1547577     0.0051949    0.0112695 
   0.460000000     0.0013080    0.0135910     0.9587924   -0.2237824     0.9588940   -0.2231246     0.0070268    0.0116602 
   0.465000000     0.0030737    0.0145283     0.9410524   -0.2891105     0.9407396   -0.2906472     0.0082860    0.0118658 
   0.470000000     0.0050986    0.0151472     0.9179588   -0.3569066     0.9176673   -0.3562097     0.0095746    0.0117969 
   0.475000000     0.0067367    0.0148593     0.8899729   -0.4200734     0.8899345   -0.4188530     0.0117500    0.0117751 
   0.480000000     0.0091746    0.0145254     0.8572568   -0.4811032     0.8578163   -0.4827244     0.0131642    0.0109132 
   0.485000000     0.0108828    0.0135176     0.8213025   -0.5414531     0.8218400   -0.5411748     0.0149593    0.0104798 
   0.490000000     0.0129332    0.0129474     0.7817363   -0.5968921     0.7811919   -0.5973386     0.0158151    0.0092881 
   0.495000000     0.0140668    0.0115870     0.7376643   -0.6510527     0.7376672   -0.6507233     0.0173676    0.0082980 
   0.500000000     0.0159078    0.0105557     0.6895838   -0.7010593     0.6898180   -0.7012212     0.0185453    0.0070188 
   0.505000000     0.0176448    0.0092186     0.6383543   -0.7474249     0.6381333   -0.7479848     0.0194197    0.0059055 
   0.510000000     0.0187355    0.0073100     0.5842143   -0.7912441     0.5839075   -0.7906103     0.0205152    0.0045419 
   0.515000000     0.0194845    0.0055688     0.5276591   -0.8294035     0.5261815   -0.8296987     0.0210732    0.0033355 
   0.520000000     0.0189496    0.0043085     0.4660510   -0.8652909     0.4669403   -0.8643422     0.0215077    0.0015614 
   0.525000000     0.0199049    0.0024446     0.4042921   -0.8947154     0.4043944   -0.8954960     0.0216701    0.0000055 
   0.530000000     0.0199335    0.0000165     0.3400545   -0.9225307     0.3405491   -0.9216887     0.0212091   -0.0016698 
   0.535000000     0.0195934   -0.0019125     0.2737962   -0.9435183     0.2744341   -0.9433743     0.0208313   -0.0035069 
   0.540000000     0.0194989   -0.0033618     0.2081928   -0.9600505     0.2074798   -0.9608221     0.0207752   -0.0062728 
   0.545000000     0.0180164   -0.0050574     0.1384084   -0.9724620     0.1382550   -0.9731806     0.0195233   -0.0074795 
   0.550000000     0.0178152   -0.0068543     0.0687309   -0.9799460     0.0701456   -0.9795036     0.0177441   -0.0086928 
   0.555000000     0.0163773   -0.0082743     0.0001130   -0.9824777     0.0001885   -0.9814489     0.0160613   -0.0099184 
   0.560000000     0.0150434   -0.0092061    -0.0683998   -0.9794959    -0.0682718   -0.9801940     0.0145092   -0.0119693 
   0.565000000     0.0137473   -0.0092489    -0.1382561   -0.9716700    -0.1393650   -0.9715154     0.0138009   -0.0118749 
   0.570000000     0.0117328   -0.0103937    -0.2063558   -0.9593992    -0.2070673   -0.9597962     0.0120256   -0.0123263 
   0.575000000     0.0104607   -0.0105441    -0.2733586   -0.9423152    -0.2733448   -0.9423060     0.0096012   -0.0130545 
   0.580000000     0.0083839   -0.0109254    -0.3384690   -0.9221042    -0.3391739   -0.9212669     0.0078992   -0.0127640 
   0.585000000     0.0068719   -0.0110103    -0.4030647   -0.8944594    -0.4031929   -0.8961558     0.0061130   -0.0127017 
   0.590000000     0.0053274   -0.0099076    -0.4651896   -0.8644769    -0.4658470   -0.8640575     0.0044668   -0.0124434 
   0.595000000     0.0041134   -0.0099750    -0.5248467   -0.8292711    -0.5254903   -0.8288103     0.0028834   -0.0119511 
   0.600000000     0.0025512   -0.0096224    -0.5833915   -0.7898140    -0.5817755   -0.7900491     0.0012562   -0.0115119 
   0.605000000     0.0008982   -0.0082271    -0.6374235   -0.7468028    -0.6371701   -0.7459495    -0.0007484   -0.0100957 
   0.610000000    -0.0001927   -0.0067820    -0.6873769   -0.7004547    -0.6878785   -0.6997862    -0.0014398   -0.0089157 
   0.615000000    -0.0012149   -0.0059019    -0.7356650   -0.6490843    -0.7354684   -0.6495137    -0.0030638   -0.0070796 
   0.620000000    -0.0029447   -0.0038587    -0.7796935   -0.5958599    -0.7795119   -0.5952884    -0.0044981   -0.0055920 
   0.625000000    -0.0031119   -0.0019210    -0.8190119   -0.5385236    -0.8196234   -0.5385712    -0.0050311   -0.0036573 
   0.630000000    -0.0032494   -0.0002982    -0.8547679   -0.4803279    -0.8550672   -0.4798380    -0.0055529   -0.0017125 
   0.635000000    -0.0040073    0.0015435    -0.8880991   -0.4178508    -0.8874125   -0.4193751    -0.0060797    0.0001643 
   0.640000000    -0.0032670    0.0033855    -0.9141111   -0.3563558    -0.9146814   -0.3541169    -0.0058592    0.0021788 
   0.645000000    -0.0028557    0.0045614    -0.9365993   -0.2902317    -0.9363226   -0.2892484    -0.0058754    0.0039406 
   0.650000000    -0.0022225    0.0067720    -0.9552981   -0.2228550    -0.9544875   -0.2220706    -0.0048203    0.0060058 
   0.655000000    -0.0017198    0.0082884    -0.9682216   -0.1545820    -0.9688796   -0.1534315    -0.0044186    0.0073151 
   0.660000000     0.0000541    0.0098153    -0.9762816   -0.0859739    -0.9767681   -0.0852364    -0.0034118    0.0084444 
   0.665000000     0.0012190    0.0108075    -0.9796454   -0.0157918    -0.9802465   -0.0167067    -0.0019585    0.0101362 
   0.670000000     0.0021362    0.0116423    -0.9784672    0.0520800    -0.9792584    0.0532202    -0.0005565    0.0113687 
   0.675000000     0.0035172    0.0119808    -0.9723961    0.1213031    -0.9721984    0.1212346     0.0003904    0.0123402 
   0.680000000     0.0049347    0.0133286    -0.9612639    0.1901514    -0.9610307    0.1890622     0.0017451    0.0133178 
   0.685000000     0.0069349    0.0136932    -0.9452940    0.2562985    -0.9445537    0.2572613     0.0033958    0.0143711 
   0.690000000     0.0091462    0.0131237    -0.9249276    0.3222822    -0.9242626    0.3226854     0.0050309    0.0149813 
   0.695000000     0.0110206    0.0140944    -0.8994761    0.3862353    -0.8993308    0.3872781     0.0069006    0.0150715 
   0.700000000     0.0134089    0.0142277    -0.8712067    0.4473163    -0.8717533    0.4462633     0.0088691    0.0151919 
   0.705000000     0.0149967    0.0127340    -0.8364120    0.5089712    -0.8358909    0.5096094     0.0105535    0.0140770 
   0.710000000     0.0165221    0.0108771    -0.7973195    0.5686669    -0.7978489    0.5674171     0.0129367    0.0136401 
   0.715000000     0.0185619    0.0100377    -0.7551416    0.6224558    -0.7559815    0.6225384     0.0146760    0.0124969 
   0.720000000     0.0200264    0.0089190    -0.7098681    0.6740018    -0.7103749    0.6747960     0.0163206    0.0111450 
   0.725000000     0.0210608    0.0071035    -0.6610661    0.7222731    -0.6597631    0.7223103     0.0175360    0.0099926 
   0.730000000     0.0231888    0.0054822    -0.6077724    0.7677719    -0.6080602    0.7658961     0.0181196    0.0087097 
   0.735000000     0.0228750    0.0027340    -0.5519331    0.8077272    -0.5524490    0.8080709     0.0188672    0.0069208 
   0.740000000     0.0232785    0.0012152    -0.4935715    0.8448440    -0.4939968    0.8445680     0.0190453    0.0060298 
   0.745000000     0.0227145   -0.0004929    -0.4340926    0.8773510    -0.4325894    0.8766608     0.0201908    0.0042222 
   0.750000000     0.0227093   -0.0027406    -0.3694810    0.9060201    -0.3700785    0.9056329     0.0198512    0.0025728 
   0.755000000     0.0220950   -0.0039967    -0.3046178    0.9302720    -0.3045482    0.9294044     0.0197107    0.0011898 
   0.760000000     0.0214808   -0.0066042    -0.2387158    0.9483731    -0.2386144    0.9482707     0.0195919   -0.0005851 
   0.765000000     0.0198154   -0.0078884    -0.1709847    0.9628161    -0.1708992    0.9628710     0.0186294   -0.0019031 
   0.770000000     0.0194193   -0.0096264    -0.1027320    0.9726190    -0.1025997    0.9726160     0.0180637   -0.0032162 
   0.775000000     0.0172683   -0.0105300    -0.0352153    0.9771766    -0.0336390    0.9775961     0.0165138   -0.0043911 
   0.780000000     0.0158298   -0.0125931     0.0351486    0.9776587     0.0353510    0.9772854     0.0157528   -0.0051344 
   0.785000000     0.0136682   -0.0129300     0.1036955    0.9727321     0.1041070    0.9720643     0.0135249   -0.0063083 
