!UUTPORTS:-2,2 CABLE SERIAL NUMBER 09-11-605
! 11/2/2010 1:56:58 PM
! RESWITHCABLESETTEST.S2P
! CHANNEL.1
! TR.MEASUREMENT
! CORRECTED.DATA
# GHZ S RI R 50.0
! FREQ.GHZ         S11RE         S11M         S21RE         S21M         S12RE         S12M         S22RE         S22M         
!; PortSelection: Port_12
   0.010000000     0.0029504    0.0034929     0.9871389   -0.1431152     0.9875951   -0.1451503     0.0024656    0.0036311 
   0.015000000     0.0039199    0.0041462     0.9745837   -0.2127900     0.9741030   -0.2133661     0.0036039    0.0043180 
   0.020000000     0.0051316    0.0051366     0.9558312   -0.2811087     0.9555235   -0.2821873     0.0052227    0.0051140 
   0.025000000     0.0064062    0.0055527     0.9334190   -0.3481698     0.9328929   -0.3490174     0.0062590    0.0046449 
   0.030000000     0.0071969    0.0051646     0.9086235   -0.4135306     0.9085924   -0.4133014     0.0121820    0.0018774 
   0.035000000     0.0131816    0.0017407     0.8786352   -0.4773445     0.8788605   -0.4768611     0.0116648    0.0025244 
   0.040000000     0.0117164    0.0021307     0.8410141   -0.5375769     0.8412930   -0.5370454     0.0112188    0.0027462 
   0.045000000     0.0115444    0.0022570     0.8003368   -0.5953808     0.8004278   -0.5953151     0.0120570    0.0020622 
   0.050000000     0.0120019    0.0016432     0.7553024   -0.6503260     0.7556837   -0.6507042     0.0117734    0.0021348 
   0.055000000     0.0115597    0.0016053     0.7068579   -0.7024630     0.7067236   -0.7017967     0.0116861    0.0016824 
   0.060000000     0.0124509    0.0014464     0.6586933   -0.7514864     0.6575953   -0.7517659     0.0112414    0.0063230 
   0.065000000     0.0128068    0.0008923     0.6027009   -0.7948620     0.6016409   -0.7958194     0.0122877    0.0043703 
   0.070000000     0.0127990    0.0063064     0.5457121   -0.8376502     0.5447261   -0.8371807     0.0127205    0.0033308 
   0.075000000     0.0136065    0.0045881     0.4844020   -0.8724217     0.4840633   -0.8726878     0.0132702    0.0025171 
   0.080000000     0.0136112    0.0029315     0.4208397   -0.9043957     0.4202533   -0.9041914     0.0137790    0.0020248 
   0.085000000     0.0139357    0.0018355     0.3546374   -0.9307808     0.3550414   -0.9314501     0.0142105    0.0008759 
   0.090000000     0.0148203    0.0011617     0.2881785   -0.9534264     0.2879854   -0.9537212     0.0149760   -0.0000150 
   0.095000000     0.0143927   -0.0000731     0.2196297   -0.9706774     0.2187914   -0.9700383     0.0141086   -0.0010053 
   0.100000000     0.0150411   -0.0003317     0.1494610   -0.9837956     0.1508219   -0.9830590     0.0150796   -0.0018703 
   0.105000000     0.0148825   -0.0022480     0.0791885   -0.9915914     0.0799455   -0.9913880     0.0148176   -0.0025533 
   0.110000000     0.0142713   -0.0028499     0.0099129   -0.9940276     0.0094389   -0.9937111     0.0140103   -0.0036277 
   0.115000000     0.0141068   -0.0034895    -0.0608107   -0.9915705    -0.0608519   -0.9918469     0.0135293   -0.0051819 
   0.120000000     0.0133795   -0.0049339    -0.1306582   -0.9851943    -0.1312979   -0.9851928     0.0129868   -0.0051466 
   0.125000000     0.0138083   -0.0045496    -0.1994462   -0.9735736    -0.2004560   -0.9732644     0.0118200   -0.0065497 
   0.130000000     0.0125849   -0.0060138    -0.2682600   -0.9561837    -0.2689607   -0.9566314     0.0111089   -0.0070219 
   0.135000000     0.0119035   -0.0065122    -0.3361078   -0.9346222    -0.3356984   -0.9348584     0.0100582   -0.0073768 
   0.140000000     0.0107962   -0.0075483    -0.4007637   -0.9084871    -0.4015128   -0.9089900     0.0091854   -0.0080997 
   0.145000000     0.0098458   -0.0073429    -0.4648339   -0.8782772    -0.4646525   -0.8779984     0.0085231   -0.0087683 
   0.150000000     0.0085660   -0.0083357    -0.5252066   -0.8432353    -0.5252430   -0.8428406     0.0072964   -0.0090496 
   0.155000000     0.0070836   -0.0084983    -0.5836588   -0.8037642    -0.5842170   -0.8036702     0.0058752   -0.0097177 
   0.160000000     0.0061142   -0.0085014    -0.6379122   -0.7608853    -0.6389000   -0.7610353     0.0066343   -0.0101034 
   0.165000000     0.0056396   -0.0075926    -0.6913360   -0.7136368    -0.6914207   -0.7133800     0.0041567   -0.0100570 
   0.170000000     0.0041684   -0.0082172    -0.7393205   -0.6629753    -0.7398953   -0.6624003     0.0030696   -0.0102602 
   0.175000000     0.0030352   -0.0080380    -0.7850968   -0.6081162    -0.7842546   -0.6086432     0.0019481   -0.0094860 
   0.180000000     0.0017680   -0.0072165    -0.8262262   -0.5517975    -0.8268566   -0.5511068     0.0003279   -0.0097361 
   0.185000000     0.0006512   -0.0067678    -0.8639721   -0.4914006    -0.8635010   -0.4919660    -0.0006023   -0.0089113 
   0.190000000     0.0000707   -0.0061627    -0.8962755   -0.4287733    -0.8962790   -0.4289913    -0.0019916   -0.0079190 
   0.195000000    -0.0007492   -0.0056103    -0.9244950   -0.3638525    -0.9241902   -0.3638515    -0.0033644   -0.0069993 
   0.200000000    -0.0018743   -0.0044219    -0.9478772   -0.2980345    -0.9476504   -0.2972263    -0.0040080   -0.0052630 
   0.205000000    -0.0030873   -0.0035686    -0.9667435   -0.2304262    -0.9667171   -0.2299036    -0.0053371   -0.0037798 
   0.210000000    -0.0039494   -0.0013640    -0.9806327   -0.1617866    -0.9812736   -0.1614404    -0.0058105   -0.0018145 
   0.215000000    -0.0042441    0.0005629    -0.9896946   -0.0905287    -0.9895910   -0.0904455    -0.0067199   -0.0003411 
   0.220000000    -0.0044319    0.0024001    -0.9936823   -0.0207678    -0.9939640   -0.0197808    -0.0067743    0.0015091 
   0.225000000    -0.0041006    0.0038781    -0.9934208    0.0502467    -0.9926552    0.0507968    -0.0068056    0.0033340 
   0.230000000    -0.0034762    0.0057082    -0.9869043    0.1216915    -0.9869115    0.1214460    -0.0065940    0.0060302 
   0.235000000    -0.0022175    0.0065357    -0.9756671    0.1912539    -0.9756894    0.1911867    -0.0056349    0.0083289 
   0.240000000    -0.0011920    0.0089366    -0.9616516    0.2596157    -0.9620889    0.2597424     0.0002229    0.0101447 
   0.245000000     0.0005538    0.0097941    -0.9398149    0.3270712    -0.9393834    0.3277538     0.0004976    0.0107009 
   0.250000000     0.0022829    0.0110577    -0.9138366    0.3936018    -0.9132824    0.3938635     0.0015866    0.0117752 
   0.255000000     0.0044852    0.0113959    -0.8825420    0.4570755    -0.8831849    0.4576824     0.0033422    0.0127210 
   0.260000000     0.0067335    0.0117703    -0.8481304    0.5197642    -0.8480189    0.5189971     0.0049218    0.0132600 
   0.265000000     0.0090501    0.0117661    -0.8089933    0.5781363    -0.8084565    0.5778682     0.0072058    0.0129995 
   0.270000000     0.0112825    0.0119076    -0.7653021    0.6340571    -0.7657533    0.6335631     0.0096032    0.0135261 
   0.275000000     0.0132196    0.0106217    -0.7178240    0.6857268    -0.7173580    0.6862090     0.0106710    0.0136680 
   0.280000000     0.0161326    0.0097101    -0.6695316    0.7359757    -0.6685292    0.7371619     0.0108116    0.0180533 
   0.285000000     0.0163211    0.0079274    -0.6145856    0.7811965    -0.6148076    0.7812455     0.0139257    0.0147344 
   0.290000000     0.0181348    0.0066103    -0.5572423    0.8225215    -0.5558472    0.8223253     0.0161747    0.0125716 
   0.295000000     0.0192406    0.0006281    -0.4986030    0.8611947    -0.4997437    0.8610554     0.0178659    0.0097922 
   0.300000000     0.0198528   -0.0005628    -0.4364776    0.8937309    -0.4363104    0.8934340     0.0188089    0.0083009 
   0.305000000     0.0199937   -0.0018003    -0.3710445    0.9215778    -0.3704668    0.9211653     0.0194766    0.0054142 
   0.310000000     0.0200867   -0.0033408    -0.3042890    0.9449563    -0.3042927    0.9452416     0.0200824    0.0031828 
   0.315000000     0.0192438   -0.0054864    -0.2379017    0.9652179    -0.2366427    0.9655936     0.0167158   -0.0050561 
   0.320000000     0.0189096   -0.0071643    -0.1668764    0.9786068    -0.1677948    0.9785095     0.0169240   -0.0054491 
   0.325000000     0.0176278   -0.0085283    -0.0980135    0.9876798    -0.0978057    0.9872427     0.0158391   -0.0062072 
   0.330000000     0.0155864   -0.0102061    -0.0267249    0.9911382    -0.0263418    0.9913771     0.0146665   -0.0076162 
   0.335000000     0.0145413   -0.0114798     0.0434045    0.9900267     0.0424145    0.9904711     0.0133477   -0.0084426 
   0.340000000     0.0134306   -0.0117515     0.1133156    0.9839057     0.1130939    0.9836116     0.0120740   -0.0093811 
   0.345000000     0.0099637   -0.0125797     0.1817277    0.9735909     0.1822890    0.9730590     0.0107656   -0.0105754 
   0.350000000     0.0086041   -0.0129715     0.2501899    0.9585676     0.2502980    0.9584760     0.0085624   -0.0115462 
   0.355000000     0.0070805   -0.0128920     0.3178674    0.9376681     0.3180611    0.9373032     0.0066639   -0.0121248 
   0.360000000     0.0058212   -0.0128672     0.3833630    0.9132903     0.3834006    0.9121701     0.0055904   -0.0120957 
   0.365000000     0.0028870   -0.0124358     0.4462872    0.8827004     0.4478282    0.8827124     0.0039364   -0.0116564 
   0.370000000     0.0020693   -0.0114095     0.5076374    0.8485674     0.5089294    0.8483795     0.0018186   -0.0110638 
   0.375000000    -0.0000568   -0.0116071     0.5669924    0.8098760     0.5669607    0.8102471    -0.0000132   -0.0101246 
   0.380000000    -0.0021696   -0.0098865     0.6222414    0.7670679     0.6225716    0.7674637    -0.0009581   -0.0096171 
   0.385000000    -0.0026711   -0.0084840     0.6760793    0.7206535     0.6751237    0.7211117    -0.0025956   -0.0083086 
   0.390000000    -0.0038774   -0.0069357     0.7246285    0.6714429     0.7245350    0.6714722    -0.0039600   -0.0069466 
   0.395000000    -0.0044980   -0.0048097     0.7705804    0.6185164     0.7703198    0.6183888    -0.0045869   -0.0052671 
   0.400000000    -0.0047759   -0.0034366     0.8122273    0.5608869     0.8118145    0.5616838    -0.0049207   -0.0039009 
   0.405000000    -0.0051299   -0.0015344     0.8493671    0.5033951     0.8494740    0.5030410    -0.0063690   -0.0017001 
   0.410000000    -0.0056068    0.0008247     0.8825060    0.4404057     0.8827205    0.4417105    -0.0065418   -0.0000506 
   0.415000000    -0.0046141    0.0022044     0.9109482    0.3780473     0.9115711    0.3773928    -0.0061407    0.0018410 
   0.420000000    -0.0047895    0.0039809     0.9357439    0.3117325     0.9352358    0.3117843    -0.0060669    0.0036256 
   0.425000000    -0.0039954    0.0061695     0.9549163    0.2454200     0.9554099    0.2448980    -0.0054064    0.0048631 
   0.430000000    -0.0032517    0.0075601     0.9696327    0.1766715     0.9695286    0.1768695    -0.0050539    0.0068795 
   0.435000000    -0.0023049    0.0085196     0.9794575    0.1066789     0.9798609    0.1069550    -0.0041264    0.0085884 
   0.440000000    -0.0010837    0.0093080     0.9851685    0.0379337     0.9847180    0.0382096    -0.0028311    0.0092544 
   0.445000000     0.0006961    0.0100496     0.9847203   -0.0309393     0.9843332   -0.0319247    -0.0015662    0.0106934 
   0.450000000     0.0024817    0.0115541     0.9793584   -0.1002822     0.9798757   -0.1013737    -0.0002931    0.0117624 
   0.455000000     0.0037161    0.0115030     0.9698749   -0.1696812     0.9696103   -0.1698346     0.0013593    0.0120358 
   0.460000000     0.0056400    0.0123928     0.9552381   -0.2383062     0.9550956   -0.2382760     0.0031586    0.0124374 
   0.465000000     0.0074210    0.0127416     0.9359362   -0.3043631     0.9358436   -0.3054503     0.0045334    0.0126641 
   0.470000000     0.0092452    0.0128591     0.9113198   -0.3713947     0.9118038   -0.3712031     0.0056697    0.0124523 
   0.475000000     0.0105788    0.0117730     0.8826947   -0.4336847     0.8827155   -0.4332351     0.0076640    0.0124883 
   0.480000000     0.0124382    0.0110504     0.8501310   -0.4942527     0.8501026   -0.4960937     0.0089756    0.0118979 
   0.485000000     0.0136246    0.0095297     0.8132961   -0.5539002     0.8124964   -0.5538540     0.0105305    0.0113003 
   0.490000000     0.0156459    0.0085803     0.7722015   -0.6101434     0.7713706   -0.6107398     0.0115050    0.0103006 
   0.495000000     0.0161681    0.0067606     0.7264810   -0.6636553     0.7266581   -0.6627714     0.0127561    0.0093044 
   0.500000000     0.0174006    0.0053355     0.6774122   -0.7128488     0.6777666   -0.7127653     0.0138405    0.0081283 
   0.505000000     0.0188256    0.0036625     0.6255184   -0.7588384     0.6257336   -0.7587938     0.0146723    0.0073558 
   0.510000000     0.0192087    0.0016565     0.5700330   -0.8010534     0.5701842   -0.8008305     0.0156080    0.0059806 
   0.515000000     0.0191992   -0.0002806     0.5117233   -0.8391811     0.5118948   -0.8389471     0.0160295    0.0049440 
   0.520000000     0.0181345   -0.0015431     0.4504034   -0.8734844     0.4515048   -0.8731571     0.0164450    0.0034361 
   0.525000000     0.0185713   -0.0034350     0.3890680   -0.9015959     0.3882996   -0.9028385     0.0167568    0.0023641 
   0.530000000     0.0180222   -0.0057037     0.3232302   -0.9280084     0.3236765   -0.9274281     0.0161670    0.0009993 
   0.535000000     0.0171660   -0.0076690     0.2568941   -0.9484116     0.2572907   -0.9478230     0.0159036   -0.0005938 
   0.540000000     0.0164490   -0.0088295     0.1898538   -0.9643575     0.1895602   -0.9640219     0.0156547   -0.0029773 
   0.545000000     0.0146049   -0.0101918     0.1202974   -0.9754910     0.1205365   -0.9753065     0.0145404   -0.0036493 
   0.550000000     0.0137427   -0.0116116     0.0508847   -0.9812799     0.0519041   -0.9811165     0.0130373   -0.0052483 
   0.555000000     0.0117196   -0.0126515    -0.0171795   -0.9822474    -0.0185125   -0.9819981     0.0113734   -0.0061523 
   0.560000000     0.0099855   -0.0133111    -0.0865879   -0.9782599    -0.0864949   -0.9780654     0.0099725   -0.0078949 
   0.565000000     0.0083321   -0.0129827    -0.1562918   -0.9687598    -0.1575429   -0.9686528     0.0094466   -0.0071724 
   0.570000000     0.0061911   -0.0134298    -0.2245442   -0.9560949    -0.2244634   -0.9550032     0.0078618   -0.0074500 
   0.575000000     0.0046969   -0.0130881    -0.2919290   -0.9371167    -0.2924928   -0.9368839     0.0062404   -0.0078576 
   0.580000000     0.0026369   -0.0131593    -0.3571587   -0.9145774    -0.3575504   -0.9147438     0.0047686   -0.0075484 
   0.585000000     0.0008843   -0.0125889    -0.4203494   -0.8864617    -0.4210007   -0.8878246     0.0032373   -0.0072340 
   0.590000000    -0.0005777   -0.0110031    -0.4833557   -0.8547642    -0.4830303   -0.8542147     0.0020831   -0.0071083 
   0.595000000    -0.0018149   -0.0105504    -0.5420666   -0.8181897    -0.5425001   -0.8183503     0.0008753   -0.0062197 
   0.600000000    -0.0030115   -0.0096611    -0.5993241   -0.7777362    -0.5983101   -0.7780474    -0.0005863   -0.0058481 
   0.605000000    -0.0045720   -0.0078377    -0.6516635   -0.7337748    -0.6526761   -0.7331277    -0.0018961   -0.0044374 
   0.610000000    -0.0056525   -0.0061153    -0.7020787   -0.6862287    -0.7024162   -0.6849258    -0.0025501   -0.0037145 
   0.615000000    -0.0063468   -0.0047238    -0.7490868   -0.6336250    -0.7485741   -0.6338200    -0.0036493   -0.0014560 
   0.620000000    -0.0074043   -0.0024032    -0.7926168   -0.5796900    -0.7917496   -0.5790344    -0.0045863   -0.0003887 
   0.625000000    -0.0074776    0.0000403    -0.8305633   -0.5209047    -0.8308223   -0.5213694    -0.0051816    0.0015111 
   0.630000000    -0.0071429    0.0017229    -0.8644267   -0.4624141    -0.8654908   -0.4618103    -0.0049864    0.0030189 
   0.635000000    -0.0073592    0.0037655    -0.8953547   -0.3995481    -0.8957309   -0.3991661    -0.0046298    0.0046710 
   0.640000000    -0.0063899    0.0056473    -0.9218320   -0.3361476    -0.9219393   -0.3340807    -0.0044171    0.0066584 
   0.645000000    -0.0058701    0.0070478    -0.9433952   -0.2688749    -0.9425602   -0.2683073    -0.0042390    0.0079440 
   0.650000000    -0.0045522    0.0090274    -0.9596334   -0.2020580    -0.9592513   -0.2009533    -0.0031931    0.0093391 
   0.655000000    -0.0036686    0.0103109    -0.9718864   -0.1329900    -0.9710612   -0.1329548    -0.0022600    0.0098008 
   0.660000000    -0.0015867    0.0115486    -0.9781100   -0.0645415    -0.9780225   -0.0638705    -0.0015938    0.0107910 
   0.665000000    -0.0002838    0.0124727    -0.9799473    0.0057875    -0.9801021    0.0054000    -0.0000055    0.0122860 
   0.670000000     0.0011378    0.0134577    -0.9772111    0.0734392    -0.9767643    0.0752316     0.0015763    0.0125745 
   0.675000000     0.0027369    0.0131727    -0.9693053    0.1442338    -0.9687696    0.1432781     0.0027048    0.0135179 
   0.680000000     0.0041825    0.0142906    -0.9568869    0.2117024    -0.9562250    0.2115094     0.0036315    0.0135415 
   0.685000000     0.0066301    0.0141635    -0.9391455    0.2785281    -0.9382717    0.2788286     0.0052985    0.0143625 
   0.690000000     0.0087539    0.0132856    -0.9169434    0.3439387    -0.9165232    0.3444262     0.0067016    0.0147270 
   0.695000000     0.0106680    0.0132641    -0.8906297    0.4090569    -0.8901455    0.4088948     0.0083888    0.0139296 
   0.700000000     0.0127841    0.0136573    -0.8593438    0.4688496    -0.8609819    0.4669067     0.0095733    0.0139914 
   0.705000000     0.0143623    0.0120411    -0.8243490    0.5290471    -0.8229865    0.5289608     0.0107409    0.0127971 
   0.710000000     0.0156239    0.0098512    -0.7841545    0.5873777    -0.7834707    0.5864145     0.0129143    0.0118765 
   0.715000000     0.0175194    0.0087749    -0.7397674    0.6402498    -0.7403731    0.6404982     0.0141251    0.0109228 
   0.720000000     0.0189307    0.0072512    -0.6934201    0.6914251    -0.6942997    0.6915926     0.0156511    0.0095284 
   0.725000000     0.0194359    0.0052873    -0.6430060    0.7378590    -0.6420851    0.7392912     0.0161797    0.0077097 
   0.730000000     0.0211220    0.0032762    -0.5880165    0.7822639    -0.5896124    0.7810085     0.0162616    0.0066209 
   0.735000000     0.0207303    0.0006814    -0.5319650    0.8206908    -0.5320590    0.8211444     0.0168242    0.0047547 
   0.740000000     0.0208251   -0.0009222    -0.4719414    0.8567894    -0.4733011    0.8568128     0.0164860    0.0042996 
   0.745000000     0.0199446   -0.0025405    -0.4113424    0.8880426    -0.4107423    0.8875032     0.0172017    0.0025457 
   0.750000000     0.0193519   -0.0048726    -0.3474349    0.9146771    -0.3473614    0.9148436     0.0162791    0.0008454 
   0.755000000     0.0183663   -0.0058543    -0.2807755    0.9377421    -0.2806814    0.9368951     0.0159664   -0.0001961 
   0.760000000     0.0174808   -0.0084286    -0.2150807    0.9542993    -0.2139821    0.9551150     0.0153734   -0.0015202 
   0.765000000     0.0157301   -0.0094688    -0.1461734    0.9672368    -0.1456123    0.9670665     0.0142528   -0.0025573 
   0.770000000     0.0149618   -0.0109170    -0.0771174    0.9755609    -0.0776613    0.9748921     0.0134610   -0.0035050 
   0.775000000     0.0126885   -0.0114371    -0.0091496    0.9778887    -0.0078446    0.9782508     0.0119091   -0.0044579 
   0.780000000     0.0108522   -0.0132039     0.0605063    0.9765284     0.0611435    0.9757589     0.0107814   -0.0046662 
   0.785000000     0.0085020   -0.0129408     0.1290370    0.9696257     0.1295415    0.9690603     0.0086710   -0.0052399 
