! C:\Work\SPARQ2\Technical\Relays\SemiRigidCable2.s2p
!
! Tue Aug  7 09:55:11 2018
!
!!Measured using LeCroy SPARQ LCRY2401N02001
!SingleEnded 
!
! freq S11 S21 S12 S22 
# MHz S MA R 50.00  
0.000000000   0.006253 180.000000   0.997100   0.000000   0.997464   0.000000   0.000842   0.000000 
50.000000000   0.006462 -174.579909   0.997077 -10.368482   0.997455 -10.377025   0.001221 -56.314444 
100.000000000   0.007188 -168.433708   0.996978 -20.723250   0.997407 -20.739674   0.001992 -84.142517 
150.000000000   0.008694 -161.049977   0.996690 -31.052491   0.997226 -31.075537   0.002822 -96.863666 
200.000000000   0.010581 -151.979719   0.995433 -41.348079   0.995989 -41.376058   0.004535 -96.425128 
250.000000000   0.012860 -146.445340   0.993377 -51.606244   0.993810 -51.637131   0.007480 -104.140272 
300.000000000   0.015880 -146.266805   0.991432 -61.828208   0.991737 -61.859916   0.010599 -116.274270 
350.000000000   0.019122 -150.240368   0.989802 -72.020066   0.989984 -72.050625   0.013602 -130.205396 
400.000000000   0.022128 -156.950342   0.988630 -82.191644   0.988704 -82.219353   0.016235 -145.067083 
450.000000000   0.024531 -165.397406   0.987988 -92.354948   0.987969 -92.378489   0.018277 -160.507390 
500.000000000   0.026053 -174.937818   0.987857 -102.522216   0.987765 -102.540663   0.019560 -176.380584 
550.000000000   0.026499 174.854035   0.988149 -112.703981   0.988000 -112.716793   0.019978 167.345372 
600.000000000   0.025766 164.286113   0.988713 -122.907580   0.988521 -122.914492   0.019495 150.606234 
650.000000000   0.023840 153.620759   0.989370 -133.136258   0.989145 -133.137154   0.018151 133.212568 
700.000000000   0.020789 143.149004   0.989943 -143.388928   0.989690 -143.383718   0.016063 114.756815 
750.000000000   0.016762 133.332154   0.990279 -153.660709   0.990002 -153.649277   0.013430  94.383358 
800.000000000   0.011981 125.270586   0.990276 -163.944029   0.989977 -163.926142   0.010567  70.242488 
850.000000000   0.006783 123.343117   0.989893 -174.229925   0.989574 -174.205303   0.008013  38.551233 
900.000000000   0.002566 166.704603   0.989153 175.490425   0.988817 175.522086   0.006717  -4.219512 
950.000000000   0.005695 -126.776215   0.988130 165.224339   0.987785 165.263288   0.007462 -48.219844 
1000.000000000   0.010918 -125.041992   0.986941 154.976679   0.986595 155.022996   0.009599 -80.723388 
1050.000000000   0.015903 -131.650837   0.985718 144.749235   0.985378 144.802747   0.012150 -103.912850 
1100.000000000   0.020333 -140.197435   0.984587 134.540737   0.984262 134.601013   0.014638 -122.036663 
1150.000000000   0.024054 -149.341351   0.983651 124.347271   0.983344 124.413647   0.016880 -137.356581 
1200.000000000   0.026977 -158.638001   0.982972 114.163202   0.982685 114.234839   0.018814 -151.028733 
1250.000000000   0.029057 -167.906077   0.982570 103.982245   0.982296 104.058296   0.020422 -163.737164 
1300.000000000   0.030278 -177.066618   0.982421  93.798592   0.982150  93.878290   0.021685 -175.954850 
1350.000000000   0.030645 173.915596   0.982466  83.607732   0.982183  83.690618   0.022565 171.959667 
1400.000000000   0.030169 165.063916   0.982630  73.407126   0.982319  73.493061   0.023001 159.728056 
1450.000000000   0.028869 156.417094   0.982831  63.196232   0.982477  63.285494   0.022908 147.133767 
1500.000000000   0.026770 148.063866   0.983000  52.976339   0.982594  53.069563   0.022206 133.998235 
1550.000000000   0.023913 140.200758   0.983089  42.749957   0.982628  42.848029   0.020831 120.140565 
1600.000000000   0.020376 133.254379   0.983073  32.520167   0.982564  32.624027   0.018763 105.305708 
1650.000000000   0.016295 128.198504   0.982955  22.289920   0.982414  22.400346   0.016043  89.015231 
1700.000000000   0.011950 127.534358   0.982758  12.061375   0.982208  12.178852   0.012800  70.187300 
1750.000000000   0.008042 138.405749   0.982511   1.835710   0.981984   1.960165   0.009322  45.974757 
1800.000000000   0.006587 170.856563   0.982250  -8.387035   0.981776  -8.256280   0.006331   8.449701 
1850.000000000   0.009093 -162.809525   0.981997 -18.607710   0.981607 -18.471958   0.005634 -48.878847 
1900.000000000   0.013272 -156.818682   0.981766 -28.827648   0.981482 -28.688743   0.007928 -95.159804 
1950.000000000   0.017546 -159.538509   0.981551 -39.048161   0.981387 -38.908322   0.011253 -123.138076 
2000.000000000   0.021330 -165.644558   0.981338 -49.270200   0.981297 -49.131751   0.014490 -143.245560 
2050.000000000   0.024337 -173.161197   0.981105 -59.493927   0.981178 -59.359032   0.017224 -159.789855 
2100.000000000   0.026412 178.822055   0.980831 -69.718649   0.980999 -69.589132   0.019269 -174.267831 
2150.000000000   0.027503 170.847976   0.980506 -79.943083   0.980743 -79.820160   0.020557 172.779206 
2200.000000000   0.027654 163.329447   0.980132 -90.165550   0.980408 -90.049779   0.021112 161.185989 
2250.000000000   0.027005 156.639180   0.979727 -100.384520   0.980015 -100.275771   0.021037 150.951857 
2300.000000000   0.025787 151.127404   0.979322 -110.599026   0.979599 -110.496563   0.020496 142.129538 
2350.000000000   0.024300 147.069966   0.978955 -120.809027   0.979207 -120.711708   0.019689 134.729332 
2400.000000000   0.022869 144.532237   0.978663 -131.015558   0.978886 -130.922034   0.018812 128.618770 
2450.000000000   0.021765 143.193089   0.978474 -141.220618   0.978673 -141.129585   0.018007 123.455825 
2500.000000000   0.021108 142.310968   0.978398 -151.426874   0.978584 -151.337270   0.017322 118.729454 
2550.000000000   0.020812 141.004516   0.978422 -161.637110   0.978613 -161.548275   0.016699 113.928413 
2600.000000000   0.020629 138.674552   0.978513 -171.853649   0.978728 -171.765388   0.016010 108.736776 
2650.000000000   0.020262 135.199409   0.978622 177.922169   0.978877 178.009601   0.015113 103.133170 
2700.000000000   0.019457 130.855770   0.978690 167.690396   0.978996 167.776413   0.013905  97.390924 
2750.000000000   0.018066 126.188840   0.978664 157.452519   0.979024 157.536351   0.012353  92.071645 
2800.000000000   0.016059 122.004929   0.978503 147.211376   0.978911 147.292242   0.010511  88.116345 
2850.000000000   0.013542 119.583570   0.978188 136.970598   0.978633 137.047926   0.008532  87.128937 
2900.000000000   0.010799 121.262270   0.977730 126.734062   0.978193 126.807589   0.006708  91.809874 
2950.000000000   0.008430 131.224286   0.977165 116.505121   0.977624 116.575010   0.005516 105.006679 
3000.000000000   0.007527 151.758918   0.976552 106.285965   0.976987 106.352793   0.005435 123.158812 
3050.000000000   0.008816 171.245795   0.975961  96.077173   0.976351  96.141864   0.006338 136.213402 
3100.000000000   0.011512 179.877077   0.975461  85.877465   0.975791  85.941217   0.007662 141.892294 
3150.000000000   0.014646 -179.215173   0.975105  75.683945   0.975365  75.748073   0.009038 143.171086 
3200.000000000   0.017723 177.758423   0.974922  65.492535   0.975106  65.558360   0.010352 142.382749 
3250.000000000   0.020519 172.711581   0.974908  55.298748   0.975014  55.367467   0.011629 140.606796 
3300.000000000   0.022924 166.525044   0.975027  45.098539   0.975056  45.171180   0.012939 138.105446 
3350.000000000   0.024878 159.591931   0.975216  34.889060   0.975169  34.966478   0.014332 134.713132 
3400.000000000   0.026333 152.064689   0.975397  24.669336   0.975274  24.752230   0.015785 130.160612 
3450.000000000   0.027229 143.973546   0.975491  14.440402   0.975290  14.529442   0.017197 124.287535 
3500.000000000   0.027492 135.289389   0.975432   4.205267   0.975151   4.301125   0.018409 117.103060 
3550.000000000   0.027034 125.955761   0.975182  -6.031668   0.974819  -5.928193   0.019240 108.744221 
3600.000000000   0.025764 115.896765   0.974741 -16.265325   0.974293 -16.153315   0.019519  99.411077 
3650.000000000   0.023615 104.997578   0.974142 -26.490894   0.973614 -26.369308   0.019114  89.322530 
3700.000000000   0.020557  93.037569   0.973455 -36.704741   0.972855 -36.572530   0.017943  78.701101 
3750.000000000   0.016630  79.491765   0.972771 -46.905192   0.972113 -46.761392   0.015991  67.787200 
3800.000000000   0.011971  62.804023   0.972187 -57.092878   0.971493 -56.936803   0.013305  56.899899 
3850.000000000   0.006974  36.444636   0.971791 -67.270774   0.971088 -67.102170   0.009997  46.645615 
3900.000000000   0.003846 -34.449552   0.971643 -77.443810   0.970960 -77.262963   0.006245  38.920640 
3950.000000000   0.007416 -102.972888   0.971767 -87.618045   0.971134 -87.425847   0.002414  47.602368 
4000.000000000   0.013006 -129.328403   0.972143 -97.799650   0.971583 -97.597591   0.002527 149.504820 
4050.000000000   0.018503 -147.003760   0.972710 -107.993877   0.972242 -107.783876   0.006296 156.471394 
4100.000000000   0.023384 -162.119191   0.973377 -118.204115   0.973009 -117.988381   0.009894 148.269901 
4150.000000000   0.027326 -176.162745   0.974036 -128.431346   0.973766 -128.212123   0.012987 137.451162 
4200.000000000   0.030095 170.361387   0.974582 -138.673967   0.974398 -138.453300   0.015412 125.734011 
4250.000000000   0.031533 157.251524   0.974929 -148.928126   0.974811 -148.707668   0.017064 113.582647 
4300.000000000   0.031558 144.422809   0.975023 -159.188334   0.974947 -158.969193   0.017888 101.131340 
4350.000000000   0.030170 131.842626   0.974854 -169.448438   0.974793 -169.231133   0.017875  88.360251 
4400.000000000   0.027443 119.504356   0.974449 -179.702626   0.974380 -179.487081   0.017056  75.114912 
4450.000000000   0.023514 107.416236   0.973874 170.053625   0.973779 170.267939   0.015500  61.044264 
4500.000000000   0.018569  95.599609   0.973216 159.822828   0.973084 160.036750   0.013315  45.408291 
4550.000000000   0.012826  84.107095   0.972568 149.605135   0.972399 149.819584   0.010684  26.538260 
4600.000000000   0.006514  73.183993   0.972014 139.398435   0.971813 139.614244   0.007979   0.333485 
4650.000000000   0.000181 -156.698396   0.971610 129.198808   0.971390 129.416513   0.006188 -41.116279 
4700.000000000   0.006934 -130.834018   0.971377 119.001374   0.971154 119.221118   0.006985 -91.123390 
4750.000000000   0.013671 -141.153446   0.971300 108.801273   0.971085 109.022832   0.010148 -126.067052 
4800.000000000   0.020192 -151.632438   0.971327  98.594603   0.971130  98.817440   0.014298 -148.890177 
4850.000000000   0.026353 -162.096729   0.971384  88.379222   0.971207  88.602617   0.018745 -166.372784 
4900.000000000   0.032021 -172.556510   0.971388  78.155131   0.971226  78.378396   0.023148 178.586059 
4950.000000000   0.037064 176.947368   0.971266  67.924460   0.971105  68.147149   0.027268 164.786281 
5000.000000000   0.041347 166.370072   0.970968  57.691071   0.970789  57.913114   0.030906 151.677532 
5050.000000000   0.044731 155.672270   0.970478  47.459743   0.970260  47.681604   0.033890 138.984517 
5100.000000000   0.047077 144.824380   0.969818  37.235305   0.969540  37.457980   0.036074 126.560978 
5150.000000000   0.048257 133.807814   0.969047  27.021572   0.968692  27.246571   0.037349 114.325125 
5200.000000000   0.048166 122.613854   0.968248  16.820588   0.967806  17.049797   0.037647 102.226796 
5250.000000000   0.046739 111.240846   0.967515   6.632097   0.966985   6.867563   0.036944  90.227499 
5300.000000000   0.043960  99.689236   0.966935  -3.546563   0.966326  -3.302810   0.035259  78.284786 
5350.000000000   0.039872  87.953562   0.966571 -13.720139   0.965901 -13.466328   0.032654  66.334984 
5400.000000000   0.034580  76.006982   0.966450 -23.894669   0.965744 -23.629491   0.029221  54.266580 
5450.000000000   0.028244  63.764024   0.966555 -34.076529   0.965843 -33.799219   0.025079  41.866965 
5500.000000000   0.021081  50.963471   0.966828 -44.271275   0.966138 -43.981698   0.020372  28.690866 
5550.000000000   0.013350  36.634313   0.967174 -54.482705   0.966535 -54.181244   0.015272  13.655455 
5600.000000000   0.005421  13.857229   0.967482 -64.712107   0.966917 -64.399645   0.010054  -6.597283 
5650.000000000   0.003501 -128.905604   0.967638 -74.958015   0.967162 -74.635722   0.005590 -46.267203 
5700.000000000   0.011157 -161.149589   0.967543 -85.216334   0.967167 -84.885573   0.005579 -121.111481 
5750.000000000   0.018685 -176.035355   0.967135 -95.480973   0.966862 -95.143127   0.010120 -161.005762 
5800.000000000   0.025666 171.351075   0.966392 -105.744675   0.966222 -105.401075   0.015521 178.976612 
5850.000000000   0.031938 159.505871   0.965344 -116.000104   0.965271 -115.652010   0.020890 164.431255 
5900.000000000   0.037396 148.011883   0.964062 -126.240939   0.964079 -125.889464   0.025939 151.981723 
5950.000000000   0.041968 136.679057   0.962654 -136.462775   0.962754 -136.108944   0.030487 140.570445 
6000.000000000   0.045608 125.382366   0.961246 -146.663823   0.961418 -146.308569   0.034388 129.793925 
6050.000000000   0.048284 114.017418   0.959966 -156.845115   0.960201 -156.489278   0.037532 119.492728 
6100.000000000   0.049971 102.486012   0.958926 -167.010320   0.959210 -166.654638   0.039843 109.619082 
6150.000000000   0.050652  90.690612   0.958202 -177.165266   0.958522 -176.810306   0.041293 100.183634 
6200.000000000   0.050323  78.530327   0.957832 172.683094   0.958171 173.037019   0.041905  91.228488 
6250.000000000   0.049000  65.894906   0.957803 162.527672   0.958146 162.880571   0.041754  82.808691 
6300.000000000   0.046733  52.654165   0.958064 152.362271   0.958395 152.714573   0.040960  74.975170 
6350.000000000   0.043619  38.640770   0.958530 142.182462   0.958835 142.535055   0.039667  67.756520 
6400.000000000   0.039814  23.624080   0.959095 131.986101   0.959367 132.340320   0.038028  61.141944 
6450.000000000   0.035546   7.274586   0.959653 121.773488   0.959895 122.131001   0.036166  55.071395 
6500.000000000   0.031124 -10.870407   0.960109 111.547151   0.960333 111.909802   0.034162  49.443195 
6550.000000000   0.026950 -31.388614   0.960391 101.311310   0.960623 101.680875   0.032034  44.145470 
6600.000000000   0.023507 -54.748714   0.960460  91.071181   0.960737  91.449077   0.029751  39.109730 
6650.000000000   0.021267 -80.676156   0.960309  80.832214   0.960679  81.219236   0.027258  34.376307 
6700.000000000   0.020475 -107.490217   0.959964  70.599338   0.960480  70.995403   0.024517  30.164718 
6750.000000000   0.020933 -132.763888   0.959475  60.376355   0.960191  60.780338   0.021551  26.956883 
6800.000000000   0.022119 -155.005206   0.958908  50.165602   0.959872  50.575267   0.018491  25.604900 
6850.000000000   0.023489 -174.091468   0.958333  39.967765   0.959580  40.379927   0.015629  27.393218 
6900.000000000   0.024657 169.452933   0.957817  29.782018   0.959362  30.192706   0.013452  33.587727 
6950.000000000   0.025405 155.029644   0.957411  19.606248   0.959248  20.011182   0.012530  43.499525 
7000.000000000   0.025635 142.144933   0.957151   9.437560   0.959248   9.832568   0.013060  52.929605 
7050.000000000   0.025317 130.412168   0.957054  -0.727308   0.959353  -0.345807   0.014580  58.003870 
7100.000000000   0.024452 119.518699   0.957115 -10.891565   0.959541 -10.526044   0.016383  58.424072 
7150.000000000   0.023041 109.202112   0.957316 -21.057945   0.959780 -20.709501   0.017923  55.576067 
7200.000000000   0.021071  99.244307   0.957629 -31.228599   0.960038 -30.896713   0.018875  50.801531 
7250.000000000   0.018518  89.481115   0.958020 -41.404912   0.960285 -41.087457   0.019079  45.084353 
7300.000000000   0.015355  79.829108   0.958455 -51.587603   0.960502 -51.281078   0.018504  39.169471 
7350.000000000   0.011571  70.362295   0.958902 -61.776837   0.960677 -61.476677   0.017214  33.718596 
7400.000000000   0.007186  61.695473   0.959334 -71.972356   0.960809 -71.673448   0.015359  29.458419 
7450.000000000   0.002298  60.628851   0.959730 -82.173641   0.960906 -81.870882   0.013151  27.359420 
7500.000000000   0.003179 -154.023200   0.960074 -92.380050   0.960976 -92.068860   0.010876  28.880595 
7550.000000000   0.008775 -158.591407   0.960352 -102.590887   0.961030 -102.267694   0.008922  36.083603 
7600.000000000   0.014455 -168.280012   0.960556 -112.805431   0.961072 -112.467998   0.007817  50.241265 
7650.000000000   0.019971 -178.887903   0.960680 -123.022931   0.961105 -122.670491   0.008038  67.504021 
7700.000000000   0.025081 170.163873   0.960719 -133.242581   0.961123 -132.875873   0.009553  80.517468 
7750.000000000   0.029550 159.074120   0.960674 -143.463574   0.961117 -143.084580   0.011951  86.981443 
7800.000000000   0.033173 147.950390   0.960546 -153.685035   0.961076 -153.296726   0.014894  88.362922 
7850.000000000   0.035777 136.869655   0.960344 -163.906154   0.960987 -163.512048   0.018168  86.202104 
7900.000000000   0.037240 125.898116   0.960077 -174.126216   0.960845 -173.729919   0.021590  81.443709 
7950.000000000   0.037488 115.101546   0.959759 175.655284   0.960647 176.050448   0.024952  74.648207 
8000.000000000   0.036502 104.555858   0.959407 165.438581   0.960396 165.829882   0.028014  66.172036 
8050.000000000   0.034310  94.364208   0.959038 155.223585   0.960102 155.609101   0.030519  56.248779 
8100.000000000   0.030983  84.692711   0.958666 145.009874   0.959778 145.388555   0.032223  45.015548 
8150.000000000   0.026632  75.855772   0.958301 134.796757   0.959436 135.168351   0.032926  32.511018 
8200.000000000   0.021419  68.554482   0.957946 124.583411   0.959087 124.948275   0.032503  18.650802 
8250.000000000   0.015593  64.697360   0.957597 114.368987   0.958738 114.727901   0.030944   3.171989 
8300.000000000   0.009759  71.061482   0.957244 104.152870   0.958386 104.506723   0.028388 -14.471290 
8350.000000000   0.006537 109.555080   0.956870  93.934804   0.958023  94.284385   0.025201 -35.265155 
8400.000000000   0.010264 147.525383   0.956453  83.714989   0.957633  84.060835   0.022084 -60.669666 
8450.000000000   0.017096 153.497126   0.955974  73.494314   0.957197  73.836576   0.020173 -91.612767 
8500.000000000   0.024497 149.288763   0.955413  63.274198   0.956695  63.612702   0.020677 -125.500625 
8550.000000000   0.031805 141.574352   0.954762  53.056630   0.956111  53.390913   0.023841 -156.538298 
8600.000000000   0.038672 132.247474   0.954021  42.843991   0.955439  43.173497   0.028787 178.022444 
8650.000000000   0.044826 122.010670   0.953202  32.638824   0.954682  32.963051   0.034468 157.292823 
8700.000000000   0.050031 111.180289   0.952334  22.443596   0.953859  22.762316   0.040142 139.759961 
8750.000000000   0.054085  99.919026   0.951458  12.260350   0.953006  12.573747   0.045338 124.354012 
8800.000000000   0.056829  88.317530   0.950629   2.090480   0.952173   2.399241   0.049768 110.422000 
8850.000000000   0.058157  76.426144   0.949908  -8.065619   0.951422  -7.760228   0.053268  97.562173 
8900.000000000   0.058023  64.266950   0.949364 -18.208679   0.950823 -17.904933   0.055757  85.509284 
8950.000000000   0.056446  51.835672   0.949060 -28.340786   0.950445 -28.036546   0.057203  74.069765 
9000.000000000   0.053511  39.096356   0.949055 -38.465280   0.950354 -38.158248   0.057600  63.088151 
9050.000000000   0.049365  25.967227   0.949387 -48.586700   0.950599 -48.274564   0.056945  52.432458 
9100.000000000   0.044208  12.292157   0.950077 -58.710473   0.951205 -58.391165   0.055225  41.991251 
9150.000000000   0.038295  -2.216647   0.951114 -68.842516   0.952171 -68.514354   0.052417  31.677627 
9200.000000000   0.031932 -18.098189   0.952460 -78.988679   0.953462 -78.650544   0.048495  21.437531 
9250.000000000   0.025506 -36.399641   0.954043 -89.154175   0.955010 -88.805530   0.043453  11.262918 
9300.000000000   0.019570 -59.183192   0.955765 -99.342920   0.956715 -98.983843   0.037319   1.216828 
9350.000000000   0.015051 -89.833744   0.957508 -109.557042   0.958456 -109.188170   0.030176  -8.500775 
9400.000000000   0.013325 -128.947303   0.959138 -119.796433   0.960097 -119.418851   0.022181 -17.326842 
