! C:\LeCroy\SPARQ\SPARQ\Adapters\Cached_8000_40000000_Adaptor.s2p
!
! Thu May 13 15:43:22 2010
!
! freq S11 S21 
! S12 S22 
! 
# MHz S MA R 50.00
    0.000   0.000056 180.000000   1.000222   0.000000 
  0.999924   0.000000   0.000023   0.000000 
    5.000   0.000056 105.324878   1.000222  -0.096107 
  0.999924  -0.035704   0.000023  27.860292 
   10.000   0.000145  61.178982   1.000055  -0.231681 
  1.000169  -0.257487   0.000162  54.507245 
   15.000   0.000205  52.643565   0.999970  -0.275039 
  0.999512  -0.351542   0.000149  55.976108 
   20.000   0.000183  54.993330   1.000111  -0.403470 
  0.999851  -0.438183   0.000203  53.225368 
   25.000   0.000219  63.416191   1.000061  -0.500273 
  0.999822  -0.511161   0.000191  50.570398 
   30.000   0.000263  67.217313   0.999806  -0.625793 
  1.000022  -0.542011   0.000304  59.595997 
   35.000   0.000269  57.186046   0.999406  -0.714020 
  0.999952  -0.693234   0.000286  56.009535 
   40.000   0.000357  59.837949   0.999965  -0.799625 
  0.999878  -0.746996   0.000357  62.149344 
   45.000   0.000366  67.620120   0.999867  -0.899528 
  0.999387  -0.867500   0.000341  59.113695 
   50.000   0.000388  60.568027   0.999518  -0.996941 
  0.999822  -0.995246   0.000409  61.669928 
   55.000   0.000402  59.047241   0.999118  -1.080867 
  0.999569  -1.092901   0.000501  51.729108 
   60.000   0.000427  52.508412   0.999431  -1.210365 
  0.999772  -1.132683   0.000483  51.100766 
   65.000   0.000418  57.537226   0.999238  -1.280630 
  0.999006  -1.302592   0.000455  50.861602 
   70.000   0.000485  49.002780   0.999840  -1.388366 
  1.000108  -1.368251   0.000459  44.043512 
   75.000   0.000448  69.728742   0.999937  -1.531062 
  0.999947  -1.544266   0.000471  60.630908 
   80.000   0.000488  50.965424   1.000085  -1.601834 
  0.999322  -1.575178   0.000484  54.670918 
   85.000   0.000473  49.105082   0.999416  -1.697750 
  0.999863  -1.649264   0.000506  41.805028 
   90.000   0.000592  60.429447   0.998902  -1.819399 
  1.000021  -1.860308   0.000655  48.099547 
   95.000   0.000568  54.677884   0.999806  -1.925728 
  1.000279  -1.875226   0.000624  52.393664 
  100.000   0.000611  52.992253   0.999447  -2.011237 
  0.999799  -2.038153   0.000666  42.260429 
  105.000   0.000763  45.266549   0.999287  -2.097418 
  0.999400  -2.164815   0.000595  42.933968 
  110.000   0.000589  49.045788   0.999798  -2.193293 
  0.999412  -2.180379   0.000697  44.470709 
  115.000   0.000586  51.431091   0.999193  -2.313873 
  0.999625  -2.270309   0.000661  46.279616 
  120.000   0.000673  49.506057   0.999545  -2.425309 
  1.000282  -2.374884   0.000661  47.570967 
  125.000   0.000706  50.577648   0.999578  -2.481063 
  0.999618  -2.494460   0.000683  47.273823 
  130.000   0.000637  55.290005   0.999452  -2.595087 
  1.000027  -2.598267   0.000761  45.683170 
  135.000   0.000722  51.525267   0.999254  -2.699811 
  0.999102  -2.640067   0.000739  39.153570 
  140.000   0.000755  52.046774   0.999626  -2.784134 
  0.999271  -2.840751   0.000894  44.856808 
  145.000   0.000657  53.258031   0.999073  -2.892249 
  0.999710  -2.812868   0.000652  56.717331 
  150.000   0.000755  56.491760   0.999455  -3.012079 
  0.999265  -2.962719   0.000907  45.712425 
  155.000   0.000708  61.925084   0.999633  -3.065893 
  0.999635  -3.038664   0.000971  52.654231 
  160.000   0.000789  58.028794   0.999712  -3.161382 
  0.998851  -3.189767   0.000934  35.754704 
  165.000   0.000880  54.380096   0.999145  -3.300836 
  0.999636  -3.290638   0.000977  51.684121 
  170.000   0.000682  57.603409   0.999320  -3.389572 
  0.999238  -3.407444   0.000844  43.192544 
  175.000   0.001078  57.246515   0.999624  -3.453654 
  0.999586  -3.438235   0.001069  44.847715 
  180.000   0.001099  60.477293   0.999569  -3.602948 
  0.999896  -3.492067   0.001027  40.188344 
  185.000   0.001204  55.679208   0.999630  -3.652369 
  0.999568  -3.587809   0.001029  44.655176 
  190.000   0.001064  46.191181   0.999284  -3.779821 
  0.999624  -3.722630   0.000979  45.463010 
  195.000   0.001175  42.023898   0.999210  -3.902381 
  0.999432  -3.788562   0.001023  49.821936 
  200.000   0.001004  53.221109   0.999472  -3.969072 
  0.999550  -3.968646   0.000967  47.527175 
  205.000   0.000847  53.842571   0.999302  -4.047484 
  0.999318  -4.089455   0.000971  43.853653 
  210.000   0.000929  46.081961   0.999521  -4.203016 
  0.998959  -4.120365   0.000998  49.189161 
  215.000   0.000809  43.915240   0.999865  -4.246709 
  0.999181  -4.252646   0.000928  52.802558 
  220.000   0.000965  52.442736   0.999212  -4.349422 
  0.999657  -4.435435   0.000968  48.824158 
  225.000   0.000906  55.368571   0.999522  -4.475303 
  0.999651  -4.440411   0.001033  47.223691 
  230.000   0.001031  47.701707   0.999528  -4.530318 
  0.999366  -4.580082   0.001033  42.625486 
  235.000   0.000927  45.039761   0.999691  -4.652984 
  0.999436  -4.720793   0.000937  50.606828 
  240.000   0.001133  49.567062   0.999186  -4.780144 
  0.999650  -4.697292   0.000985  42.342464 
  245.000   0.000829  35.405543   0.999451  -4.889447 
  0.999803  -4.946741   0.000855  55.997711 
  250.000   0.000755  48.241177   0.999388  -4.936207 
  0.998825  -5.025018   0.000981  48.372187 
  255.000   0.000815  47.180729   0.999489  -5.096421 
  0.999477  -5.133336   0.001024  58.664491 
  260.000   0.001211  37.141967   0.999588  -5.178097 
  0.998800  -5.094547   0.000864  43.875354 
  265.000   0.000917  41.753974   0.998858  -5.270176 
  0.999747  -5.257517   0.000996  47.504963 
  270.000   0.000950  40.514710   0.999028  -5.325575 
  0.999557  -5.338782   0.000921  48.259849 
  275.000   0.001137  55.017557   0.999414  -5.480755 
  0.998810  -5.536165   0.001041  43.453566 
  280.000   0.001062  54.571572   0.999695  -5.584956 
  0.999474  -5.582457   0.001089  37.964160 
  285.000   0.001092  46.511350   0.999739  -5.662598 
  0.999380  -5.653038   0.001035  47.149727 
  290.000   0.001065  46.625014   0.999112  -5.743752 
  0.999787  -5.786556   0.000968  41.394889 
  295.000   0.000992  43.418408   0.999252  -5.877879 
  0.999175  -5.798520   0.001079  44.348688 
  300.000   0.001049  52.604928   0.999064  -5.970784 
  0.999916  -5.925054   0.001034  49.761658 
  305.000   0.001195  43.750194   0.999244  -6.097928 
  0.999501  -6.057595   0.001054  48.363978 
  310.000   0.000990  49.324848   0.999336  -6.164277 
  0.998502  -6.079652   0.001142  38.865328 
  315.000   0.001143  44.833106   0.999191  -6.228801 
  0.999565  -6.313087   0.001192  50.276656 
  320.000   0.001140  52.426043   0.999784  -6.328936 
  0.999329  -6.337541   0.001105  48.468817 
  325.000   0.001200  50.535519   0.999315  -6.443882 
  0.999525  -6.384579   0.001014  52.082751 
  330.000   0.001222  51.082629   0.999393  -6.556475 
  0.998911  -6.464553   0.001178  50.606132 
  335.000   0.001170  54.419393   0.999754  -6.621089 
  0.999192  -6.736824   0.001354  46.770033 
  340.000   0.001242  55.004314   0.999085  -6.745449 
  0.999468  -6.708341   0.001330  50.955714 
  345.000   0.001282  50.295821   0.999083  -6.826714 
  0.998227  -6.809071   0.001233  56.328882 
  350.000   0.001214  54.907994   0.998825  -6.931573 
  0.999340  -6.938296   0.001235  52.501815 
  355.000   0.001193  53.277794   0.999568  -7.034429 
  0.999384  -6.972338   0.001373  48.881029 
  360.000   0.001261  59.585887   0.999169  -7.147775 
  0.999230  -7.100382   0.001372  46.951157 
  365.000   0.001126  57.502619   0.999096  -7.220692 
  0.998291  -7.227194   0.001374  48.758934 
  370.000   0.001156  58.335303   0.999349  -7.348611 
  0.998244  -7.295293   0.001313  46.522429 
  375.000   0.001206  49.550017   0.999039  -7.445156 
  0.999328  -7.477468   0.001388  45.079955 
  380.000   0.001131  52.738525   0.999053  -7.536215 
  0.998503  -7.538645   0.001271  44.470898 
  385.000   0.001259  60.246424   0.999454  -7.592144 
  0.998468  -7.629628   0.001355  45.959810 
  390.000   0.000978  57.931915   0.999527  -7.725924 
  0.998797  -7.801118   0.001318  45.238498 
  395.000   0.001120  60.932830   0.999360  -7.839211 
  0.998733  -7.871049   0.001279  47.190840 
  400.000   0.001156  56.522522   0.999509  -7.979619 
  0.999152  -7.912283   0.001216  40.400569 
  405.000   0.001260  51.847321   0.999171  -8.030345 
  0.999674  -7.982845   0.001462  42.948135 
  410.000   0.001187  57.001943   0.999183  -8.134640 
  0.999100  -8.151455   0.001260  42.659114 
  415.000   0.001123  51.251733   0.999661  -8.243339 
  0.999174  -8.140736   0.001393  36.387140 
  420.000   0.001052  49.936877   0.998939  -8.359307 
  0.999318  -8.241610   0.001345  42.962331 
  425.000   0.001045  60.881247   0.998577  -8.397925 
  0.999743  -8.445162   0.001317  43.427331 
  430.000   0.001211  53.151961   0.999259  -8.513023 
  0.998366  -8.553789   0.001357  40.663865 
  435.000   0.000940  52.449660   0.999276  -8.638775 
  0.999510  -8.638686   0.001284  36.284743 
  440.000   0.000970  56.032612   0.999232  -8.755166 
  0.998933  -8.774399   0.001264  45.464736 
  445.000   0.001033  48.007017   0.999706  -8.875463 
  0.998965  -8.750196   0.001183  37.463262 
  450.000   0.001035  48.714285   0.999316  -8.914978 
  0.999840  -8.893420   0.001187  38.479830 
  455.000   0.001034  53.877343   0.999342  -9.008200 
  0.999278  -9.051197   0.001332  43.654091 
  460.000   0.001039  50.430089   0.999119  -9.130421 
  0.999421  -9.093492   0.001337  36.616748 
  465.000   0.000875  41.370615   0.999325  -9.198875 
  0.999395  -9.171078   0.001277  35.270822 
  470.000   0.001198  47.955236   0.999443  -9.347529 
  0.998228  -9.311796   0.001349  34.356808 
  475.000   0.001123  44.950957   0.998828  -9.392310 
  0.999207  -9.450588   0.001290  32.256183 
  480.000   0.000931  52.331824   0.999342  -9.475022 
  0.999228  -9.493588   0.001213  34.619604 
  485.000   0.000890  40.519284   0.998869  -9.560443 
  0.998486  -9.556590   0.001234  30.820847 
  490.000   0.001102  53.092133   0.998892  -9.706719 
  0.999469  -9.624324   0.001108  32.706867 
  495.000   0.001038  54.177729   0.999083  -9.800638 
  0.998565  -9.729306   0.001196  34.667307 
  500.000   0.001251  50.912561   0.998528  -9.893727 
  0.999402  -9.868541   0.001214  35.773949 
  505.000   0.000995  46.359411   0.999537 -10.000921 
  0.998960  -9.965314   0.001310  49.368295 
  510.000   0.001190  46.161955   0.999223 -10.118503 
  0.999250 -10.058131   0.001329  45.216766 
  515.000   0.001042  55.737587   0.999460 -10.192437 
  0.998903 -10.145024   0.001244  37.729647 
  520.000   0.001205  48.659190   0.999444 -10.292694 
  0.998900 -10.347679   0.001365  38.657449 
  525.000   0.001295  43.154589   0.999555 -10.389502 
  0.999100 -10.500525   0.001372  45.509360 
  530.000   0.001059  51.193893   0.999197 -10.490404 
  0.999399 -10.507134   0.001297  40.468792 
  535.000   0.001221  60.409854   0.999227 -10.607234 
  0.999643 -10.574688   0.001469  40.490317 
  540.000   0.001343  47.900961   0.999657 -10.684575 
  0.999807 -10.704767   0.001440  39.204648 
  545.000   0.001326  53.938059   0.999361 -10.840701 
  0.999579 -10.752254   0.001278  39.721864 
  550.000   0.001227  48.913069   0.999492 -10.886937 
  0.999623 -10.961151   0.001416  37.132606 
  555.000   0.001082  49.062917   0.999498 -10.970890 
  0.998894 -11.055078   0.001382  36.672157 
  560.000   0.001485  54.200791   0.999566 -11.092487 
  0.999308 -11.013491   0.001714  44.544994 
  565.000   0.001094  56.152910   0.998886 -11.204618 
  0.999190 -11.230836   0.001353  42.348502 
  570.000   0.001246  49.026528   0.999601 -11.279688 
  0.999285 -11.292635   0.001438  39.010398 
  575.000   0.000970  45.152808   0.999407 -11.397563 
  0.998987 -11.382378   0.001407  39.934067 
  580.000   0.001054  58.942163   0.999477 -11.487131 
  0.999358 -11.487690   0.001552  38.044071 
  585.000   0.001110  60.413253   0.999111 -11.600607 
  0.998895 -11.584677   0.001391  41.279880 
  590.000   0.001221  57.828661   0.999264 -11.676929 
  0.999192 -11.657691   0.001506  33.367630 
  595.000   0.001303  45.471299   0.999683 -11.818904 
  0.999504 -11.754554   0.001377  36.363023 
  600.000   0.001286  56.282382   0.998459 -11.887461 
  0.999272 -11.873714   0.001586  33.436541 
  605.000   0.001185  49.321484   0.999266 -11.939432 
  0.999061 -11.966268   0.001437  30.562003 
  610.000   0.001123  41.407512   0.999805 -12.096511 
  0.998838 -12.103217   0.001271  17.542373 
  615.000   0.000888  49.240488   0.999396 -12.173695 
  0.999618 -12.146171   0.001531  33.106584 
  620.000   0.001215  40.199195   0.999192 -12.263343 
  0.998690 -12.294024   0.001439  19.808106 
  625.000   0.000698  76.942909   0.999835 -12.383042 
  0.999363 -12.388611   0.001400  27.955692 
  630.000   0.001238  67.174273   0.999857 -12.504567 
  0.999184 -12.506141   0.001445  33.196099 
  635.000   0.001031  40.669324   1.000199 -12.552860 
  0.998494 -12.567042   0.000970  28.460739 
  640.000   0.001237  52.208141   0.999846 -12.686902 
  0.998956 -12.673302   0.001286  29.892673 
  645.000   0.001040  64.947335   0.999004 -12.777057 
  0.999352 -12.740280   0.001524  31.247569 
  650.000   0.001032  49.744933   0.999713 -12.812967 
  0.998950 -12.843094   0.001458  25.928258 
  655.000   0.001316  67.574406   0.999114 -13.000050 
  0.999150 -12.997402   0.001743  27.220063 
  660.000   0.000909  59.901540   0.999514 -13.065385 
  0.999078 -13.059145   0.001448  33.991386 
  665.000   0.001344  55.330708   0.999781 -13.177216 
  0.999283 -13.164745   0.001404  37.498789 
  670.000   0.001315  64.301231   0.998862 -13.260985 
  0.999136 -13.246992   0.001341  28.303043 
  675.000   0.001357  68.170133   0.999802 -13.389177 
  0.999394 -13.349344   0.001584  33.135387 
  680.000   0.001407  64.217431   0.999192 -13.469173 
  0.998833 -13.461479   0.001400  28.078384 
  685.000   0.001138  63.076610   0.998949 -13.591999 
  0.998604 -13.572736   0.001723  33.707130 
  690.000   0.001219  53.854120   0.999101 -13.678878 
  0.999056 -13.681424   0.001484  36.561081 
  695.000   0.001142  57.292898   0.999009 -13.798319 
  0.999280 -13.764832   0.001529  27.405654 
  700.000   0.001099  55.415716   0.999052 -13.884898 
  0.999210 -13.867894   0.001481  37.269942 
  705.000   0.001352  58.297637   0.999163 -13.946390 
  0.999232 -13.935222   0.001591  40.044909 
  710.000   0.001349  48.139435   0.999599 -14.059231 
  0.999254 -14.073407   0.001403  40.036364 
  715.000   0.001434  65.756113   0.998838 -14.129301 
  0.998892 -14.163429   0.001418  33.986088 
  720.000   0.001479  49.098771   0.999037 -14.261860 
  0.999353 -14.246189   0.001432  38.643692 
  725.000   0.001243  40.795159   0.999413 -14.400324 
  0.999656 -14.384196   0.001553  22.475861 
  730.000   0.001327  47.598141   0.999320 -14.491546 
  0.998721 -14.462358   0.001404  33.601572 
  735.000   0.001224  59.961014   0.998814 -14.535769 
  0.999178 -14.534003   0.001583  38.717230 
  740.000   0.001296  50.910839   0.998652 -14.644345 
  0.999050 -14.644590   0.001424  39.990915 
  745.000   0.001315  52.230060   0.998909 -14.764825 
  0.998902 -14.749089   0.001406  36.159603 
  750.000   0.001164  52.814563   0.998900 -14.846811 
  0.998787 -14.840370   0.001383  47.239803 
  755.000   0.001229  48.924022   0.999062 -14.944904 
  0.999343 -14.967610   0.001513  37.255909 
  760.000   0.000787  47.250978   0.999478 -15.097192 
  0.998845 -15.059170   0.001341  34.626265 
  765.000   0.001248  35.081376   0.999561 -15.129689 
  0.998740 -15.138237   0.001393  29.669711 
  770.000   0.001412  21.598526   0.999358 -15.181662 
  0.998959 -15.224881   0.001260  26.363307 
  775.000   0.000918  45.799818   0.998941 -15.352460 
  0.999328 -15.344432   0.001509  37.928544 
  780.000   0.001111  34.865832   0.999495 -15.436359 
  0.999067 -15.424836   0.001121  29.987210 
  785.000   0.000807  57.107628   0.999454 -15.576603 
  0.998992 -15.548761   0.000939  27.292472 
  790.000   0.000812  62.818312   0.999591 -15.628143 
  0.999194 -15.616865   0.001190  30.493967 
  795.000   0.001261  24.970949   0.999414 -15.712442 
  0.998846 -15.745401   0.001141  25.852161 
  800.000   0.001321  38.110368   0.999185 -15.847843 
  0.999367 -15.826441   0.001369  35.189248 
  805.000   0.001469  45.351547   0.999656 -15.986342 
  0.998814 -15.956907   0.001151  36.024335 
  810.000   0.001202  33.591006   0.998277 -16.053360 
  0.998430 -16.014070   0.001358  23.634523 
  815.000   0.001110  23.819587   0.998948 -16.159694 
  0.998757 -16.133986   0.001300  21.659350 
  820.000   0.001262  28.306534   0.999071 -16.212091 
  0.998609 -16.238057   0.001235  23.002996 
  825.000   0.001214  14.563469   0.998912 -16.320999 
  0.998862 -16.327729   0.001393  27.883731 
  830.000   0.001017  31.812510   0.999257 -16.460422 
  0.998866 -16.418517   0.001271  22.826283 
  835.000   0.001383  42.435531   0.998929 -16.552762 
  0.999188 -16.552423   0.001418  32.967040 
  840.000   0.001040  42.624942   0.999338 -16.678012 
  0.998849 -16.601277   0.001389  27.256928 
  845.000   0.001038  44.948888   0.999517 -16.701303 
  0.999238 -16.758490   0.001088  39.892417 
  850.000   0.001334  40.085799   0.998839 -16.845177 
  0.998925 -16.829291   0.001374  32.419904 
  855.000   0.000959 -23.614704   0.999149 -16.916274 
  0.998982 -16.939799   0.001372  36.397089 
  860.000   0.001212  47.163455   0.998393 -17.022632 
  0.998904 -17.004491   0.001576  23.092931 
  865.000   0.001129  40.403678   0.999437 -17.195760 
  0.999038 -17.099713   0.001561  27.998571 
  870.000   0.001311  41.129490   0.998659 -17.249344 
  0.998635 -17.222871   0.001491  34.098228 
  875.000   0.001664  36.182002   0.999506 -17.310262 
  0.999187 -17.349005   0.001484  29.331574 
  880.000   0.001237  50.094111   0.998757 -17.425113 
  0.998550 -17.426823   0.001469  34.779514 
  885.000   0.001387  53.268626   0.999392 -17.488967 
  0.998502 -17.549406   0.001427  35.549112 
  890.000   0.001427  55.640718   0.998925 -17.600908 
  0.998553 -17.616411   0.001520  40.085456 
  895.000   0.001367  55.730392   0.998579 -17.733122 
  0.998752 -17.731715   0.001438  35.618060 
  900.000   0.001491  56.714721   0.998876 -17.821317 
  0.998615 -17.777391   0.001903  40.803929 
  905.000   0.001338  48.037064   0.999208 -17.965580 
  0.999078 -17.911157   0.001678  29.502711 
  910.000   0.001589  53.314058   0.999006 -18.017460 
  0.998938 -17.990842   0.001737  36.658306 
  915.000   0.001647  48.300515   0.999629 -18.111613 
  0.999247 -18.103995   0.001798  32.538379 
  920.000   0.001616  49.710692   0.999064 -18.231015 
  0.998130 -18.184329   0.001394  40.662657 
  925.000   0.001190  47.999298   0.998605 -18.292932 
  0.999094 -18.319022   0.001712  29.454118 
  930.000   0.000594  26.644400   0.998712 -18.425315 
  0.999020 -18.392597   0.001618  34.400290 
  935.000   0.001418  45.612212   0.998934 -18.491363 
  0.999242 -18.502628   0.001593  39.963575 
  940.000   0.001216  60.295916   0.998793 -18.622362 
  0.999280 -18.621643   0.001708  34.810193 
  945.000   0.001089  54.438659   0.999377 -18.683853 
  0.999408 -18.716814   0.001784  31.854370 
  950.000   0.001220  54.195245   0.999452 -18.824218 
  0.999084 -18.785464   0.001538  32.082013 
  955.000   0.001067  52.614990   0.999186 -18.888797 
  0.998860 -18.919336   0.001516  25.663869 
  960.000   0.001331  40.251195   0.999243 -19.038525 
  0.998693 -18.952246   0.001354  29.045110 
  965.000   0.001287  31.778131   0.999287 -19.092178 
  0.999021 -19.079677   0.001282  31.524854 
  970.000   0.001068  35.866706   0.998715 -19.207899 
  0.999108 -19.184966   0.001384  33.624032 
  975.000   0.001235  28.242954   0.999081 -19.322712 
  0.998287 -19.282845   0.001504  23.465791 
  980.000   0.001261  35.378211   0.999008 -19.428823 
  0.998735 -19.406685   0.001571  30.229053 
  985.000   0.001212  38.038659   0.999210 -19.510701 
  0.998792 -19.502676   0.001355  29.531695 
