!UUTPORTS:-2,3 CABLE SERIAL NUMBER 09-11-609
! 11/2/2010 1:58:22 PM
! RESWITHCABLESETTEST.S2P
! CHANNEL.1
! TR.MEASUREMENT
! CORRECTED.DATA
# GHZ S RI R 50.0
! FREQ.GHZ         S11RE         S11M         S21RE         S21M         S12RE         S12M         S22RE         S22M         
!; PortSelection: Port_12
   0.010000000     0.0033236    0.0041721     0.9888828   -0.1435040     0.9879745   -0.1447228     0.0026064    0.0046208 
   0.015000000     0.0044310    0.0051298     0.9749602   -0.2130578     0.9740539   -0.2130137     0.0039261    0.0057695 
   0.020000000     0.0057279    0.0065135     0.9565638   -0.2808388     0.9558780   -0.2819393     0.0056781    0.0069411 
   0.025000000     0.0071809    0.0073996     0.9335310   -0.3470989     0.9331684   -0.3480138     0.0069682    0.0068910 
   0.030000000     0.0082433    0.0074423     0.9090667   -0.4129827     0.9092090   -0.4120556     0.0132172    0.0045183 
   0.035000000     0.0146175    0.0044785     0.8794619   -0.4760157     0.8794429   -0.4755562     0.0129658    0.0055748 
   0.040000000     0.0136530    0.0051784     0.8423267   -0.5360214     0.8419840   -0.5358217     0.0129344    0.0060782 
   0.045000000     0.0141136    0.0054378     0.8017149   -0.5937397     0.8012350   -0.5940248     0.0141365    0.0056547 
   0.050000000     0.0152196    0.0050156     0.7568673   -0.6483266     0.7569055   -0.6488316     0.0143918    0.0059222 
   0.055000000     0.0154294    0.0049531     0.7080649   -0.7005494     0.7087269   -0.6998606     0.0147057    0.0056381 
   0.060000000     0.0170041    0.0045744     0.6598307   -0.7499489     0.6595117   -0.7499281     0.0147776    0.0103800 
   0.065000000     0.0180124    0.0037350     0.6046865   -0.7931088     0.6037269   -0.7937347     0.0162458    0.0085100 
   0.070000000     0.0184970    0.0087182     0.5479222   -0.8361513     0.5480146   -0.8353630     0.0171318    0.0074971 
   0.075000000     0.0197768    0.0064900     0.4869202   -0.8706151     0.4871629   -0.8704342     0.0181636    0.0065490 
   0.080000000     0.0201689    0.0042527     0.4234018   -0.9026160     0.4232239   -0.9025504     0.0192843    0.0060061 
   0.085000000     0.0207848    0.0026807     0.3580138   -0.9297221     0.3588898   -0.9297578     0.0200466    0.0048393 
   0.090000000     0.0218656    0.0014094     0.2915276   -0.9520164     0.2920740   -0.9522961     0.0212921    0.0036396 
   0.095000000     0.0215450   -0.0003962     0.2229769   -0.9694992     0.2231567   -0.9692051     0.0208574    0.0022006 
   0.100000000     0.0221798   -0.0012373     0.1541771   -0.9829186     0.1546303   -0.9826779     0.0222494    0.0010347 
   0.105000000     0.0220449   -0.0036016     0.0846717   -0.9909732     0.0848789   -0.9911194     0.0222304    0.0002670 
   0.110000000     0.0215081   -0.0048469     0.0145649   -0.9940667     0.0144591   -0.9941721     0.0216903   -0.0013372 
   0.115000000     0.0211670   -0.0060053    -0.0552566   -0.9917949    -0.0556431   -0.9923658     0.0214227   -0.0031041 
   0.120000000     0.0204103   -0.0080981    -0.1255060   -0.9858938    -0.1253909   -0.9857273     0.0209599   -0.0035936 
   0.125000000     0.0206270   -0.0083832    -0.1943144   -0.9740381    -0.1944776   -0.9750332     0.0199427   -0.0054139 
   0.130000000     0.0190741   -0.0102721    -0.2624504   -0.9574383    -0.2639644   -0.9577572     0.0193563   -0.0062861 
   0.135000000     0.0181558   -0.0115903    -0.3300678   -0.9367948    -0.3300839   -0.9371559     0.0183015   -0.0070879 
   0.140000000     0.0165684   -0.0130975    -0.3949730   -0.9106984    -0.3953751   -0.9113902     0.0173953   -0.0082761 
   0.145000000     0.0149914   -0.0136502    -0.4587990   -0.8814162    -0.4588134   -0.8814067     0.0165895   -0.0093338 
   0.150000000     0.0131315   -0.0148671    -0.5189748   -0.8459974    -0.5195680   -0.8460783     0.0152687   -0.0099516 
   0.155000000     0.0108463   -0.0155875    -0.5770937   -0.8079247    -0.5779296   -0.8079616     0.0136393   -0.0111519 
   0.160000000     0.0090281   -0.0157740    -0.6324463   -0.7655395    -0.6330231   -0.7654235     0.0142458   -0.0116681 
   0.165000000     0.0077052   -0.0150017    -0.6854632   -0.7185863    -0.6858358   -0.7186683     0.0115328   -0.0119812 
   0.170000000     0.0052966   -0.0156156    -0.7345122   -0.6683013    -0.7346413   -0.6680636     0.0102297   -0.0123939 
   0.175000000     0.0034008   -0.0152835    -0.7805098   -0.6141443    -0.7795626   -0.6145779     0.0088728   -0.0118624 
   0.180000000     0.0012891   -0.0142559    -0.8209859   -0.5588194    -0.8228132   -0.5578546     0.0068978   -0.0122352 
   0.185000000    -0.0005820   -0.0133472    -0.8595991   -0.4991748    -0.8594702   -0.4993603     0.0056956   -0.0115060 
   0.190000000    -0.0019734   -0.0122649    -0.8921702   -0.4376788    -0.8929645   -0.4363284     0.0040000   -0.0105500 
   0.195000000    -0.0032605   -0.0111882    -0.9213337   -0.3728199    -0.9214245   -0.3723750     0.0024050   -0.0097103 
   0.200000000    -0.0048507   -0.0094761    -0.9449369   -0.3071460    -0.9452118   -0.3057277     0.0014014   -0.0079768 
   0.205000000    -0.0064559   -0.0079430    -0.9642006   -0.2389487    -0.9647211   -0.2393561    -0.0002856   -0.0064948 
   0.210000000    -0.0077908   -0.0051919    -0.9791349   -0.1698029    -0.9796940   -0.1706540    -0.0009788   -0.0045673 
   0.215000000    -0.0084146   -0.0026264    -0.9885604   -0.0996309    -0.9889714   -0.1000082    -0.0020742   -0.0028245 
   0.220000000    -0.0087671   -0.0001588    -0.9934149   -0.0291592    -0.9940898   -0.0300259    -0.0023354   -0.0009009 
   0.225000000    -0.0086523    0.0019672    -0.9939578    0.0406843    -0.9935116    0.0404146    -0.0025674    0.0010704 
   0.230000000    -0.0080358    0.0044166    -0.9879895    0.1103557    -0.9881631    0.1111641    -0.0023833    0.0039758 
   0.235000000    -0.0069077    0.0060110    -0.9777540    0.1816398    -0.9774821    0.1810624    -0.0015583    0.0063752 
   0.240000000    -0.0059058    0.0092112    -0.9645104    0.2495520    -0.9646236    0.2497902     0.0041049    0.0085259 
   0.245000000    -0.0040086    0.0108310    -0.9432812    0.3169397    -0.9433386    0.3176016     0.0044744    0.0092778 
   0.250000000    -0.0021611    0.0127575    -0.9183637    0.3834701    -0.9185472    0.3834349     0.0055098    0.0105892 
   0.255000000     0.0004053    0.0138101    -0.8883232    0.4468242    -0.8882353    0.4476519     0.0073293    0.0115870 
   0.260000000     0.0031841    0.0149720    -0.8548000    0.5089011    -0.8540230    0.5089385     0.0088547    0.0122370 
   0.265000000     0.0060725    0.0156938    -0.8155268    0.5690743    -0.8152125    0.5680639     0.0113181    0.0121466 
   0.270000000     0.0089290    0.0163275    -0.7734665    0.6246445    -0.7730609    0.6239623     0.0136695    0.0127848 
   0.275000000     0.0118030    0.0154026    -0.7246886    0.6778711    -0.7260363    0.6772922     0.0149515    0.0129787 
   0.280000000     0.0154414    0.0147262    -0.6777014    0.7276246    -0.6779968    0.7283601     0.0151953    0.0175674 
   0.285000000     0.0164486    0.0130802    -0.6241995    0.7728577    -0.6245738    0.7730459     0.0182436    0.0142673 
   0.290000000     0.0190240    0.0115926    -0.5680919    0.8147914    -0.5664948    0.8157024     0.0207788    0.0121972 
   0.295000000     0.0210349    0.0055699    -0.5100344    0.8543044    -0.5115771    0.8544683     0.0227413    0.0094484 
   0.300000000     0.0222574    0.0040637    -0.4481535    0.8869746    -0.4477580    0.8877853     0.0237927    0.0078332 
   0.305000000     0.0230005    0.0025546    -0.3836234    0.9162371    -0.3834585    0.9161862     0.0246178    0.0048909 
   0.310000000     0.0235560    0.0005276    -0.3167190    0.9406814    -0.3177124    0.9409651     0.0254302    0.0026610 
   0.315000000     0.0232116   -0.0018761    -0.2509847    0.9613795    -0.2514557    0.9616718     0.0224111   -0.0057318 
   0.320000000     0.0231052   -0.0040674    -0.1807237    0.9758984    -0.1817315    0.9756492     0.0226129   -0.0063051 
   0.325000000     0.0222705   -0.0059324    -0.1114728    0.9856337    -0.1125523    0.9857759     0.0215721   -0.0072520 
   0.330000000     0.0206863   -0.0080496    -0.0416607    0.9904191    -0.0421463    0.9905807     0.0204681   -0.0087270 
   0.335000000     0.0199695   -0.0098566     0.0268323    0.9908410     0.0274580    0.9909672     0.0192502   -0.0098094 
   0.340000000     0.0188013   -0.0108521     0.0987306    0.9855708     0.0975835    0.9861006     0.0179636   -0.0109462 
   0.345000000     0.0156340   -0.0123208     0.1660361    0.9761423     0.1661867    0.9764392     0.0167702   -0.0123162 
   0.350000000     0.0143619   -0.0134241     0.2367475    0.9622680     0.2353676    0.9622140     0.0143462   -0.0134318 
   0.355000000     0.0127426   -0.0138125     0.3031093    0.9424972     0.3028986    0.9427143     0.0124177   -0.0142760 
   0.360000000     0.0113425   -0.0145651     0.3685876    0.9184720     0.3682676    0.9176379     0.0112361   -0.0142033 
   0.365000000     0.0080796   -0.0149638     0.4319339    0.8896419     0.4325823    0.8893641     0.0095162   -0.0140729 
   0.370000000     0.0068266   -0.0146278     0.4940158    0.8569814     0.4939701    0.8567241     0.0072220   -0.0135326 
   0.375000000     0.0041634   -0.0153668     0.5523077    0.8199322     0.5529562    0.8195853     0.0053074   -0.0128052 
   0.380000000     0.0015524   -0.0143796     0.6091055    0.7774327     0.6095142    0.7772713     0.0043458   -0.0123661 
   0.385000000     0.0004213   -0.0133015     0.6637168    0.7315746     0.6621839    0.7321572     0.0026465   -0.0112019 
   0.390000000    -0.0016904   -0.0120035     0.7122468    0.6837768     0.7131401    0.6842009     0.0008967   -0.0097310 
   0.395000000    -0.0032014   -0.0099637     0.7593428    0.6315821     0.7590500    0.6320929    -0.0000754   -0.0082483 
   0.400000000    -0.0042924   -0.0083680     0.8017493    0.5766942     0.8012287    0.5762682    -0.0003181   -0.0065634 
   0.405000000    -0.0052262   -0.0065189     0.8402930    0.5182039     0.8400857    0.5185596    -0.0021105   -0.0046483 
   0.410000000    -0.0065344   -0.0038052     0.8739315    0.4576625     0.8738887    0.4575886    -0.0023086   -0.0027302 
   0.415000000    -0.0061118   -0.0021456     0.9034754    0.3950326     0.9044013    0.3945621    -0.0020469   -0.0008136 
   0.420000000    -0.0068145   -0.0000651     0.9294396    0.3302413     0.9295189    0.3294699    -0.0020583    0.0009932 
   0.425000000    -0.0065302    0.0025511     0.9504012    0.2634369     0.9505331    0.2638068    -0.0016678    0.0023783 
   0.430000000    -0.0063824    0.0043184     0.9657815    0.1954665     0.9663560    0.1956447    -0.0013516    0.0047121 
   0.435000000    -0.0056794    0.0056907     0.9775870    0.1270895     0.9777408    0.1268245    -0.0003576    0.0062775 
   0.440000000    -0.0049278    0.0072917     0.9836283    0.0583699     0.9832739    0.0576008     0.0009874    0.0073626 
   0.445000000    -0.0034626    0.0085361     0.9847893   -0.0106950     0.9844996   -0.0120048     0.0022261    0.0089057 
   0.450000000    -0.0019938    0.0107660     0.9811468   -0.0803837     0.9811546   -0.0813160     0.0034790    0.0102824 
   0.455000000    -0.0010471    0.0114577     0.9730923   -0.1505588     0.9730198   -0.1495663     0.0052178    0.0107264 
   0.460000000     0.0006443    0.0129107     0.9603283   -0.2177067     0.9601867   -0.2180625     0.0070230    0.0110888 
   0.465000000     0.0024290    0.0143267     0.9421043   -0.2853664     0.9423549   -0.2856278     0.0087192    0.0116405 
   0.470000000     0.0043480    0.0152160     0.9188352   -0.3519065     0.9189425   -0.3514732     0.0102819    0.0114493 
   0.475000000     0.0057235    0.0151863     0.8926959   -0.4151042     0.8922675   -0.4140110     0.0122544    0.0117150 
   0.480000000     0.0082954    0.0152128     0.8598964   -0.4770357     0.8609786   -0.4775007     0.0140721    0.0109880 
   0.485000000     0.0098924    0.0145217     0.8250545   -0.5361349     0.8244984   -0.5359276     0.0157144    0.0105986 
   0.490000000     0.0124823    0.0140909     0.7845762   -0.5930570     0.7849310   -0.5931559     0.0168685    0.0093201 
   0.495000000     0.0137445    0.0130862     0.7412900   -0.6470119     0.7416922   -0.6463253     0.0184205    0.0084751 
   0.500000000     0.0159536    0.0121746     0.6942998   -0.6969427     0.6936479   -0.6970991     0.0199693    0.0073356 
   0.505000000     0.0180180    0.0106589     0.6426306   -0.7443334     0.6426067   -0.7440303     0.0209704    0.0060466 
   0.510000000     0.0193156    0.0089747     0.5890134   -0.7871392     0.5885426   -0.7872496     0.0220414    0.0047256 
   0.515000000     0.0202199    0.0070547     0.5316025   -0.8261566     0.5315671   -0.8263785     0.0227200    0.0035386 
   0.520000000     0.0200350    0.0056012     0.4723063   -0.8619812     0.4720325   -0.8614963     0.0233316    0.0018184 
   0.525000000     0.0210848    0.0035957     0.4095489   -0.8926014     0.4105690   -0.8930398     0.0237801    0.0002018 
   0.530000000     0.0212660    0.0011210     0.3457556   -0.9198012     0.3462563   -0.9193842     0.0233296   -0.0013547 
   0.535000000     0.0211313   -0.0009542     0.2798313   -0.9418750     0.2800014   -0.9411765     0.0229745   -0.0033259 
   0.540000000     0.0209652   -0.0023571     0.2135527   -0.9591378     0.2130595   -0.9594883     0.0229185   -0.0061137 
   0.545000000     0.0197536   -0.0042951     0.1439724   -0.9721871     0.1446726   -0.9716082     0.0217861   -0.0071937 
   0.550000000     0.0194916   -0.0063367     0.0759758   -0.9796289     0.0761813   -0.9793316     0.0201185   -0.0087262 
   0.555000000     0.0181153   -0.0076875     0.0058082   -0.9819054     0.0063972   -0.9820235     0.0186582   -0.0097677 
   0.560000000     0.0170893   -0.0091615    -0.0620709   -0.9802281    -0.0617305   -0.9804742     0.0171841   -0.0119351 
   0.565000000     0.0155794   -0.0092889    -0.1307722   -0.9728111    -0.1328377   -0.9730146     0.0162452   -0.0119747 
   0.570000000     0.0138503   -0.0106273    -0.2001211   -0.9609453    -0.1996603   -0.9610662     0.0146330   -0.0127087 
   0.575000000     0.0125640   -0.0111863    -0.2666063   -0.9448985    -0.2671254   -0.9442382     0.0123462   -0.0131594 
   0.580000000     0.0106898   -0.0119677    -0.3327707   -0.9240369    -0.3332298   -0.9236960     0.0110228   -0.0132331 
   0.585000000     0.0090481   -0.0125215    -0.3964053   -0.8974273    -0.3972686   -0.8983521     0.0091074   -0.0132554 
   0.590000000     0.0070480   -0.0117910    -0.4589248   -0.8681998    -0.4589345   -0.8669465     0.0073025   -0.0128291 
   0.595000000     0.0057627   -0.0120527    -0.5191545   -0.8325197    -0.5200111   -0.8323213     0.0057782   -0.0124469 
   0.600000000     0.0039870   -0.0121363    -0.5772806   -0.7940550    -0.5762252   -0.7934405     0.0041703   -0.0121748 
   0.605000000     0.0017895   -0.0106903    -0.6311488   -0.7517481    -0.6316899   -0.7508869     0.0021867   -0.0106767 
   0.610000000     0.0001474   -0.0098491    -0.6834776   -0.7047526    -0.6835585   -0.7046682     0.0010796   -0.0099770 
   0.615000000    -0.0013916   -0.0087824    -0.7303630   -0.6551449    -0.7307751   -0.6546282    -0.0001566   -0.0079666 
   0.620000000    -0.0034192   -0.0067239    -0.7754230   -0.6019047    -0.7747191   -0.6010131    -0.0015220   -0.0067032 
   0.625000000    -0.0038575   -0.0045618    -0.8151616   -0.5443280    -0.8155921   -0.5450663    -0.0021162   -0.0043229 
   0.630000000    -0.0043703   -0.0028811    -0.8513678   -0.4865059    -0.8514342   -0.4862080    -0.0026239   -0.0028402 
   0.635000000    -0.0054480   -0.0010461    -0.8837599   -0.4250752    -0.8842513   -0.4256644    -0.0027197   -0.0007564 
   0.640000000    -0.0051686    0.0013333    -0.9109396   -0.3625464    -0.9118677   -0.3608677    -0.0025984    0.0013477 
   0.645000000    -0.0048228    0.0027809    -0.9344727   -0.2963858    -0.9340299   -0.2961022    -0.0026456    0.0029165 
   0.650000000    -0.0045283    0.0046524    -0.9530838   -0.2297118    -0.9529383   -0.2296409    -0.0016622    0.0048930 
   0.655000000    -0.0040380    0.0062773    -0.9664136   -0.1615854    -0.9667447   -0.1611272    -0.0008367    0.0061020 
   0.660000000    -0.0026121    0.0082246    -0.9752675   -0.0933753    -0.9758180   -0.0924222    -0.0004958    0.0073235 
   0.665000000    -0.0020192    0.0094181    -0.9799039   -0.0239297    -0.9798926   -0.0236917     0.0016517    0.0091115 
   0.670000000    -0.0011429    0.0106492    -0.9791706    0.0445717    -0.9794517    0.0454185     0.0028895    0.0097147 
   0.675000000     0.0000070    0.0112886    -0.9730722    0.1143118    -0.9728616    0.1133424     0.0037889    0.0109415 
   0.680000000     0.0012161    0.0128958    -0.9626248    0.1830122    -0.9625821    0.1813868     0.0051504    0.0117932 
   0.685000000     0.0031927    0.0137696    -0.9471405    0.2498218    -0.9472048    0.2498871     0.0070742    0.0124149 
   0.690000000     0.0051398    0.0137095    -0.9272856    0.3148951    -0.9272205    0.3156252     0.0085517    0.0132057 
   0.695000000     0.0067722    0.0149143    -0.9022640    0.3804828    -0.9023376    0.3796365     0.0103569    0.0130401 
   0.700000000     0.0094197    0.0160137    -0.8740090    0.4406691    -0.8764116    0.4393919     0.0125804    0.0132026 
   0.705000000     0.0112486    0.0150617    -0.8401209    0.5029983    -0.8393806    0.5016663     0.0135663    0.0121539 
   0.710000000     0.0129115    0.0138983    -0.8025435    0.5612316    -0.8025106    0.5599170     0.0165001    0.0115612 
   0.715000000     0.0154706    0.0133534    -0.7604915    0.6162292    -0.7609406    0.6164343     0.0180659    0.0102582 
   0.720000000     0.0171740    0.0128291    -0.7149404    0.6681452    -0.7154857    0.6680850     0.0196278    0.0090619 
   0.725000000     0.0187676    0.0111180    -0.6677510    0.7161447    -0.6660125    0.7171706     0.0212033    0.0072872 
   0.730000000     0.0211613    0.0098069    -0.6140006    0.7620651    -0.6148978    0.7614003     0.0216071    0.0060309 
   0.735000000     0.0216236    0.0072047    -0.5596374    0.8027303    -0.5589960    0.8028533     0.0224468    0.0042490 
   0.740000000     0.0221324    0.0060910    -0.5010166    0.8399655    -0.5012327    0.8401652     0.0225772    0.0031039 
   0.745000000     0.0222239    0.0042190    -0.4417233    0.8732253    -0.4406727    0.8727447     0.0235430    0.0012412 
   0.750000000     0.0225826    0.0020331    -0.3788762    0.9019219    -0.3779856    0.9025621     0.0232905   -0.0009150 
   0.755000000     0.0224219    0.0007203    -0.3128890    0.9274040    -0.3131079    0.9264251     0.0233315   -0.0022681 
   0.760000000     0.0223841   -0.0017727    -0.2468021    0.9462686    -0.2471986    0.9460621     0.0230413   -0.0040671 
   0.765000000     0.0211226   -0.0030576    -0.1797861    0.9614871    -0.1798087    0.9614822     0.0219726   -0.0055550 
   0.770000000     0.0213138   -0.0046386    -0.1112754    0.9722961    -0.1121128    0.9717233     0.0214692   -0.0070521 
   0.775000000     0.0194942   -0.0057897    -0.0443794    0.9767429    -0.0427560    0.9771618     0.0197725   -0.0084601 
   0.780000000     0.0185044   -0.0081966     0.0252854    0.9777466     0.0262397    0.9768224     0.0185817   -0.0095928 
   0.785000000     0.0172423   -0.0088026     0.0950128    0.9733593     0.0949816    0.9735789     0.0166527   -0.0104621 
