!UUTPORTS:-2,4 CABLE SERIAL NUMBER 09-11-619
! 11/2/2010 1:59:43 PM
! RESWITHCABLESETTEST.S2P
! CHANNEL.1
! TR.MEASUREMENT
! CORRECTED.DATA
# GHZ S RI R 50.0
! FREQ.GHZ         S11RE         S11M         S21RE         S21M         S12RE         S12M         S22RE         S22M         
!; PortSelection: Port_12
   0.010000000     0.0029545    0.0028268     0.9889993   -0.1446669     0.9881122   -0.1458830     0.0024082    0.0030737 
   0.015000000     0.0038633    0.0030954     0.9745574   -0.2152816     0.9738846   -0.2147177     0.0034875    0.0035178 
   0.020000000     0.0048769    0.0037995     0.9555122   -0.2834359     0.9552352   -0.2840870     0.0049527    0.0039653 
   0.025000000     0.0058628    0.0040133     0.9328506   -0.3495628     0.9320381   -0.3506495     0.0058359    0.0032672 
   0.030000000     0.0063915    0.0034197     0.9072801   -0.4158958     0.9078601   -0.4151908     0.0115404    0.0002959 
   0.035000000     0.0120755   -0.0001156     0.8769156   -0.4795133     0.8776379   -0.4792911     0.0107458    0.0007544 
   0.040000000     0.0103508    0.0001338     0.8392963   -0.5407861     0.8398307   -0.5399320     0.0100442    0.0008555 
   0.045000000     0.0098834    0.0002603     0.7983258   -0.5982707     0.7979176   -0.5980592     0.0106400   -0.0000276 
   0.050000000     0.0101372   -0.0003699     0.7530050   -0.6529895     0.7534613   -0.6535143     0.0101253    0.0000565 
   0.055000000     0.0093873   -0.0003857     0.7029725   -0.7054348     0.7036876   -0.7046582     0.0095344   -0.0004609 
   0.060000000     0.0100719   -0.0006878     0.6548466   -0.7546185     0.6541714   -0.7545296     0.0090707    0.0041959 
   0.065000000     0.0101543   -0.0011466     0.5982007   -0.7982416     0.5980065   -0.7985468     0.0097252    0.0022906 
   0.070000000     0.0098766    0.0042868     0.5411649   -0.8402773     0.5408137   -0.8402608     0.0099249    0.0012848 
   0.075000000     0.0105052    0.0026438     0.4791670   -0.8748241     0.4787016   -0.8755136     0.0102567    0.0006074 
   0.080000000     0.0102126    0.0011810     0.4148362   -0.9067318     0.4142189   -0.9067649     0.0106228    0.0003058 
   0.085000000     0.0102683    0.0002434     0.3484052   -0.9334351     0.3491200   -0.9334957     0.0107256   -0.0005344 
   0.090000000     0.0108504   -0.0002040     0.2819992   -0.9547887     0.2816640   -0.9551232     0.0112122   -0.0012612 
   0.095000000     0.0102855   -0.0012215     0.2115078   -0.9720902     0.2117454   -0.9718632     0.0104188   -0.0021469 
   0.100000000     0.0107548   -0.0009827     0.1421082   -0.9850606     0.1431519   -0.9845728     0.0112385   -0.0026557 
   0.105000000     0.0105148   -0.0025813     0.0716295   -0.9922219     0.0722108   -0.9919211     0.0108848   -0.0031008 
   0.110000000     0.0098792   -0.0028981     0.0016583   -0.9941686     0.0011000   -0.9938564     0.0100372   -0.0038470 
   0.115000000     0.0097509   -0.0031225    -0.0690176   -0.9911383    -0.0696142   -0.9915717     0.0096149   -0.0050203 
   0.120000000     0.0092214   -0.0042359    -0.1392724   -0.9837505    -0.1400940   -0.9838190     0.0091627   -0.0047680 
   0.125000000     0.0097020   -0.0036407    -0.2094788   -0.9715050    -0.2093678   -0.9716315     0.0080054   -0.0059957 
   0.130000000     0.0087155   -0.0047477    -0.2772033   -0.9535064    -0.2788233   -0.9534869     0.0075828   -0.0061587 
   0.135000000     0.0084262   -0.0052232    -0.3445706   -0.9314244    -0.3452199   -0.9314674     0.0066854   -0.0063261 
   0.140000000     0.0073795   -0.0060135    -0.4106387   -0.9047493    -0.4104201   -0.9047613     0.0058633   -0.0069539 
   0.145000000     0.0067268   -0.0057458    -0.4740868   -0.8731102    -0.4740478   -0.8726768     0.0054821   -0.0073849 
   0.150000000     0.0057250   -0.0064506    -0.5349059   -0.8362399    -0.5348360   -0.8366944     0.0045695   -0.0074258 
   0.155000000     0.0044939   -0.0066851    -0.5927098   -0.7968204    -0.5929073   -0.7967664     0.0033456   -0.0081181 
   0.160000000     0.0038354   -0.0065338    -0.6474905   -0.7524866    -0.6477407   -0.7527449     0.0044522   -0.0084440 
   0.165000000     0.0036682   -0.0057067    -0.7003071   -0.7038628    -0.7000656   -0.7044634     0.0022655   -0.0083591 
   0.170000000     0.0024544   -0.0063481    -0.7477361   -0.6525561    -0.7484846   -0.6521731     0.0015095   -0.0085682 
   0.175000000     0.0015335   -0.0061982    -0.7931457   -0.5984454    -0.7923580   -0.5979087     0.0006402   -0.0078351 
   0.180000000     0.0005026   -0.0055508    -0.8334651   -0.5399647    -0.8345192   -0.5396732    -0.0007127   -0.0082834 
   0.185000000    -0.0003498   -0.0050657    -0.8699000   -0.4800003    -0.8700428   -0.4790874    -0.0013984   -0.0075194 
   0.190000000    -0.0007557   -0.0047500    -0.9016235   -0.4162920    -0.9017259   -0.4159723    -0.0025960   -0.0066544 
   0.195000000    -0.0013917   -0.0043408    -0.9294037   -0.3508354    -0.9294704   -0.3501326    -0.0036114   -0.0059416 
   0.200000000    -0.0021395   -0.0035138    -0.9522073   -0.2838888    -0.9521958   -0.2830276    -0.0040508   -0.0044986 
   0.205000000    -0.0032559   -0.0028524    -0.9700112   -0.2150871    -0.9701131   -0.2147405    -0.0053438   -0.0032798 
   0.210000000    -0.0039820   -0.0010257    -0.9832047   -0.1449645    -0.9833033   -0.1455048    -0.0056544   -0.0017534 
   0.215000000    -0.0042930    0.0005928    -0.9910781   -0.0740533    -0.9907358   -0.0740564    -0.0064041   -0.0003694 
   0.220000000    -0.0043997    0.0019772    -0.9937406   -0.0025614    -0.9940234   -0.0032938    -0.0064704    0.0010867 
   0.225000000    -0.0041672    0.0031106    -0.9916201    0.0682509    -0.9914691    0.0675988    -0.0064100    0.0024770 
   0.230000000    -0.0036121    0.0044331    -0.9847029    0.1388008    -0.9846559    0.1384807    -0.0062538    0.0048489 
   0.235000000    -0.0025437    0.0048288    -0.9718178    0.2082722    -0.9719316    0.2084394    -0.0052094    0.0066840 
   0.240000000    -0.0017273    0.0070719    -0.9566059    0.2771805    -0.9568713    0.2774266     0.0004674    0.0079807 
   0.245000000    -0.0003757    0.0075948    -0.9333942    0.3449575    -0.9333450    0.3453709     0.0004445    0.0082870 
   0.250000000     0.0010080    0.0085912    -0.9057609    0.4113510    -0.9052498    0.4110198     0.0015187    0.0090899 
   0.255000000     0.0027347    0.0085631    -0.8737769    0.4742187    -0.8740774    0.4743542     0.0029072    0.0095823 
   0.260000000     0.0046801    0.0088623    -0.8377776    0.5358584    -0.8375651    0.5356265     0.0040841    0.0097593 
   0.265000000     0.0064235    0.0087396    -0.7964202    0.5940891    -0.7971975    0.5935087     0.0059640    0.0093227 
   0.270000000     0.0081525    0.0088239    -0.7523277    0.6491729    -0.7526812    0.6484549     0.0078955    0.0095405 
   0.275000000     0.0097883    0.0074779    -0.7021266    0.7014149    -0.7029325    0.7007542     0.0086498    0.0095570 
   0.280000000     0.0122418    0.0064910    -0.6533901    0.7498838    -0.6526429    0.7510492     0.0084427    0.0139052 
   0.285000000     0.0119594    0.0048237    -0.5977395    0.7938048    -0.5968329    0.7944090     0.0108644    0.0104719 
   0.290000000     0.0131922    0.0035571    -0.5390651    0.8341828    -0.5374351    0.8342691     0.0126216    0.0083186 
   0.295000000     0.0136685   -0.0022401    -0.4789164    0.8713792    -0.4798710    0.8719208     0.0136853    0.0055677 
   0.300000000     0.0137595   -0.0031629    -0.4165367    0.9028243    -0.4155048    0.9030210     0.0141125    0.0042205 
   0.305000000     0.0135382   -0.0038687    -0.3496753    0.9295030    -0.3500212    0.9298905     0.0141858    0.0014893 
   0.310000000     0.0130555   -0.0051866    -0.2814004    0.9519891    -0.2822139    0.9521676     0.0143870   -0.0004381 
   0.315000000     0.0117668   -0.0067400    -0.2141198    0.9705690    -0.2139279    0.9703929     0.0101966   -0.0081048 
   0.320000000     0.0110453   -0.0078788    -0.1434787    0.9819300    -0.1435251    0.9822077     0.0099913   -0.0079573 
   0.325000000     0.0095054   -0.0087464    -0.0722467    0.9890004    -0.0733398    0.9890758     0.0086635   -0.0082263 
   0.330000000     0.0075089   -0.0095833    -0.0027511    0.9911747    -0.0016785    0.9912645     0.0072213   -0.0089682 
   0.335000000     0.0064886   -0.0103244     0.0672961    0.9889600     0.0675422    0.9892715     0.0057204   -0.0094008 
   0.340000000     0.0051794   -0.0098866     0.1390710    0.9802068     0.1383116    0.9805922     0.0043475   -0.0097436 
   0.345000000     0.0018545   -0.0099553     0.2079990    0.9683273     0.2082350    0.9677472     0.0029053   -0.0102994 
   0.350000000     0.0006332   -0.0097092     0.2771825    0.9508250     0.2763214    0.9508197     0.0006359   -0.0105485 
   0.355000000    -0.0005942   -0.0090969     0.3433266    0.9283329     0.3435645    0.9282320    -0.0011337   -0.0105991 
   0.360000000    -0.0013366   -0.0086853     0.4081515    0.9018694     0.4080062    0.9013014    -0.0020229   -0.0099372 
   0.365000000    -0.0038197   -0.0077402     0.4712751    0.8691049     0.4716555    0.8692233    -0.0033198   -0.0088356 
   0.370000000    -0.0043490   -0.0064359     0.5312927    0.8337086     0.5320838    0.8335070    -0.0051603   -0.0077080 
   0.375000000    -0.0060187   -0.0061059     0.5892633    0.7931935     0.5899465    0.7934194    -0.0064650   -0.0063142 
   0.380000000    -0.0074710   -0.0042163     0.6444312    0.7481948     0.6441904    0.7486978    -0.0070769   -0.0054025 
   0.385000000    -0.0072786   -0.0026848     0.6975487    0.6993498     0.6957370    0.7002825    -0.0080227   -0.0038308 
   0.390000000    -0.0081954   -0.0007273     0.7436848    0.6493340     0.7437149    0.6493837    -0.0091375   -0.0020404 
   0.395000000    -0.0081460    0.0014049     0.7888118    0.5942651     0.7882154    0.5950379    -0.0091316   -0.0002778 
   0.400000000    -0.0078780    0.0030021     0.8285457    0.5366116     0.8280703    0.5364908    -0.0086579    0.0014059 
   0.405000000    -0.0077212    0.0047637     0.8641580    0.4765257     0.8641949    0.4761527    -0.0097696    0.0035904 
   0.410000000    -0.0074629    0.0070770     0.8953558    0.4132921     0.8955000    0.4133793    -0.0090851    0.0052959 
   0.415000000    -0.0059528    0.0081269     0.9220635    0.3487936     0.9227360    0.3479198    -0.0081112    0.0070472 
   0.420000000    -0.0053637    0.0096613     0.9444762    0.2827686     0.9443994    0.2817169    -0.0073178    0.0086421 
   0.425000000    -0.0040882    0.0115864     0.9615745    0.2147061     0.9623328    0.2138918    -0.0062624    0.0097971 
   0.430000000    -0.0030442    0.0125406     0.9743528    0.1450179     0.9744875    0.1450301    -0.0053615    0.0115107 
   0.435000000    -0.0015764    0.0128533     0.9828790    0.0748516     0.9823877    0.0754484    -0.0040377    0.0127535 
   0.440000000    -0.0001578    0.0133836     0.9846919    0.0054163     0.9848889    0.0051489    -0.0020829    0.0131970 
   0.445000000     0.0019348    0.0133870     0.9826075   -0.0633514     0.9822807   -0.0645383    -0.0007121    0.0139708 
   0.450000000     0.0037747    0.0143461     0.9750333   -0.1332908     0.9747716   -0.1341784     0.0009483    0.0146666 
   0.455000000     0.0050691    0.0139520     0.9629147   -0.2034661     0.9629520   -0.2030373     0.0028911    0.0145334 
   0.460000000     0.0068171    0.0141617     0.9461898   -0.2710000     0.9458416   -0.2713163     0.0047522    0.0142706 
   0.465000000     0.0084946    0.0140732     0.9245988   -0.3372670     0.9240511   -0.3375966     0.0062487    0.0139485 
   0.470000000     0.0100525    0.0135522     0.8977006   -0.4032376     0.8971197   -0.4022696     0.0074929    0.0131812 
   0.475000000     0.0111651    0.0123970     0.8672317   -0.4651465     0.8669563   -0.4641044     0.0093252    0.0127680 
   0.480000000     0.0129268    0.0112839     0.8308839   -0.5255051     0.8314984   -0.5261830     0.0106066    0.0113570 
   0.485000000     0.0138694    0.0092293     0.7914939   -0.5835655     0.7910634   -0.5833399     0.0118943    0.0104298 
   0.490000000     0.0153904    0.0080401     0.7483873   -0.6381080     0.7483588   -0.6382158     0.0125942    0.0089241 
   0.495000000     0.0154963    0.0060771     0.7006919   -0.6905137     0.7010735   -0.6898580     0.0137809    0.0074088 
   0.500000000     0.0165453    0.0045005     0.6505326   -0.7375355     0.6506430   -0.7379429     0.0144339    0.0060355 
   0.505000000     0.0171966    0.0025847     0.5958787   -0.7819475     0.5961915   -0.7819170     0.0147307    0.0047684 
   0.510000000     0.0171227    0.0005915     0.5391414   -0.8217579     0.5386967   -0.8215330     0.0151459    0.0032620 
   0.515000000     0.0166962   -0.0014197     0.4790721   -0.8573459     0.4790726   -0.8575517     0.0151439    0.0020348 
   0.520000000     0.0152548   -0.0025950     0.4177619   -0.8900154     0.4170553   -0.8897397     0.0153485    0.0003932 
   0.525000000     0.0150300   -0.0044895     0.3530974   -0.9166144     0.3533193   -0.9172943     0.0149066   -0.0009787 
   0.530000000     0.0138896   -0.0064420     0.2862442   -0.9397234     0.2862996   -0.9392721     0.0137999   -0.0023728 
   0.535000000     0.0123751   -0.0078809     0.2172868   -0.9582078     0.2189107   -0.9575059     0.0126465   -0.0036226 
   0.540000000     0.0112909   -0.0086774     0.1505639   -0.9703777     0.1501008   -0.9709492     0.0120949   -0.0059158 
   0.545000000     0.0092553   -0.0096424     0.0805118   -0.9795661     0.0798152   -0.9791104     0.0103699   -0.0068325 
   0.550000000     0.0079735   -0.0107163     0.0094412   -0.9816927     0.0105583   -0.9822074     0.0083891   -0.0072596 
   0.555000000     0.0057330   -0.0108783    -0.0591425   -0.9802530    -0.0597007   -0.9797595     0.0064441   -0.0078836 
   0.560000000     0.0041936   -0.0110280    -0.1290096   -0.9734986    -0.1280938   -0.9733050     0.0048154   -0.0089872 
   0.565000000     0.0025307   -0.0101025    -0.1975740   -0.9612055    -0.1986595   -0.9612058     0.0038970   -0.0081452 
   0.570000000     0.0001599   -0.0101606    -0.2650248   -0.9450072    -0.2657523   -0.9448759     0.0020518   -0.0082265 
   0.575000000    -0.0008644   -0.0092136    -0.3319283   -0.9232629    -0.3318913   -0.9235061     0.0001723   -0.0076775 
   0.580000000    -0.0026943   -0.0087269    -0.3966002   -0.8978769    -0.3968844   -0.8976910    -0.0012473   -0.0071695 
   0.585000000    -0.0040329   -0.0077166    -0.4594379   -0.8669718    -0.4596322   -0.8677796    -0.0027011   -0.0060487 
   0.590000000    -0.0051383   -0.0057835    -0.5204437   -0.8326589    -0.5200638   -0.8313184    -0.0038103   -0.0054922 
   0.595000000    -0.0059143   -0.0052835    -0.5784022   -0.7919847    -0.5778148   -0.7923831    -0.0051683   -0.0043961 
   0.600000000    -0.0067766   -0.0039257    -0.6328078   -0.7497199    -0.6328898   -0.7494327    -0.0061081   -0.0032708 
   0.605000000    -0.0082974   -0.0016302    -0.6843713   -0.7025812    -0.6849763   -0.7017991    -0.0072312   -0.0013043 
   0.610000000    -0.0086372    0.0002092    -0.7334914   -0.6521662    -0.7327930   -0.6521838    -0.0076954   -0.0003124 
   0.615000000    -0.0086749    0.0019019    -0.7769930   -0.5980268    -0.7770219   -0.5982569    -0.0079450    0.0023353 
   0.620000000    -0.0092953    0.0042423    -0.8179109   -0.5424380    -0.8175465   -0.5409248    -0.0085305    0.0037827 
   0.625000000    -0.0085824    0.0064008    -0.8538816   -0.4817417    -0.8543388   -0.4814289    -0.0085065    0.0056247 
   0.630000000    -0.0079148    0.0083621    -0.8851922   -0.4195679    -0.8856212   -0.4195189    -0.0078513    0.0075976 
   0.635000000    -0.0075910    0.0103369    -0.9130672   -0.3551390    -0.9141166   -0.3557986    -0.0072443    0.0093548 
   0.640000000    -0.0060594    0.0120736    -0.9367736   -0.2897602    -0.9368658   -0.2889873    -0.0063252    0.0112291 
   0.645000000    -0.0045573    0.0130607    -0.9551897   -0.2215873    -0.9539890   -0.2218815    -0.0057252    0.0125483 
   0.650000000    -0.0031337    0.0147442    -0.9680921   -0.1532363    -0.9675924   -0.1536172    -0.0038636    0.0139342 
   0.655000000    -0.0016342    0.0151552    -0.9762694   -0.0845090    -0.9759963   -0.0843383    -0.0027197    0.0142699 
   0.660000000     0.0007320    0.0160304    -0.9794943   -0.0152760    -0.9791213   -0.0148259    -0.0015611    0.0148396 
   0.665000000     0.0024218    0.0162848    -0.9781891    0.0552042    -0.9779376    0.0543777     0.0006655    0.0162027 
   0.670000000     0.0033930    0.0168803    -0.9714404    0.1230847    -0.9725273    0.1245550     0.0019521    0.0159680 
   0.675000000     0.0049977    0.0157999    -0.9609602    0.1918964    -0.9599660    0.1925215     0.0033853    0.0166422 
   0.680000000     0.0070104    0.0166864    -0.9440754    0.2600270    -0.9443735    0.2599536     0.0050668    0.0163876 
   0.685000000     0.0090156    0.0158374    -0.9232414    0.3264624    -0.9227173    0.3271231     0.0072502    0.0164633 
   0.690000000     0.0109453    0.0145569    -0.8968011    0.3909743    -0.8969324    0.3910390     0.0084193    0.0160622 
   0.695000000     0.0127123    0.0145211    -0.8673829    0.4541588    -0.8668319    0.4536485     0.0100263    0.0153845 
   0.700000000     0.0150529    0.0138980    -0.8310603    0.5160003    -0.8352280    0.5110326     0.0114847    0.0140839 
   0.705000000     0.0162629    0.0115605    -0.7946445    0.5716395    -0.7939885    0.5722235     0.0127711    0.0126822 
   0.710000000     0.0172207    0.0095302    -0.7518786    0.6268936    -0.7511929    0.6265318     0.0147718    0.0116771 
   0.715000000     0.0187018    0.0076141    -0.7046635    0.6791161    -0.7049248    0.6795943     0.0156602    0.0095635 
   0.720000000     0.0191505    0.0064630    -0.6540396    0.7270334    -0.6542773    0.7275032     0.0162517    0.0080983 
   0.725000000     0.0198058    0.0036804    -0.6020462    0.7720438    -0.6007563    0.7724975     0.0167899    0.0058654 
   0.730000000     0.0204670    0.0018278    -0.5446220    0.8124124    -0.5451875    0.8118614     0.0167902    0.0043061 
   0.735000000     0.0194097   -0.0013360    -0.4858687    0.8486195    -0.4857201    0.8495053     0.0167847    0.0024945 
   0.740000000     0.0190450   -0.0025563    -0.4236020    0.8816202    -0.4241070    0.8810971     0.0161715    0.0015018 
   0.745000000     0.0175161   -0.0040274    -0.3601888    0.9097892    -0.3601641    0.9090403     0.0164018   -0.0000048 
   0.750000000     0.0165699   -0.0060250    -0.2947641    0.9328057    -0.2948672    0.9325057     0.0150222   -0.0018985 
   0.755000000     0.0151733   -0.0069487    -0.2274438    0.9517865    -0.2264473    0.9507948     0.0142641   -0.0030018 
   0.760000000     0.0138147   -0.0090748    -0.1584531    0.9643027    -0.1590592    0.9652193     0.0133082   -0.0041042 
   0.765000000     0.0118212   -0.0096771    -0.0889693    0.9739999    -0.0897603    0.9725993     0.0116190   -0.0052455 
   0.770000000     0.0104521   -0.0104963    -0.0210671    0.9778543    -0.0207384    0.9775517     0.0102916   -0.0054534 
   0.775000000     0.0079845   -0.0104853     0.0473300    0.9762564     0.0494266    0.9765672     0.0082829   -0.0064041 
   0.780000000     0.0058716   -0.0116595     0.1180766    0.9709597     0.1179896    0.9698499     0.0068276   -0.0065017 
   0.785000000     0.0038120   -0.0109265     0.1867440    0.9597712     0.1868318    0.9596003     0.0046179   -0.0067149 
