! C:\Work\SPARQ2\Technical\Relays\Diplexer_08Aug2018-125042.s3p
!
! Wed Aug  8 12:50:42 2018
!
!!Measured using LeCroy SPARQ LCRY2401N02001
!SingleEnded 
!
! freq S11 S12 S13 
! S21 S22 S23 
! S31 S32 S33 
! 
# MHz S MA R 50.00  
0.000000000   0.001805 180.000000   0.999998   0.000000   0.000055 180.000000 
  0.999998   0.000000   0.001804   0.000000   0.000086 180.000000 
  0.000063 180.000000   0.000088 180.000000   0.993242   0.000000 
5.000000000   0.001812 178.920076   0.999998  -0.813662   0.000067 144.735669 
  0.999998  -0.813199   0.001811  -0.544556   0.000095 152.958283 
  0.000074 147.407448   0.000096 153.684128   0.993259  -0.405256 
10.000000000   0.001834 177.797709   0.999998  -1.627147   0.000092 124.350982 
  0.999998  -1.626211   0.001833  -1.046564   0.000116 132.748310 
  0.000098 127.149562   0.000116 133.675695   0.993307  -0.810771 
15.000000000   0.001870 176.591281   0.999998  -2.440262   0.000122 113.245150 
  0.999998  -2.438853   0.001868  -1.464262   0.000143 118.983459 
  0.000128 115.550918   0.000142 119.846260   0.993386  -1.216820 
20.000000000   0.001919 175.271484   0.999998  -3.252836   0.000152 106.436642 
  0.999998  -3.250946   0.001918  -1.768176   0.000172 109.252335 
  0.000158 108.273735   0.000170 109.954027   0.993495  -1.623640 
25.000000000   0.001981 173.812555   0.999998  -4.064696   0.000181 101.770696 
  0.999998  -4.062314   0.001980  -1.932292   0.000200 101.843677 
  0.000187 103.243471   0.000197 102.390523   0.993631  -2.031483 
30.000000000   0.002055 172.202890   0.999998  -4.875676   0.000206  98.284594 
  0.999998  -4.872796   0.002055  -1.944682   0.000225  95.809318 
  0.000212  99.475979   0.000221  96.222632   0.993792  -2.440551 
35.000000000   0.002140 170.442639   0.999998  -5.685627   0.000227  95.547398 
  0.999997  -5.682242   0.002140  -1.805080   0.000247  90.596838 
  0.000234  96.512798   0.000243  90.886636   0.993974  -2.851049 
40.000000000   0.002236 168.530187   0.999997  -6.494409   0.000244  93.292130 
  0.999997  -6.490506   0.002236  -1.511380   0.000265  85.885667 
  0.000251  94.065449   0.000260  86.063312   0.994173  -3.263132 
45.000000000   0.002340 166.481273   0.999997  -7.301894   0.000256  91.391450 
  0.999997  -7.297460   0.002340  -1.078775   0.000279  81.450695 
  0.000263  91.996066   0.000274  81.524206   0.994387  -3.676946 
50.000000000   0.002452 164.306900   0.999997  -8.107966   0.000263  89.749739 
  0.999997  -8.102993   0.002452  -0.517714   0.000288  77.136320 
  0.000270  90.205815   0.000283  77.114141   0.994610  -4.092596 
55.000000000   0.002570 162.020399   0.999997  -8.912529   0.000265  88.316714 
  0.999997  -8.907010   0.002570   0.158996   0.000292  72.811642 
  0.000272  88.635540   0.000287  72.698845   0.994838  -4.510144 
60.000000000   0.002694 159.644843   0.999996  -9.715503   0.000261  87.077802 
  0.999996  -9.709431   0.002694   0.928727   0.000291  68.351048 
  0.000268  87.256822   0.000286  68.146703   0.995066  -4.929635 
65.000000000   0.002822 157.190922   0.999996 -10.516825   0.000252  85.995505 
  0.999996 -10.510197   0.002822   1.781126   0.000286  63.628191 
  0.000258  86.035789   0.000281  63.338553   0.995290  -5.351065 
70.000000000   0.002953 154.677515   0.999995 -11.316441   0.000238  85.070999 
  0.999995 -11.309253   0.002952   2.697535   0.000276  58.494701 
  0.000243  84.965867   0.000273  58.125110   0.995505  -5.774392 
75.000000000   0.003085 152.118002   0.999994 -12.114320   0.000218  84.311822 
  0.999994 -12.106582   0.003083   3.664624   0.000264  52.767389 
  0.000223  84.049219   0.000260  52.331469   0.995707  -6.199545 
80.000000000   0.003217 149.528255   0.999994 -12.910450   0.000194  83.731831 
  0.999994 -12.902168   0.003215   4.666437   0.000248  46.237163 
  0.000198  83.274742   0.000246  45.751335   0.995891  -6.626440 
85.000000000   0.003347 146.918137   0.999993 -13.704830   0.000167  83.375863 
  0.999993 -13.696012   0.003344   5.692908   0.000232  38.639136 
  0.000170  82.691148   0.000231  38.148766   0.996054  -7.054917 
90.000000000   0.003475 144.301501   0.999992 -14.497457   0.000135  83.354817 
  0.999992 -14.488131   0.003472   6.729878   0.000216  29.724474 
  0.000137  82.334013   0.000215  29.286769   0.996192  -7.484828 
95.000000000   0.003598 141.689606   0.999992 -15.288375   0.000101  83.934408 
  0.999992 -15.278556   0.003594   7.765670   0.000202  19.308370 
  0.000102  82.418650   0.000202  19.018748   0.996303  -7.915982 
100.000000000   0.003716 139.093635   0.999991 -16.077605   0.000065  86.051883 
  0.999991 -16.067327   0.003712   8.788666   0.000192   7.464002 
  0.000065  83.539078   0.000193   7.424313   0.996383  -8.348177 
105.000000000   0.003826 136.518985   0.999990 -16.865205   0.000029  95.445203 
  0.999990 -16.854490   0.003822   9.792981   0.000188  -5.327899 
  0.000027  90.164202   0.000189  -5.037585   0.996430  -8.781173 
110.000000000   0.003928 133.980589   0.999990 -17.651217   0.000013 -145.936690 
  0.999990 -17.640112   0.003924  10.763206   0.000190 -18.215712 
  0.000013 -129.092604   0.000191 -17.593558   0.996443  -9.214738 
115.000000000   0.004020 131.483069   0.999990 -18.435706   0.000047 -114.759678 
  0.999990 -18.424253   0.004017  11.694267   0.000199 -30.301827 
  0.000050 -110.573500   0.000199 -29.427042   0.996421  -9.648616 
120.000000000   0.004102 129.039657   0.999989 -19.218737   0.000082 -110.887926 
  0.999989 -19.206978   0.004098  12.572553   0.000211 -41.046977 
  0.000087 -108.617010   0.000211 -40.021482   0.996363 -10.082557 
125.000000000   0.004171 126.658112   0.999989 -20.000369   0.000115 -109.994997 
  0.999989 -19.988351   0.004167  13.390033   0.000226 -50.329219 
  0.000121 -108.510626   0.000224 -49.255023   0.996269 -10.516309 
130.000000000   0.004226 124.351554   0.999989 -20.780665   0.000145 -110.121814 
  0.999989 -20.768444   0.004223  14.133449   0.000242 -58.331616 
  0.000151 -109.056330   0.000239 -57.265930   0.996139 -10.949607 
135.000000000   0.004267 122.128723   0.999989 -21.559695   0.000171 -110.786385 
  0.999989 -21.547327   0.004265  14.794097   0.000256 -65.335865 
  0.000178 -110.012857   0.000252 -64.320753   0.995975 -11.382229 
140.000000000   0.004292 120.002415   0.999990 -22.337509   0.000193 -111.871833 
  0.999990 -22.325048   0.004291  15.359412   0.000267 -71.623976 
  0.000201 -111.322972   0.000262 -70.681962   0.995777 -11.813935 
145.000000000   0.004301 117.989546   0.999990 -23.114165   0.000210 -113.328218 
  0.999990 -23.101669   0.004300  15.812862   0.000275 -77.464957 
  0.000219 -112.952292   0.000269 -76.600839   0.995549 -12.244501 
150.000000000   0.004293 116.102570   0.999990 -23.889707   0.000221 -115.151250 
  0.999990 -23.877236   0.004293  16.142501   0.000279 -83.074978 
  0.000231 -114.928226   0.000273 -82.292241   0.995292 -12.673731 
155.000000000   0.004268 114.360976   0.999991 -24.664183   0.000228 -117.365073 
  0.999991 -24.651779   0.004267  16.329401   0.000279 -88.638907 
  0.000238 -117.288916   0.000272 -87.942980   0.995009 -13.101461 
160.000000000   0.004224 112.785866   0.999991 -25.437610   0.000229 -120.023191 
  0.999991 -25.425334   0.004224  16.353003   0.000275 -94.327078 
  0.000240 -120.092880   0.000268 -93.721471   0.994703 -13.527524 
165.000000000   0.004162 111.401874   0.999991 -26.210018   0.000225 -123.209105 
  0.999991 -26.197913   0.004162  16.189117   0.000267 -100.314738 
  0.000236 -123.406988   0.000259 -99.791747   0.994379 -13.951810 
170.000000000   0.004082 110.236383   0.999992 -26.981417   0.000216 -127.031948 
  0.999991 -26.969527   0.004081  15.810658   0.000255 -106.774628 
  0.000228 -127.372030   0.000247 -106.344064   0.994039 -14.374202 
175.000000000   0.003984 109.326544   0.999992 -27.751809   0.000203 -131.654305 
  0.999992 -27.740172   0.003983  15.180615   0.000240 -113.937026 
  0.000215 -132.130379   0.000232 -113.603281   0.993688 -14.794649 
180.000000000   0.003870 108.712247   0.999992 -28.521187   0.000188 -137.333181 
  0.999992 -28.509830   0.003868  14.259056   0.000222 -122.076791 
  0.000200 -137.946521   0.000215 -121.858164   0.993329 -15.213104 
185.000000000   0.003740 108.445150   0.999992 -29.289536   0.000169 -144.460594 
  0.999992 -29.278483   0.003738  12.994122   0.000204 -131.565820 
  0.000182 -145.139266   0.000197 -131.482327   0.992967 -15.629542 
190.000000000   0.003597 108.586253   0.999992 -30.056832   0.000151 -153.543479 
  0.999992 -30.046104   0.003594  11.324473   0.000186 -142.840951 
  0.000164 -154.184555   0.000179 -142.953062   0.992605 -16.044000 
195.000000000   0.003443 109.210987   0.999993 -30.823042   0.000134 -165.209550 
  0.999992 -30.812645   0.003440   9.174236   0.000171 -156.344294 
  0.000147 -165.540802   0.000164 -156.733967   0.992247 -16.456502 
200.000000000   0.003282 110.407575   0.999993 -31.588141   0.000121 -179.894216 
  0.999993 -31.578074   0.003278   6.454659   0.000161 -172.176807 
  0.000135 -179.451318   0.000154 -172.946448   0.991896 -16.867116 
205.000000000   0.003119 112.274818   0.999993 -32.352087   0.000114 162.933477 
  0.999993 -32.342336   0.003115   3.066406   0.000158 170.359572 
  0.000128 164.592747   0.000152 169.137851   0.991556 -17.275940 
210.000000000   0.002960 114.922350   0.999993 -33.114842   0.000116 145.174820 
  0.999993 -33.105393   0.002956  -1.100688   0.000166 152.848894 
  0.000130 148.187612   0.000159 151.228469   0.991230 -17.683067 
215.000000000   0.002814 118.449430   0.999994 -33.876362   0.000124 129.147846 
  0.999994 -33.867184   0.002810  -6.146268   0.000182 136.910903 
  0.000138 133.151963   0.000176 135.033825   0.990920 -18.088630 
220.000000000   0.002689 122.915196   0.999994 -34.636615   0.000138 115.937861 
  0.999994 -34.627683   0.002685 -12.129721   0.000205 123.309844 
  0.000151 120.442234   0.000200 121.316723   0.990628 -18.492761 
225.000000000   0.002596 128.301037   0.999995 -35.395570   0.000154 105.382295 
  0.999994 -35.386838   0.002593 -19.032323   0.000234 111.987510 
  0.000165 110.071122   0.000228 109.957509   0.990357 -18.895603 
230.000000000   0.002462 135.228505   0.999906 -36.153207   0.000170  96.591108 
  0.999901 -36.144626   0.002628 -25.994594   0.000263 102.598571 
  0.000181 101.238023   0.000259 100.632389   0.990106 -19.297331 
235.000000000   0.002100 147.594927   0.999489 -36.909530   0.000189  88.452361 
  0.999466 -36.901046   0.003014 -30.352007   0.000289  94.748251 
  0.000198  92.678769   0.000285  93.038943   0.989879 -19.698085 
240.000000000   0.001905 163.567746   0.999086 -37.664521   0.000207  81.596636 
  0.999048 -37.656075   0.003412 -34.385366   0.000312  87.688261 
  0.000215  85.365648   0.000309  86.202455   0.989674 -20.098019 
245.000000000   0.001913 -179.288618   0.998700 -38.418191   0.000223  75.608641 
  0.998651 -38.409719   0.003818 -38.068729   0.000334  81.176793 
  0.000230  78.945232   0.000332  79.883340   0.989493 -20.497302 
250.000000000   0.002108 -164.617032   0.998335 -39.170567   0.000236  70.188717 
  0.998275 -39.161997   0.004229 -41.428966   0.000353  75.028716 
  0.000242  73.131440   0.000351  73.898674   0.989335 -20.896081 
255.000000000   0.002428 -154.018203   0.997991 -39.921672   0.000246  65.164190 
  0.997922 -39.912949   0.004641 -44.505933   0.000368  69.096066 
  0.000251  67.732114   0.000366  68.109149   0.989201 -21.294500 
260.000000000   0.002818 -146.998116   0.997670 -40.671565   0.000253  60.372008 
  0.997594 -40.662616   0.005049 -47.345402   0.000379  63.266474 
  0.000258  62.602395   0.000378  62.402976   0.989088 -21.692678 
265.000000000   0.003237 -142.543720   0.997375 -41.420312   0.000257  55.706355 
  0.997291 -41.411080   0.005452 -49.983055   0.000387  57.446173 
  0.000261  57.623534   0.000387  56.697114   0.988998 -22.090742 
270.000000000   0.003661 -139.824645   0.997104 -42.168011   0.000257  51.082056 
  0.997016 -42.158424   0.005845 -52.454167   0.000392  51.564163 
  0.000261  52.698033   0.000392  50.919511   0.988927 -22.488797 
275.000000000   0.004078 -138.284049   0.996861 -42.914753   0.000254  46.434291 
  0.996768 -42.904760   0.006225 -54.786632   0.000393  45.556622 
  0.000258  47.750999   0.000393  45.012260   0.988877 -22.886931 
280.000000000   0.004477 -137.556586   0.996645 -43.660667   0.000248  41.698070 
  0.996549 -43.650217   0.006591 -57.002539   0.000392  39.373826 
  0.000251  42.718962   0.000392  38.927635   0.988844 -23.285221 
285.000000000   0.004852 -137.408879   0.996456 -44.405890   0.000240  36.810209 
  0.996359 -44.394938   0.006940 -59.121904   0.000388  32.973363 
  0.000242  37.529923   0.000388  32.628606   0.988828 -23.683729 
290.000000000   0.005199 -137.681140   0.996296 -45.150579   0.000228  31.700719 
  0.996198 -45.139085   0.007270 -61.160362   0.000381  26.326251 
  0.000230  32.106925   0.000382  26.087061   0.988828 -24.082495 
295.000000000   0.005515 -138.267154   0.996163 -45.894895   0.000215  26.342938 
  0.996066 -45.882836   0.007578 -63.129818   0.000374  19.408019 
  0.000216  26.406127   0.000375  19.279826   0.988842 -24.481554 
300.000000000   0.005799 -139.089931   0.996057 -46.639030   0.000200  20.627465 
  0.995962 -46.626377   0.007863 -65.042276   0.000365  12.206177 
  0.000201  20.305419   0.000366  12.200846   0.988869 -24.880922 
305.000000000   0.006050 -140.096458   0.995978 -47.383159   0.000183  14.497842 
  0.995886 -47.369920   0.008124 -66.904685   0.000355   4.719079 
  0.000184  13.739326   0.000356   4.845571   0.988908 -25.280617 
310.000000000   0.006266 -141.248696   0.995925 -48.127490   0.000165   7.844202 
  0.995838 -48.113662   0.008359 -68.723902   0.000345  -3.049205 
  0.000167   6.571108   0.000346  -2.778637   0.988958 -25.680624 
315.000000000   0.006448 -142.515447   0.995896 -48.872231   0.000147   0.488130 
  0.995815 -48.857830   0.008567 -70.504314   0.000335 -11.082710 
  0.000149  -1.410628   0.000336 -10.653336   0.989018 -26.080942 
320.000000000   0.006598 -143.874093   0.995889 -49.617591   0.000129  -7.752142 
  0.995816 -49.602633   0.008748 -72.249508   0.000325 -19.351315 
  0.000131 -10.381229   0.000326 -18.752927   0.989088 -26.481551 
325.000000000   0.006716 -145.306420   0.995903 -50.363766   0.000112 -17.164254 
  0.995839 -50.348293   0.008900 -73.961709   0.000315 -27.817159 
  0.000114 -20.648594   0.000317 -27.042328   0.989167 -26.882440 
330.000000000   0.006805 -146.798961   0.995937 -51.110966   0.000096 -28.059499 
  0.995882 -51.095028   0.009026 -75.640596   0.000307 -36.429723 
  0.000099 -32.573381   0.000307 -35.471674   0.989255 -27.283583 
335.000000000   0.006865 -148.339026   0.995987 -51.859392   0.000082 -40.854820 
  0.995943 -51.843040   0.009123 -77.287602   0.000298 -45.123706 
  0.000086 -46.378812   0.000299 -43.986076   0.989351 -27.684981 
340.000000000   0.006901 -149.914332   0.996052 -52.609225   0.000070 -55.775976 
  0.996019 -52.592523   0.009193 -78.899091   0.000291 -53.829022 
  0.000076 -62.048423   0.000291 -52.517011   0.989457 -28.086603 
345.000000000   0.006914 -151.514375   0.996129 -53.360639   0.000061 -72.676338 
  0.996107 -53.343667   0.009237 -80.474171   0.000284 -62.469039 
  0.000070 -79.006456   0.000283 -60.997205   0.989571 -28.488454 
350.000000000   0.006908 -153.129892   0.996216 -54.113798   0.000056 -90.647987 
  0.996205 -54.096625   0.009256 -82.009028   0.000277 -70.973234 
  0.000066 -96.151906   0.000275 -69.357257   0.989694 -28.890531 
355.000000000   0.006885 -154.748800   0.996309 -54.868832   0.000052 -108.551811 
  0.996309 -54.851548   0.009251 -83.499436   0.000270 -79.281668 
  0.000064 -112.447395   0.000267 -77.546022   0.989827 -29.292851 
360.000000000   0.006847 -156.358982   0.996407 -55.625874   0.000049 -125.668278 
  0.996418 -55.608562   0.009226 -84.940361   0.000262 -87.363239 
  0.000062 -127.517847   0.000258 -85.529382   0.989969 -29.695421 
365.000000000   0.006798 -157.949819   0.996507 -56.385008   0.000046 -142.232536 
  0.996527 -56.367762   0.009181 -86.327329   0.000253 -95.218161 
  0.000060 -141.743750   0.000248 -93.308061   0.990122 -30.098286 
370.000000000   0.006740 -159.508478   0.996607 -57.146311   0.000042 -159.724887 
  0.996636 -57.129218   0.009120 -87.653150   0.000242 -102.890072 
  0.000056 -156.039802   0.000236 -100.923544   0.990286 -30.501487 
375.000000000   0.006674 -161.021742   0.996703 -57.909826   0.000037 179.328567 
  0.996740 -57.892972   0.009046 -88.912130   0.000229 -110.474049 
  0.000051 -172.177869   0.000222 -108.473567   0.990460 -30.905062 
380.000000000   0.006604 -162.479769   0.996794 -58.675568   0.000034 151.457321 
  0.996839 -58.659041   0.008963 -90.097164   0.000213 -118.142086 
  0.000045 167.338385   0.000205 -116.127996   0.990646 -31.309082 
385.000000000   0.006530 -163.868852   0.996878 -59.443520   0.000037 118.121950 
  0.996928 -59.427400   0.008873 -91.200946   0.000194 -126.172737 
  0.000042 140.003748   0.000186 -124.180003   0.990842 -31.713624 
390.000000000   0.006454 -165.178551   0.996951 -60.213657   0.000048  89.558230 
  0.997008 -60.198016   0.008780 -92.216325   0.000173 -135.019072 
  0.000047 109.183338   0.000164 -133.116565   0.991050 -32.118762 
395.000000000   0.006378 -166.399445   0.997014 -60.985901   0.000067  70.195742 
  0.997075 -60.970804   0.008689 -93.136726   0.000149 -145.470279 
  0.000061  83.853573   0.000140 -143.819755   0.991269 -32.524589 
400.000000000   0.006302 -167.523155   0.997063 -61.760155   0.000091  57.327169 
  0.997128 -61.745669   0.008601 -93.953478   0.000126 -158.868394 
  0.000082  66.575523   0.000116 -157.860366   0.991498 -32.931176 
405.000000000   0.006228 -168.543030   0.997097 -62.536305   0.000118  48.248549 
  0.997166 -62.522478   0.008522 -94.661910   0.000106 -177.286073 
  0.000108  54.837819   0.000096 -177.785742   0.991736 -33.338621 
410.000000000   0.006157 -169.456041   0.997116 -63.314212   0.000148  41.436143 
  0.997187 -63.301082   0.008454 -95.254990   0.000095 157.827522 
  0.000138  46.406669   0.000086 154.869633   0.991983 -33.747029 
415.000000000   0.006090 -170.258687   0.997118 -64.093705   0.000180  36.021024 
  0.997192 -64.081298   0.008400 -95.730080   0.000099 130.286697 
  0.000169  40.010616   0.000094 125.781050   0.992237 -34.156470 
420.000000000   0.006028 -170.952889   0.997102 -64.874599   0.000212  31.558693 
  0.997179 -64.862932   0.008362 -96.085097   0.000120 107.584437 
  0.000201  34.890592   0.000117 103.418833   0.992497 -34.567026 
425.000000000   0.005971 -171.539600   0.997069 -65.656695   0.000243  27.767035 
  0.997147 -65.645775   0.008343 -96.320843   0.000151  91.699265 
  0.000233  30.646821   0.000150  88.443011   0.992760 -34.978769 
430.000000000   0.005920 -172.027329   0.997017 -66.439778   0.000274  24.452715 
  0.997098 -66.429598   0.008345 -96.440005   0.000187  80.701249 
  0.000264  27.011962   0.000187  78.197163   0.993024 -35.391763 
435.000000000   0.005876 -172.423930   0.996948 -67.223625   0.000302  21.499691 
  0.997031 -67.214164   0.008369 -96.449945   0.000224  72.691708 
  0.000294  23.819399   0.000225  70.716924   0.993287 -35.806039 
440.000000000   0.005839 -172.739104   0.996862 -68.008008   0.000328  18.811621 
  0.996947 -67.999245   0.008416 -96.358442   0.000261  66.513220 
  0.000320  20.952436   0.000262  64.903289   0.993546 -36.221637 
445.000000000   0.005809 -172.987600   0.996759 -68.792690   0.000351  16.326238 
  0.996847 -68.784582   0.008488 -96.177751   0.000296  61.497912 
  0.000343  18.311399   0.000297  60.138630   0.993798 -36.638546 
450.000000000   0.005786 -173.183627   0.996641 -69.577449   0.000369  13.969846 
  0.996731 -69.569938   0.008583 -95.921572   0.000327  57.240669 
  0.000363  15.833760   0.000328  56.060210   0.994041 -37.056773 
455.000000000   0.005768 -173.342185   0.996508 -70.362043   0.000383  11.687868 
