! C:\Work\SPARQ2\Technical\Relays\Open6.s1p
!
! Tue Aug  7 09:43:14 2018
!
!!Measured using LeCroy SPARQ LCRY2401N02001
!SingleEnded 
!
! freq S11 
! 
# MHz S MA R 50.00  
0.000000000   0.995594   0.000000 
50.000000000   0.995366  -1.356843 
100.000000000   0.994758  -2.697867 
150.000000000   0.993978  -4.011520 
200.000000000   0.993315  -5.293751 
250.000000000   0.993062  -6.549429 
300.000000000   0.993442  -7.791521 
350.000000000   0.994548  -9.038114 
400.000000000   0.996313 -10.308059 
450.000000000   0.998527 -11.616543 
500.000000000   1.000000 -12.971546 
550.000000000   1.000000 -14.372326 
600.000000000   1.000000 -15.809922 
650.000000000   1.000000 -17.269466 
700.000000000   1.000000 -18.733625 
750.000000000   1.000000 -20.186147 
800.000000000   1.000000 -21.614984 
850.000000000   1.000000 -23.014142 
900.000000000   1.000000 -24.384036 
950.000000000   1.000000 -25.730519 
1000.000000000   1.000000 -27.062609 
1050.000000000   0.999900 -28.389966 
1100.000000000   0.999702 -29.720580 
1150.000000000   0.999662 -31.059353 
1200.000000000   0.999677 -32.407732 
1250.000000000   0.999660 -33.764363 
1300.000000000   0.999561 -35.126375 
1350.000000000   0.999367 -36.490649 
1400.000000000   0.999091 -37.854903 
1450.000000000   0.998756 -39.218213 
1500.000000000   0.998382 -40.580751 
1550.000000000   0.997975 -41.943397 
1600.000000000   0.997522 -43.306922 
1650.000000000   0.997003 -44.671517 
1700.000000000   0.996392 -46.036583 
1750.000000000   0.995669 -47.400779 
1800.000000000   0.994826 -48.762411 
1850.000000000   0.993863 -50.119688 
1900.000000000   0.992785 -51.470944 
1950.000000000   0.991603 -52.814523 
2000.000000000   0.990329 -54.148636 
2050.000000000   0.988982 -55.471077 
2100.000000000   0.987599 -56.779417 
2150.000000000   0.986237 -58.071389 
2200.000000000   0.984981 -59.345697 
2250.000000000   0.983931 -60.603027 
2300.000000000   0.983193 -61.846735 
2350.000000000   0.982847 -63.083007 
2400.000000000   0.982928 -64.320186 
2450.000000000   0.983402 -65.567255 
2500.000000000   0.984170 -66.831811 
2550.000000000   0.985079 -68.118123 
2600.000000000   0.985956 -69.425915 
2650.000000000   0.986650 -70.750130 
2700.000000000   0.987071 -72.082149 
2750.000000000   0.987212 -73.411848 
2800.000000000   0.987157 -74.730296 
2850.000000000   0.987058 -76.032198 
2900.000000000   0.987091 -77.317473 
2950.000000000   0.987413 -78.591312 
3000.000000000   0.988118 -79.862924 
3050.000000000   0.989206 -81.142972 
3100.000000000   0.990589 -82.440688 
3150.000000000   0.992116 -83.761551 
3200.000000000   0.993613 -85.105980 
3250.000000000   0.994934 -86.469781 
3300.000000000   0.995994 -87.845685 
3350.000000000   0.996782 -89.225792 
3400.000000000   0.997356 -90.603857 
3450.000000000   0.997810 -91.976929 
3500.000000000   0.998237 -93.345736 
3550.000000000   0.998695 -94.713823 
3600.000000000   0.999187 -96.085760 
3650.000000000   0.999665 -97.465087 
3700.000000000   1.000000 -98.852898 
3750.000000000   1.000000 -100.247195 
3800.000000000   1.000000 -101.643616 
3850.000000000   0.999991 -103.036895 
3900.000000000   0.999576 -104.422716 
3950.000000000   0.999067 -105.799104 
4000.000000000   0.998543 -107.166977 
4050.000000000   0.998054 -108.529513 
4100.000000000   0.997602 -109.890655 
4150.000000000   0.997142 -111.253291 
4200.000000000   0.996605 -112.617776 
4250.000000000   0.995931 -113.981537 
4300.000000000   0.995095 -115.339794 
4350.000000000   0.994132 -116.687270 
4400.000000000   0.993129 -118.020382 
4450.000000000   0.992204 -119.338867 
4500.000000000   0.991460 -120.646393 
4550.000000000   0.990955 -121.949672 
4600.000000000   0.990667 -123.256305 
4650.000000000   0.990504 -124.572111 
4700.000000000   0.990326 -125.898790 
4750.000000000   0.989999 -127.232917 
4800.000000000   0.989439 -128.566724 
4850.000000000   0.988658 -129.890507 
4900.000000000   0.987765 -131.195877 
4950.000000000   0.986945 -132.479024 
5000.000000000   0.986401 -133.742705 
5050.000000000   0.986290 -134.996095 
5100.000000000   0.986667 -136.252480 
5150.000000000   0.987452 -137.525361 
5200.000000000   0.988453 -138.824142 
5250.000000000   0.989412 -140.150937 
5300.000000000   0.990086 -141.499600 
5350.000000000   0.990322 -142.857276 
5400.000000000   0.990107 -144.208060 
5450.000000000   0.989576 -145.537772 
5500.000000000   0.988981 -146.838321 
5550.000000000   0.988616 -148.110412 
5600.000000000   0.988729 -149.363715 
5650.000000000   0.989452 -150.614249 
5700.000000000   0.990755 -151.879716 
5750.000000000   0.992462 -153.174544 
5800.000000000   0.994300 -154.505886 
5850.000000000   0.995978 -155.872222 
5900.000000000   0.997266 -157.264538 
5950.000000000   0.998049 -158.669541 
6000.000000000   0.998337 -160.073848 
6050.000000000   0.998241 -161.467566 
6100.000000000   0.997914 -162.846266 
6150.000000000   0.997491 -164.210817 
6200.000000000   0.997042 -165.565114 
6250.000000000   0.996561 -166.912878 
6300.000000000   0.995993 -168.254711 
6350.000000000   0.995282 -169.586738 
6400.000000000   0.994438 -170.901504 
6450.000000000   0.993569 -172.190908 
6500.000000000   0.992885 -173.450249 
6550.000000000   0.992656 -174.681933 
6600.000000000   0.993129 -175.897172 
6650.000000000   0.994444 -177.114704 
6700.000000000   0.996568 -178.356706 
6750.000000000   0.999273 -179.642716 
6800.000000000   1.000000 179.016031 
6850.000000000   1.000000 177.620236 
6900.000000000   1.000000 176.182748 
6950.000000000   1.000000 174.725292 
7000.000000000   1.000000 173.272719 
7050.000000000   1.000000 171.846240 
7100.000000000   1.000000 170.457583 
7150.000000000   1.000000 169.105746 
7200.000000000   1.000000 167.777493 
7250.000000000   1.000000 166.451743 
7300.000000000   1.000000 165.106473 
7350.000000000   1.000000 163.726057 
7400.000000000   1.000000 162.306503 
7450.000000000   1.000000 160.856898 
7500.000000000   1.000000 159.397035 
7550.000000000   1.000000 157.951641 
7600.000000000   1.000000 156.543273 
7650.000000000   1.000000 155.185691 
7700.000000000   1.000000 153.879441 
7750.000000000   1.000000 152.611314 
7800.000000000   1.000000 151.357846 
7850.000000000   1.000000 150.091892 
7900.000000000   1.000000 148.790396 
7950.000000000   1.000000 147.440520 
8000.000000000   1.000000 146.042665 
8050.000000000   1.000000 144.609661 
8100.000000000   1.000000 143.162758 
8150.000000000   1.000000 141.726039 
8200.000000000   1.000000 140.320619 
8250.000000000   1.000000 138.960229 
8300.000000000   1.000000 137.648849 
8350.000000000   1.000000 136.381022 
8400.000000000   0.999072 135.144081 
8450.000000000   0.998700 133.921627 
8500.000000000   0.999074 132.697043 
8550.000000000   1.000000 131.455985 
8600.000000000   1.000000 130.187573 
8650.000000000   1.000000 128.884628 
8700.000000000   1.000000 127.543391 
8750.000000000   1.000000 126.163497 
8800.000000000   1.000000 124.748340 
8850.000000000   1.000000 123.305869 
8900.000000000   1.000000 121.849029 
8950.000000000   1.000000 120.395287 
9000.000000000   1.000000 118.964857 
9050.000000000   1.000000 117.577392 
9100.000000000   1.000000 116.247741 
9150.000000000   0.999836 114.981707 
9200.000000000   0.997959 113.773242 
9250.000000000   0.997061 112.604269 
9300.000000000   0.997352 111.447778 
9350.000000000   0.998806 110.273738 
9400.000000000   1.000000 109.056313 
9450.000000000   1.000000 107.779928 
9500.000000000   1.000000 106.442735 
9550.000000000   1.000000 105.056200 
9600.000000000   1.000000 103.641499 
9650.000000000   1.000000 102.223725 
9700.000000000   1.000000 100.825591 
9750.000000000   1.000000  99.462188 
9800.000000000   1.000000  98.137950 
9850.000000000   1.000000  96.846708 
9900.000000000   1.000000  95.574441 
9950.000000000   1.000000  94.303832 
10000.000000000   1.000000  93.019021 
10050.000000000   1.000000  91.708935 
10100.000000000   1.000000  90.368403 
10150.000000000   1.000000  88.996948 
10200.000000000   1.000000  87.596390 
10250.000000000   1.000000  86.168283 
10300.000000000   1.000000  84.712532 
10350.000000000   1.000000  83.227719 
10400.000000000   1.000000  81.713051 
10450.000000000   1.000000  80.170996 
10500.000000000   1.000000  78.609574 
10550.000000000   1.000000  77.043102 
10600.000000000   1.000000  75.490741 
10650.000000000   1.000000  73.973154 
10700.000000000   1.000000  72.507655 
10750.000000000   1.000000  71.103488 
10800.000000000   1.000000  69.758399 
10850.000000000   1.000000  68.457954 
10900.000000000   1.000000  67.178237 
10950.000000000   1.000000  65.891324 
11000.000000000   1.000000  64.572025 
11050.000000000   1.000000  63.203863 
11100.000000000   1.000000  61.782354 
11150.000000000   1.000000  60.315059 
11200.000000000   1.000000  58.818648 
11250.000000000   1.000000  57.314156 
11300.000000000   1.000000  55.822027 
11350.000000000   1.000000  54.358112 
11400.000000000   1.000000  52.931547 
11450.000000000   1.000000  51.544843 
11500.000000000   1.000000  50.195666 
11550.000000000   1.000000  48.879388 
11600.000000000   0.997661  47.591443 
11650.000000000   0.994747  46.328357 
11700.000000000   0.992155  45.087346 
11750.000000000   0.989958  43.864947 
11800.000000000   0.988235  42.655483 
11850.000000000   0.987036  41.450426 
11900.000000000   0.986343  40.239353 
11950.000000000   0.986053  39.012351 
12000.000000000   0.985983  37.763116 
12050.000000000   0.985911  36.491452 
12100.000000000   0.985638  35.204136 
12150.000000000   0.985060  33.913460 
12200.000000000   0.984203  32.633646 
12250.000000000   0.983238  31.376151 
12300.000000000   0.982431  30.145319 
12350.000000000   0.982064  28.935854 
12400.000000000   0.982340  27.733327 
12450.000000000   0.983302  26.517934 
12500.000000000   0.984803  25.270372 
12550.000000000   0.986529  23.978047 
12600.000000000   0.988088  22.639392 
12650.000000000   0.989115  21.264885 
12700.000000000   0.989382  19.874477 
12750.000000000   0.988867  18.492168 
12800.000000000   0.987762  17.139358 
12850.000000000   0.986419  15.828722 
12900.000000000   0.985249  14.560655 
12950.000000000   0.984600  13.323216 
13000.000000000   0.984654  12.095971 
13050.000000000   0.985383  10.856511 
13100.000000000   0.986564   9.587431 
13150.000000000   0.987862   8.281345 
13200.000000000   0.988941   6.942442 
13250.000000000   0.989569   5.584217 
13300.000000000   0.989684   4.224409 
13350.000000000   0.989405   2.878899 
13400.000000000   0.988972   1.556482 
13450.000000000   0.988665   0.256253 
13500.000000000   0.988694  -1.031764 
13550.000000000   0.989130  -2.322701 
13600.000000000   0.989884  -3.631389 
13650.000000000   0.990731  -4.967088 
13700.000000000   0.991396  -6.330395 
13750.000000000   0.991643  -7.713225 
13800.000000000   0.991343  -9.101628 
13850.000000000   0.990516 -10.480406 
13900.000000000   0.989309 -11.837737 
13950.000000000   0.987935 -13.168386 
14000.000000000   0.986601 -14.474360 
14050.000000000   0.985434 -15.762941 
14100.000000000   0.984457 -17.042800 
14150.000000000   0.983598 -18.319963 
14200.000000000   0.982743 -19.595017 
14250.000000000   0.981812 -20.862939 
14300.000000000   0.980812 -22.115433 
14350.000000000   0.979864 -23.345076 
14400.000000000   0.979172 -24.549472 
14450.000000000   0.978960 -25.733936 
14500.000000000   0.979388 -26.911305 
14550.000000000   0.980478 -28.098678 
14600.000000000   0.982095 -29.312202 
14650.000000000   0.983968 -30.561629 
14700.000000000   0.985776 -31.846931 
14750.000000000   0.987248 -33.158040 
14800.000000000   0.988248 -34.478033 
14850.000000000   0.988826 -35.788685 
14900.000000000   0.989204 -37.076628 
14950.000000000   0.989696 -38.338089 
15000.000000000   0.990606 -39.580569 
15050.000000000   0.992116 -40.820584 
15100.000000000   0.994217 -42.078137 
15150.000000000   0.996707 -43.369799 
15200.000000000   0.999254 -44.702971 
15250.000000000   1.000000 -46.073301 
15300.000000000   1.000000 -47.466316 
15350.000000000   1.000000 -48.862439 
15400.000000000   1.000000 -50.243871 
15450.000000000   1.000000 -51.601008 
15500.000000000   1.000000 -52.936136 
15550.000000000   1.000000 -54.262972 
15600.000000000   1.000000 -55.601809 
15650.000000000   1.000000 -56.971818 
15700.000000000   1.000000 -58.383167 
15750.000000000   1.000000 -59.831845 
15800.000000000   1.000000 -61.299012 
15850.000000000   1.000000 -62.755223 
15900.000000000   1.000000 -64.168341 
15950.000000000   1.000000 -65.513110 
16000.000000000   1.000000 -66.779665 
16050.000000000   1.000000 -67.978268 
16100.000000000   1.000000 -69.138149 
16150.000000000   1.000000 -70.300244 
16200.000000000   1.000000 -71.505684 
16250.000000000   1.000000 -72.784099 
16300.000000000   1.000000 -74.145754 
16350.000000000   1.000000 -75.579749 
16400.000000000   1.000000 -77.058347 
16450.000000000   1.000000 -78.545431 
16500.000000000   1.000000 -80.006603 
16550.000000000   1.000000 -81.418047 
16600.000000000   1.000000 -82.772035 
16650.000000000   1.000000 -84.077440 
16700.000000000   1.000000 -85.355081 
16750.000000000   1.000000 -86.629613 
16800.000000000   1.000000 -87.920687 
16850.000000000   1.000000 -89.236665 
16900.000000000   1.000000 -90.572956 
16950.000000000   1.000000 -91.915205 
17000.000000000   1.000000 -93.245886 
17050.000000000   1.000000 -94.551986 
17100.000000000   1.000000 -95.831049 
17150.000000000   1.000000 -97.093431 
17200.000000000   1.000000 -98.359770 
17250.000000000   1.000000 -99.654528 
17300.000000000   1.000000 -100.997649 
17350.000000000   1.000000 -102.397586 
17400.000000000   1.000000 -103.847973 
17450.000000000   1.000000 -105.328978 
17500.000000000   1.000000 -106.812749 
17550.000000000   1.000000 -108.271222 
17600.000000000   1.000000 -109.684178 
17650.000000000   1.000000 -111.045179 
17700.000000000   1.000000 -112.363694 
17750.000000000   1.000000 -113.662372 
17800.000000000   1.000000 -114.970312 
17850.000000000   1.000000 -116.314253 
17900.000000000   1.000000 -117.710782 
17950.000000000   1.000000 -119.161900 
18000.000000000   1.000000 -120.655105 
18050.000000000   1.000000 -122.167464 
18100.000000000   1.000000 -123.672259 
18150.000000000   1.000000 -125.146221 
18200.000000000   1.000000 -126.575535 
18250.000000000   1.000000 -127.959072 
18300.000000000   1.000000 -129.308034 
18350.000000000   1.000000 -130.642111 
18400.000000000   1.000000 -131.983249 
18450.000000000   1.000000 -133.348944 
18500.000000000   1.000000 -134.747046 
18550.000000000   1.000000 -136.173306 
18600.000000000   1.000000 -137.612248 
18650.000000000   1.000000 -139.040699 
18700.000000000   1.000000 -140.433091 
18750.000000000   1.000000 -141.767563 
18800.000000000   1.000000 -143.031524 
18850.000000000   1.000000 -144.225801 
18900.000000000   1.000000 -145.366146 
18950.000000000   1.000000 -146.481504 
19000.000000000   1.000000 -147.608797 
19050.000000000   1.000000 -148.785272 
19100.000000000   1.000000 -150.040001 
19150.000000000   1.000000 -151.386776 
19200.000000000   1.000000 -152.820044 
19250.000000000   1.000000 -154.314822 
19300.000000000   1.000000 -155.830669 
19350.000000000   1.000000 -157.319189 
19400.000000000   1.000000 -158.734226 
19450.000000000   1.000000 -160.043430 
19500.000000000   1.000000 -161.238992 
19550.000000000   1.000000 -162.344277 
19600.000000000   1.000000 -163.412838 
19650.000000000   1.000000 -164.517899 
19700.000000000   1.000000 -165.734113 
19750.000000000   1.000000 -167.117192 
19800.000000000   1.000000 -168.688261 
19850.000000000   1.000000 -170.427224 
19900.000000000   1.000000 -172.275809 
19950.000000000   1.000000 -174.148120 
20000.000000000   1.000000 -175.946301 
20050.000000000   1.000000 -177.579488 
20100.000000000   1.000000 -178.984524 
20150.000000000   1.000000 179.854858 
20200.000000000   1.000000 178.896331 
20250.000000000   1.000000 178.042394 
20300.000000000   1.000000 177.162558 
20350.000000000   1.000000 176.128786 
20400.000000000   1.000000 174.850328 
20450.000000000   1.000000 173.294543 
20500.000000000   1.000000 171.489076 
20550.000000000   1.000000 169.509641 
20600.000000000   1.000000 167.460772 
20650.000000000   1.000000 165.455020 
20700.000000000   1.000000 163.593085 
20750.000000000   1.000000 161.946106 
20800.000000000   1.000000 160.541873 
20850.000000000   0.993368 159.358641 
20900.000000000   0.985524 158.330549 
20950.000000000   0.980968 157.365550 
21000.000000000   0.979437 156.371220 
21050.000000000   0.980007 155.279275 
21100.000000000   0.981425 154.060055 
21150.000000000   0.982468 152.723957 
21200.000000000   0.982251 151.312094 
21250.000000000   0.980398 149.881403 
21300.000000000   0.977074 148.488611 
21350.000000000   0.972889 147.176424 
21400.000000000   0.968710 145.963927 
21450.000000000   0.965431 144.842724 
21500.000000000   0.963756 143.779529 
21550.000000000   0.964039 142.724691 
21600.000000000   0.966212 141.624179 
21650.000000000   0.969819 140.431725 
21700.000000000   0.974114 139.117899 
21750.000000000   0.978216 137.674563 
21800.000000000   0.981254 136.114946 
21850.000000000   0.982506 134.470471 
21900.000000000   0.981506 132.785881 
21950.000000000   0.978112 131.113428 
22000.000000000   0.972538 129.506387 
22050.000000000   0.965352 128.011810 
22100.000000000   0.957411 126.662799 
22150.000000000   0.949751 125.470987 
22200.000000000   0.943415 124.421306 
22250.000000000   0.939260 123.471409 
22300.000000000   0.937767 122.557775 
22350.000000000   0.938925 121.608260 
22400.000000000   0.942215 120.557965 
22450.000000000   0.946719 119.363407 
22500.000000000   0.951316 118.010796 
22550.000000000   0.954914 116.516703 
22600.000000000   0.956661 114.922223 
22650.000000000   0.956093 113.283165 
22700.000000000   0.953181 111.658808 
22750.000000000   0.948303 110.101377 
22800.000000000   0.942126 108.647725 
22850.000000000   0.935447 107.314710 
22900.000000000   0.929029 106.098857 
22950.000000000   0.923471 104.980445 
23000.000000000   0.919140 103.930461 
23050.000000000   0.916185 102.917971 
23100.000000000   0.914591 101.915305 
23150.000000000   0.914258 100.899746 
23200.000000000   0.915054  99.852068 
23250.000000000   0.916813  98.753930 
23300.000000000   0.919300  97.586672 
23350.000000000   0.922149  96.333056 
23400.000000000   0.924836  94.982173 
23450.000000000   0.926701  93.535861 
23500.000000000   0.927050  92.014111 
23550.000000000   0.925304  90.457153 
23600.000000000   0.921180  88.922703 
23650.000000000   0.914836  87.477999 
23700.000000000   0.906939  86.187212 
23750.000000000   0.898615  85.095817 
23800.000000000   0.891276  84.215245 
23850.000000000   0.886321  83.512955 
23900.000000000   0.884796  82.913738 
23950.000000000   0.887118  82.315112 
24000.000000000   0.892952  81.613162 
24050.000000000   0.901302  80.728941 
24100.000000000   0.910785  79.625300 
24150.000000000   0.919970  78.309419 
24200.000000000   0.927680  76.823361 
24250.000000000   0.933191  75.228367 
24300.000000000   0.936276  73.588597 
24350.000000000   0.937126  71.958236 
24400.000000000   0.936186  70.374236 
24450.000000000   0.933961  68.855687 
24500.000000000   0.930870  67.408900 
24550.000000000   0.927190  66.035999 
24600.000000000   0.923108  64.742867 
24650.000000000   0.918851  63.542563 
24700.000000000   0.914831  62.451620 
24750.000000000   0.911724  61.479410 
24800.000000000   0.910416  60.614202 
24850.000000000   0.911797  59.811949 
24900.000000000   0.916446  58.995340 
24950.000000000   0.924324  58.067037 
25000.000000000   0.934596  56.934716 
25050.000000000   0.945686  55.538525 
25100.000000000   0.955563  53.870398 
25150.000000000   0.962180  51.979847 
25200.000000000   0.963947  49.967097 
25250.000000000   0.960137  47.967368 
25300.000000000   0.951140  46.129522 
25350.000000000   0.938517  44.589439 
25400.000000000   0.924805  43.438499 
25450.000000000   0.913044  42.691453 
25500.000000000   0.906067  42.266041 
