! c:\Lecroy\SPARQ\Temp\TempForSaveMeasurement\Result.s2p
!
! Tue Aug  7 09:50:43 2018
!
!!Measured using LeCroy SPARQ LCRY2401N02001
!SingleEnded 
!
! freq S11 S21 S12 S22 
# MHz S MA R 50.00  
0.000000000   0.001108   0.000000   0.998239   0.000000   0.998568   0.000000   0.001520 180.000000 
50.000000000   0.001300  23.821662   0.998250  -2.211419   0.998558  -2.222180   0.001543 157.943537 
100.000000000   0.001754  35.315942   0.998282  -4.423461   0.998527  -4.444404   0.001613 136.276063 
150.000000000   0.002315  38.177281   0.998328  -6.636700   0.998473  -6.666682   0.001731 115.380033 
200.000000000   0.002918  36.755195   0.998381  -8.851598   0.998394  -8.889015   0.001899  95.591577 
250.000000000   0.003534  33.150925   0.998431 -11.068449   0.998288 -11.111325   0.002119  77.144053 
300.000000000   0.004058  29.245133   0.998345 -13.287373   0.998049 -13.333484   0.002371  62.800788 
350.000000000   0.004422  25.548892   0.998034 -15.508288   0.997621 -15.555294   0.002570  52.747243 
400.000000000   0.004758  20.784634   0.997683 -17.730845   0.997162 -17.776457   0.002716  42.165285 
450.000000000   0.005071  15.137912   0.997299 -19.954548   0.996680 -19.996641   0.002828  30.784594 
500.000000000   0.005372   8.778137   0.996891 -22.178741   0.996185 -22.215486   0.002932  18.511507 
550.000000000   0.005676   1.881745   0.996466 -24.402637   0.995687 -24.432597   0.003058   5.490719 
600.000000000   0.005994  -5.361356   0.996033 -26.625429   0.995198 -26.647618   0.003237  -7.868845 
650.000000000   0.006338 -12.754368   0.995600 -28.846295   0.994728 -28.860221   0.003487 -20.982670 
700.000000000   0.006713 -20.111095   0.995175 -31.064478   0.994286 -31.070149   0.003814 -33.296208 
750.000000000   0.007116 -27.276746   0.994767 -33.279384   0.993879 -33.277250   0.004211 -44.457676 
800.000000000   0.007544 -34.138690   0.994382 -35.490560   0.993515 -35.481458   0.004660 -54.352624 
850.000000000   0.007987 -40.631428   0.994027 -37.697782   0.993195 -37.682860   0.005138 -63.039633 
900.000000000   0.008432 -46.730516   0.993708 -39.901061   0.992923 -39.881633   0.005627 -70.659374 
950.000000000   0.008870 -52.441971   0.993428 -42.100662   0.992696 -42.078113   0.006107 -77.374132 
1000.000000000   0.009291 -57.792229   0.993190 -44.297087   0.992512 -44.272705   0.006565 -83.334525 
1050.000000000   0.009686 -62.819460   0.992993 -46.490996   0.992366 -46.465934   0.006994 -88.671721 
1100.000000000   0.010053 -67.566195   0.992835 -48.683261   0.992250 -48.658364   0.007389 -93.493909 
1150.000000000   0.010392 -72.075726   0.992712 -50.874803   0.992156 -50.850587   0.007754 -97.892162 
1200.000000000   0.010704 -76.389178   0.992618 -53.066601   0.992077 -53.043191   0.008093 -101.942613 
1250.000000000   0.010998 -80.545494   0.992543 -55.259611   0.992003 -55.236714   0.008419 -105.712444 
1300.000000000   0.011281 -84.579939   0.992480 -57.454661   0.991928 -57.431628   0.008744 -109.261620 
1350.000000000   0.011566 -88.523769   0.992417 -59.652406   0.991845 -59.628284   0.009082 -112.644287 
1400.000000000   0.011863 -92.404983   0.992345 -61.853323   0.991750 -61.826908   0.009447 -115.910013 
1450.000000000   0.012188 -96.246296   0.992256 -64.057624   0.991638 -64.027604   0.009855 -119.102231 
1500.000000000   0.012550 -100.065371   0.992143 -66.265266   0.991508 -66.230311   0.010317 -122.258357 
1550.000000000   0.012962 -103.873809   0.992002 -68.475952   0.991361 -68.434817   0.010842 -125.408309 
1600.000000000   0.013430 -107.677624   0.991831 -70.689161   0.991198 -70.640836   0.011434 -128.574787 
1650.000000000   0.013961 -111.476244   0.991631 -72.904162   0.991023 -72.847935   0.012097 -131.771052 
1700.000000000   0.014555 -115.265522   0.991405 -75.120106   0.990842 -75.055631   0.012827 -135.004594 
1750.000000000   0.015210 -119.037585   0.991159 -77.336052   0.990662 -77.263424   0.013619 -138.274572 
1800.000000000   0.015918 -122.784445   0.990900 -79.551066   0.990490 -79.470781   0.014464 -141.577338 
1850.000000000   0.016669 -126.497526   0.990638 -81.764251   0.990334 -81.677248   0.015347 -144.904622 
1900.000000000   0.017451 -130.169530   0.990381 -83.974851   0.990202 -83.882419   0.016255 -148.246587 
1950.000000000   0.018248 -133.795153   0.990141 -86.182259   0.990102 -86.085976   0.017171 -151.592695 
2000.000000000   0.019043 -137.369747   0.989926 -88.386115   0.990038 -88.287746   0.018077 -154.931942 
2050.000000000   0.019820 -140.890070   0.989744 -90.586267   0.990013 -90.487657   0.018956 -158.253065 
2100.000000000   0.020564 -144.353522   0.989602 -92.782826   0.990029 -92.685768   0.019791 -161.545873 
2150.000000000   0.021259 -147.757535   0.989506 -94.976132   0.990084 -94.882267   0.020570 -164.799857 
2200.000000000   0.021897 -151.099278   0.989455 -97.166729   0.990174 -97.077426   0.021282 -168.004947 
2250.000000000   0.022469 -154.374885   0.989450 -99.355327   0.990291 -99.271615   0.021919 -171.151148 
2300.000000000   0.022973 -157.580219   0.989487 -101.542748   0.990427 -101.465229   0.022479 -174.228933 
2350.000000000   0.023385 -160.826714   0.989509 -103.729790   0.990514 -103.658650   0.022941 -177.350100 
2400.000000000   0.023657 -164.379787   0.989389 -105.917126   0.990410 -105.852105   0.023264 179.215228 
2450.000000000   0.023898 -167.771746   0.989318 -108.105775   0.990326 -108.046211   0.023547 175.955025 
2500.000000000   0.024116 -170.991936   0.989284 -110.296369   0.990257 -110.241275   0.023802 172.879071 
2550.000000000   0.024325 -174.036099   0.989278 -112.489342   0.990197 -112.437463   0.024042 169.989995 
2600.000000000   0.024540 -176.907359   0.989284 -114.684916   0.990138 -114.634854   0.024284 167.282141 
2650.000000000   0.024773 -179.617013   0.989289 -116.883080   0.990072 -116.833416   0.024543 164.741244 
2700.000000000   0.025039 177.815127   0.989280 -119.083606   0.989994 -119.032967   0.024832 162.344059 
2750.000000000   0.025349 175.361786   0.989245 -121.286050   0.989898 -121.233251   0.025163 160.059550 
2800.000000000   0.025712 172.989422   0.989176 -123.489810   0.989779 -123.433906   0.025547 157.850940 
2850.000000000   0.026134 170.661124   0.989069 -125.694182   0.989636 -125.634538   0.025987 155.678373 
2900.000000000   0.026617 168.339237   0.988920 -127.898403   0.989467 -127.834711   0.026483 153.502397 
2950.000000000   0.027156 165.988898   0.988734 -130.101714   0.989276 -130.034009   0.027033 151.287407 
3000.000000000   0.027746 163.580637   0.988516 -132.303425   0.989065 -132.232053   0.027626 149.004325 
3050.000000000   0.028375 161.092361   0.988276 -134.503001   0.988840 -134.428525   0.028251 146.632049 
3100.000000000   0.029029 158.510621   0.988024 -136.700039   0.988607 -136.623221   0.028892 144.159040 
3150.000000000   0.029693 155.830766   0.987775 -138.894406   0.988376 -138.816028   0.029533 141.582846 
3200.000000000   0.030350 153.056209   0.987542 -141.086109   0.988152 -141.006961   0.030157 138.909129 
3250.000000000   0.030984 150.197621   0.987337 -143.275432   0.987944 -143.196144   0.030745 136.150899 
3300.000000000   0.031578 147.271580   0.987173 -145.462865   0.987758 -145.383809   0.031284 133.327014 
3350.000000000   0.032121 144.299377   0.987058 -147.649042   0.987599 -147.570295   0.031759 130.460638 
3400.000000000   0.032600 141.305431   0.986996 -149.834742   0.987472 -149.756001   0.032160 127.578121 
3450.000000000   0.033010 138.316460   0.986990 -152.020778   0.987379 -151.941337   0.032481 124.708071 
3500.000000000   0.033345 135.360175   0.987037 -154.207964   0.987319 -154.126766   0.032719 121.879974 
3550.000000000   0.033606 132.464280   0.987131 -156.397096   0.987291 -156.312705   0.032875 119.123396 
3600.000000000   0.033798 129.655459   0.987263 -158.588795   0.987291 -158.499520   0.032955 116.466880 
3650.000000000   0.033930 126.958014   0.987420 -160.783523   0.987315 -160.687533   0.032970 113.936605 
3700.000000000   0.034014 124.392739   0.987588 -162.981550   0.987356 -162.876932   0.032934 111.555204 
3750.000000000   0.034067 121.975221   0.987753 -165.182921   0.987409 -165.067862   0.032864 109.339946 
3800.000000000   0.034108 119.714611   0.987901 -167.387440   0.987466 -167.260332   0.032781 107.301091 
3850.000000000   0.034157 117.612069   0.988020 -169.594715   0.987523 -169.454278   0.032709 105.440254 
3900.000000000   0.034237 115.659510   0.988098 -171.804185   0.987575 -171.649568   0.032669 103.748934 
3950.000000000   0.034367 113.839616   0.988130 -174.015131   0.987617 -173.845982   0.032684 102.207753 
4000.000000000   0.034565 112.125795   0.988111 -176.226798   0.987648 -176.043327   0.032773 100.787185 
4050.000000000   0.034847 110.484135   0.988042 -178.438378   0.987666 -178.241345   0.032950  99.448952 
4100.000000000   0.035221 108.875812   0.987927 179.350872   0.987672 179.560171   0.033223  98.149178 
4150.000000000   0.035690 107.260566   0.987773 177.141575   0.987667 177.361364   0.033597  96.842214 
4200.000000000   0.036251 105.600129   0.987592 174.934199   0.987653 175.162378   0.034067  95.485062 
4250.000000000   0.036896 103.861629   0.987393 172.729048   0.987633 172.963233   0.034624  94.040808 
4300.000000000   0.037611 102.019652   0.987191 170.526169   0.987608 170.763901   0.035252  92.481536 
4350.000000000   0.038380 100.057590   0.986997 168.325431   0.987581 168.564288   0.035933  90.789634 
4400.000000000   0.039183  97.967814   0.986822 166.126437   0.987553 166.364211   0.036648  88.957534 
4450.000000000   0.040002  95.750867   0.986675 163.928686   0.987524 164.163500   0.037376  86.987113 
4500.000000000   0.040815  93.414214   0.986562 161.731479   0.987491 161.961934   0.038098  84.887795 
4550.000000000   0.041607  90.970466   0.986483 159.534091   0.987452 159.759331   0.038795  82.674634 
4600.000000000   0.042363  88.435930   0.986436 157.335776   0.987401 157.555550   0.039455  80.366582 
4650.000000000   0.043071  85.828885   0.986416 155.135843   0.987334 155.350515   0.040066  77.984511 
4700.000000000   0.043722  83.168349   0.986411 152.933719   0.987243 153.144243   0.040621  75.549810 
4750.000000000   0.044313  80.472615   0.986411 150.729027   0.987121 150.936885   0.041118  73.082895 
4800.000000000   0.044844  77.758537   0.986399 148.521587   0.986961 148.728688   0.041558  70.602274 
4850.000000000   0.045316  75.040425   0.986362 146.311492   0.986758 146.520029   0.041945  68.123379 
4900.000000000   0.045736  72.329636   0.986284 144.099060   0.986505 144.311391   0.042288  65.657972 
4950.000000000   0.046110  69.633743   0.986152 141.884874   0.986202 142.103360   0.042594  63.213460 
5000.000000000   0.046448  66.956601   0.985955 139.669703   0.985847 139.896551   0.042876  60.792608 
5050.000000000   0.046758  64.298149   0.985688 137.454499   0.985442 137.691636   0.043144  58.393421 
5100.000000000   0.047050  61.654397   0.985348 135.240306   0.984992 135.489261   0.043407  56.009406 
5150.000000000   0.047329  59.018383   0.984937 133.028192   0.984505 133.290022   0.043675  53.630266 
5200.000000000   0.047602  56.380420   0.984463 130.819204   0.983991 131.094400   0.043953  51.242562 
5250.000000000   0.047870  53.729346   0.983937 128.614233   0.983462 128.902764   0.044244  48.831150 
5300.000000000   0.048132  51.053383   0.983376 126.414025   0.982931 126.715310   0.044547  46.380347 
5350.000000000   0.048385  48.341488   0.982797 124.219056   0.982414 124.532049   0.044857  43.875336 
5400.000000000   0.048621  45.584039   0.982222 122.029535   0.981923 122.352818   0.045168  41.303391 
5450.000000000   0.048832  42.773960   0.981671 119.845360   0.981473 120.177237   0.045468  38.654720 
5500.000000000   0.049006  39.907139   0.981165 117.666121   0.981075 118.004749   0.045746  35.923225 
5550.000000000   0.049131  36.982880   0.980721 115.491134   0.980738 115.834697   0.045988  33.106784 
5600.000000000   0.049196  34.003934   0.980352 113.319451   0.980468 113.666257   0.046182  30.207185 
5650.000000000   0.049190  30.976330   0.980070 111.149973   0.980268 111.498590   0.046314  27.230043 
5700.000000000   0.049103  27.909190   0.979879 108.981468   0.980137 109.330817   0.046375  24.184010 
5750.000000000   0.048928  24.814066   0.979776 106.812689   0.980071 107.162140   0.046355  21.080526 
5800.000000000   0.048662  21.704420   0.979758 104.642447   0.980063 104.991813   0.046248  17.932871 
5850.000000000   0.048303  18.595076   0.979811 102.469692   0.980102 102.819250   0.046053  14.755617 
5900.000000000   0.047855  15.501179   0.979921 100.293582   0.980175 100.644041   0.045771  11.563775 
5950.000000000   0.047325  12.437786   0.980069  98.113571   0.980271  98.465990   0.045406   8.372063 
6000.000000000   0.046722   9.418610   0.980236  95.929403   0.980375  96.285081   0.044966   5.193982 
6050.000000000   0.046058   6.455154   0.980400  93.741122   0.980474  94.101517   0.044463   2.041076 
6100.000000000   0.045350   3.555953   0.980543  91.549140   0.980557  91.915704   0.043910  -1.078055 
6150.000000000   0.044612   0.725317   0.980647  89.354099   0.980615  89.728176   0.043321  -4.158588 
6200.000000000   0.043863  -2.037349   0.980701  87.156933   0.980643  87.539605   0.042713  -7.200144 
6250.000000000   0.043117  -4.738221   0.980695  84.958694   0.980637  85.350734   0.042101 -10.207491 
6300.000000000   0.042389  -7.389345   0.980627  82.760551   0.980599  83.162295   0.041499 -13.190994 
6350.000000000   0.041690 -10.008362   0.980499  80.563683   0.980534  80.975006   0.040920 -16.166201 
6400.000000000   0.041025 -12.617792   0.980319  78.369183   0.980448  78.789464   0.040374 -19.153766 
6450.000000000   0.040398 -15.243672   0.980101  76.178005   0.980353  76.606147   0.039864 -22.178150 
6500.000000000   0.039806 -17.913765   0.979861  73.990859   0.980262  74.425342   0.039394 -25.266344 
6550.000000000   0.039239 -20.655652   0.979619  71.808177   0.980187  72.247131   0.038959 -28.446266 
6600.000000000   0.038688 -23.494621   0.979396  69.630084   0.980144  70.071378   0.038554 -31.744918 
6650.000000000   0.038135 -26.452096   0.979214  67.456358   0.980144  67.897737   0.038167 -35.186861 
6700.000000000   0.037564 -29.544228   0.979094  65.286472   0.980200  65.725659   0.037788 -38.792771 
6750.000000000   0.036956 -32.781427   0.979052  63.119595   0.980321  63.554433   0.037402 -42.578942 
6800.000000000   0.036294 -36.167925   0.979102  60.954643   0.980512  61.383231   0.036995 -46.556546 
6850.000000000   0.035560 -39.702242   0.979252  58.790373   0.980775  59.211132   0.036553 -50.731813 
6900.000000000   0.034741 -43.377506   0.979507  56.625430   0.981110  57.037202   0.036066 -55.106338 
6950.000000000   0.033826 -47.182290   0.979862  54.458450   0.981510  54.860545   0.035522 -59.677642 
7000.000000000   0.032809 -51.101283   0.980311  52.288151   0.981967  52.680371   0.034915 -64.439548 
7050.000000000   0.031688 -55.115909   0.980840  50.113386   0.982468  50.496013   0.034240 -69.383109 
7100.000000000   0.030464 -59.205093   0.981432  47.933237   0.983000  48.306974   0.033498 -74.496748 
7150.000000000   0.029143 -63.345606   0.982067  45.747045   0.983547  46.112974   0.032691 -79.766953 
7200.000000000   0.027737 -67.512806   0.982721  43.554456   0.984093  43.913945   0.031823 -85.178453 
7250.000000000   0.026259 -71.680972   0.983374  41.355416   0.984620  41.710029   0.030904 -90.714204 
7300.000000000   0.024535 -75.012498   0.983616  39.149679   0.984701  39.501065   0.029664 -95.801434 
7350.000000000   0.022771 -78.273656   0.983840  36.938406   0.984772  37.288200   0.028391 -101.029132 
7400.000000000   0.021025 -81.590416   0.984096  34.722419   0.984891  35.072157   0.027155 -106.473284 
7450.000000000   0.019327 -84.972284   0.984373  32.502619   0.985049  32.853654   0.025983 -112.112925 
7500.000000000   0.017705 -88.431975   0.984660  30.280017   0.985237  30.633463   0.024898 -117.914797 
7550.000000000   0.016183 -91.988451   0.984944  28.055678   0.985442  28.412382   0.023917 -123.834984 
7600.000000000   0.014779 -95.668907   0.985214  25.830644   0.985653  26.191149   0.023053 -129.820624 
7650.000000000   0.013503 -99.511686   0.985458  23.605902   0.985860  23.970450   0.022311 -135.813958 
7700.000000000   0.012361 -103.571321   0.985668  21.382321   0.986051  21.750879   0.021693 -141.757597 
7750.000000000   0.011351 -107.922918   0.985836  19.160613   0.986219  19.532903   0.021195 -147.599431 
7800.000000000   0.010463 -112.667259   0.985958  16.941311   0.986356  17.316853   0.020812 -153.296958 
7850.000000000   0.009686 -117.934917   0.986031  14.724782   0.986459  15.102962   0.020538 -158.820300 
7900.000000000   0.008937 -123.603226   0.985975  12.511181   0.986439  12.891290   0.020285 -164.098310 
7950.000000000   0.008168 -129.814006   0.985764  10.300539   0.986267  10.681809   0.020014 -169.142735 
8000.000000000   0.007491 -137.355475   0.985540   8.092777   0.986087   8.474480   0.019856 -174.069855 
8050.000000000   0.006918 -146.549367   0.985312   5.887711   0.985903   6.269127   0.019808 -178.896807 
8100.000000000   0.006478 -157.638934   0.985086   3.685081   0.985719   4.065569   0.019865 176.356334 
8150.000000000   0.006214 -170.630198   0.984865   1.484622   0.985539   1.863638   0.020018 171.669279 
8200.000000000   0.006177 174.896864   0.984652  -0.713887   0.985364  -0.336838   0.020256 167.024338 
8250.000000000   0.006404 159.813488   0.984448  -2.910658   0.985194  -2.535973   0.020565 162.408410 
8300.000000000   0.006903 145.132434   0.984254  -5.105780   0.985029  -4.733795   0.020931 157.814541 
8350.000000000   0.007651 131.575065   0.984069  -7.299287   0.984871  -6.930314   0.021338 153.242245 
8400.000000000   0.008602 119.405122   0.983895  -9.491143   0.984719  -9.125455   0.021769 148.697462 
8450.000000000   0.009708 108.556842   0.983733 -11.681264   0.984575 -11.319116   0.022207 144.191833 
8500.000000000   0.010921  98.826078   0.983586 -13.869513   0.984441 -13.511176   0.022638 139.741778 
8550.000000000   0.012201  89.991680   0.983458 -16.055781   0.984323 -15.701514   0.023048 135.367365 
8600.000000000   0.013512  81.865434   0.983357 -18.239986   0.984225 -17.890048   0.023426 131.091604 
8650.000000000   0.014824  74.302531   0.983290 -20.422145   0.984154 -20.076769   0.023762 126.938945 
8700.000000000   0.016112  67.197355   0.983265 -22.602375   0.984117 -22.261739   0.024051 122.934647 
8750.000000000   0.017352  60.475418   0.983292 -24.780940   0.984123 -24.445140   0.024292 119.103469 
8800.000000000   0.018526  54.085517   0.983381 -26.958250   0.984178 -26.627279   0.024487 115.468559 
8850.000000000   0.019621  47.993720   0.983539 -29.134873   0.984291 -28.808577   0.024642 112.049787 
8900.000000000   0.020627  42.178222   0.983772 -31.311541   0.984468 -30.989597   0.024766 108.862041 
8950.000000000   0.021537  36.626069   0.984084 -33.489082   0.984712 -33.170986   0.024872 105.913479 
9000.000000000   0.022350  31.329709   0.984476 -35.668415   0.985026 -35.353464   0.024976 103.203300 
9050.000000000   0.023069  26.284718   0.984944 -37.850491   0.985408 -37.537821   0.025093 100.720372 
9100.000000000   0.023700  21.487600   0.985481 -40.036238   0.985856 -39.724828   0.025241  98.442109 
9150.000000000   0.024253  16.933954   0.986077 -42.226509   0.986361 -41.915232   0.025432  96.334737 
9200.000000000   0.024741  12.616157   0.986717 -44.421975   0.986915 -44.109686   0.025679  94.355223 
9250.000000000   0.025180   8.522359   0.987385 -46.623195   0.987506 -46.308735   0.025987  92.454569 
9300.000000000   0.025586   4.634613   0.988061 -48.830434   0.988119 -48.512775   0.026356  90.582152 
9350.000000000   0.025975   0.928814   0.988726 -51.043732   0.988740 -50.722016   0.026780  88.690935 
9400.000000000   0.026362  -2.625533   0.989358 -53.262860   0.989352 -52.936479   0.027247  86.741604 
