! C:\Work\PySI\TestSignalIntegrity\ScientificPulserSampler\ScientificPulserSamplerTDR_14May2018-164347.s1p
!
! Mon May 14 16:43:47 2018
!
!!Measured using LeCroy SPARQ LCRY2401N02001
!SingleEnded 
!
! freq S11 
! 
# MHz S MA R 50.00  
0.000000000   0.015608 -180.000000 
5.000000000   0.012217 -174.664017 
10.000000000   0.010296 -171.794422 
15.000000000   0.008166 -165.374003 
20.000000000   0.006518 -146.538293 
25.000000000   0.005565 -128.335707 
30.000000000   0.003996 -121.705487 
35.000000000   0.007390 -134.272892 
40.000000000   0.002502 -124.742347 
45.000000000   0.000989   0.338699 
50.000000000   0.002707  43.301799 
55.000000000   0.005348  56.876062 
60.000000000   0.006951  58.837848 
65.000000000   0.008384  64.679366 
70.000000000   0.014683  60.092039 
75.000000000   0.013475  66.713281 
80.000000000   0.012320  75.736257 
85.000000000   0.011127  82.549644 
90.000000000   0.010360  85.477399 
95.000000000   0.008771  95.743608 
100.000000000   0.007255  96.159746 
105.000000000   0.004441 105.959568 
110.000000000   0.003120 126.584831 
115.000000000   0.001920 140.254762 
120.000000000   0.000274 -158.197542 
125.000000000   0.001275  22.908949 
130.000000000   0.003767 -10.459482 
135.000000000   0.005804  -3.303224 
140.000000000   0.008497  -1.871081 
145.000000000   0.009492   5.368316 
150.000000000   0.012034  10.158354 
155.000000000   0.013903  13.918073 
160.000000000   0.014713  20.264076 
165.000000000   0.014252  26.072682 
170.000000000   0.015420  31.911405 
175.000000000   0.015274  39.514717 
180.000000000   0.014519  45.366284 
185.000000000   0.013955  53.245899 
190.000000000   0.012994  63.019797 
195.000000000   0.012259  70.179072 
200.000000000   0.010828  74.696598 
205.000000000   0.010252  76.281332 
210.000000000   0.008117  73.708292 
215.000000000   0.006429  66.417534 
220.000000000   0.005541  50.965054 
225.000000000   0.005113  36.245541 
230.000000000   0.005411  12.191202 
235.000000000   0.006050  -1.208508 
240.000000000   0.008409  -6.034007 
245.000000000   0.009528  -6.012377 
250.000000000   0.010938  -4.313736 
255.000000000   0.011296  -4.610551 
260.000000000   0.012103  -1.467104 
265.000000000   0.012232   3.546575 
270.000000000   0.012914   7.155192 
275.000000000   0.012111  10.298151 
280.000000000   0.012911  11.794585 
285.000000000   0.010471  14.345079 
290.000000000   0.009577  12.931533 
295.000000000   0.010049 -15.626625 
300.000000000   0.009539 -17.561279 
305.000000000   0.008601 -20.424592 
310.000000000   0.008662 -27.265574 
315.000000000   0.009753 -36.907761 
320.000000000   0.011056 -40.641367 
325.000000000   0.011982 -44.587487 
330.000000000   0.013952 -45.583030 
335.000000000   0.015001 -43.191055 
340.000000000   0.015533 -40.843476 
345.000000000   0.017956 -40.803106 
350.000000000   0.017767 -36.035343 
355.000000000   0.017973 -32.891534 
360.000000000   0.016932 -27.627403 
365.000000000   0.017964 -24.333465 
370.000000000   0.016163 -19.973923 
375.000000000   0.015391 -11.805582 
380.000000000   0.013975  -8.420148 
385.000000000   0.011785  -7.214946 
390.000000000   0.009889  -7.303539 
395.000000000   0.008012  -8.218061 
400.000000000   0.005508 -18.627803 
405.000000000   0.004471 -39.292269 
410.000000000   0.004645 -55.946003 
415.000000000   0.005691 -86.350502 
420.000000000   0.007179 -93.140052 
425.000000000   0.009618 -90.615236 
430.000000000   0.011054 -93.056784 
435.000000000   0.013177 -93.401841 
440.000000000   0.014050 -90.342881 
445.000000000   0.015543 -87.784409 
450.000000000   0.015866 -81.656449 
455.000000000   0.016134 -80.475934 
460.000000000   0.015693 -73.729059 
465.000000000   0.014447 -71.641441 
470.000000000   0.013442 -70.293329 
475.000000000   0.012297 -70.757128 
480.000000000   0.011760 -70.961711 
485.000000000   0.011500 -77.564727 
490.000000000   0.010526 -85.118769 
495.000000000   0.010884 -90.702175 
500.000000000   0.011142 -97.607932 
505.000000000   0.011924 -101.217404 
510.000000000   0.013212 -103.615870 
515.000000000   0.015043 -105.856458 
520.000000000   0.017587 -105.974037 
525.000000000   0.017982 -104.546467 
530.000000000   0.019003 -98.796822 
535.000000000   0.019864 -96.336348 
540.000000000   0.020532 -94.585175 
545.000000000   0.021526 -89.785249 
550.000000000   0.019929 -87.248086 
555.000000000   0.019596 -82.168245 
560.000000000   0.018950 -78.902781 
565.000000000   0.017805 -80.039113 
570.000000000   0.016115 -76.530543 
575.000000000   0.014349 -78.254688 
580.000000000   0.012375 -79.072948 
585.000000000   0.010154 -84.322068 
590.000000000   0.009904 -95.578938 
595.000000000   0.009694 -113.045196 
600.000000000   0.010392 -131.942967 
605.000000000   0.011922 -141.656177 
610.000000000   0.014171 -144.862440 
615.000000000   0.016938 -149.339080 
620.000000000   0.019232 -145.831141 
625.000000000   0.021462 -144.777892 
630.000000000   0.023413 -143.007316 
635.000000000   0.025357 -139.486840 
640.000000000   0.027419 -135.676789 
645.000000000   0.028879 -132.032198 
650.000000000   0.028557 -126.241256 
655.000000000   0.029547 -125.166167 
660.000000000   0.028820 -119.749213 
665.000000000   0.028829 -118.203513 
670.000000000   0.028072 -115.226330 
675.000000000   0.027184 -114.791461 
680.000000000   0.026064 -114.747575 
685.000000000   0.023763 -116.875055 
690.000000000   0.023015 -117.361048 
695.000000000   0.021471 -123.596118 
700.000000000   0.021241 -133.181523 
705.000000000   0.021889 -133.498372 
710.000000000   0.023424 -134.048712 
715.000000000   0.023444 -138.518232 
720.000000000   0.024404 -141.583577 
725.000000000   0.026364 -142.015356 
730.000000000   0.027452 -141.984160 
735.000000000   0.028435 -139.045206 
740.000000000   0.029355 -137.244590 
745.000000000   0.030042 -135.318608 
750.000000000   0.029799 -139.035395 
755.000000000   0.029671 -136.140521 
760.000000000   0.030254 -132.934614 
765.000000000   0.029646 -131.479628 
770.000000000   0.027740 -130.993899 
775.000000000   0.025112 -125.584911 
780.000000000   0.023892 -131.120875 
785.000000000   0.021236 -134.216063 
790.000000000   0.020128 -142.073059 
795.000000000   0.022255 -152.750720 
800.000000000   0.023322 -158.215257 
805.000000000   0.025624 -162.575658 
810.000000000   0.027112 -166.857842 
815.000000000   0.030586 -165.619565 
820.000000000   0.033268 -166.511327 
825.000000000   0.034970 -164.112185 
830.000000000   0.037493 -163.874703 
835.000000000   0.040547 -161.528925 
840.000000000   0.041798 -158.935135 
845.000000000   0.043318 -156.239533 
850.000000000   0.044589 -152.484240 
855.000000000   0.044632 -149.780924 
860.000000000   0.045018 -144.820437 
865.000000000   0.043038 -142.097540 
870.000000000   0.039520 -142.082293 
875.000000000   0.038580 -139.833157 
880.000000000   0.037107 -141.372447 
885.000000000   0.035382 -142.934211 
890.000000000   0.035847 -146.532243 
895.000000000   0.034997 -148.754338 
900.000000000   0.032931 -151.459573 
905.000000000   0.032573 -155.155229 
910.000000000   0.031810 -159.238820 
915.000000000   0.032522 -162.107566 
920.000000000   0.034434 -165.092662 
925.000000000   0.036240 -167.115591 
930.000000000   0.037245 -167.164871 
935.000000000   0.038918 -167.997824 
940.000000000   0.041168 -164.306902 
945.000000000   0.042042 -162.129000 
950.000000000   0.041866 -161.107564 
955.000000000   0.042319 -159.538007 
960.000000000   0.041393 -159.072839 
965.000000000   0.040741 -158.222636 
970.000000000   0.039256 -158.551067 
975.000000000   0.036972 -160.157311 
980.000000000   0.037475 -162.637444 
985.000000000   0.036787 -164.333568 
990.000000000   0.035488 -168.322146 
995.000000000   0.033920 -174.409422 
1000.000000000   0.035742 -178.774916 
1005.000000000   0.037600 176.852141 
1010.000000000   0.040463 175.474228 
1015.000000000   0.044922 176.635911 
1020.000000000   0.047319 177.399853 
1025.000000000   0.050300 179.223063 
1030.000000000   0.051210 -179.103299 
1035.000000000   0.052751 -177.365798 
1040.000000000   0.054515 -175.953509 
1045.000000000   0.055989 -174.531998 
1050.000000000   0.057430 -173.035211 
1055.000000000   0.055007 -173.044393 
1060.000000000   0.056057 -172.085917 
1065.000000000   0.055588 -170.624996 
1070.000000000   0.054277 -169.551288 
1075.000000000   0.051867 -168.527590 
1080.000000000   0.050106 -167.700025 
1085.000000000   0.048841 -167.164667 
1090.000000000   0.045520 -166.798244 
1095.000000000   0.041770 -168.207777 
1100.000000000   0.040338 -170.043592 
1105.000000000   0.039743 -172.322557 
1110.000000000   0.040210 -174.985313 
1115.000000000   0.039299 -178.828727 
1120.000000000   0.038072 175.957127 
1125.000000000   0.039731 170.709100 
1130.000000000   0.042416 168.387189 
1135.000000000   0.044392 166.143450 
1140.000000000   0.046809 165.956511 
1145.000000000   0.049414 165.756367 
1150.000000000   0.050505 167.483079 
1155.000000000   0.051800 167.968448 
1160.000000000   0.052419 169.167255 
1165.000000000   0.052586 169.880771 
1170.000000000   0.053119 169.840125 
1175.000000000   0.053417 170.445987 
1180.000000000   0.049921 169.936443 
1185.000000000   0.049573 167.650250 
1190.000000000   0.051288 165.875798 
1195.000000000   0.051714 164.605781 
1200.000000000   0.052269 162.699962 
1205.000000000   0.054101 161.642099 
1210.000000000   0.054795 160.118400 
1215.000000000   0.055872 159.618605 
1220.000000000   0.056159 160.489988 
1225.000000000   0.057727 160.249003 
1230.000000000   0.059909 159.409799 
1235.000000000   0.061431 159.591098 
1240.000000000   0.063469 159.979205 
1245.000000000   0.064285 161.060387 
1250.000000000   0.062408 160.517958 
1255.000000000   0.062822 161.738691 
1260.000000000   0.062057 163.330094 
1265.000000000   0.060433 164.758305 
1270.000000000   0.061429 165.240865 
1275.000000000   0.060019 166.675408 
1280.000000000   0.057155 167.105678 
1285.000000000   0.055142 167.039816 
1290.000000000   0.052171 165.701737 
1295.000000000   0.050173 163.210391 
1300.000000000   0.048095 161.152145 
1305.000000000   0.047029 156.581891 
1310.000000000   0.046112 152.552370 
1315.000000000   0.047006 147.848334 
1320.000000000   0.048777 143.561322 
1325.000000000   0.050680 138.254022 
1330.000000000   0.055529 135.555864 
1335.000000000   0.057760 134.767647 
1340.000000000   0.060847 134.999202 
1345.000000000   0.062429 137.805556 
1350.000000000   0.064671 137.890413 
1355.000000000   0.066409 138.844475 
1360.000000000   0.067546 140.194506 
1365.000000000   0.069001 141.414661 
1370.000000000   0.068511 142.649005 
1375.000000000   0.067391 143.515941 
1380.000000000   0.066901 144.039437 
1385.000000000   0.065637 144.286123 
1390.000000000   0.065050 144.016301 
1395.000000000   0.064493 142.905777 
1400.000000000   0.064655 142.027895 
1405.000000000   0.064626 140.646606 
1410.000000000   0.064636 139.678392 
1415.000000000   0.065587 138.613174 
1420.000000000   0.067067 137.321606 
1425.000000000   0.068263 136.374517 
1430.000000000   0.069426 136.223546 
1435.000000000   0.070878 135.700120 
1440.000000000   0.073080 136.217714 
1445.000000000   0.072978 136.787264 
1450.000000000   0.074282 137.330506 
1455.000000000   0.074545 137.802786 
1460.000000000   0.073537 138.451419 
1465.000000000   0.072956 139.360205 
1470.000000000   0.071205 139.351171 
1475.000000000   0.069718 139.908575 
1480.000000000   0.066877 139.414528 
1485.000000000   0.064826 138.379019 
1490.000000000   0.062292 136.710807 
1495.000000000   0.060367 134.350605 
1500.000000000   0.058727 130.208668 
1505.000000000   0.058484 127.224030 
1510.000000000   0.058172 123.150827 
1515.000000000   0.059830 119.582432 
1520.000000000   0.062507 115.992852 
1525.000000000   0.066495 113.860618 
1530.000000000   0.070502 112.488727 
1535.000000000   0.075147 111.996309 
1540.000000000   0.079345 112.124243 
1545.000000000   0.083606 112.996218 
1550.000000000   0.085761 114.733546 
1555.000000000   0.089671 116.328645 
1560.000000000   0.091293 117.435795 
1565.000000000   0.093159 118.917860 
1570.000000000   0.092697 120.638776 
1575.000000000   0.091953 121.532905 
1580.000000000   0.090908 123.253764 
1585.000000000   0.088739 124.026071 
1590.000000000   0.086838 124.659058 
1595.000000000   0.084759 124.403781 
1600.000000000   0.082434 123.561201 
1605.000000000   0.081226 122.823408 
1610.000000000   0.079461 121.074020 
1615.000000000   0.078789 119.735959 
1620.000000000   0.079146 118.342964 
1625.000000000   0.079340 115.975459 
1630.000000000   0.079549 114.980744 
1635.000000000   0.081394 113.238755 
1640.000000000   0.082670 112.912128 
1645.000000000   0.084345 111.967341 
1650.000000000   0.085718 111.754202 
1655.000000000   0.086888 111.974274 
1660.000000000   0.087934 111.883749 
1665.000000000   0.088585 112.788402 
1670.000000000   0.088083 113.243410 
1675.000000000   0.087266 113.577584 
1680.000000000   0.085936 113.339721 
1685.000000000   0.084982 113.016808 
1690.000000000   0.083301 111.737018 
1695.000000000   0.082104 111.040491 
1700.000000000   0.080885 109.222709 
1705.000000000   0.080722 107.537664 
1710.000000000   0.081247 105.214511 
1715.000000000   0.082680 102.369858 
1720.000000000   0.084416 100.025424 
1725.000000000   0.087008  98.248571 
1730.000000000   0.090081  97.028017 
1735.000000000   0.093479  95.959440 
1740.000000000   0.096274  96.045983 
1745.000000000   0.100496  96.125457 
1750.000000000   0.102224  96.892550 
1755.000000000   0.104511  97.540271 
1760.000000000   0.106298  98.790363 
1765.000000000   0.106878 100.081553 
1770.000000000   0.107377 101.081701 
1775.000000000   0.106906 102.513980 
1780.000000000   0.106129 103.242869 
1785.000000000   0.104722 104.163012 
1790.000000000   0.103041 104.976063 
1795.000000000   0.101101 105.857666 
1800.000000000   0.099356 106.242560 
1805.000000000   0.098250 105.252565 
1810.000000000   0.095698 104.239005 
1815.000000000   0.095028 103.405047 
1820.000000000   0.094609 102.120223 
1825.000000000   0.094624 100.560327 
1830.000000000   0.095140  98.819983 
1835.000000000   0.095662  97.524320 
1840.000000000   0.097390  96.145031 
1845.000000000   0.099235  94.650101 
1850.000000000   0.100916  93.965181 
1855.000000000   0.101206  93.429635 
1860.000000000   0.102936  93.060935 
1865.000000000   0.103767  92.663203 
1870.000000000   0.103577  92.182045 
1875.000000000   0.103460  92.034938 
1880.000000000   0.102391  91.259938 
1885.000000000   0.102351  90.933430 
1890.000000000   0.100959  90.090167 
1895.000000000   0.100173  89.423154 
1900.000000000   0.099495  88.358175 
1905.000000000   0.099682  87.042893 
1910.000000000   0.100431  85.622020 
1915.000000000   0.102142  83.859221 
1920.000000000   0.103467  83.056444 
1925.000000000   0.105892  82.117381 
1930.000000000   0.107845  81.253692 
1935.000000000   0.111249  81.311148 
1940.000000000   0.113093  81.363429 
1945.000000000   0.115283  81.572753 
1950.000000000   0.118503  82.357499 
1955.000000000   0.120525  83.092962 
1960.000000000   0.122527  84.226410 
1965.000000000   0.122527  85.621708 
1970.000000000   0.122169  86.917267 
1975.000000000   0.121275  87.969633 
1980.000000000   0.118414  88.943201 
1985.000000000   0.118161  89.494393 
1990.000000000   0.114434  90.096557 
1995.000000000   0.110475  89.976693 
2000.000000000   0.107393  89.771931 
2005.000000000   0.103161  88.531020 
2010.000000000   0.100214  87.079149 
2015.000000000   0.097153  84.987592 
2020.000000000   0.094761  82.283149 
2025.000000000   0.093953  79.867687 
2030.000000000   0.093496  76.427930 
2035.000000000   0.095377  74.009516 
2040.000000000   0.097636  72.161841 
2045.000000000   0.099846  70.389310 
2050.000000000   0.103499  69.497503 
2055.000000000   0.105700  69.228084 
2060.000000000   0.109524  69.407205 
2065.000000000   0.111866  69.997912 
2070.000000000   0.113767  70.586539 
2075.000000000   0.115290  71.199351 
2080.000000000   0.115966  71.669158 
2085.000000000   0.116028  71.944504 
2090.000000000   0.116613  72.708202 
2095.000000000   0.115314  72.539637 
2100.000000000   0.113829  72.332540 
2105.000000000   0.112655  72.243103 
2110.000000000   0.111101  71.474860 
2115.000000000   0.110322  69.961296 
2120.000000000   0.109502  68.702663 
2125.000000000   0.109533  67.455711 
2130.000000000   0.109318  66.335470 
2135.000000000   0.110334  64.699586 
2140.000000000   0.111932  64.087330 
2145.000000000   0.113183  63.170367 
2150.000000000   0.115396  62.996515 
2155.000000000   0.117587  63.310100 
2160.000000000   0.118847  63.184561 
2165.000000000   0.119985  63.842709 
2170.000000000   0.120666  64.490527 
2175.000000000   0.120882  65.070748 
2180.000000000   0.120568  65.561152 
2185.000000000   0.119200  65.941948 
2190.000000000   0.116576  65.972645 
2195.000000000   0.114189  65.996366 
2200.000000000   0.111134  65.491132 
2205.000000000   0.107855  64.025713 
2210.000000000   0.103636  63.249811 
2215.000000000   0.100967  61.761513 
2220.000000000   0.098479  59.537693 
2225.000000000   0.096620  56.378481 
2230.000000000   0.095282  54.727114 
2235.000000000   0.095464  52.450184 
2240.000000000   0.096406  50.683934 
2245.000000000   0.098018  48.818416 
2250.000000000   0.099627  48.269478 
2255.000000000   0.102691  47.680540 
2260.000000000   0.104693  48.006599 
2265.000000000   0.108271  48.122638 
2270.000000000   0.110032  48.599507 
2275.000000000   0.110915  49.350825 
2280.000000000   0.113370  49.672848 
2285.000000000   0.112488  50.434252 
2290.000000000   0.113495  50.562550 
2295.000000000   0.112846  50.840706 
2300.000000000   0.110528  50.513196 
2305.000000000   0.109577  50.086210 
2310.000000000   0.108539  49.346502 
2315.000000000   0.106800  48.009957 
2320.000000000   0.105527  47.085167 
2325.000000000   0.106016  46.048278 
2330.000000000   0.104544  45.019013 
2335.000000000   0.104776  44.381139 
2340.000000000   0.104707  43.370323 
2345.000000000   0.106112  42.920830 
2350.000000000   0.108471  42.264054 
2355.000000000   0.109154  42.632869 
2360.000000000   0.110095  43.356291 
2365.000000000   0.111152  43.307153 
2370.000000000   0.111252  44.608675 
2375.000000000   0.111754  45.347939 
2380.000000000   0.111465  46.127376 
2385.000000000   0.109015  46.720024 
2390.000000000   0.107778  46.944499 
2395.000000000   0.103346  47.280708 
2400.000000000   0.100695  46.153467 
2405.000000000   0.098455  44.723885 
2410.000000000   0.094650  42.655120 
2415.000000000   0.089123  38.619795 
2420.000000000   0.090001  34.732778 
2425.000000000   0.088294  31.889075 
2430.000000000   0.091002  29.865333 
2435.000000000   0.096670  28.991010 
2440.000000000   0.096903  27.601009 
2445.000000000   0.097058  25.770845 
2450.000000000   0.100867  24.629932 
2455.000000000   0.103922  24.417348 
2460.000000000   0.108224  24.621307 
2465.000000000   0.113134  24.862999 
2470.000000000   0.117064  25.534735 
2475.000000000   0.119576  26.477589 
2480.000000000   0.122501  27.553475 
2485.000000000   0.122332  28.993458 
2490.000000000   0.124356  29.959456 
2495.000000000   0.124365  30.836775 
2500.000000000   0.123072  32.181563 
2505.000000000   0.121155  32.806071 
2510.000000000   0.117721  33.180472 
2515.000000000   0.114438  33.080938 
2520.000000000   0.111841  32.387921 
2525.000000000   0.108776  31.751758 
2530.000000000   0.109250  30.106632 
2535.000000000   0.105083  29.381173 
2540.000000000   0.104227  27.959636 
2545.000000000   0.104096  26.086370 
2550.000000000   0.105031  24.339106 
2555.000000000   0.105575  24.573407 
2560.000000000   0.107914  22.629365 
2565.000000000   0.109860  21.924845 
2570.000000000   0.111823  21.531417 
2575.000000000   0.112959  21.416827 
2580.000000000   0.114310  21.177774 
2585.000000000   0.115056  21.056243 
2590.000000000   0.114208  21.098647 
2595.000000000   0.113262  21.012037 
2600.000000000   0.112438  20.557229 
2605.000000000   0.109934  20.243502 
