! C:\Work\SPARQ2\Technical\Relays\SemiRigidCable1.s2p
!
! Tue Aug  7 09:54:32 2018
!
!!Measured using LeCroy SPARQ LCRY2401N02001
!SingleEnded 
!
! freq S11 S21 S12 S22 
# MHz S MA R 50.00  
0.000000000   0.012458 180.000000   0.995264   0.000000   0.995689   0.000000   0.003484   0.000000 
50.000000000   0.012930 -172.551519   0.995227 -10.393904   0.995657 -10.402879   0.004170 -45.504810 
100.000000000   0.014361 -166.197492   0.995096 -20.774857   0.995542 -20.792041   0.005724 -76.451629 
150.000000000   0.016784 -161.433351   0.994796 -31.131715   0.995264 -31.155631   0.007521 -96.953932 
200.000000000   0.020160 -158.058746   0.994192 -41.456756   0.994668 -41.485412   0.009330 -110.438535 
250.000000000   0.024164 -156.042483   0.993160 -51.746666   0.993585 -51.777779   0.011463 -119.129513 
300.000000000   0.027861 -156.529207   0.991339 -62.002110   0.991630 -62.033393   0.014621 -128.752656 
350.000000000   0.031676 -159.536451   0.989731 -72.228194   0.989894 -72.257559   0.017734 -139.985523 
400.000000000   0.035213 -164.513873   0.988535 -82.433620   0.988587 -82.459419   0.020503 -152.255540 
450.000000000   0.038052 -170.934059   0.987820 -92.629216   0.987784 -92.650284   0.022707 -165.274543 
500.000000000   0.039842 -178.354428   0.987580 -102.826160   0.987478 -102.841878   0.024164 -178.875878 
550.000000000   0.040322 173.588796   0.987740 -113.034292   0.987589 -113.044441   0.024740 167.021186 
600.000000000   0.039334 165.216330   0.988169 -123.260713   0.987982 -123.265370   0.024366 152.420671 
650.000000000   0.036827 156.857823   0.988707 -133.508894   0.988491 -133.508196   0.023036 137.234766 
700.000000000   0.032866 148.936648   0.989191 -143.778416   0.988948 -143.772469   0.020813 121.229734 
750.000000000   0.027638 142.151684   0.989479 -154.065410   0.989207 -154.054091   0.017838 103.886538 
800.000000000   0.021489 137.977021   0.989471 -164.363379   0.989168 -164.346346   0.014338  84.034193 
850.000000000   0.015077 140.316804   0.989121 -174.664432   0.988786 -174.641181   0.010711  58.846607 
900.000000000   0.010133 159.942579   0.988440 175.039412   0.988078 175.069493   0.007789  21.981996 
950.000000000   0.010525 -163.250207   0.987491 164.754958   0.987109 164.792405   0.007201 -28.631442 
1000.000000000   0.015863 -146.258041   0.986372 154.486923   0.985982 154.532050   0.009442 -71.112081 
1050.000000000   0.022430 -144.814714   0.985202 144.237301   0.984819 144.290117   0.012902 -98.879015 
1100.000000000   0.028738 -149.119895   0.984100 134.005338   0.983736 134.065414   0.016508 -119.105089 
1150.000000000   0.034222 -155.744840   0.983163 123.787739   0.982829 123.854294   0.019826 -135.741900 
1200.000000000   0.038594 -163.397363   0.982459 113.579462   0.982158 113.651487   0.022657 -150.450009 
1250.000000000   0.041695 -171.490415   0.982014 103.374679   0.981742 103.451017   0.024895 -164.000118 
1300.000000000   0.043455 -179.708024   0.981815  93.167673   0.981560  93.247332   0.026480 -176.804573 
1350.000000000   0.043873 172.151234   0.981815  82.953768   0.981559  83.036061   0.027380 170.883414 
1400.000000000   0.043004 164.244120   0.981945  72.729926   0.981668  72.814638   0.027573 158.888564 
1450.000000000   0.040946 156.725882   0.982129  62.494940   0.981810  62.582384   0.027051 147.078421 
1500.000000000   0.037835 149.792175   0.982294  52.249412   0.981918  52.340403   0.025812 135.346641 
1550.000000000   0.033840 143.740568   0.982383  41.995347   0.981943  42.091025   0.023864 123.602291 
1600.000000000   0.029179 139.084240   0.982359  31.735584   0.981861  31.837229   0.021234 111.757962 
1650.000000000   0.024147 136.783567   0.982211  21.473245   0.981672  21.581967   0.017971  99.706304 
1700.000000000   0.019208 138.693920   0.981946  11.211110   0.981393  11.327623   0.014152  87.255379 
1750.000000000   0.015202 147.915480   0.981589   0.951298   0.981055   1.075681   0.009885  73.888201 
1800.000000000   0.013502 165.705995   0.981172  -9.304953   0.980694  -9.173382   0.005324  57.258478 
1850.000000000   0.014983 -176.463935   0.980725 -19.557309   0.980336 -19.419987   0.001094  -8.835705 
1900.000000000   0.018653 -167.141440   0.980276 -29.806076   0.980003 -29.665112   0.004420 -122.249002 
1950.000000000   0.023075 -165.052726   0.979842 -40.052012   0.979699 -39.909937   0.008947 -140.401490 
2000.000000000   0.027384 -167.036905   0.979432 -50.295970   0.979419 -50.155415   0.013160 -153.879237 
2050.000000000   0.031121 -171.155913   0.979047 -60.538622   0.979151 -60.402063   0.016875 -166.111194 
2100.000000000   0.034034 -176.349755   0.978684 -70.780350   0.978881 -70.649756   0.019963 -177.705763 
2150.000000000   0.035996 178.008914   0.978339 -81.021243   0.978599 -80.897869   0.022331 171.180063 
2200.000000000   0.036983 172.342112   0.978013 -91.261167   0.978301 -91.145475   0.023930 160.518969 
2250.000000000   0.037055 166.971490   0.977710 -101.499976   0.977995 -101.391608   0.024754 150.335315 
2300.000000000   0.036354 162.162542   0.977438 -111.737681   0.977698 -111.635654   0.024839 140.679889 
2350.000000000   0.035080 158.132664   0.977206 -121.974627   0.977428 -121.877536   0.024254 131.620998 
2400.000000000   0.033471 155.032447   0.977023 -132.211542   0.977204 -132.117825   0.023093 123.241560 
2450.000000000   0.031760 152.909484   0.976888 -142.449448   0.977040 -142.357704   0.021467 115.641583 
2500.000000000   0.030135 151.677881   0.976795 -152.689484   0.976936 -152.598687   0.019493 108.947696 
2550.000000000   0.028695 151.132783   0.976726 -162.932637   0.976879 -162.842284   0.017279 103.336745 
2600.000000000   0.027439 151.035135   0.976655 -173.179460   0.976843 -173.089617   0.014927  99.089730 
2650.000000000   0.026289 151.241436   0.976553 176.570145   0.976792 176.658905   0.012529  96.709044 
2700.000000000   0.025151 151.808563   0.976389 166.317035   0.976691 166.403827   0.010189  97.168479 
2750.000000000   0.023987 153.019341   0.976141 156.062788   0.976505 156.146619   0.008071 102.370169 
2800.000000000   0.022878 155.304257   0.975799 145.809495   0.976216 145.889493   0.006512 115.260085 
2850.000000000   0.022048 159.020648   0.975366 135.559424   0.975819 135.635041   0.006077 135.825369 
2900.000000000   0.021836 164.062923   0.974863 125.314611   0.975330 125.385773   0.007080 154.641179 
2950.000000000   0.022561 169.537712   0.974326 115.076457   0.974782 115.143601   0.009123 164.798367 
3000.000000000   0.024344 174.050363   0.973797 104.845410   0.974220 104.909454   0.011705 168.067116 
3050.000000000   0.027032 176.538752   0.973319  94.620857   0.973691  94.683065   0.014537 167.267623 
3100.000000000   0.030293 176.715630   0.972928  84.401089   0.973238  84.462939   0.017457 164.050605 
3150.000000000   0.033752 174.840535   0.972646  74.183636   0.972888  74.246612   0.020347 159.277918 
3200.000000000   0.037068 171.350152   0.972477  63.965680   0.972651  64.031108   0.023104 153.412201 
3250.000000000   0.039963 166.655165   0.972402  53.744507   0.972510  53.813473   0.025623 146.716086 
3300.000000000   0.042214 161.080494   0.972388  43.518111   0.972434  43.591419   0.027793 139.348633 
3350.000000000   0.043650 154.867732   0.972390  33.285531   0.972374  33.363705   0.029496 131.413454 
3400.000000000   0.044139 148.196113   0.972360  23.046970   0.972280  23.130476   0.030616 122.984082 
3450.000000000   0.043584 141.206885   0.972257  12.803885   0.972107  12.893163   0.031040 114.117593 
3500.000000000   0.041916 134.029474   0.972057   2.558643   0.971829   2.654261   0.030669 104.861557 
3550.000000000   0.039097 126.814165   0.971755  -7.685974   0.971440  -7.583187   0.029425  95.257487 
3600.000000000   0.035126 119.785300   0.971368 -17.927287   0.970961 -17.816248   0.027261  85.341290 
3650.000000000   0.030054 113.354502   0.970934 -28.163295   0.970433 -28.042719   0.024169  75.141410 
3700.000000000   0.024018 108.426893   0.970502 -38.393131   0.969914 -38.261656   0.020182  64.671099 
3750.000000000   0.017332 107.450263   0.970124 -48.617270   0.969466 -48.473686   0.015378  53.903637 
3800.000000000   0.010939 118.791871   0.969847 -58.837516   0.969142 -58.680936   0.009878  42.653647 
3850.000000000   0.008553 160.100599   0.969698 -69.056688   0.968978 -68.886783   0.003843  29.289777 
3900.000000000   0.013580 -169.666999   0.969683 -79.278126   0.968982 -79.095265   0.002573 -151.009277 
3950.000000000   0.021345 -165.127551   0.969783 -89.505034   0.969134 -89.310299   0.009090 -166.478706 
4000.000000000   0.029395 -169.197105   0.969956 -99.739833   0.969387 -99.534989   0.015531 -178.191354 
4050.000000000   0.036921 -176.506716   0.970147 -109.983664   0.969677 -109.770977   0.021664 170.514471 
4100.000000000   0.043448 174.643793   0.970296 -120.236153   0.969931 -120.018128   0.027273 159.347166 
4150.000000000   0.048622 164.938497   0.970351 -130.495396   0.970086 -130.274541   0.032160 148.235819 
4200.000000000   0.052170 154.707506   0.970277 -140.758305   0.970097 -140.536797   0.036150 137.154113 
4250.000000000   0.053904 144.131484   0.970067 -151.021210   0.969947 -150.800702   0.039099 126.086663 
4300.000000000   0.053726 133.316344   0.969739 -161.280504   0.969651 -161.061994   0.040892 115.019557 
4350.000000000   0.051627 122.322261   0.969336 -171.533387   0.969252 -171.317141   0.041453 103.936271 
4400.000000000   0.047683 111.171739   0.968920 178.221525   0.968816 178.435844   0.040736  92.815294 
4450.000000000   0.042050  99.841117   0.968555 167.983914   0.968416 168.197138   0.038735  81.626792 
4500.000000000   0.034949  88.222820   0.968299 157.751702   0.968119 157.964896   0.035478  70.325992 
4550.000000000   0.026653  75.995796   0.968186 147.521455   0.967969 147.735649   0.031030  58.837217 
4600.000000000   0.017485  62.051737   0.968222 137.288972   0.967981 137.504961   0.025497  47.009011 
4650.000000000   0.007922  39.669020   0.968381 127.050146   0.968131 127.268316   0.019025  34.460206 
4700.000000000   0.003998 -83.808962   0.968604 116.801813   0.968364 117.022083   0.011811  19.810507 
4750.000000000   0.013287 -127.637879   0.968811 106.542467   0.968595 106.764345   0.004263  -8.586999 
4800.000000000   0.023084 -143.388250   0.968917  96.272747   0.968731  96.495424   0.004760 -149.662627 
4850.000000000   0.032453 -155.861410   0.968840  85.995453   0.968684  86.218065   0.012762 -175.864524 
4900.000000000   0.041097 -167.350630   0.968525  75.715230   0.968388  75.937047   0.020777 169.586250 
4950.000000000   0.048779 -178.449456   0.967951  65.437912   0.967814  65.658574   0.028375 156.932722 
5000.000000000   0.055284 170.605801   0.967138  55.169574   0.966978  55.389234   0.035280 144.925400 
5050.000000000   0.060413 159.693533   0.966149  44.915520   0.965940  45.134946   0.041257 133.218489 
5100.000000000   0.063986 148.739860   0.965076  34.679340   0.964797  34.899895   0.046108 121.680022 
5150.000000000   0.065851 137.694505   0.964034  24.462151   0.963671  24.685674   0.049676 110.247912 
5200.000000000   0.065896 126.519337   0.963138  14.262343   0.962683  14.490947   0.051852  98.885880 
5250.000000000   0.064057 115.180243   0.962484   4.075616   0.961942   4.311464   0.052576  87.565488 
5300.000000000   0.060336 103.638002   0.962135  -6.104367   0.961520  -5.859308   0.051837  76.256520 
5350.000000000   0.054805  91.833493   0.962106 -16.284992   0.961440 -16.029179   0.049670  64.918974 
5400.000000000   0.047613  79.657134   0.962363 -26.473536   0.961673 -26.205984   0.046151  53.493069 
5450.000000000   0.038987  66.871807   0.962827 -36.675937   0.962142 -36.396256   0.041395  41.881368 
5500.000000000   0.029237  52.868493   0.963386 -46.895810   0.962732 -46.604210   0.035547  29.909183 
5550.000000000   0.018793  35.588497   0.963912 -57.133865   0.963312 -56.831010   0.028790  17.219932 
5600.000000000   0.008629   2.952716   0.964284 -67.387797   0.963754 -67.074681   0.021352   2.933576 
5650.000000000   0.006874 -101.178834   0.964404 -77.652661   0.963955 -77.330414   0.013573 -15.882080 
5700.000000000   0.016308 -143.509353   0.964217 -87.921660   0.963854 -87.591486   0.006511 -55.310450 
5750.000000000   0.026327 -162.054637   0.963716 -98.187303   0.963440 -97.850310   0.006673 -146.824397 
5800.000000000   0.035584 -176.278402   0.962943 -108.442486   0.962754 -108.099717   0.013732 175.144391 
5850.000000000   0.043681 171.005937   0.961987 -118.681720   0.961881 -118.334131   0.021351 156.599562 
5900.000000000   0.050376 159.023030   0.960962 -128.901943   0.960938 -128.550484   0.028515 142.446622 
5950.000000000   0.055513 147.474202   0.959995 -139.103058   0.960050 -138.748689   0.034875 129.910876 
6000.000000000   0.059004 136.215965   0.959201 -149.287922   0.959332 -148.931671   0.040202 118.176921 
6050.000000000   0.060819 125.165152   0.958669 -159.461905   0.958870 -159.104818   0.044330 106.939338 
6100.000000000   0.060978 114.264157   0.958442 -169.631940   0.958704 -169.275068   0.047157  96.073390 
6150.000000000   0.059545 103.466182   0.958517 -179.805489   0.958827 -179.449720   0.048640  85.532149 
6200.000000000   0.056613  92.728264   0.958842 170.010773   0.959181 170.364819   0.048799  75.305995 
6250.000000000   0.052309  82.006946   0.959327 159.811932   0.959675 160.164089   0.047715  65.402881 
6300.000000000   0.046782  71.253708   0.959858 149.595561   0.960196 149.946229   0.045514  55.836003 
6350.000000000   0.040207  60.406143   0.960319 139.362013   0.960627 139.712194   0.042359  46.613641 
6400.000000000   0.032782  49.365381   0.960603 129.114232   0.960870 129.465517   0.038423  37.729666 
6450.000000000   0.024728  37.925889   0.960635 118.857206   0.960862 119.211631   0.033876  29.153852 
6500.000000000   0.016294  25.483850   0.960377 108.597113   0.960577 108.956913   0.028861  20.822755 
6550.000000000   0.007777   8.860892   0.959833  98.340348   0.960034  98.707666   0.023486  12.629601 
6600.000000000   0.001762 -109.282279   0.959048  88.092596   0.959292  88.469123   0.017820   4.402446 
6650.000000000   0.009076 -171.233993   0.958094  77.858070   0.958436  78.244715   0.011905  -4.195309 
6700.000000000   0.016477 173.664105   0.957066  67.638954   0.957564  68.035567   0.005777 -14.485170 
6750.000000000   0.023060 161.425096   0.956059  57.435274   0.956773  57.840488   0.000715 -159.060704 
6800.000000000   0.028611 149.968081   0.955160  47.245020   0.956139  47.656250   0.006980 157.089228 
6850.000000000   0.032975 138.835919   0.954434  37.064636   0.955713  37.478273   0.013356 146.610340 
6900.000000000   0.036054 127.863743   0.953920  26.889653   0.955511  27.301359   0.019535 137.014867 
6950.000000000   0.037797 116.963726   0.953628  16.715402   0.955517  17.120621   0.025301 127.487972 
7000.000000000   0.038204 106.063260   0.953541   6.537663   0.955688   6.932130   0.030416 117.901746 
7050.000000000   0.037314  95.075161   0.953624  -3.646829   0.955965  -3.266565   0.034640 108.265122 
7100.000000000   0.035202  83.870473   0.953831 -13.840164   0.956285 -13.476319   0.037760  98.638308 
7150.000000000   0.031970  72.235918   0.954116 -24.043243   0.956589 -23.696497   0.039603  89.113191 
7200.000000000   0.027748  59.782828   0.954436 -34.255949   0.956835 -33.925390   0.040062  79.812868 
7250.000000000   0.022707  45.711206   0.954759 -44.477540   0.956999 -44.160657   0.039107  70.903520 
7300.000000000   0.017118  28.076368   0.955066 -54.706948   0.957077 -54.400004   0.036789  62.623344 
7350.000000000   0.011620   1.162404   0.955344 -64.943163   0.957079 -64.641534   0.033249  55.344335 
7400.000000000   0.008431 -48.750711   0.955589 -75.185421   0.957027 -74.884108   0.028725  49.708844 
7450.000000000   0.011164 -103.738354   0.955796 -85.433235   0.956943 -85.127445   0.023586  46.944985 
7500.000000000   0.017613 -134.419182   0.955960 -95.686361   0.956847 -95.371909   0.018448  49.552274 
7550.000000000   0.025108 -153.871887   0.956069 -105.944552   0.956744 -105.618356   0.014511  61.814461 
7600.000000000   0.032759 -169.275826   0.956107 -116.207371   0.956632 -115.867604   0.013759  83.663479 
7650.000000000   0.040128 177.006522   0.956054 -126.473906   0.956495 -126.120168   0.016944 101.235951 
7700.000000000   0.046886 164.057500   0.955892 -136.742692   0.956311 -136.375871   0.022448 108.056991 
7750.000000000   0.052737 151.455929   0.955608 -147.011687   0.956060 -146.633788   0.028819 108.038236 
7800.000000000   0.057416 138.981085   0.955200 -157.278449   0.955725 -156.892224   0.035350 104.427338 
7850.000000000   0.060693 126.501805   0.954677 -167.540370   0.955300 -167.148991   0.041660  98.793634 
7900.000000000   0.062383 113.926937   0.954066 -177.795024   0.954798 -177.401715   0.047472  91.873467 
7950.000000000   0.062365 101.177927   0.953404 171.959393   0.954241 172.351702   0.052534  84.031906 
8000.000000000   0.060585  88.167808   0.952738 161.723827   0.953666 162.112737   0.056589  75.465014 
8050.000000000   0.057069  74.777173   0.952114 151.498161   0.953116 151.881929   0.059380  66.289302 
8100.000000000   0.051930  60.815334   0.951578 141.281228   0.952633 141.658816   0.060662  56.582123 
8150.000000000   0.045376  45.942641   0.951158 131.070948   0.952248 131.441963   0.060225  46.398756 
8200.000000000   0.037729  29.491460   0.950870 120.864703   0.951982 121.229272   0.057921  35.777399 
8250.000000000   0.029493  10.005571   0.950708 110.659794   0.951835 111.018398   0.053680  24.735126 
8300.000000000   0.021579 -15.967970   0.950648 100.453899   0.951791 100.807134   0.047532  13.251739 
8350.000000000   0.016037 -55.189129   0.950652  90.245472   0.951818  90.593955   0.039609   1.224192 
8400.000000000   0.016220 -104.621589   0.950675  80.034062   0.951873  80.378263   0.030154 -11.682764 
8450.000000000   0.021752 -142.222183   0.950673  69.820394   0.951912  70.160600   0.019528 -26.715188 
8500.000000000   0.029176 -167.050621   0.950608  59.606259   0.951900  59.942533   0.008388 -52.256879 
8550.000000000   0.036632 174.315381   0.950461  49.394245   0.951810  49.726512   0.005511 178.894797 
8600.000000000   0.043355 158.678866   0.950230  39.187255   0.951637  39.515372   0.016567 140.804723 
8650.000000000   0.048972 144.680877   0.949936  28.988077   0.951396  29.311953   0.027791 124.460009 
8700.000000000   0.053282 131.684442   0.949617  18.798894   0.951118  19.118574   0.038162 111.115787 
8750.000000000   0.056189 119.352386   0.949325   8.620831   0.950851   8.936633   0.047258  98.806810 
8800.000000000   0.057659 107.482107   0.949119  -1.546195   0.950650  -1.233620   0.054781  87.036447 
8850.000000000   0.057710  95.934008   0.949058 -11.703605   0.950572 -11.393274   0.060528  75.627137 
8900.000000000   0.056389  84.597533   0.949189 -21.854006   0.950666 -21.544573   0.064383  64.499534 
8950.000000000   0.053763  73.373547   0.949546 -32.000922   0.950967 -31.690762   0.066313  53.608454 
9000.000000000   0.049908  62.163588   0.950143 -42.148377   0.951495 -41.835679   0.066352  42.919152 
9050.000000000   0.044912  50.859945   0.950974 -52.300449   0.952248 -51.983351   0.064583  32.396927 
9100.000000000   0.038874  39.328536   0.952013 -62.460880   0.953208 -62.137587   0.061128  22.002500 
9150.000000000   0.031913  27.365582   0.953222 -72.632731   0.954341 -72.301706   0.056128  11.689704 
9200.000000000   0.024182  14.559179   0.954550 -82.818179   0.955602 -82.478197   0.049738   1.403583 
9250.000000000   0.015888  -0.307198   0.955940 -93.018432   0.956938 -92.668733   0.042125  -8.924730 
9300.000000000   0.007421 -23.959825   0.957336 -103.233695   0.958295 -102.874046   0.033470 -19.396565 
9350.000000000   0.003491 -139.111976   0.958686 -113.463406   0.959623 -113.094065   0.023975 -30.220010 
9400.000000000   0.011158 169.579622   0.959945 -123.706245   0.960873 -123.327995   0.013876 -42.135231 
