! C:\Work\SPARQ2\Technical\Relays\Short6.s1p
!
! Tue Aug  7 09:49:34 2018
!
!!Measured using LeCroy SPARQ LCRY2401N02001
!SingleEnded 
!
! freq S11 
! 
# MHz S MA R 50.00  
0.000000000   1.000000 180.000000 
50.000000000   1.000000 178.263107 
100.000000000   1.000000 176.601330 
150.000000000   1.000000 175.072481 
200.000000000   0.994956 173.702878 
250.000000000   0.989791 172.480143 
300.000000000   0.986582 171.356240 
350.000000000   0.985759 170.261440 
400.000000000   0.987092 169.125321 
450.000000000   0.989805 167.897270 
500.000000000   0.992851 166.558992 
550.000000000   0.995231 165.125778 
600.000000000   0.996274 163.638021 
650.000000000   0.995789 162.146828 
700.000000000   0.994074 160.698588 
750.000000000   0.991781 159.321979 
800.000000000   0.989692 158.020854 
850.000000000   0.988465 156.774649 
900.000000000   0.988442 155.546607 
950.000000000   0.989564 154.296739 
1000.000000000   0.991424 152.995055 
1050.000000000   0.993427 151.630203 
1100.000000000   0.995001 150.211087 
1150.000000000   0.995774 148.761783 
1200.000000000   0.995671 147.312194 
1250.000000000   0.994909 145.887843 
1300.000000000   0.993897 144.501857 
1350.000000000   0.993075 143.151517 
1400.000000000   0.992757 141.820414 
1450.000000000   0.993026 140.485312 
1500.000000000   0.993711 139.125114 
1550.000000000   0.994467 137.728675 
1600.000000000   0.994896 136.298604 
1650.000000000   0.994702 134.850018 
1700.000000000   0.993785 133.405088 
1750.000000000   0.992276 131.985409 
1800.000000000   0.990490 130.604809 
1850.000000000   0.988812 129.264965 
1900.000000000   0.987570 127.955188 
1950.000000000   0.986925 126.656754 
2000.000000000   0.986828 125.349818 
2050.000000000   0.987053 124.020741 
2100.000000000   0.987298 122.666542 
2150.000000000   0.987305 121.295328 
2200.000000000   0.986965 119.922387 
2250.000000000   0.986363 118.563645 
2300.000000000   0.985745 117.228742 
2350.000000000   0.985430 115.916268 
2400.000000000   0.985676 114.613005 
2450.000000000   0.986568 113.297807 
2500.000000000   0.987962 111.948807 
2550.000000000   0.989508 110.551474 
2600.000000000   0.990748 109.104450 
2650.000000000   0.991262 107.621158 
2700.000000000   0.990804 106.126548 
2750.000000000   0.989388 104.650215 
2800.000000000   0.987302 103.217634 
2850.000000000   0.985026 101.842334 
2900.000000000   0.983096 100.521247 
2950.000000000   0.981937  99.235165 
3000.000000000   0.981733  97.954570 
3050.000000000   0.982370  96.648951 
3100.000000000   0.983475  95.296567 
3150.000000000   0.984545  93.891064 
3200.000000000   0.985108  92.442827 
3250.000000000   0.984875  90.974853 
3300.000000000   0.983822  89.514836 
3350.000000000   0.982193  88.085878 
3400.000000000   0.980404  86.698820 
3450.000000000   0.978895  85.348472 
3500.000000000   0.977966  84.015466 
3550.000000000   0.977661  82.673301 
3600.000000000   0.977739  81.298316 
3650.000000000   0.977745  79.879114 
3700.000000000   0.977166  78.421939 
3750.000000000   0.975605  76.950407 
3800.000000000   0.972941  75.499544 
3850.000000000   0.969403  74.105854 
3900.000000000   0.965543  72.796022 
3950.000000000   0.962111  71.577265 
4000.000000000   0.959851  70.432539 
4050.000000000   0.959288  69.322798 
4100.000000000   0.960562  68.196527 
4150.000000000   0.963373  67.003781 
4200.000000000   0.967051  65.709731 
4250.000000000   0.970732  64.303447 
4300.000000000   0.973574  62.799295 
4350.000000000   0.974959  61.231926 
4400.000000000   0.974620  59.646743 
4450.000000000   0.972675  58.089054 
4500.000000000   0.969563  56.594197 
4550.000000000   0.965910  55.180717 
4600.000000000   0.962361  53.848194 
4650.000000000   0.959427  52.579934 
4700.000000000   0.957386  51.349790 
4750.000000000   0.956263  50.130799 
4800.000000000   0.955892  48.902432 
4850.000000000   0.956020  47.654522 
4900.000000000   0.956419  46.386660 
4950.000000000   0.956958  45.104323 
5000.000000000   0.957627  43.813489 
5050.000000000   0.958495  42.516072 
5100.000000000   0.959642  41.207930 
5150.000000000   0.961079  39.880058 
5200.000000000   0.962704  38.522355 
5250.000000000   0.964303  37.128436 
5300.000000000   0.965598  35.699502 
5350.000000000   0.966336  34.245680 
5400.000000000   0.966370  32.784386 
5450.000000000   0.965717  31.335986 
5500.000000000   0.964570  29.918322 
5550.000000000   0.963252  28.541432 
5600.000000000   0.962132  27.204442 
5650.000000000   0.961517  25.895558 
5700.000000000   0.961574  24.595337 
5750.000000000   0.962281  23.282298 
5800.000000000   0.963439  21.939065 
5850.000000000   0.964744  20.556839 
5900.000000000   0.965868  19.137043 
5950.000000000   0.966554  17.689896 
6000.000000000   0.966668  16.230645 
6050.000000000   0.966215  14.774977 
6100.000000000   0.965314  13.335160 
6150.000000000   0.964135  11.917824 
6200.000000000   0.962848  10.524185 
6250.000000000   0.961574   9.151927 
6300.000000000   0.960381   7.798034 
6350.000000000   0.959307   6.460899 
6400.000000000   0.958396   5.140930 
6450.000000000   0.957743   3.838989 
6500.000000000   0.957499   2.553433 
6550.000000000   0.957843   1.276941 
6600.000000000   0.958914  -0.005051 
6650.000000000   0.960739  -1.313285 
6700.000000000   0.963158  -2.670351 
6750.000000000   0.965809  -4.094414 
6800.000000000   0.968174  -5.592769 
6850.000000000   0.969672  -7.157358 
6900.000000000   0.969807  -8.763997 
6950.000000000   0.968294 -10.375568 
7000.000000000   0.965168 -11.948794 
7050.000000000   0.960807 -13.443384 
7100.000000000   0.955882 -14.831721 
7150.000000000   0.951222 -16.106809 
7200.000000000   0.947627 -17.285880 
7250.000000000   0.945663 -18.407721 
7300.000000000   0.945524 -19.523463 
7350.000000000   0.946977 -20.683200 
7400.000000000   0.949431 -21.922840 
7450.000000000   0.952106 -23.255395 
7500.000000000   0.954239 -24.669249 
7550.000000000   0.955278 -26.132810 
7600.000000000   0.955012 -27.603882 
7650.000000000   0.953607 -29.040897 
7700.000000000   0.951546 -30.413467 
7750.000000000   0.949487 -31.709988 
7800.000000000   0.948082 -32.940246 
7850.000000000   0.947801 -34.132281 
7900.000000000   0.948814 -35.324030 
7950.000000000   0.950963 -36.552486 
8000.000000000   0.953820 -37.843802 
8050.000000000   0.956829 -39.207546 
8100.000000000   0.959448 -40.636146 
8150.000000000   0.961288 -42.108973 
8200.000000000   0.962181 -43.599174 
8250.000000000   0.962185 -45.080957 
8300.000000000   0.961534 -46.535347 
8350.000000000   0.960541 -47.953303 
8400.000000000   0.959511 -49.335647 
8450.000000000   0.958660 -50.690207 
8500.000000000   0.958090 -52.027548 
8550.000000000   0.957804 -53.356960 
8600.000000000   0.957750 -54.684001 
8650.000000000   0.957878 -56.010461 
8700.000000000   0.958179 -57.336188 
8750.000000000   0.958684 -58.661887 
8800.000000000   0.959443 -59.991274 
8850.000000000   0.960471 -61.331544 
8900.000000000   0.961705 -62.691567 
8950.000000000   0.962984 -64.078496 
9000.000000000   0.964066 -65.493846 
9050.000000000   0.964696 -66.930819 
9100.000000000   0.964685 -68.373995 
9150.000000000   0.963998 -69.802018 
9200.000000000   0.962800 -71.192915 
9250.000000000   0.961458 -72.530796 
9300.000000000   0.960468 -73.812178 
9350.000000000   0.960340 -75.049802 
9400.000000000   0.961446 -76.272109 
9450.000000000   0.963895 -77.517734 
9500.000000000   0.967461 -78.826233 
9550.000000000   0.971601 -80.227551 
9600.000000000   0.975560 -81.733758 
9650.000000000   0.978531 -83.335070 
9700.000000000   0.979836 -85.001134 
9750.000000000   0.979080 -86.686621 
9800.000000000   0.976249 -88.339764 
9850.000000000   0.971719 -89.912201 
9900.000000000   0.966194 -91.368517 
9950.000000000   0.960567 -92.693760 
10000.000000000   0.955739 -93.897103 
10050.000000000   0.952431 -95.010218 
10100.000000000   0.951041 -96.080124 
10150.000000000   0.951584 -97.158179 
10200.000000000   0.953717 -98.288535 
10250.000000000   0.956856 -99.499526 
10300.000000000   0.960321 -100.800023 
10350.000000000   0.963493 -102.180962 
10400.000000000   0.965916 -103.620502 
10450.000000000   0.967360 -105.090668 
10500.000000000   0.967817 -106.563825 
10550.000000000   0.967454 -108.017520 
10600.000000000   0.966547 -109.437256 
10650.000000000   0.965408 -110.817098 
10700.000000000   0.964324 -112.158597 
10750.000000000   0.963521 -113.468723 
10800.000000000   0.963153 -114.757718 
10850.000000000   0.963298 -116.037232 
10900.000000000   0.963967 -117.319199 
10950.000000000   0.965110 -118.615034 
11000.000000000   0.966614 -119.934829 
11050.000000000   0.968304 -121.286253 
11100.000000000   0.969950 -122.672985 
11150.000000000   0.971292 -124.093074 
11200.000000000   0.972076 -125.537795 
11250.000000000   0.972115 -126.991731 
11300.000000000   0.971340 -128.434290 
11350.000000000   0.969846 -129.843068 
11400.000000000   0.967905 -131.198364 
11450.000000000   0.965938 -132.488213 
11500.000000000   0.964447 -133.712568 
11550.000000000   0.963912 -134.885286 
11600.000000000   0.964683 -136.032853 
11650.000000000   0.966885 -137.189574 
11700.000000000   0.970379 -138.390339 
11750.000000000   0.974780 -139.662825 
11800.000000000   0.979533 -141.021556 
11850.000000000   0.984038 -142.465291 
11900.000000000   0.987766 -143.978134 
11950.000000000   0.990367 -145.533854 
12000.000000000   0.991724 -147.101839 
12050.000000000   0.991955 -148.653559 
12100.000000000   0.991366 -150.168021 
12150.000000000   0.990359 -151.635130 
12200.000000000   0.989332 -153.056360 
12250.000000000   0.988589 -154.442534 
12300.000000000   0.988283 -155.809510 
12350.000000000   0.988408 -157.172957 
12400.000000000   0.988838 -158.543977 
12450.000000000   0.989396 -159.926691 
12500.000000000   0.989926 -161.318412 
12550.000000000   0.990353 -162.712037 
12600.000000000   0.990707 -164.099690 
12650.000000000   0.991112 -165.476432 
12700.000000000   0.991731 -166.842815 
12750.000000000   0.992715 -168.205515 
12800.000000000   0.994137 -169.575935 
12850.000000000   0.995961 -170.967166 
12900.000000000   0.998035 -172.390400 
12950.000000000   1.000000 -173.851824 
13000.000000000   1.000000 -175.350962 
13050.000000000   1.000000 -176.880761 
13100.000000000   1.000000 -178.429212 
13150.000000000   1.000000 -179.981882 
13200.000000000   1.000000 178.475275 
13250.000000000   1.000000 176.953639 
13300.000000000   1.000000 175.460479 
13350.000000000   0.998652 173.998477 
13400.000000000   0.996932 172.566126 
13450.000000000   0.995414 171.158536 
13500.000000000   0.994218 169.768391 
13550.000000000   0.993415 168.386723 
13600.000000000   0.993023 167.003589 
13650.000000000   0.993004 165.608787 
13700.000000000   0.993253 164.192854 
13750.000000000   0.993600 162.748524 
13800.000000000   0.993819 161.272501 
13850.000000000   0.993655 159.767103 
13900.000000000   0.992869 158.241226 
13950.000000000   0.991294 156.710036 
14000.000000000   0.988888 155.193059 
14050.000000000   0.985769 153.710730 
14100.000000000   0.982217 152.279833 
14150.000000000   0.978634 150.908854 
14200.000000000   0.975467 149.594545 
14250.000000000   0.973101 148.321008 
14300.000000000   0.971752 147.062263 
14350.000000000   0.971400 145.788058 
14400.000000000   0.971769 144.471675 
14450.000000000   0.972382 143.097382 
14500.000000000   0.972680 141.665300 
14550.000000000   0.972159 140.192277 
14600.000000000   0.970510 138.708534 
14650.000000000   0.967716 137.250765 
14700.000000000   0.964077 135.853292 
14750.000000000   0.960157 134.538889 
14800.000000000   0.956658 133.311666 
14850.000000000   0.954243 132.154248 
14900.000000000   0.953358 131.030731 
14950.000000000   0.954100 129.895532 
15000.000000000   0.956184 128.705669 
15050.000000000   0.959004 127.432624 
15100.000000000   0.961804 126.070049 
15150.000000000   0.963871 124.635190 
15200.000000000   0.964736 123.164103 
15250.000000000   0.964297 121.702239 
15300.000000000   0.962867 120.292603 
15350.000000000   0.961107 118.963821 
15400.000000000   0.959868 117.720954 
15450.000000000   0.959963 116.541555 
15500.000000000   0.961942 115.379281 
15550.000000000   0.965913 114.174877 
15600.000000000   0.971478 112.871647 
15650.000000000   0.977810 111.430475 
15700.000000000   0.983829 109.839722 
15750.000000000   0.988449 108.117826 
15800.000000000   0.990814 106.309005 
15850.000000000   0.990483 104.474170 
15900.000000000   0.987524 102.679217 
15950.000000000   0.982507 100.982533 
16000.000000000   0.976395  99.423331 
16050.000000000   0.970344  98.012683 
16100.000000000   0.965459  96.729767 
16150.000000000   0.962538  95.525503 
16200.000000000   0.961895  94.333768 
16250.000000000   0.963291  93.087712 
16300.000000000   0.966006  91.736081 
16350.000000000   0.969026  90.254443 
16400.000000000   0.971281  88.648789 
16450.000000000   0.971879  86.951860 
16500.000000000   0.970282  85.214470 
16550.000000000   0.966392  83.494474 
16600.000000000   0.960541  81.845560 
16650.000000000   0.953401  80.307425 
16700.000000000   0.945823  78.898979 
16750.000000000   0.938646  77.615899 
16800.000000000   0.932527  76.433613 
16850.000000000   0.927817  75.315257 
16900.000000000   0.924543  74.222460 
16950.000000000   0.922470  73.125512 
17000.000000000   0.921237  72.009564 
17050.000000000   0.920514  70.875083 
17100.000000000   0.920128  69.732926 
17150.000000000   0.920118  68.595994 
17200.000000000   0.920713  67.470346 
17250.000000000   0.922219  66.348851 
17300.000000000   0.924880  65.209697 
17350.000000000   0.928728  64.020719 
17400.000000000   0.933502  62.748414 
17450.000000000   0.938650  61.368660 
17500.000000000   0.943430  59.875437 
17550.000000000   0.947077  58.284842 
17600.000000000   0.948991  56.633338 
17650.000000000   0.948895  54.970918 
17700.000000000   0.946925  53.350830 
17750.000000000   0.943620  51.817804 
17800.000000000   0.939810  50.397207 
17850.000000000   0.936425  49.087868 
17900.000000000   0.934260  47.861294 
17950.000000000   0.933771  46.668643 
18000.000000000   0.934956  45.454290 
18050.000000000   0.937372  44.171486 
18100.000000000   0.940277  42.794948 
18150.000000000   0.942853  41.326116 
18200.000000000   0.944433  39.790329 
18250.000000000   0.944674  38.227621 
18300.000000000   0.943622  36.680310 
18350.000000000   0.941659  35.180820 
18400.000000000   0.939358  33.742963 
18450.000000000   0.937275  32.359233 
18500.000000000   0.935756  31.005280 
18550.000000000   0.934820  29.650611 
18600.000000000   0.934171  28.271573 
18650.000000000   0.933321  26.862009 
18700.000000000   0.931804  25.437403 
18750.000000000   0.929384  24.031025 
18800.000000000   0.926210  22.683015 
18850.000000000   0.922837  21.425425 
18900.000000000   0.920098  20.267575 
18950.000000000   0.918862  19.186921 
19000.000000000   0.919723  18.130405 
19050.000000000   0.922744  17.027829 
19100.000000000   0.927360  15.813713 
19150.000000000   0.932478  14.449562 
19200.000000000   0.936766  12.938154 
19250.000000000   0.939038  11.325524 
19300.000000000   0.938619   9.691093 
19350.000000000   0.935599   8.128784 
19400.000000000   0.930905   6.722614 
19450.000000000   0.926142   5.520440 
19500.000000000   0.923207   4.512364 
19550.000000000   0.923752   3.622780 
19600.000000000   0.928626   2.724631 
19650.000000000   0.937523   1.675173 
19700.000000000   0.948972   0.360032 
19750.000000000   0.960682  -1.273249 
19800.000000000   0.970116  -3.203230 
19850.000000000   0.975099  -5.342749 
19900.000000000   0.974308  -7.558912 
19950.000000000   0.967583  -9.697700 
20000.000000000   0.956002 -11.610541 
20050.000000000   0.941722 -13.182873 
20100.000000000   0.927574 -14.363195 
20150.000000000   0.916444 -15.185275 
20200.000000000   0.910557 -15.770360 
20250.000000000   0.910878 -16.298915 
20300.000000000   0.916878 -16.957122 
20350.000000000   0.926769 -17.881816 
20400.000000000   0.938082 -19.128788 
20450.000000000   0.948367 -20.672652 
20500.000000000   0.955752 -22.428905 
20550.000000000   0.959277 -24.284066 
20600.000000000   0.958958 -26.124255 
20650.000000000   0.955637 -27.858228 
20700.000000000   0.950663 -29.433146 
20750.000000000   0.945500 -30.841176 
20800.000000000   0.941339 -32.115115 
20850.000000000   0.938837 -33.313341 
20900.000000000   0.938041 -34.498635 
20950.000000000   0.938512 -35.718551 
21000.000000000   0.939572 -36.994303 
21050.000000000   0.940587 -38.320791 
21100.000000000   0.941166 -39.675557 
21150.000000000   0.941240 -41.031790 
21200.000000000   0.940997 -42.370057 
21250.000000000   0.940737 -43.684946 
21300.000000000   0.940694 -44.984633 
21350.000000000   0.940912 -46.284119 
21400.000000000   0.941223 -47.595416 
21450.000000000   0.941328 -48.918985 
21500.000000000   0.940958 -50.240285 
21550.000000000   0.940039 -51.533055 
21600.000000000   0.938802 -52.768543 
21650.000000000   0.937777 -53.927571 
21700.000000000   0.937672 -55.011410 
21750.000000000   0.939155 -56.046766 
21800.000000000   0.942612 -57.081817 
21850.000000000   0.947977 -58.173436 
21900.000000000   0.954696 -59.369841 
21950.000000000   0.961855 -60.695264 
22000.000000000   0.968432 -62.142197 
22050.000000000   0.973580 -63.673342 
22100.000000000   0.976877 -65.231854 
22150.000000000   0.978456 -66.756722 
22200.000000000   0.978984 -68.199606 
22250.000000000   0.979486 -69.539339 
22300.000000000   0.981065 -70.790013 
22350.000000000   0.984565 -71.999145 
22400.000000000   0.990306 -73.235037 
22450.000000000   0.997964 -74.566931 
22500.000000000   1.000000 -76.044942 
22550.000000000   1.000000 -77.686847 
22600.000000000   1.000000 -79.474971 
22650.000000000   1.000000 -81.362137 
22700.000000000   1.000000 -83.283185 
22750.000000000   1.000000 -85.168408 
22800.000000000   1.000000 -86.956269 
22850.000000000   1.000000 -88.603584 
22900.000000000   1.000000 -90.091754 
22950.000000000   1.000000 -91.428218 
23000.000000000   1.000000 -92.642858 
23050.000000000   0.998484 -93.780552 
23100.000000000   0.998953 -94.892342 
23150.000000000   1.000000 -96.027742 
23200.000000000   1.000000 -97.229900 
23250.000000000   1.000000 -98.533447 
23300.000000000   1.000000 -99.963688 
23350.000000000   1.000000 -101.535568 
23400.000000000   1.000000 -103.251532 
23450.000000000   1.000000 -105.098752 
23500.000000000   1.000000 -107.046756 
23550.000000000   1.000000 -109.046976 
23600.000000000   1.000000 -111.035223 
23650.000000000   1.000000 -112.937803 
23700.000000000   1.000000 -114.681474 
23750.000000000   1.000000 -116.206737 
23800.000000000   0.996338 -117.482869 
23850.000000000   0.986543 -118.520840 
23900.000000000   0.980181 -119.378562 
23950.000000000   0.978211 -120.153339 
24000.000000000   0.980766 -120.960800 
24050.000000000   0.987124 -121.906827 
24100.000000000   0.995897 -123.063251 
24150.000000000   1.000000 -124.455724 
24200.000000000   1.000000 -126.065468 
24250.000000000   1.000000 -127.840638 
24300.000000000   1.000000 -129.711466 
24350.000000000   1.000000 -131.604647 
24400.000000000   1.000000 -133.454540 
24450.000000000   1.000000 -135.210365 
24500.000000000   1.000000 -136.839362 
24550.000000000   1.000000 -138.326588 
24600.000000000   0.993230 -139.672721 
24650.000000000   0.987095 -140.891511 
24700.000000000   0.982692 -142.008367 
24750.000000000   0.980574 -143.060533 
24800.000000000   0.981123 -144.097582 
24850.000000000   0.984456 -145.179850 
24900.000000000   0.990311 -146.372756 
24950.000000000   0.997967 -147.736366 
25000.000000000   1.000000 -149.312770 
25050.000000000   1.000000 -151.114830 
25100.000000000   1.000000 -153.119756 
25150.000000000   1.000000 -155.268988 
25200.000000000   1.000000 -157.473981 
25250.000000000   1.000000 -159.626885 
25300.000000000   0.993140 -161.615625 
25350.000000000   0.976695 -163.342880 
25400.000000000   0.959383 -164.748026 
25450.000000000   0.943565 -165.827768 
25500.000000000   0.931323 -166.646896 
