! C:\Work\SPARQ2\Technical\Relays\WeinschelLoad.s1p
!
! Tue Aug  7 09:53:37 2018
!
!!Measured using LeCroy SPARQ LCRY2401N02001
!SingleEnded 
!
! freq S11 
! 
# MHz S MA R 50.00  
0.000000000   0.005997 180.000000 
50.000000000   0.006000 179.659573 
100.000000000   0.006007 179.308272 
150.000000000   0.006018 178.935593 
200.000000000   0.006034 178.531798 
250.000000000   0.006053 178.088114 
300.000000000   0.006074 177.597099 
350.000000000   0.006097 177.052796 
400.000000000   0.006121 176.450747 
450.000000000   0.006145 175.788086 
500.000000000   0.006167 175.063499 
550.000000000   0.006186 174.277225 
600.000000000   0.006202 173.430815 
650.000000000   0.006214 172.527062 
700.000000000   0.006219 171.569956 
750.000000000   0.006219 170.564467 
800.000000000   0.006211 169.516388 
850.000000000   0.006195 168.432403 
900.000000000   0.006170 167.319648 
950.000000000   0.006137 166.186176 
1000.000000000   0.006094 165.040430 
1050.000000000   0.006042 163.891289 
1100.000000000   0.005980 162.748267 
1150.000000000   0.005909 161.621268 
1200.000000000   0.005829 160.520649 
1250.000000000   0.005740 159.457176 
1300.000000000   0.005643 158.442007 
1350.000000000   0.005539 157.486628 
1400.000000000   0.005428 156.602794 
1450.000000000   0.005312 155.802499 
1500.000000000   0.005191 155.097646 
1550.000000000   0.005067 154.499902 
1600.000000000   0.004941 154.020384 
1650.000000000   0.004815 153.669053 
1700.000000000   0.004690 153.454563 
1750.000000000   0.004567 153.383166 
1800.000000000   0.004449 153.458341 
1850.000000000   0.004337 153.679815 
1900.000000000   0.004233 154.042737 
1950.000000000   0.004137 154.537364 
2000.000000000   0.004051 155.148335 
2050.000000000   0.003976 155.854933 
2100.000000000   0.003912 156.631620 
2150.000000000   0.003860 157.448778 
2200.000000000   0.003819 158.274612 
2250.000000000   0.003789 159.076770 
2300.000000000   0.003769 159.824120 
2350.000000000   0.003758 160.488568 
2400.000000000   0.003754 161.046529 
2450.000000000   0.003756 161.479730 
2500.000000000   0.003761 161.775738 
2550.000000000   0.003768 161.927227 
2600.000000000   0.003776 161.932585 
2650.000000000   0.003781 161.794364 
2700.000000000   0.003784 161.519078 
2750.000000000   0.003781 161.116343 
2800.000000000   0.003772 160.598182 
2850.000000000   0.003756 159.978674 
2900.000000000   0.003731 159.273603 
2950.000000000   0.003697 158.499823 
3000.000000000   0.003652 157.675808 
3050.000000000   0.003598 156.821287 
3100.000000000   0.003532 155.957345 
3150.000000000   0.003456 155.106919 
3200.000000000   0.003370 154.295273 
3250.000000000   0.003273 153.550112 
3300.000000000   0.003167 152.903006 
3350.000000000   0.003052 152.389203 
3400.000000000   0.002929 152.049589 
3450.000000000   0.002800 151.930980 
3500.000000000   0.002667 152.087517 
3550.000000000   0.002531 152.580856 
3600.000000000   0.002395 153.480619 
3650.000000000   0.002262 154.861623 
3700.000000000   0.002135 156.799375 
3750.000000000   0.002019 159.359560 
3800.000000000   0.001917 162.580943 
3850.000000000   0.001834 166.452069 
3900.000000000   0.001774 170.886176 
3950.000000000   0.001742 175.709397 
4000.000000000   0.001738 -179.327091 
4050.000000000   0.001763 -174.502875 
4100.000000000   0.001814 -170.070330 
4150.000000000   0.001889 -166.209163 
4200.000000000   0.001982 -163.011568 
4250.000000000   0.002088 -160.493190 
4300.000000000   0.002203 -158.617905 
4350.000000000   0.002324 -157.321218 
4400.000000000   0.002446 -156.527933 
4450.000000000   0.002566 -156.162741 
4500.000000000   0.002682 -156.155589 
4550.000000000   0.002791 -156.443806 
4600.000000000   0.002892 -156.972541 
4650.000000000   0.002984 -157.693756 
4700.000000000   0.003064 -158.565463 
4750.000000000   0.003132 -159.550409 
4800.000000000   0.003187 -160.615259 
4850.000000000   0.003229 -161.729438 
4900.000000000   0.003258 -162.864275 
4950.000000000   0.003272 -163.992328 
5000.000000000   0.003273 -165.086479 
5050.000000000   0.003261 -166.119399 
5100.000000000   0.003235 -167.063105 
5150.000000000   0.003198 -167.888354 
5200.000000000   0.003149 -168.563835 
5250.000000000   0.003091 -169.056733 
5300.000000000   0.003025 -169.331958 
5350.000000000   0.002952 -169.352847 
5400.000000000   0.002876 -169.082611 
5450.000000000   0.002798 -168.485487 
5500.000000000   0.002722 -167.530315 
5550.000000000   0.002650 -166.195631 
5600.000000000   0.002588 -164.475254 
5650.000000000   0.002537 -162.385069 
5700.000000000   0.002501 -159.969467 
5750.000000000   0.002485 -157.303987 
5800.000000000   0.002489 -154.491953 
5850.000000000   0.002516 -151.655679 
5900.000000000   0.002566 -148.920874 
5950.000000000   0.002637 -146.401225 
6000.000000000   0.002728 -144.185588 
6050.000000000   0.002837 -142.332618 
6100.000000000   0.002960 -140.870638 
6150.000000000   0.003095 -139.803262 
6200.000000000   0.003237 -139.115673 
6250.000000000   0.003384 -138.781087 
6300.000000000   0.003533 -138.766686 
6350.000000000   0.003681 -139.036949 
6400.000000000   0.003826 -139.556463 
6450.000000000   0.003965 -140.291399 
6500.000000000   0.004096 -141.210022 
6550.000000000   0.004219 -142.283106 
6600.000000000   0.004330 -143.483872 
6650.000000000   0.004429 -144.787667 
6700.000000000   0.004515 -146.171725 
6750.000000000   0.004587 -147.614818 
6800.000000000   0.004644 -149.096871 
6850.000000000   0.004685 -150.598596 
6900.000000000   0.004710 -152.101129 
6950.000000000   0.004719 -153.585695 
7000.000000000   0.004711 -155.033284 
7050.000000000   0.004688 -156.424329 
7100.000000000   0.004650 -157.738334 
7150.000000000   0.004597 -158.953439 
7200.000000000   0.004531 -160.046580 
7250.000000000   0.004452 -160.992632 
7300.000000000   0.004362 -161.764837 
7350.000000000   0.004263 -162.334603 
7400.000000000   0.004158 -162.671907 
7450.000000000   0.004049 -162.746162 
7500.000000000   0.003938 -162.527589 
7550.000000000   0.003829 -161.989467 
7600.000000000   0.003727 -161.111836 
7650.000000000   0.003634 -159.885567 
7700.000000000   0.003556 -158.317678 
7750.000000000   0.003495 -156.436419 
7800.000000000   0.003457 -154.294564 
7850.000000000   0.003444 -151.969398 
7900.000000000   0.003458 -149.557910 
7950.000000000   0.003501 -147.167330 
8000.000000000   0.003572 -144.902952 
8050.000000000   0.003670 -142.856702 
8100.000000000   0.003793 -141.098719 
8150.000000000   0.003936 -139.674454 
8200.000000000   0.004098 -138.605541 
8250.000000000   0.004273 -137.894024 
8300.000000000   0.004459 -137.527697 
8350.000000000   0.004651 -137.484928 
8400.000000000   0.004846 -137.738853 
8450.000000000   0.005042 -138.260454 
8500.000000000   0.005234 -139.020625 
8550.000000000   0.005422 -139.991412 
8600.000000000   0.005601 -141.146783 
8650.000000000   0.005771 -142.462677 
8700.000000000   0.005929 -143.917334 
8750.000000000   0.006074 -145.490996 
8800.000000000   0.006205 -147.165863 
8850.000000000   0.006319 -148.925782 
8900.000000000   0.006416 -150.756097 
8950.000000000   0.006496 -152.643334 
9000.000000000   0.006557 -154.575045 
9050.000000000   0.006599 -156.539667 
9100.000000000   0.006621 -158.526195 
9150.000000000   0.006624 -160.524136 
9200.000000000   0.006607 -162.523196 
9250.000000000   0.006571 -164.513301 
9300.000000000   0.006516 -166.484280 
9350.000000000   0.006441 -168.425770 
9400.000000000   0.006348 -170.326983 
9450.000000000   0.006238 -172.176644 
9500.000000000   0.006110 -173.962671 
9550.000000000   0.005967 -175.672043 
9600.000000000   0.005810 -177.290482 
9650.000000000   0.005639 -178.802231 
9700.000000000   0.005456 179.810206 
9750.000000000   0.005262 178.566445 
9800.000000000   0.005060 177.488534 
9850.000000000   0.004851 176.601291 
9900.000000000   0.004638 175.932711 
9950.000000000   0.004421 175.513892 
10000.000000000   0.004205 175.379318 
10050.000000000   0.003991 175.566268 
10100.000000000   0.003783 176.113858 
10150.000000000   0.003584 177.060834 
10200.000000000   0.003396 178.442079 
10250.000000000   0.003224 -179.716583 
10300.000000000   0.003070 -177.405605 
10350.000000000   0.002939 -174.640192 
10400.000000000   0.002834 -171.467672 
10450.000000000   0.002756 -167.971398 
10500.000000000   0.002707 -164.267791 
10550.000000000   0.002688 -160.494074 
10600.000000000   0.002696 -156.791037 
10650.000000000   0.002729 -153.283169 
10700.000000000   0.002784 -150.064914 
10750.000000000   0.002858 -147.194930 
10800.000000000   0.002946 -144.697651 
10850.000000000   0.003046 -142.570403 
10900.000000000   0.003153 -140.791719 
10950.000000000   0.003264 -139.328920 
11000.000000000   0.003379 -138.144396 
11050.000000000   0.003494 -137.199542 
11100.000000000   0.003609 -136.457359 
11150.000000000   0.003722 -135.884060 
11200.000000000   0.003832 -135.449581 
11250.000000000   0.003940 -135.127926 
11300.000000000   0.004045 -134.897114 
11350.000000000   0.004147 -134.739046 
11400.000000000   0.004246 -134.639055 
11450.000000000   0.004343 -134.585982 
11500.000000000   0.004438 -134.571569 
11550.000000000   0.004531 -134.590240 
11600.000000000   0.004624 -134.638911 
11650.000000000   0.004716 -134.716503 
11700.000000000   0.004808 -134.823660 
11750.000000000   0.004900 -134.962477 
11800.000000000   0.004993 -135.135987 
11850.000000000   0.005086 -135.347976 
11900.000000000   0.005179 -135.602528 
11950.000000000   0.005273 -135.903743 
12000.000000000   0.005367 -136.255516 
12050.000000000   0.005461 -136.661168 
12100.000000000   0.005555 -137.123360 
12150.000000000   0.005647 -137.644017 
12200.000000000   0.005737 -138.223994 
12250.000000000   0.005824 -138.863308 
12300.000000000   0.005907 -139.560947 
12350.000000000   0.005986 -140.314937 
12400.000000000   0.006060 -141.122429 
12450.000000000   0.006127 -141.979622 
12500.000000000   0.006187 -142.882036 
12550.000000000   0.006239 -143.824313 
12600.000000000   0.006282 -144.800493 
12650.000000000   0.006316 -145.803975 
12700.000000000   0.006340 -146.827526 
12750.000000000   0.006352 -147.863351 
12800.000000000   0.006354 -148.903162 
12850.000000000   0.006344 -149.938131 
12900.000000000   0.006323 -150.958850 
12950.000000000   0.006291 -151.955489 
13000.000000000   0.006247 -152.917585 
13050.000000000   0.006192 -153.834307 
13100.000000000   0.006126 -154.694206 
13150.000000000   0.006050 -155.485418 
13200.000000000   0.005966 -156.195754 
13250.000000000   0.005873 -156.812592 
13300.000000000   0.005774 -157.323334 
13350.000000000   0.005669 -157.715425 
13400.000000000   0.005560 -157.976759 
13450.000000000   0.005449 -158.096151 
13500.000000000   0.005337 -158.063932 
13550.000000000   0.005227 -157.872548 
13600.000000000   0.005121 -157.517554 
13650.000000000   0.005021 -156.998269 
13700.000000000   0.004928 -156.318881 
13750.000000000   0.004844 -155.488935 
13800.000000000   0.004772 -154.523998 
13850.000000000   0.004713 -153.445620 
13900.000000000   0.004667 -152.280603 
13950.000000000   0.004636 -151.060105 
14000.000000000   0.004619 -149.817691 
14050.000000000   0.004616 -148.587504 
14100.000000000   0.004626 -147.401984 
14150.000000000   0.004649 -146.289848 
14200.000000000   0.004681 -145.274789 
14250.000000000   0.004722 -144.374373 
14300.000000000   0.004768 -143.599702 
14350.000000000   0.004819 -142.955626 
14400.000000000   0.004871 -142.441351 
14450.000000000   0.004922 -142.050922 
14500.000000000   0.004971 -141.774378 
14550.000000000   0.005015 -141.598271 
14600.000000000   0.005052 -141.506536 
14650.000000000   0.005082 -141.480959 
14700.000000000   0.005102 -141.501515 
14750.000000000   0.005113 -141.546925 
14800.000000000   0.005112 -141.594573 
14850.000000000   0.005101 -141.620715 
14900.000000000   0.005079 -141.600637 
14950.000000000   0.005046 -141.508832 
15000.000000000   0.005004 -141.318783 
15050.000000000   0.004954 -141.003697 
15100.000000000   0.004897 -140.536816 
15150.000000000   0.004836 -139.892274 
15200.000000000   0.004772 -139.046239 
15250.000000000   0.004711 -137.978953 
15300.000000000   0.004654 -136.676672 
15350.000000000   0.004605 -135.134635 
15400.000000000   0.004570 -133.359812 
15450.000000000   0.004551 -131.373565 
15500.000000000   0.004554 -129.212956 
15550.000000000   0.004581 -126.930351 
15600.000000000   0.004636 -124.590536 
15650.000000000   0.004720 -122.265606 
15700.000000000   0.004834 -120.028245 
15750.000000000   0.004979 -117.944982 
15800.000000000   0.005152 -116.070769 
15850.000000000   0.005351 -114.445825 
15900.000000000   0.005575 -113.094923 
15950.000000000   0.005819 -112.028449 
16000.000000000   0.006080 -111.245110 
16050.000000000   0.006355 -110.734650 
16100.000000000   0.006639 -110.480613 
16150.000000000   0.006930 -110.462894 
16200.000000000   0.007224 -110.659364 
16250.000000000   0.007517 -111.047313 
16300.000000000   0.007806 -111.604313 
16350.000000000   0.008090 -112.308705 
16400.000000000   0.008365 -113.139967 
16450.000000000   0.008629 -114.078734 
16500.000000000   0.008879 -115.106899 
16550.000000000   0.009115 -116.207457 
16600.000000000   0.009333 -117.364459 
16650.000000000   0.009534 -118.562882 
16700.000000000   0.009715 -119.788455 
16750.000000000   0.009877 -121.027554 
16800.000000000   0.010017 -122.267106 
16850.000000000   0.010137 -123.494449 
16900.000000000   0.010236 -124.697256 
16950.000000000   0.010313 -125.863494 
17000.000000000   0.010371 -126.981353 
17050.000000000   0.010410 -128.039282 
17100.000000000   0.010430 -129.026000 
17150.000000000   0.010434 -129.930609 
17200.000000000   0.010424 -130.742693 
17250.000000000   0.010401 -131.452588 
17300.000000000   0.010369 -132.051608 
17350.000000000   0.010329 -132.532431 
17400.000000000   0.010287 -132.889510 
17450.000000000   0.010244 -133.119539 
17500.000000000   0.010204 -133.221990 
17550.000000000   0.010172 -133.199634 
17600.000000000   0.010150 -133.058924 
17650.000000000   0.010142 -132.810320 
17700.000000000   0.010152 -132.468362 
17750.000000000   0.010183 -132.051415 
17800.000000000   0.010236 -131.581209 
17850.000000000   0.010315 -131.081888 
17900.000000000   0.010420 -130.578996 
17950.000000000   0.010551 -130.098161 
18000.000000000   0.010708 -129.663845 
18050.000000000   0.010891 -129.298212 
18100.000000000   0.011097 -129.020219 
18150.000000000   0.011325 -128.845074 
18200.000000000   0.011571 -128.783890 
18250.000000000   0.011833 -128.843832 
18300.000000000   0.012107 -129.028274 
18350.000000000   0.012389 -129.337288 
18400.000000000   0.012676 -129.768106 
18450.000000000   0.012964 -130.315708 
18500.000000000   0.013249 -130.973221 
18550.000000000   0.013529 -131.732456 
18600.000000000   0.013800 -132.584245 
18650.000000000   0.014059 -133.518727 
18700.000000000   0.014302 -134.525639 
18750.000000000   0.014529 -135.594453 
18800.000000000   0.014736 -136.714518 
18850.000000000   0.014921 -137.875117 
18900.000000000   0.015083 -139.065572 
18950.000000000   0.015221 -140.275193 
19000.000000000   0.015333 -141.493353 
19050.000000000   0.015420 -142.709439 
19100.000000000   0.015480 -143.912843 
19150.000000000   0.015514 -145.092997 
19200.000000000   0.015522 -146.239318 
19250.000000000   0.015506 -147.341247 
19300.000000000   0.015467 -148.388270 
19350.000000000   0.015406 -149.369982 
19400.000000000   0.015325 -150.276185 
19450.000000000   0.015228 -151.097001 
19500.000000000   0.015117 -151.823091 
19550.000000000   0.014995 -152.445864 
19600.000000000   0.014866 -152.957808 
19650.000000000   0.014735 -153.352896 
19700.000000000   0.014605 -153.626980 
19750.000000000   0.014481 -153.778278 
19800.000000000   0.014368 -153.807866 
19850.000000000   0.014271 -153.720128 
19900.000000000   0.014193 -153.523072 
19950.000000000   0.014139 -153.228596 
20000.000000000   0.014114 -152.852335 
20050.000000000   0.014121 -152.413394 
20100.000000000   0.014161 -151.933719 
20150.000000000   0.014238 -151.437173 
20200.000000000   0.014351 -150.948445 
20250.000000000   0.014501 -150.491864 
20300.000000000   0.014687 -150.090275 
20350.000000000   0.014906 -149.764023 
20400.000000000   0.015158 -149.530223 
20450.000000000   0.015437 -149.402360 
20500.000000000   0.015741 -149.390113 
20550.000000000   0.016065 -149.499471 
20600.000000000   0.016405 -149.733049 
20650.000000000   0.016757 -150.090468 
20700.000000000   0.017116 -150.568925 
20750.000000000   0.017478 -151.163575 
20800.000000000   0.017838 -151.868113 
20850.000000000   0.018193 -152.675063 
20900.000000000   0.018538 -153.576233 
20950.000000000   0.018871 -154.562926 
21000.000000000   0.019188 -155.626191 
21050.000000000   0.019486 -156.756995 
21100.000000000   0.019763 -157.946335 
21150.000000000   0.020016 -159.185338 
21200.000000000   0.020245 -160.465321 
21250.000000000   0.020446 -161.777815 
21300.000000000   0.020620 -163.114590 
21350.000000000   0.020765 -164.467670 
21400.000000000   0.020882 -165.829350 
21450.000000000   0.020969 -167.192173 
21500.000000000   0.021028 -168.548936 
21550.000000000   0.021058 -169.892721 
21600.000000000   0.021061 -171.216871 
21650.000000000   0.021038 -172.515031 
21700.000000000   0.020990 -173.781129 
21750.000000000   0.020919 -175.009491 
21800.000000000   0.020827 -176.194780 
21850.000000000   0.020717 -177.332142 
21900.000000000   0.020590 -178.417200 
21950.000000000   0.020449 -179.446182 
22000.000000000   0.020297 179.584045 
22050.000000000   0.020137 178.675847 
22100.000000000   0.019972 177.830754 
22150.000000000   0.019804 177.049372 
22200.000000000   0.019636 176.331321 
22250.000000000   0.019471 175.675141 
22300.000000000   0.019311 175.078291 
22350.000000000   0.019159 174.537142 
22400.000000000   0.019017 174.047002 
22450.000000000   0.018886 173.602207 
22500.000000000   0.018769 173.196240 
22550.000000000   0.018665 172.821932 
22600.000000000   0.018576 172.471623 
22650.000000000   0.018502 172.137415 
22700.000000000   0.018443 171.811454 
22750.000000000   0.018398 171.486119 
22800.000000000   0.018366 171.154333 
22850.000000000   0.018346 170.809725 
22900.000000000   0.018337 170.446816 
22950.000000000   0.018336 170.061169 
23000.000000000   0.018343 169.649443 
23050.000000000   0.018354 169.209467 
23100.000000000   0.018369 168.740205 
23150.000000000   0.018385 168.241733 
23200.000000000   0.018401 167.715137 
23250.000000000   0.018414 167.162494 
23300.000000000   0.018424 166.586644 
23350.000000000   0.018429 165.991131 
23400.000000000   0.018427 165.380113 
23450.000000000   0.018420 164.758109 
23500.000000000   0.018405 164.129968 
23550.000000000   0.018384 163.500659 
23600.000000000   0.018355 162.875173 
23650.000000000   0.018320 162.258336 
23700.000000000   0.018280 161.654707 
23750.000000000   0.018235 161.068373 
23800.000000000   0.018188 160.502863 
23850.000000000   0.018139 159.960956 
23900.000000000   0.018090 159.444544 
23950.000000000   0.018044 158.954514 
24000.000000000   0.018002 158.490623 
24050.000000000   0.017967 158.051414 
24100.000000000   0.017940 157.634154 
24150.000000000   0.017923 157.234823 
24200.000000000   0.017918 156.848154 
24250.000000000   0.017927 156.467728 
24300.000000000   0.017951 156.086101 
24350.000000000   0.017991 155.695031 
24400.000000000   0.018047 155.285699 
24450.000000000   0.018119 154.849012 
24500.000000000   0.018207 154.375855 
24550.000000000   0.018310 153.857394 
24600.000000000   0.018427 153.285362 
24650.000000000   0.018556 152.652264 
24700.000000000   0.018695 151.951561 
24750.000000000   0.018843 151.177833 
24800.000000000   0.018995 150.326809 
24850.000000000   0.019150 149.395446 
24900.000000000   0.019304 148.381899 
24950.000000000   0.019454 147.285421 
25000.000000000   0.019598 146.106355 
25050.000000000   0.019732 144.846001 
25100.000000000   0.019853 143.506509 
25150.000000000   0.019957 142.090793 
