! File created by SignalIntegrity v1.4.3: Signal and Power Integrity Tools
! https://github.com/Nubis-Communications/SignalIntegrity
# MHz S MA R 50.0
0.0 1.0 0.0 0.0 0.0 0.0 0.0 1.0 0.0
0.0 0.0 0.0 0.0 0.499521 0.0 0.0 0.0
0.0 0.0
2.5 1.0 0.0 0.0 0.0 0.0 0.0 0.999999 0.0
0.0 0.0 0.0 0.0 0.499521 0.004357 0.0 0.0
0.0 0.0
5.0 1.0 0.0 0.0 0.0 0.0 0.0 0.999997 0.0
0.0 0.0 0.0 0.0 0.499521 0.008714 0.0 0.0
0.0 0.0
7.5 1.0 0.0 0.0 0.0 0.0 0.0 0.999993 0.0
0.0 0.0 0.0 0.0 0.499521 0.013071 0.0 0.0
0.0 0.0
10.0 1.0 0.0 0.0 0.0 0.0 0.0 0.999988 0.0
0.0 0.0 0.0 0.0 0.499522 0.017429 0.0 0.0
0.0 0.0
12.5 1.0 0.0 0.0 0.0 0.0 0.0 0.999981 0.0
0.0 0.0 0.0 0.0 0.499522 0.021788 0.0 0.0
0.0 0.0
15.0 1.0 0.0 0.0 0.0 0.0 0.0 0.999973 0.0
0.0 0.0 0.0 0.0 0.499523 0.026147 0.0 0.0
0.0 0.0
17.5 1.0 0.0 0.0 0.0 0.0 0.0 0.999963 0.0
0.0 0.0 0.0 0.0 0.499524 0.030508 0.0 0.0
0.0 0.0
20.0 1.0 0.0 0.0 0.0 0.0 0.0 0.999952 0.0
0.0 0.0 0.0 0.0 0.499525 0.034869 0.0 0.0
0.0 0.0
22.5 1.0 0.0 0.0 0.0 0.0 0.0 0.999939 0.0
0.0 0.0 0.0 0.0 0.499526 0.039232 0.0 0.0
0.0 0.0
25.0 1.0 0.0 0.0 0.0 0.0 0.0 0.999925 0.0
0.0 0.0 0.0 0.0 0.499527 0.043597 0.0 0.0
0.0 0.0
27.5 1.0 0.0 0.0 0.0 0.0 0.0 0.999909 0.0
0.0 0.0 0.0 0.0 0.499529 0.047963 0.0 0.0
0.0 0.0
30.0 1.0 0.0 0.0 0.0 0.0 0.0 0.999892 0.0
0.0 0.0 0.0 0.0 0.49953 0.05233 0.0 0.0
0.0 0.0
32.5 1.0 0.0 0.0 0.0 0.0 0.0 0.999873 0.0
0.0 0.0 0.0 0.0 0.499532 0.0567 0.0 0.0
0.0 0.0
35.0 1.0 0.0 0.0 0.0 0.0 0.0 0.999853 0.0
0.0 0.0 0.0 0.0 0.499534 0.061072 0.0 0.0
0.0 0.0
37.5 1.0 0.0 0.0 0.0 0.0 0.0 0.999831 0.0
0.0 0.0 0.0 0.0 0.499536 0.065447 0.0 0.0
0.0 0.0
40.0 1.0 0.0 0.0 0.0 0.0 0.0 0.999808 0.0
0.0 0.0 0.0 0.0 0.499538 0.069823 0.0 0.0
0.0 0.0
42.5 1.0 0.0 0.0 0.0 0.0 0.0 0.999783 0.0
0.0 0.0 0.0 0.0 0.49954 0.074203 0.0 0.0
0.0 0.0
45.0 1.0 0.0 0.0 0.0 0.0 0.0 0.999757 0.0
0.0 0.0 0.0 0.0 0.499543 0.078585 0.0 0.0
0.0 0.0
47.5 1.0 0.0 0.0 0.0 0.0 0.0 0.999729 0.0
0.0 0.0 0.0 0.0 0.499545 0.08297 0.0 0.0
0.0 0.0
50.0 1.0 0.0 0.0 0.0 0.0 0.0 0.9997 0.0
0.0 0.0 0.0 0.0 0.499548 0.087358 0.0 0.0
0.0 0.0
52.5 1.0 0.0 0.0 0.0 0.0 0.0 0.999669 0.0
0.0 0.0 0.0 0.0 0.49955 0.09175 0.0 0.0
0.0 0.0
55.0 1.0 0.0 0.0 0.0 0.0 0.0 0.999637 0.0
0.0 0.0 0.0 0.0 0.499553 0.096145 0.0 0.0
0.0 0.0
57.5 1.0 0.0 0.0 0.0 0.0 0.0 0.999603 0.0
0.0 0.0 0.0 0.0 0.499556 0.100543 0.0 0.0
0.0 0.0
60.0 1.0 0.0 0.0 0.0 0.0 0.0 0.999567 0.0
0.0 0.0 0.0 0.0 0.49956 0.104945 0.0 0.0
0.0 0.0
62.5 1.0 0.0 0.0 0.0 0.0 0.0 0.999531 0.0
0.0 0.0 0.0 0.0 0.499563 0.109351 0.0 0.0
0.0 0.0
65.0 1.0 0.0 0.0 0.0 0.0 0.0 0.999492 0.0
0.0 0.0 0.0 0.0 0.499566 0.113761 0.0 0.0
0.0 0.0
67.5 1.0 0.0 0.0 0.0 0.0 0.0 0.999453 0.0
0.0 0.0 0.0 0.0 0.49957 0.118175 0.0 0.0
0.0 0.0
70.0 1.0 0.0 0.0 0.0 0.0 0.0 0.999411 0.0
0.0 0.0 0.0 0.0 0.499574 0.122593 0.0 0.0
0.0 0.0
72.5 1.0 0.0 0.0 0.0 0.0 0.0 0.999368 0.0
0.0 0.0 0.0 0.0 0.499578 0.127016 0.0 0.0
0.0 0.0
75.0 1.0 0.0 0.0 0.0 0.0 0.0 0.999324 0.0
0.0 0.0 0.0 0.0 0.499582 0.131443 0.0 0.0
0.0 0.0
77.5 1.0 0.0 0.0 0.0 0.0 0.0 0.999278 0.0
0.0 0.0 0.0 0.0 0.499586 0.135875 0.0 0.0
0.0 0.0
80.0 1.0 0.0 0.0 0.0 0.0 0.0 0.999231 0.0
0.0 0.0 0.0 0.0 0.49959 0.140312 0.0 0.0
0.0 0.0
82.5 1.0 0.0 0.0 0.0 0.0 0.0 0.999182 0.0
0.0 0.0 0.0 0.0 0.499595 0.144754 0.0 0.0
0.0 0.0
85.0 1.0 0.0 0.0 0.0 0.0 0.0 0.999132 0.0
0.0 0.0 0.0 0.0 0.499599 0.149201 0.0 0.0
0.0 0.0
87.5 1.0 0.0 0.0 0.0 0.0 0.0 0.99908 0.0
0.0 0.0 0.0 0.0 0.499604 0.153653 0.0 0.0
0.0 0.0
90.0 1.0 0.0 0.0 0.0 0.0 0.0 0.999027 -0.0
0.0 0.0 0.0 0.0 0.499609 0.15811 0.0 0.0
0.0 0.0
92.5 1.0 0.0 0.0 0.0 0.0 0.0 0.998972 0.0
0.0 0.0 0.0 0.0 0.499614 0.162573 0.0 0.0
0.0 0.0
95.0 1.0 0.0 0.0 0.0 0.0 0.0 0.998916 0.0
0.0 0.0 0.0 0.0 0.49962 0.167042 0.0 0.0
0.0 0.0
97.5 1.0 0.0 0.0 0.0 0.0 0.0 0.998858 0.0
0.0 0.0 0.0 0.0 0.499625 0.171516 0.0 0.0
0.0 0.0
100.0 1.0 0.0 0.0 0.0 0.0 0.0 0.998799 0.0
0.0 0.0 0.0 0.0 0.499631 0.175996 0.0 0.0
0.0 0.0
102.5 1.0 0.0 0.0 0.0 0.0 0.0 0.998738 0.0
0.0 0.0 0.0 0.0 0.499636 0.180482 0.0 0.0
0.0 0.0
105.0 1.0 0.0 0.0 0.0 0.0 0.0 0.998676 0.0
0.0 0.0 0.0 0.0 0.499642 0.184974 0.0 0.0
0.0 0.0
107.5 1.0 0.0 0.0 0.0 0.0 0.0 0.998612 0.0
0.0 0.0 0.0 0.0 0.499648 0.189472 0.0 0.0
0.0 0.0
110.0 1.0 0.0 0.0 0.0 0.0 0.0 0.998547 0.0
0.0 0.0 0.0 0.0 0.499654 0.193977 0.0 0.0
0.0 0.0
112.5 1.0 0.0 0.0 0.0 0.0 0.0 0.99848 0.0
0.0 0.0 0.0 0.0 0.499661 0.198488 0.0 0.0
0.0 0.0
115.0 1.0 0.0 0.0 0.0 0.0 0.0 0.998412 0.0
0.0 0.0 0.0 0.0 0.499667 0.203005 0.0 0.0
0.0 0.0
117.5 1.0 0.0 0.0 0.0 0.0 0.0 0.998342 0.0
0.0 0.0 0.0 0.0 0.499674 0.207529 0.0 0.0
0.0 0.0
120.0 1.0 0.0 0.0 0.0 0.0 0.0 0.998271 0.0
0.0 0.0 0.0 0.0 0.499681 0.212059 0.0 0.0
0.0 0.0
122.5 1.0 0.0 0.0 0.0 0.0 0.0 0.998198 0.0
0.0 0.0 0.0 0.0 0.499688 0.216597 0.0 0.0
0.0 0.0
125.0 1.0 0.0 0.0 0.0 0.0 0.0 0.998124 0.0
0.0 0.0 0.0 0.0 0.499695 0.221141 0.0 0.0
0.0 0.0
127.5 1.0 0.0 0.0 0.0 0.0 0.0 0.998048 0.0
0.0 0.0 0.0 0.0 0.499702 0.225692 0.0 0.0
0.0 0.0
130.0 1.0 0.0 0.0 0.0 0.0 0.0 0.997971 0.0
0.0 0.0 0.0 0.0 0.49971 0.23025 0.0 0.0
0.0 0.0
132.5 1.0 0.0 0.0 0.0 0.0 0.0 0.997892 0.0
0.0 0.0 0.0 0.0 0.499718 0.234815 0.0 0.0
0.0 0.0
135.0 1.0 0.0 0.0 0.0 0.0 0.0 0.997812 0.0
0.0 0.0 0.0 0.0 0.499725 0.239388 0.0 0.0
0.0 0.0
137.5 1.0 0.0 0.0 0.0 0.0 0.0 0.99773 -0.0
0.0 0.0 0.0 0.0 0.499733 0.243967 0.0 0.0
0.0 0.0
140.0 1.0 0.0 0.0 0.0 0.0 0.0 0.997647 -0.0
0.0 0.0 0.0 0.0 0.499742 0.248554 0.0 0.0
0.0 0.0
142.5 1.0 0.0 0.0 0.0 0.0 0.0 0.997562 -0.0
0.0 0.0 0.0 0.0 0.49975 0.253148 0.0 0.0
0.0 0.0
145.0 1.0 0.0 0.0 0.0 0.0 0.0 0.997476 0.0
0.0 0.0 0.0 0.0 0.499759 0.25775 0.0 0.0
0.0 0.0
147.5 1.0 0.0 0.0 0.0 0.0 0.0 0.997389 0.0
0.0 0.0 0.0 0.0 0.499767 0.262359 0.0 0.0
0.0 0.0
150.0 1.0 0.0 0.0 0.0 0.0 0.0 0.997299 -0.0
0.0 0.0 0.0 0.0 0.499776 0.266976 0.0 0.0
0.0 0.0
152.5 1.0 0.0 0.0 0.0 0.0 0.0 0.997209 0.0
0.0 0.0 0.0 0.0 0.499785 0.2716 0.0 0.0
0.0 0.0
155.0 1.0 0.0 0.0 0.0 0.0 0.0 0.997117 -0.0
0.0 0.0 0.0 0.0 0.499795 0.276232 0.0 0.0
0.0 0.0
157.5 1.0 0.0 0.0 0.0 0.0 0.0 0.997023 -0.0
0.0 0.0 0.0 0.0 0.499804 0.280872 0.0 0.0
0.0 0.0
160.0 1.0 0.0 0.0 0.0 0.0 0.0 0.996928 -0.0
0.0 0.0 0.0 0.0 0.499814 0.28552 0.0 0.0
0.0 0.0
162.5 1.0 0.0 0.0 0.0 0.0 0.0 0.996831 0.0
0.0 0.0 0.0 0.0 0.499824 0.290175 0.0 0.0
0.0 0.0
165.0 1.0 0.0 0.0 0.0 0.0 0.0 0.996733 -0.0
0.0 0.0 0.0 0.0 0.499834 0.294838 0.0 0.0
0.0 0.0
167.5 1.0 0.0 0.0 0.0 0.0 0.0 0.996634 -0.0
0.0 0.0 0.0 0.0 0.499844 0.299509 0.0 0.0
0.0 0.0
170.0 1.0 0.0 0.0 0.0 0.0 0.0 0.996533 -0.0
0.0 0.0 0.0 0.0 0.499854 0.304188 0.0 0.0
0.0 0.0
172.5 1.0 0.0 0.0 0.0 0.0 0.0 0.99643 -0.0
0.0 0.0 0.0 0.0 0.499865 0.308875 0.0 0.0
0.0 0.0
175.0 1.0 0.0 0.0 0.0 0.0 0.0 0.996326 -0.0
0.0 0.0 0.0 0.0 0.499876 0.313569 0.0 0.0
0.0 0.0
177.5 1.0 0.0 0.0 0.0 0.0 0.0 0.996221 -0.0
0.0 0.0 0.0 0.0 0.499887 0.318272 0.0 0.0
0.0 0.0
180.0 1.0 0.0 0.0 0.0 0.0 0.0 0.996114 -0.0
0.0 0.0 0.0 0.0 0.499898 0.322983 0.0 0.0
0.0 0.0
182.5 1.0 0.0 0.0 0.0 0.0 0.0 0.996005 -0.0
0.0 0.0 0.0 0.0 0.499909 0.327701 0.0 0.0
0.0 0.0
185.0 1.0 0.0 0.0 0.0 0.0 0.0 0.995895 -0.0
0.0 0.0 0.0 0.0 0.499921 0.332428 0.0 0.0
0.0 0.0
187.5 1.0 0.0 0.0 0.0 0.0 0.0 0.995784 -0.0
0.0 0.0 0.0 0.0 0.499933 0.337162 0.0 0.0
0.0 0.0
190.0 1.0 0.0 0.0 0.0 0.0 0.0 0.995671 -0.0
0.0 0.0 0.0 0.0 0.499945 0.341905 0.0 0.0
0.0 0.0
192.5 1.0 0.0 0.0 0.0 0.0 0.0 0.995556 -0.0
0.0 0.0 0.0 0.0 0.499957 0.346655 0.0 0.0
0.0 0.0
195.0 1.0 0.0 0.0 0.0 0.0 0.0 0.99544 -0.0
0.0 0.0 0.0 0.0 0.499969 0.351414 0.0 0.0
0.0 0.0
197.5 1.0 0.0 0.0 0.0 0.0 0.0 0.995323 -0.0
0.0 0.0 0.0 0.0 0.499982 0.35618 0.0 0.0
0.0 0.0
200.0 1.0 0.0 0.0 0.0 0.0 0.0 0.995204 -0.0
0.0 0.0 0.0 0.0 0.499995 0.360955 0.0 0.0
0.0 0.0
202.5 1.0 0.0 0.0 0.0 0.0 0.0 0.995084 -0.0
0.0 0.0 0.0 0.0 0.500008 0.365737 0.0 0.0
0.0 0.0
205.0 1.0 0.0 0.0 0.0 0.0 0.0 0.994962 -0.0
0.0 0.0 0.0 0.0 0.500021 0.370527 0.0 0.0
0.0 0.0
207.5 1.0 0.0 0.0 0.0 0.0 0.0 0.994839 -0.0
0.0 0.0 0.0 0.0 0.500034 0.375325 0.0 0.0
0.0 0.0
210.0 1.0 0.0 0.0 0.0 0.0 0.0 0.994714 -0.0
0.0 0.0 0.0 0.0 0.500048 0.380131 0.0 0.0
0.0 0.0
212.5 1.0 0.0 0.0 0.0 0.0 0.0 0.994588 -0.0
0.0 0.0 0.0 0.0 0.500062 0.384945 0.0 0.0
0.0 0.0
215.0 1.0 0.0 0.0 0.0 0.0 0.0 0.99446 -0.0
0.0 0.0 0.0 0.0 0.500076 0.389767 0.0 0.0
0.0 0.0
217.5 1.0 0.0 0.0 0.0 0.0 0.0 0.994331 -0.0
0.0 0.0 0.0 0.0 0.50009 0.394596 0.0 0.0
0.0 0.0
220.0 1.0 0.0 0.0 0.0 0.0 0.0 0.9942 -0.0
0.0 0.0 0.0 0.0 0.500105 0.399433 0.0 0.0
0.0 0.0
222.5 1.0 0.0 0.0 0.0 0.0 0.0 0.994068 -0.0
0.0 0.0 0.0 0.0 0.50012 0.404277 0.0 0.0
0.0 0.0
225.0 1.0 0.0 0.0 0.0 0.0 0.0 0.993934 -0.0
0.0 0.0 0.0 0.0 0.500135 0.409129 0.0 0.0
0.0 0.0
227.5 1.0 0.0 0.0 0.0 0.0 0.0 0.993799 -0.0
0.0 0.0 0.0 0.0 0.50015 0.413989 0.0 0.0
0.0 0.0
230.0 1.0 0.0 0.0 0.0 0.0 0.0 0.993662 -0.0
0.0 0.0 0.0 0.0 0.500165 0.418856 0.0 0.0
0.0 0.0
232.5 1.0 0.0 0.0 0.0 0.0 0.0 0.993524 -0.0
0.0 0.0 0.0 0.0 0.500181 0.42373 0.0 0.0
0.0 0.0
235.0 1.0 0.0 0.0 0.0 0.0 0.0 0.993385 -0.0
0.0 0.0 0.0 0.0 0.500197 0.428612 0.0 0.0
0.0 0.0
237.5 1.0 0.0 0.0 0.0 0.0 0.0 0.993244 -0.0
0.0 0.0 0.0 0.0 0.500213 0.433501 0.0 0.0
0.0 0.0
240.0 1.0 0.0 0.0 0.0 0.0 0.0 0.993101 -0.0
0.0 0.0 0.0 0.0 0.500229 0.438397 0.0 0.0
0.0 0.0
242.5 1.0 0.0 0.0 0.0 0.0 0.0 0.992957 -0.0
0.0 0.0 0.0 0.0 0.500246 0.443301 0.0 0.0
0.0 0.0
245.0 1.0 0.0 0.0 0.0 0.0 0.0 0.992812 -0.0
0.0 0.0 0.0 0.0 0.500263 0.448211 0.0 0.0
0.0 0.0
247.5 1.0 0.0 0.0 0.0 0.0 0.0 0.992665 -0.0
0.0 0.0 0.0 0.0 0.50028 0.453128 0.0 0.0
0.0 0.0
250.0 1.0 0.0 0.0 0.0 0.0 0.0 0.992516 -0.0
0.0 0.0 0.0 0.0 0.500297 0.458052 0.0 0.0
0.0 0.0
252.5 1.0 0.0 0.0 0.0 0.0 0.0 0.992367 -0.0
0.0 0.0 0.0 0.0 0.500315 0.462983 0.0 0.0
0.0 0.0
255.0 1.0 0.0 0.0 0.0 0.0 0.0 0.992215 -0.0
0.0 0.0 0.0 0.0 0.500333 0.46792 0.0 0.0
0.0 0.0
257.5 1.0 0.0 0.0 0.0 0.0 0.0 0.992063 -0.0
0.0 0.0 0.0 0.0 0.500351 0.472864 0.0 0.0
0.0 0.0
260.0 1.0 0.0 0.0 0.0 0.0 0.0 0.991908 -0.0
0.0 0.0 0.0 0.0 0.500369 0.477814 0.0 0.0
0.0 0.0
262.5 1.0 0.0 0.0 0.0 0.0 0.0 0.991753 -0.0
0.0 0.0 0.0 0.0 0.500388 0.48277 0.0 0.0
0.0 0.0
265.0 1.0 0.0 0.0 0.0 0.0 0.0 0.991595 -0.0
0.0 0.0 0.0 0.0 0.500407 0.487733 0.0 0.0
0.0 0.0
267.5 1.0 0.0 0.0 0.0 0.0 0.0 0.991437 -0.0
0.0 0.0 0.0 0.0 0.500426 0.492702 0.0 0.0
0.0 0.0
270.0 1.0 0.0 0.0 0.0 0.0 0.0 0.991277 -0.0
0.0 0.0 0.0 0.0 0.500445 0.497677 0.0 0.0
0.0 0.0
272.5 1.0 0.0 0.0 0.0 0.0 0.0 0.991115 -0.0
0.0 0.0 0.0 0.0 0.500464 0.502657 0.0 0.0
0.0 0.0
275.0 1.0 0.0 0.0 0.0 0.0 0.0 0.990952 -0.0
0.0 0.0 0.0 0.0 0.500484 0.507643 0.0 0.0
0.0 0.0
277.5 1.0 0.0 0.0 0.0 0.0 0.0 0.990788 -0.0
0.0 0.0 0.0 0.0 0.500504 0.512635 0.0 0.0
0.0 0.0
280.0 1.0 0.0 0.0 0.0 0.0 0.0 0.990622 -0.0
0.0 0.0 0.0 0.0 0.500525 0.517633 0.0 0.0
0.0 0.0
282.5 1.0 0.0 0.0 0.0 0.0 0.0 0.990454 -0.0
0.0 0.0 0.0 0.0 0.500545 0.522635 0.0 0.0
0.0 0.0
285.0 1.0 0.0 0.0 0.0 0.0 0.0 0.990285 -0.0
0.0 0.0 0.0 0.0 0.500566 0.527643 0.0 0.0
0.0 0.0
287.5 1.0 0.0 0.0 0.0 0.0 0.0 0.990115 -0.0
0.0 0.0 0.0 0.0 0.500587 0.532655 0.0 0.0
0.0 0.0
290.0 1.0 0.0 0.0 0.0 0.0 0.0 0.989943 -0.0
0.0 0.0 0.0 0.0 0.500608 0.537673 0.0 0.0
0.0 0.0
292.5 1.0 0.0 0.0 0.0 0.0 0.0 0.98977 -0.0
0.0 0.0 0.0 0.0 0.50063 0.542695 0.0 0.0
0.0 0.0
295.0 1.0 0.0 0.0 0.0 0.0 0.0 0.989595 -0.0
0.0 0.0 0.0 0.0 0.500652 0.547722 0.0 0.0
0.0 0.0
297.5 1.0 0.0 0.0 0.0 0.0 0.0 0.989419 -0.0
0.0 0.0 0.0 0.0 0.500674 0.552753 0.0 0.0
0.0 0.0
300.0 1.0 0.0 0.0 0.0 0.0 0.0 0.989241 -0.0
0.0 0.0 0.0 0.0 0.500696 0.557789 0.0 0.0
0.0 0.0
302.5 1.0 0.0 0.0 0.0 0.0 0.0 0.989062 -0.0
0.0 0.0 0.0 0.0 0.500719 0.562828 0.0 0.0
0.0 0.0
305.0 1.0 0.0 0.0 0.0 0.0 0.0 0.988882 -0.0
0.0 0.0 0.0 0.0 0.500742 0.567871 0.0 0.0
0.0 0.0
307.5 1.0 0.0 0.0 0.0 0.0 0.0 0.9887 -0.0
0.0 0.0 0.0 0.0 0.500765 0.572919 0.0 0.0
0.0 0.0
310.0 1.0 0.0 0.0 0.0 0.0 0.0 0.988516 -0.0
0.0 0.0 0.0 0.0 0.500789 0.577969 0.0 0.0
0.0 0.0
312.5 1.0 0.0 0.0 0.0 0.0 0.0 0.988332 -0.0
0.0 0.0 0.0 0.0 0.500812 0.583023 0.0 0.0
0.0 0.0
315.0 1.0 0.0 0.0 0.0 0.0 0.0 0.988145 -0.0
0.0 0.0 0.0 0.0 0.500836 0.58808 0.0 0.0
0.0 0.0
317.5 1.0 0.0 0.0 0.0 0.0 0.0 0.987957 -0.0
0.0 0.0 0.0 0.0 0.500861 0.593141 0.0 0.0
0.0 0.0
320.0 1.0 0.0 0.0 0.0 0.0 0.0 0.987768 -0.0
0.0 0.0 0.0 0.0 0.500885 0.598204 0.0 0.0
0.0 0.0
322.5 1.0 0.0 0.0 0.0 0.0 0.0 0.987578 -0.0
0.0 0.0 0.0 0.0 0.50091 0.60327 0.0 0.0
0.0 0.0
325.0 1.0 0.0 0.0 0.0 0.0 0.0 0.987385 -0.0
0.0 0.0 0.0 0.0 0.500935 0.608338 0.0 0.0
0.0 0.0
327.5 1.0 0.0 0.0 0.0 0.0 0.0 0.987192 -0.0
0.0 0.0 0.0 0.0 0.500961 0.613408 0.0 0.0
0.0 0.0
330.0 1.0 0.0 0.0 0.0 0.0 0.0 0.986997 -0.0
0.0 0.0 0.0 0.0 0.500986 0.618481 0.0 0.0
0.0 0.0
332.5 1.0 0.0 0.0 0.0 0.0 0.0 0.9868 -0.0
0.0 0.0 0.0 0.0 0.501012 0.623555 0.0 0.0
0.0 0.0
335.0 1.0 0.0 0.0 0.0 0.0 0.0 0.986603 -0.0
0.0 0.0 0.0 0.0 0.501038 0.628631 0.0 0.0
0.0 0.0
337.5 1.0 0.0 0.0 0.0 0.0 0.0 0.986403 -0.0
0.0 0.0 0.0 0.0 0.501065 0.633709 0.0 0.0
0.0 0.0
340.0 1.0 0.0 0.0 0.0 0.0 0.0 0.986202 -0.0
0.0 0.0 0.0 0.0 0.501092 0.638788 0.0 0.0
0.0 0.0
342.5 1.0 0.0 0.0 0.0 0.0 0.0 0.986 -0.0
0.0 0.0 0.0 0.0 0.501119 0.643868 0.0 0.0
0.0 0.0
345.0 1.0 0.0 0.0 0.0 0.0 0.0 0.985797 -0.0
0.0 0.0 0.0 0.0 0.501146 0.648948 0.0 0.0
0.0 0.0
347.5 1.0 0.0 0.0 0.0 0.0 0.0 0.985591 -0.0
0.0 0.0 0.0 0.0 0.501174 0.65403 0.0 0.0
0.0 0.0
350.0 1.0 0.0 0.0 0.0 0.0 0.0 0.985385 -0.0
0.0 0.0 0.0 0.0 0.501202 0.659111 0.0 0.0
0.0 0.0
352.5 1.0 0.0 0.0 0.0 0.0 0.0 0.985177 -0.0
0.0 0.0 0.0 0.0 0.50123 0.664194 0.0 0.0
0.0 0.0
355.0 1.0 0.0 0.0 0.0 0.0 0.0 0.984968 -0.0
0.0 0.0 0.0 0.0 0.501258 0.669276 0.0 0.0
0.0 0.0
357.5 1.0 0.0 0.0 0.0 0.0 0.0 0.984757 -0.0
0.0 0.0 0.0 0.0 0.501287 0.674357 0.0 0.0
0.0 0.0
360.0 1.0 0.0 0.0 0.0 0.0 0.0 0.984544 -0.0
0.0 0.0 0.0 0.0 0.501316 0.679439 0.0 0.0
0.0 0.0
362.5 1.0 0.0 0.0 0.0 0.0 0.0 0.984331 -0.0
0.0 0.0 0.0 0.0 0.501345 0.684519 0.0 0.0
0.0 0.0
365.0 1.0 0.0 0.0 0.0 0.0 0.0 0.984116 -0.0
0.0 0.0 0.0 0.0 0.501375 0.689599 0.0 0.0
0.0 0.0
367.5 1.0 0.0 0.0 0.0 0.0 0.0 0.983899 -0.0
0.0 0.0 0.0 0.0 0.501405 0.694678 0.0 0.0
0.0 0.0
370.0 1.0 0.0 0.0 0.0 0.0 0.0 0.983681 -0.0
0.0 0.0 0.0 0.0 0.501435 0.699755 0.0 0.0
0.0 0.0
372.5 1.0 0.0 0.0 0.0 0.0 0.0 0.983462 -0.0
0.0 0.0 0.0 0.0 0.501465 0.704831 0.0 0.0
0.0 0.0
375.0 1.0 0.0 0.0 0.0 0.0 0.0 0.983241 -0.0
0.0 0.0 0.0 0.0 0.501496 0.709905 0.0 0.0
0.0 0.0
377.5 1.0 0.0 0.0 0.0 0.0 0.0 0.983018 -0.0
0.0 0.0 0.0 0.0 0.501527 0.714977 0.0 0.0
0.0 0.0
380.0 1.0 0.0 0.0 0.0 0.0 0.0 0.982795 -0.0
0.0 0.0 0.0 0.0 0.501558 0.720047 0.0 0.0
0.0 0.0
382.5 1.0 0.0 0.0 0.0 0.0 0.0 0.98257 -0.0
0.0 0.0 0.0 0.0 0.50159 0.725114 0.0 0.0
0.0 0.0
385.0 1.0 0.0 0.0 0.0 0.0 0.0 0.982343 -0.0
0.0 0.0 0.0 0.0 0.501622 0.730178 0.0 0.0
0.0 0.0
387.5 1.0 0.0 0.0 0.0 0.0 0.0 0.982115 -0.0
0.0 0.0 0.0 0.0 0.501654 0.73524 0.0 0.0
0.0 0.0
390.0 1.0 0.0 0.0 0.0 0.0 0.0 0.981886 -0.0
0.0 0.0 0.0 0.0 0.501686 0.740298 0.0 0.0
0.0 0.0
392.5 1.0 0.0 0.0 0.0 0.0 0.0 0.981655 -0.0
0.0 0.0 0.0 0.0 0.501719 0.745353 0.0 0.0
0.0 0.0
395.0 1.0 0.0 0.0 0.0 0.0 0.0 0.981423 -0.0
0.0 0.0 0.0 0.0 0.501752 0.750404 0.0 0.0
0.0 0.0
397.5 1.0 0.0 0.0 0.0 0.0 0.0 0.981189 -0.0
0.0 0.0 0.0 0.0 0.501785 0.755451 0.0 0.0
0.0 0.0
400.0 1.0 0.0 0.0 0.0 0.0 0.0 0.980954 -0.0
0.0 0.0 0.0 0.0 0.501819 0.760494 0.0 0.0
0.0 0.0
402.5 1.0 0.0 0.0 0.0 0.0 0.0 0.980717 -0.0
0.0 0.0 0.0 0.0 0.501853 0.765533 0.0 0.0
0.0 0.0
405.0 1.0 0.0 0.0 0.0 0.0 0.0 0.980479 -0.0
0.0 0.0 0.0 0.0 0.501887 0.770567 0.0 0.0
0.0 0.0
407.5 1.0 0.0 0.0 0.0 0.0 0.0 0.98024 -0.0
0.0 0.0 0.0 0.0 0.501921 0.775596 0.0 0.0
0.0 0.0
410.0 1.0 0.0 0.0 0.0 0.0 0.0 0.979999 -0.0
0.0 0.0 0.0 0.0 0.501956 0.78062 0.0 0.0
0.0 0.0
412.5 1.0 0.0 0.0 0.0 0.0 0.0 0.979757 -0.0
0.0 0.0 0.0 0.0 0.501991 0.785638 0.0 0.0
0.0 0.0
415.0 1.0 0.0 0.0 0.0 0.0 0.0 0.979514 -0.0
0.0 0.0 0.0 0.0 0.502026 0.790651 0.0 0.0
0.0 0.0
417.5 1.0 0.0 0.0 0.0 0.0 0.0 0.979269 -0.0
0.0 0.0 0.0 0.0 0.502062 0.795658 0.0 0.0
0.0 0.0
420.0 1.0 0.0 0.0 0.0 0.0 0.0 0.979022 -0.0
0.0 0.0 0.0 0.0 0.502097 0.800659 0.0 0.0
0.0 0.0
422.5 1.0 0.0 0.0 0.0 0.0 0.0 0.978774 -0.0
0.0 0.0 0.0 0.0 0.502134 0.805654 0.0 0.0
0.0 0.0
425.0 1.0 0.0 0.0 0.0 0.0 0.0 0.978525 -0.0
0.0 0.0 0.0 0.0 0.50217 0.810642 0.0 0.0
0.0 0.0
427.5 1.0 0.0 0.0 0.0 0.0 0.0 0.978275 -0.0
0.0 0.0 0.0 0.0 0.502207 0.815623 0.0 0.0
0.0 0.0
430.0 1.0 0.0 0.0 0.0 0.0 0.0 0.978023 -0.0
0.0 0.0 0.0 0.0 0.502244 0.820597 0.0 0.0
0.0 0.0
432.5 1.0 0.0 0.0 0.0 0.0 0.0 0.977769 -0.0
0.0 0.0 0.0 0.0 0.502281 0.825564 0.0 0.0
0.0 0.0
435.0 1.0 0.0 0.0 0.0 0.0 0.0 0.977514 -0.0
0.0 0.0 0.0 0.0 0.502318 0.830523 0.0 0.0
0.0 0.0
437.5 1.0 0.0 0.0 0.0 0.0 0.0 0.977258 -0.0
0.0 0.0 0.0 0.0 0.502356 0.835474 0.0 0.0
0.0 0.0
440.0 1.0 0.0 0.0 0.0 0.0 0.0 0.977 -0.0
0.0 0.0 0.0 0.0 0.502394 0.840418 0.0 0.0
0.0 0.0
442.5 1.0 0.0 0.0 0.0 0.0 0.0 0.976741 -0.0
0.0 0.0 0.0 0.0 0.502433 0.845353 0.0 0.0
0.0 0.0
445.0 1.0 0.0 0.0 0.0 0.0 0.0 0.976481 -0.0
0.0 0.0 0.0 0.0 0.502471 0.850279 0.0 0.0
0.0 0.0
447.5 1.0 0.0 0.0 0.0 0.0 0.0 0.976219 -0.0
0.0 0.0 0.0 0.0 0.50251 0.855197 0.0 0.0
0.0 0.0
450.0 1.0 0.0 0.0 0.0 0.0 0.0 0.975956 -0.0
0.0 0.0 0.0 0.0 0.502549 0.860105 0.0 0.0
0.0 0.0
452.5 1.0 0.0 0.0 0.0 0.0 0.0 0.975691 -0.0
0.0 0.0 0.0 0.0 0.502589 0.865005 0.0 0.0
0.0 0.0
455.0 1.0 0.0 0.0 0.0 0.0 0.0 0.975425 -0.0
0.0 0.0 0.0 0.0 0.502628 0.869894 0.0 0.0
0.0 0.0
457.5 1.0 0.0 0.0 0.0 0.0 0.0 0.975158 -0.0
0.0 0.0 0.0 0.0 0.502668 0.874775 0.0 0.0
0.0 0.0
460.0 1.0 0.0 0.0 0.0 0.0 0.0 0.974889 -0.0
0.0 0.0 0.0 0.0 0.502709 0.879645 0.0 0.0
0.0 0.0
462.5 1.0 0.0 0.0 0.0 0.0 0.0 0.974619 -0.0
0.0 0.0 0.0 0.0 0.502749 0.884504 0.0 0.0
0.0 0.0
465.0 1.0 0.0 0.0 0.0 0.0 0.0 0.974347 -0.0
0.0 0.0 0.0 0.0 0.50279 0.889354 0.0 0.0
0.0 0.0
467.5 1.0 0.0 0.0 0.0 0.0 0.0 0.974074 -0.0
0.0 0.0 0.0 0.0 0.502831 0.894193 0.0 0.0
0.0 0.0
470.0 1.0 0.0 0.0 0.0 0.0 0.0 0.9738 -0.0
0.0 0.0 0.0 0.0 0.502872 0.89902 0.0 0.0
0.0 0.0
472.5 1.0 0.0 0.0 0.0 0.0 0.0 0.973524 -0.0
0.0 0.0 0.0 0.0 0.502914 0.903837 0.0 0.0
0.0 0.0
475.0 1.0 0.0 0.0 0.0 0.0 0.0 0.973247 -0.0
0.0 0.0 0.0 0.0 0.502956 0.908642 0.0 0.0
0.0 0.0
477.5 1.0 0.0 0.0 0.0 0.0 0.0 0.972969 -0.0
0.0 0.0 0.0 0.0 0.502998 0.913436 0.0 0.0
0.0 0.0
480.0 1.0 0.0 0.0 0.0 0.0 0.0 0.972689 -0.0
0.0 0.0 0.0 0.0 0.50304 0.918218 0.0 0.0
0.0 0.0
482.5 1.0 0.0 0.0 0.0 0.0 0.0 0.972408 -0.0
0.0 0.0 0.0 0.0 0.503083 0.922987 0.0 0.0
0.0 0.0
485.0 1.0 0.0 0.0 0.0 0.0 0.0 0.972125 -0.0
0.0 0.0 0.0 0.0 0.503126 0.927745 0.0 0.0
0.0 0.0
487.5 1.0 0.0 0.0 0.0 0.0 0.0 0.971841 -0.0
0.0 0.0 0.0 0.0 0.503169 0.93249 0.0 0.0
0.0 0.0
490.0 1.0 0.0 0.0 0.0 0.0 0.0 0.971555 -0.0
0.0 0.0 0.0 0.0 0.503212 0.937222 0.0 0.0
0.0 0.0
492.5 1.0 0.0 0.0 0.0 0.0 0.0 0.971269 -0.0
0.0 0.0 0.0 0.0 0.503256 0.941941 0.0 0.0
0.0 0.0
495.0 1.0 0.0 0.0 0.0 0.0 0.0 0.970981 -0.0
0.0 0.0 0.0 0.0 0.5033 0.946647 0.0 0.0
0.0 0.0
497.5 1.0 0.0 0.0 0.0 0.0 0.0 0.970691 -0.0
0.0 0.0 0.0 0.0 0.503344 0.95134 0.0 0.0
0.0 0.0
500.0 1.0 0.0 0.0 0.0 0.0 0.0 0.9704 -0.0
0.0 0.0 0.0 0.0 0.503388 0.956019 0.0 0.0
0.0 0.0
502.5 1.0 0.0 0.0 0.0 0.0 0.0 0.970108 -0.0
0.0 0.0 0.0 0.0 0.503433 0.960685 0.0 0.0
0.0 0.0
505.0 1.0 0.0 0.0 0.0 0.0 0.0 0.969814 -0.0
0.0 0.0 0.0 0.0 0.503478 0.965336 0.0 0.0
0.0 0.0
507.5 1.0 0.0 0.0 0.0 0.0 0.0 0.969519 -0.0
0.0 0.0 0.0 0.0 0.503523 0.969973 0.0 0.0
0.0 0.0
510.0 1.0 0.0 0.0 0.0 0.0 0.0 0.969223 -0.0
0.0 0.0 0.0 0.0 0.503568 0.974596 0.0 0.0
0.0 0.0
512.5 1.0 0.0 0.0 0.0 0.0 0.0 0.968925 -0.0
0.0 0.0 0.0 0.0 0.503614 0.979204 0.0 0.0
0.0 0.0
515.0 1.0 0.0 0.0 0.0 0.0 0.0 0.968626 -0.0
0.0 0.0 0.0 0.0 0.50366 0.983797 0.0 0.0
0.0 0.0
517.5 1.0 0.0 0.0 0.0 0.0 0.0 0.968326 -0.0
0.0 0.0 0.0 0.0 0.503706 0.988375 0.0 0.0
0.0 0.0
520.0 1.0 0.0 0.0 0.0 0.0 0.0 0.968024 -0.0
0.0 0.0 0.0 0.0 0.503752 0.992938 0.0 0.0
0.0 0.0
522.5 1.0 0.0 0.0 0.0 0.0 0.0 0.967721 -0.0
0.0 0.0 0.0 0.0 0.503799 0.997486 0.0 0.0
0.0 0.0
525.0 1.0 0.0 0.0 0.0 0.0 0.0 0.967416 -0.0
0.0 0.0 0.0 0.0 0.503845 1.002018 0.0 0.0
0.0 0.0
527.5 1.0 0.0 0.0 0.0 0.0 0.0 0.96711 -0.0
0.0 0.0 0.0 0.0 0.503892 1.006534 0.0 0.0
0.0 0.0
530.0 1.0 0.0 0.0 0.0 0.0 0.0 0.966803 -0.0
0.0 0.0 0.0 0.0 0.50394 1.011034 0.0 0.0
0.0 0.0
