! File created by SignalIntegrity v1.2.1: Signal and Power Integrity Tools
! https://github.com/TeledyneLeCroy/SignalIntegrity
# MHz S MA R 50.0
0.0 1.0 0.0 0.0 0.0 0.0 0.0 0.0 0.0
1.049796 0.0 0.0 0.0 0.0 0.0 0.0 0.0
2.062533 0.0 0.0 0.0 0.0 0.0 0.0 0.0
2.112342 0.0 0.0 0.0 0.0 0.0 0.0 0.0
50.0 1.0 0.0 0.0 0.0 0.0 0.0 0.0 0.0
1.053604 0.638087 0.0 0.0 0.0 0.0 0.0 0.0
1.98345 -28.023476 0.0 0.0 0.0 0.0 0.0 0.0
2.03289 -27.841998 0.0 0.0 0.0 0.0 0.0 0.0
100.0 1.0 -0.0 0.0 0.0 0.0 0.0 0.0 0.0
1.060288 1.045099 0.0 0.0 0.0 0.0 0.0 0.0
1.932938 -54.513594 0.0 0.0 0.0 0.0 0.0 0.0
1.982666 -54.168009 0.0 0.0 0.0 0.0 0.0 0.0
150.0 1.0 0.0 0.0 0.0 0.0 0.0 0.0 0.0
1.066973 1.244989 0.0 0.0 0.0 0.0 0.0 0.0
1.902289 -80.327194 0.0 0.0 0.0 0.0 0.0 0.0
1.95319 -79.828477 0.0 0.0 0.0 0.0 0.0 0.0
200.0 1.0 -0.0 0.0 0.0 0.0 0.0 0.0 0.0
1.071846 1.305549 0.0 0.0 0.0 0.0 0.0 0.0
1.903483 -105.731318 0.0 0.0 0.0 0.0 0.0 0.0
1.956685 -105.08966 0.0 0.0 0.0 0.0 0.0 0.0
250.0 1.0 0.0 0.0 0.0 0.0 0.0 0.0 0.0
1.073779 1.339472 0.0 0.0 0.0 0.0 0.0 0.0
1.920831 -131.538975 0.0 0.0 0.0 0.0 0.0 0.0
1.976771 -130.747783 0.0 0.0 0.0 0.0 0.0 0.0
300.0 1.0 0.0 0.0 0.0 0.0 0.0 0.0 0.0
1.071773 1.510251 0.0 0.0 0.0 0.0 0.0 0.0
1.949059 -158.157861 0.0 0.0 0.0 0.0 0.0 0.0
2.008002 -157.184309 0.0 0.0 0.0 0.0 0.0 0.0
350.0 1.0 -0.0 0.0 0.0 0.0 0.0 0.0 0.0
1.06986 1.939981 0.0 0.0 0.0 0.0 0.0 0.0
1.957498 174.929551 0.0 0.0 0.0 0.0 0.0 0.0
2.020766 176.085489 0.0 0.0 0.0 0.0 0.0 0.0
400.0 1.0 0.0 0.0 0.0 0.0 0.0 0.0 0.0
1.072744 2.779061 0.0 0.0 0.0 0.0 0.0 0.0
1.953103 148.03778 0.0 0.0 0.0 0.0 0.0 0.0
2.021633 149.406513 0.0 0.0 0.0 0.0 0.0 0.0
450.0 1.0 0.0 0.0 0.0 0.0 0.0 0.0 0.0
1.087552 3.641598 0.0 0.0 0.0 0.0 0.0 0.0
1.932844 121.462948 0.0 0.0 0.0 0.0 0.0 0.0
2.00814 123.042772 0.0 0.0 0.0 0.0 0.0 0.0
500.0 1.0 0.0 0.0 0.0 0.0 0.0 0.0 0.0
1.110629 4.042272 0.0 0.0 0.0 0.0 0.0 0.0
1.925054 95.075749 0.0 0.0 0.0 0.0 0.0 0.0
2.00912 96.874 0.0 0.0 0.0 0.0 0.0 0.0
550.0 1.0 0.0 0.0 0.0 0.0 0.0 0.0 0.0
1.13399 3.902607 0.0 0.0 0.0 0.0 0.0 0.0
1.914106 68.960502 0.0 0.0 0.0 0.0 0.0 0.0
2.009739 70.962535 0.0 0.0 0.0 0.0 0.0 0.0
600.0 1.0 0.0 0.0 0.0 0.0 0.0 0.0 0.0
1.150475 3.39615 0.0 0.0 0.0 0.0 0.0 0.0
1.921608 43.046836 0.0 0.0 0.0 0.0 0.0 0.0
2.032022 45.218533 0.0 0.0 0.0 0.0 0.0 0.0
650.0 1.0 -0.0 0.0 0.0 0.0 0.0 0.0 0.0
1.161789 3.073199 0.0 0.0 0.0 0.0 0.0 0.0
1.935778 16.894312 0.0 0.0 0.0 0.0 0.0 0.0
2.06642 19.226593 0.0 0.0 0.0 0.0 0.0 0.0
700.0 1.0 -0.0 0.0 0.0 0.0 0.0 0.0 0.0
1.169222 3.097741 0.0 0.0 0.0 0.0 0.0 0.0
1.962475 -9.429926 0.0 0.0 0.0 0.0 0.0 0.0
2.118309 -7.034197 0.0 0.0 0.0 0.0 0.0 0.0
750.0 1.0 0.0 0.0 0.0 0.0 0.0 0.0 0.0
1.188479 3.775859 0.0 0.0 0.0 0.0 0.0 0.0
1.991703 -35.954806 0.0 0.0 0.0 0.0 0.0 0.0
2.180363 -33.620031 0.0 0.0 0.0 0.0 0.0 0.0
800.0 1.0 -0.0 0.0 0.0 0.0 0.0 0.0 0.0
1.241883 4.302497 0.0 0.0 0.0 0.0 0.0 0.0
2.045498 -63.096923 0.0 0.0 0.0 0.0 0.0 0.0
2.274858 -61.069794 0.0 0.0 0.0 0.0 0.0 0.0
850.0 1.0 0.0 0.0 0.0 0.0 0.0 0.0 0.0
1.32551 2.632332 0.0 0.0 0.0 0.0 0.0 0.0
2.10255 -91.98605 0.0 0.0 0.0 0.0 0.0 0.0
2.377199 -90.53374 0.0 0.0 0.0 0.0 0.0 0.0
900.0 1.0 0.0 0.0 0.0 0.0 0.0 0.0 0.0
1.381847 -1.914606 0.0 0.0 0.0 0.0 0.0 0.0
2.086473 -122.454495 0.0 0.0 0.0 0.0 0.0 0.0
2.400269 -121.947654 0.0 0.0 0.0 0.0 0.0 0.0
950.0 1.0 0.0 0.0 0.0 0.0 0.0 0.0 0.0
1.356855 -7.059594 0.0 0.0 0.0 0.0 0.0 0.0
1.969065 -151.675558 0.0 0.0 0.0 0.0 0.0 0.0
2.29664 -152.786313 0.0 0.0 0.0 0.0 0.0 0.0
1000.0 1.0 0.0 0.0 0.0 0.0 0.0 0.0 0.0
1.278228 -10.496822 0.0 0.0 0.0 0.0 0.0 0.0
1.82659 -178.103971 0.0 0.0 0.0 0.0 0.0 0.0
2.127599 178.511921 0.0 0.0 0.0 0.0 0.0 0.0
1050.0 1.0 -0.0 0.0 0.0 0.0 0.0 0.0 0.0
1.199223 -11.001743 0.0 0.0 0.0 0.0 0.0 0.0
1.762 157.807429 0.0 0.0 0.0 0.0 0.0 0.0
2.002161 152.572404 0.0 0.0 0.0 0.0 0.0 0.0
1100.0 1.0 0.0 0.0 0.0 0.0 0.0 0.0 0.0
1.158029 -10.251028 0.0 0.0 0.0 0.0 0.0 0.0
1.770713 132.959473 0.0 0.0 0.0 0.0 0.0 0.0
1.948021 127.10323 0.0 0.0 0.0 0.0 0.0 0.0
1150.0 1.0 -0.0 0.0 0.0 0.0 0.0 0.0 0.0
1.141834 -9.995859 0.0 0.0 0.0 0.0 0.0 0.0
1.799714 105.963672 0.0 0.0 0.0 0.0 0.0 0.0
1.933241 100.33409 0.0 0.0 0.0 0.0 0.0 0.0
1200.0 1.0 0.0 0.0 0.0 0.0 0.0 0.0 0.0
1.121975 -10.524771 0.0 0.0 0.0 0.0 0.0 0.0
1.765139 77.549473 0.0 0.0 0.0 0.0 0.0 0.0
1.871025 72.280691 0.0 0.0 0.0 0.0 0.0 0.0
1250.0 1.0 0.0 0.0 0.0 0.0 0.0 0.0 0.0
1.084824 -10.801756 0.0 0.0 0.0 0.0 0.0 0.0
1.682319 50.194704 0.0 0.0 0.0 0.0 0.0 0.0
1.767188 45.136262 0.0 0.0 0.0 0.0 0.0 0.0
1300.0 1.0 0.0 0.0 0.0 0.0 0.0 0.0 0.0
1.050879 -9.564788 0.0 0.0 0.0 0.0 0.0 0.0
1.616426 25.00999 0.0 0.0 0.0 0.0 0.0 0.0
1.682197 20.213633 0.0 0.0 0.0 0.0 0.0 0.0
1350.0 1.0 0.0 0.0 0.0 0.0 0.0 0.0 0.0
1.035234 -8.549099 0.0 0.0 0.0 0.0 0.0 0.0
1.545517 0.218265 0.0 0.0 0.0 0.0 0.0 0.0
1.597465 -4.526805 0.0 0.0 0.0 0.0 0.0 0.0
1400.0 1.0 -0.0 0.0 0.0 0.0 0.0 0.0 0.0
1.031296 -7.215963 0.0 0.0 0.0 0.0 0.0 0.0
1.540313 -23.772512 0.0 0.0 0.0 0.0 0.0 0.0
1.577827 -28.230685 0.0 0.0 0.0 0.0 0.0 0.0
1450.0 1.0 0.0 0.0 0.0 0.0 0.0 0.0 0.0
1.037274 -6.464299 0.0 0.0 0.0 0.0 0.0 0.0
1.559843 -48.945722 0.0 0.0 0.0 0.0 0.0 0.0
1.588652 -53.017458 0.0 0.0 0.0 0.0 0.0 0.0
1500.0 1.0 0.0 0.0 0.0 0.0 0.0 0.0 0.0
1.043403 -6.311092 0.0 0.0 0.0 0.0 0.0 0.0
1.577706 -75.703387 0.0 0.0 0.0 0.0 0.0 0.0
1.602223 -79.412388 0.0 0.0 0.0 0.0 0.0 0.0
1550.0 1.0 0.0 0.0 0.0 0.0 0.0 0.0 0.0
1.042752 -6.523714 0.0 0.0 0.0 0.0 0.0 0.0
1.566501 -103.000422 0.0 0.0 0.0 0.0 0.0 0.0
1.589328 -106.441475 0.0 0.0 0.0 0.0 0.0 0.0
1600.0 1.0 0.0 0.0 0.0 0.0 0.0 0.0 0.0
1.032172 -6.637838 0.0 0.0 0.0 0.0 0.0 0.0
1.521652 -129.793563 0.0 0.0 0.0 0.0 0.0 0.0
1.542182 -133.05992 0.0 0.0 0.0 0.0 0.0 0.0
1650.0 1.0 0.0 0.0 0.0 0.0 0.0 0.0 0.0
1.020885 -5.94023 0.0 0.0 0.0 0.0 0.0 0.0
1.491001 -155.221724 0.0 0.0 0.0 0.0 0.0 0.0
1.508393 -158.268569 0.0 0.0 0.0 0.0 0.0 0.0
1700.0 1.0 0.0 0.0 0.0 0.0 0.0 0.0 0.0
1.022662 -5.766118 0.0 0.0 0.0 0.0 0.0 0.0
1.429072 177.869755 0.0 0.0 0.0 0.0 0.0 0.0
1.449014 174.84582 0.0 0.0 0.0 0.0 0.0 0.0
1750.0 1.0 0.0 0.0 0.0 0.0 0.0 0.0 0.0
1.019101 -5.148562 0.0 0.0 0.0 0.0 0.0 0.0
1.401761 154.182178 0.0 0.0 0.0 0.0 0.0 0.0
1.415809 151.210405 0.0 0.0 0.0 0.0 0.0 0.0
1800.0 1.0 0.0 0.0 0.0 0.0 0.0 0.0 0.0
1.024423 -4.766496 0.0 0.0 0.0 0.0 0.0 0.0
1.41961 129.307905 0.0 0.0 0.0 0.0 0.0 0.0
1.430609 126.530282 0.0 0.0 0.0 0.0 0.0 0.0
1850.0 1.0 0.0 0.0 0.0 0.0 0.0 0.0 0.0
1.029125 -4.768448 0.0 0.0 0.0 0.0 0.0 0.0
1.435028 103.189996 0.0 0.0 0.0 0.0 0.0 0.0
1.445102 100.59242 0.0 0.0 0.0 0.0 0.0 0.0
1900.0 1.0 0.0 0.0 0.0 0.0 0.0 0.0 0.0
1.029852 -4.951922 0.0 0.0 0.0 0.0 0.0 0.0
1.436238 76.253894 0.0 0.0 0.0 0.0 0.0 0.0
1.446306 73.806469 0.0 0.0 0.0 0.0 0.0 0.0
1950.0 1.0 -0.0 0.0 0.0 0.0 0.0 0.0 0.0
1.025581 -5.110048 0.0 0.0 0.0 0.0 0.0 0.0
1.411863 49.05967 0.0 0.0 0.0 0.0 0.0 0.0
1.422397 46.717809 0.0 0.0 0.0 0.0 0.0 0.0
2000.0 1.0 -0.0 0.0 0.0 0.0 0.0 0.0 0.0
1.018567 -4.946892 0.0 0.0 0.0 0.0 0.0 0.0
1.374574 22.858442 0.0 0.0 0.0 0.0 0.0 0.0
1.384518 20.600114 0.0 0.0 0.0 0.0 0.0 0.0
2050.0 1.0 0.0 0.0 0.0 0.0 0.0 0.0 0.0
1.020105 -4.729093 0.0 0.0 0.0 0.0 0.0 0.0
1.334142 -4.314183 0.0 0.0 0.0 0.0 0.0 0.0
1.346411 -6.492569 0.0 0.0 0.0 0.0 0.0 0.0
2100.0 1.0 0.0 0.0 0.0 0.0 0.0 0.0 0.0
1.014439 -4.566615 0.0 0.0 0.0 0.0 0.0 0.0
1.267535 -28.175034 0.0 0.0 0.0 0.0 0.0 0.0
1.277589 -30.45377 0.0 0.0 0.0 0.0 0.0 0.0
2150.0 1.0 0.0 0.0 0.0 0.0 0.0 0.0 0.0
1.016389 -4.246255 0.0 0.0 0.0 0.0 0.0 0.0
1.264911 -52.056947 0.0 0.0 0.0 0.0 0.0 0.0
1.272459 -54.267286 0.0 0.0 0.0 0.0 0.0 0.0
2200.0 1.0 -0.0 0.0 0.0 0.0 0.0 0.0 0.0
1.019667 -4.237841 0.0 0.0 0.0 0.0 0.0 0.0
1.272609 -77.013357 0.0 0.0 0.0 0.0 0.0 0.0
1.278864 -79.122713 0.0 0.0 0.0 0.0 0.0 0.0
2250.0 1.0 0.0 0.0 0.0 0.0 0.0 0.0 0.0
1.019798 -4.376721 0.0 0.0 0.0 0.0 0.0 0.0
1.285528 -102.836463 0.0 0.0 0.0 0.0 0.0 0.0
1.291401 -104.846944 0.0 0.0 0.0 0.0 0.0 0.0
2300.0 1.0 0.0 0.0 0.0 0.0 0.0 0.0 0.0
1.016767 -4.49395 0.0 0.0 0.0 0.0 0.0 0.0
1.283782 -129.277267 0.0 0.0 0.0 0.0 0.0 0.0
1.289708 -131.202325 0.0 0.0 0.0 0.0 0.0 0.0
2350.0 1.0 -0.0 0.0 0.0 0.0 0.0 0.0 0.0
1.011803 -4.449101 0.0 0.0 0.0 0.0 0.0 0.0
1.265155 -155.738379 0.0 0.0 0.0 0.0 0.0 0.0
1.271258 -157.601109 0.0 0.0 0.0 0.0 0.0 0.0
2400.0 1.0 0.0 0.0 0.0 0.0 0.0 0.0 0.0
1.009923 -4.232417 0.0 0.0 0.0 0.0 0.0 0.0
1.243548 177.602262 0.0 0.0 0.0 0.0 0.0 0.0
1.250477 175.811114 0.0 0.0 0.0 0.0 0.0 0.0
2450.0 1.0 0.0 0.0 0.0 0.0 0.0 0.0 0.0
1.006439 -4.178427 0.0 0.0 0.0 0.0 0.0 0.0
1.180242 152.177866 0.0 0.0 0.0 0.0 0.0 0.0
1.187491 150.317405 0.0 0.0 0.0 0.0 0.0 0.0
2500.0 1.0 0.0 0.0 0.0 0.0 0.0 0.0 0.0
1.006018 -3.8695 0.0 0.0 0.0 0.0 0.0 0.0
1.158494 128.419836 0.0 0.0 0.0 0.0 0.0 0.0
1.163939 126.561627 0.0 0.0 0.0 0.0 0.0 0.0
2550.0 1.0 0.0 0.0 0.0 0.0 0.0 0.0 0.0
1.008705 -3.78758 0.0 0.0 0.0 0.0 0.0 0.0
1.158176 104.155382 0.0 0.0 0.0 0.0 0.0 0.0
1.162399 102.341001 0.0 0.0 0.0 0.0 0.0 0.0
2600.0 1.0 0.0 0.0 0.0 0.0 0.0 0.0 0.0
1.009088 -3.888034 0.0 0.0 0.0 0.0 0.0 0.0
1.165159 79.432506 0.0 0.0 0.0 0.0 0.0 0.0
1.168534 77.678315 0.0 0.0 0.0 0.0 0.0 0.0
2650.0 1.0 0.0 0.0 0.0 0.0 0.0 0.0 0.0
1.006466 -3.968753 0.0 0.0 0.0 0.0 0.0 0.0
1.172991 54.380701 0.0 0.0 0.0 0.0 0.0 0.0
1.175767 52.690702 0.0 0.0 0.0 0.0 0.0 0.0
2700.0 1.0 0.0 0.0 0.0 0.0 0.0 0.0 0.0
1.002275 -3.923242 0.0 0.0 0.0 0.0 0.0 0.0
1.181492 28.766992 0.0 0.0 0.0 0.0 0.0 0.0
1.183987 27.147015 0.0 0.0 0.0 0.0 0.0 0.0
2750.0 1.0 0.0 0.0 0.0 0.0 0.0 0.0 0.0
0.99968 -3.736382 0.0 0.0 0.0 0.0 0.0 0.0
1.193157 2.438283 0.0 0.0 0.0 0.0 0.0 0.0
1.196214 0.905609 0.0 0.0 0.0 0.0 0.0 0.0
2800.0 1.0 0.0 0.0 0.0 0.0 0.0 0.0 0.0
0.996861 -3.636281 0.0 0.0 0.0 0.0 0.0 0.0
1.159492 -23.760057 0.0 0.0 0.0 0.0 0.0 0.0
1.163414 -25.319997 0.0 0.0 0.0 0.0 0.0 0.0
2850.0 1.0 0.0 0.0 0.0 0.0 0.0 0.0 0.0
0.995753 -3.308496 0.0 0.0 0.0 0.0 0.0 0.0
1.151979 -48.198628 0.0 0.0 0.0 0.0 0.0 0.0
1.154885 -49.747481 0.0 0.0 0.0 0.0 0.0 0.0
2900.0 1.0 0.0 0.0 0.0 0.0 0.0 0.0 0.0
0.998412 -3.120575 0.0 0.0 0.0 0.0 0.0 0.0
1.158027 -73.20759 0.0 0.0 0.0 0.0 0.0 0.0
1.16036 -74.712078 0.0 0.0 0.0 0.0 0.0 0.0
2950.0 1.0 0.0 0.0 0.0 0.0 0.0 0.0 0.0
1.000491 -3.143898 0.0 0.0 0.0 0.0 0.0 0.0
1.164842 -98.668042 0.0 0.0 0.0 0.0 0.0 0.0
1.166913 -100.128366 0.0 0.0 0.0 0.0 0.0 0.0
3000.0 1.0 -0.0 0.0 0.0 0.0 0.0 0.0 0.0
0.999626 -3.220194 0.0 0.0 0.0 0.0 0.0 0.0
1.170269 -124.187308 0.0 0.0 0.0 0.0 0.0 0.0
1.172095 -125.605758 0.0 0.0 0.0 0.0 0.0 0.0
3050.0 1.0 0.0 0.0 0.0 0.0 0.0 0.0 0.0
0.997032 -3.190959 0.0 0.0 0.0 0.0 0.0 0.0
1.187549 -149.806834 0.0 0.0 0.0 0.0 0.0 0.0
1.189229 -151.164816 0.0 0.0 0.0 0.0 0.0 0.0
3100.0 1.0 0.0 0.0 0.0 0.0 0.0 0.0 0.0
0.995481 -3.096001 0.0 0.0 0.0 0.0 0.0 0.0
1.190897 -176.693105 0.0 0.0 0.0 0.0 0.0 0.0
1.193635 -177.99331 0.0 0.0 0.0 0.0 0.0 0.0
3150.0 1.0 -0.0 0.0 0.0 0.0 0.0 0.0 0.0
0.992125 -2.971294 0.0 0.0 0.0 0.0 0.0 0.0
1.164932 157.495508 0.0 0.0 0.0 0.0 0.0 0.0
1.167844 156.151171 0.0 0.0 0.0 0.0 0.0 0.0
3200.0 1.0 0.0 0.0 0.0 0.0 0.0 0.0 0.0
0.991688 -2.670626 0.0 0.0 0.0 0.0 0.0 0.0
1.164544 132.191769 0.0 0.0 0.0 0.0 0.0 0.0
1.166792 130.871557 0.0 0.0 0.0 0.0 0.0 0.0
3250.0 1.0 0.0 0.0 0.0 0.0 0.0 0.0 0.0
0.994195 -2.471386 0.0 0.0 0.0 0.0 0.0 0.0
1.164787 106.688842 0.0 0.0 0.0 0.0 0.0 0.0
1.166729 105.401731 0.0 0.0 0.0 0.0 0.0 0.0
3300.0 1.0 0.0 0.0 0.0 0.0 0.0 0.0 0.0
0.997064 -2.440322 0.0 0.0 0.0 0.0 0.0 0.0
1.166507 80.929064 0.0 0.0 0.0 0.0 0.0 0.0
1.168399 79.677084 0.0 0.0 0.0 0.0 0.0 0.0
3350.0 1.0 0.0 0.0 0.0 0.0 0.0 0.0 0.0
0.997851 -2.514369 0.0 0.0 0.0 0.0 0.0 0.0
1.167694 55.421119 0.0 0.0 0.0 0.0 0.0 0.0
1.169511 54.197184 0.0 0.0 0.0 0.0 0.0 0.0
3400.0 1.0 -0.0 0.0 0.0 0.0 0.0 0.0 0.0
0.996814 -2.568443 0.0 0.0 0.0 0.0 0.0 0.0
1.176329 29.609401 0.0 0.0 0.0 0.0 0.0 0.0
1.178438 28.42392 0.0 0.0 0.0 0.0 0.0 0.0
3450.0 1.0 -0.0 0.0 0.0 0.0 0.0 0.0 0.0
0.99329 -2.557334 0.0 0.0 0.0 0.0 0.0 0.0
1.153947 3.765972 0.0 0.0 0.0 0.0 0.0 0.0
1.156179 2.553346 0.0 0.0 0.0 0.0 0.0 0.0
3500.0 1.0 0.0 0.0 0.0 0.0 0.0 0.0 0.0
0.991125 -2.302706 0.0 0.0 0.0 0.0 0.0 0.0
1.167143 -20.857745 0.0 0.0 0.0 0.0 0.0 0.0
1.168448 -22.039002 0.0 0.0 0.0 0.0 0.0 0.0
3550.0 1.0 0.0 0.0 0.0 0.0 0.0 0.0 0.0
0.992048 -2.046926 0.0 0.0 0.0 0.0 0.0 0.0
1.19117 -46.575926 0.0 0.0 0.0 0.0 0.0 0.0
1.1923 -47.704831 0.0 0.0 0.0 0.0 0.0 0.0
3600.0 1.0 0.0 0.0 0.0 0.0 0.0 0.0 0.0
0.995063 -1.875669 0.0 0.0 0.0 0.0 0.0 0.0
1.209433 -73.214219 0.0 0.0 0.0 0.0 0.0 0.0
1.210886 -74.295275 0.0 0.0 0.0 0.0 0.0 0.0
3650.0 1.0 0.0 0.0 0.0 0.0 0.0 0.0 0.0
0.998719 -1.854921 0.0 0.0 0.0 0.0 0.0 0.0
1.216474 -100.345555 0.0 0.0 0.0 0.0 0.0 0.0
1.218547 -101.391151 0.0 0.0 0.0 0.0 0.0 0.0
3700.0 1.0 0.0 0.0 0.0 0.0 0.0 0.0 0.0
1.000832 -1.986661 0.0 0.0 0.0 0.0 0.0 0.0
1.2008 -127.74909 0.0 0.0 0.0 0.0 0.0 0.0
1.203946 -128.78273 0.0 0.0 0.0 0.0 0.0 0.0
3750.0 1.0 -0.0 0.0 0.0 0.0 0.0 0.0 0.0
0.999084 -2.101979 0.0 0.0 0.0 0.0 0.0 0.0
1.160308 -153.752812 0.0 0.0 0.0 0.0 0.0 0.0
1.16349 -154.835777 0.0 0.0 0.0 0.0 0.0 0.0
3800.0 1.0 0.0 0.0 0.0 0.0 0.0 0.0 0.0
0.99689 -2.050383 0.0 0.0 0.0 0.0 0.0 0.0
1.147201 -178.734781 0.0 0.0 0.0 0.0 0.0 0.0
1.14969 -179.814706 0.0 0.0 0.0 0.0 0.0 0.0
3850.0 1.0 0.0 0.0 0.0 0.0 0.0 0.0 0.0
0.995688 -1.902074 0.0 0.0 0.0 0.0 0.0 0.0
1.145532 156.343143 0.0 0.0 0.0 0.0 0.0 0.0
1.147521 155.283233 0.0 0.0 0.0 0.0 0.0 0.0
3900.0 1.0 -0.0 0.0 0.0 0.0 0.0 0.0 0.0
0.996496 -1.725751 0.0 0.0 0.0 0.0 0.0 0.0
1.159016 130.980583 0.0 0.0 0.0 0.0 0.0 0.0
1.1608 129.953737 0.0 0.0 0.0 0.0 0.0 0.0
3950.0 1.0 0.0 0.0 0.0 0.0 0.0 0.0 0.0
0.999071 -1.613403 0.0 0.0 0.0 0.0 0.0 0.0
1.174077 105.013998 0.0 0.0 0.0 0.0 0.0 0.0
1.176008 104.026458 0.0 0.0 0.0 0.0 0.0 0.0
4000.0 1.0 0.0 0.0 0.0 0.0 0.0 0.0 0.0
1.002227 -1.643871 0.0 0.0 0.0 0.0 0.0 0.0
1.188379 77.49626 0.0 0.0 0.0 0.0 0.0 0.0
1.191178 76.54251 0.0 0.0 0.0 0.0 0.0 0.0
4050.0 1.0 0.0 0.0 0.0 0.0 0.0 0.0 0.0
1.002417 -1.778217 0.0 0.0 0.0 0.0 0.0 0.0
1.14364 50.356765 0.0 0.0 0.0 0.0 0.0 0.0
1.14698 49.361024 0.0 0.0 0.0 0.0 0.0 0.0
4100.0 1.0 0.0 0.0 0.0 0.0 0.0 0.0 0.0
1.001665 -1.800596 0.0 0.0 0.0 0.0 0.0 0.0
1.122845 25.455738 0.0 0.0 0.0 0.0 0.0 0.0
1.125517 24.448966 0.0 0.0 0.0 0.0 0.0 0.0
4150.0 1.0 0.0 0.0 0.0 0.0 0.0 0.0 0.0
1.000468 -1.790077 0.0 0.0 0.0 0.0 0.0 0.0
1.110937 0.326746 0.0 0.0 0.0 0.0 0.0 0.0
1.113233 -0.67001 0.0 0.0 0.0 0.0 0.0 0.0
4200.0 1.0 0.0 0.0 0.0 0.0 0.0 0.0 0.0
0.999632 -1.689048 0.0 0.0 0.0 0.0 0.0 0.0
1.10859 -24.610298 0.0 0.0 0.0 0.0 0.0 0.0
1.110535 -25.591523 0.0 0.0 0.0 0.0 0.0 0.0
4250.0 1.0 -0.0 0.0 0.0 0.0 0.0 0.0 0.0
1.000666 -1.560535 0.0 0.0 0.0 0.0 0.0 0.0
1.12341 -49.626603 0.0 0.0 0.0 0.0 0.0 0.0
1.125133 -50.576071 0.0 0.0 0.0 0.0 0.0 0.0
4300.0 1.0 0.0 0.0 0.0 0.0 0.0 0.0 0.0
1.003419 -1.521663 0.0 0.0 0.0 0.0 0.0 0.0
1.151317 -75.710855 0.0 0.0 0.0 0.0 0.0 0.0
1.153384 -76.618034 0.0 0.0 0.0 0.0 0.0 0.0
4350.0 1.0 0.0 0.0 0.0 0.0 0.0 0.0 0.0
1.004851 -1.650131 0.0 0.0 0.0 0.0 0.0 0.0
1.148003 -103.826699 0.0 0.0 0.0 0.0 0.0 0.0
1.151091 -104.741349 0.0 0.0 0.0 0.0 0.0 0.0
4400.0 1.0 0.0 0.0 0.0 0.0 0.0 0.0 0.0
1.00406 -1.679056 0.0 0.0 0.0 0.0 0.0 0.0
1.113321 -129.384844 0.0 0.0 0.0 0.0 0.0 0.0
1.115805 -130.33064 0.0 0.0 0.0 0.0 0.0 0.0
4450.0 1.0 0.0 0.0 0.0 0.0 0.0 0.0 0.0
1.004107 -1.704981 0.0 0.0 0.0 0.0 0.0 0.0
1.111658 -154.647173 0.0 0.0 0.0 0.0 0.0 0.0
1.113728 -155.571852 0.0 0.0 0.0 0.0 0.0 0.0
4500.0 1.0 0.0 0.0 0.0 0.0 0.0 0.0 0.0
1.003342 -1.72575 0.0 0.0 0.0 0.0 0.0 0.0
1.110905 179.48891 0.0 0.0 0.0 0.0 0.0 0.0
1.112965 178.58371 0.0 0.0 0.0 0.0 0.0 0.0
4550.0 1.0 -0.0 0.0 0.0 0.0 0.0 0.0 0.0
1.002415 -1.678241 0.0 0.0 0.0 0.0 0.0 0.0
1.108668 153.864404 0.0 0.0 0.0 0.0 0.0 0.0
1.11071 152.974123 0.0 0.0 0.0 0.0 0.0 0.0
4600.0 1.0 0.0 0.0 0.0 0.0 0.0 0.0 0.0
1.002972 -1.593635 0.0 0.0 0.0 0.0 0.0 0.0
1.11372 128.257134 0.0 0.0 0.0 0.0 0.0 0.0
1.115763 127.38426 0.0 0.0 0.0 0.0 0.0 0.0
4650.0 1.0 0.0 0.0 0.0 0.0 0.0 0.0 0.0
1.005023 -1.597071 0.0 0.0 0.0 0.0 0.0 0.0
1.134576 101.622921 0.0 0.0 0.0 0.0 0.0 0.0
1.13703 100.777058 0.0 0.0 0.0 0.0 0.0 0.0
4700.0 1.0 0.0 0.0 0.0 0.0 0.0 0.0 0.0
1.005083 -1.722676 0.0 0.0 0.0 0.0 0.0 0.0
1.113007 73.509297 0.0 0.0 0.0 0.0 0.0 0.0
1.116272 72.646082 0.0 0.0 0.0 0.0 0.0 0.0
4750.0 1.0 0.0 0.0 0.0 0.0 0.0 0.0 0.0
1.003917 -1.707035 0.0 0.0 0.0 0.0 0.0 0.0
1.070476 48.365736 0.0 0.0 0.0 0.0 0.0 0.0
1.073087 47.46596 0.0 0.0 0.0 0.0 0.0 0.0
4800.0 1.0 0.0 0.0 0.0 0.0 0.0 0.0 0.0
1.004192 -1.715438 0.0 0.0 0.0 0.0 0.0 0.0
1.068144 23.44487 0.0 0.0 0.0 0.0 0.0 0.0
1.07025 22.561956 0.0 0.0 0.0 0.0 0.0 0.0
4850.0 1.0 -0.0 0.0 0.0 0.0 0.0 0.0 0.0
1.003699 -1.752605 0.0 0.0 0.0 0.0 0.0 0.0
1.069145 -2.236203 0.0 0.0 0.0 0.0 0.0 0.0
1.071161 -3.099912 0.0 0.0 0.0 0.0 0.0 0.0
4900.0 1.0 0.0 0.0 0.0 0.0 0.0 0.0 0.0
1.002675 -1.753825 0.0 0.0 0.0 0.0 0.0 0.0
1.063725 -28.121 0.0 0.0 0.0 0.0 0.0 0.0
1.065842 -28.971125 0.0 0.0 0.0 0.0 0.0 0.0
4950.0 1.0 0.0 0.0 0.0 0.0 0.0 0.0 0.0
1.002194 -1.70929 0.0 0.0 0.0 0.0 0.0 0.0
1.05636 -53.828015 0.0 0.0 0.0 0.0 0.0 0.0
1.058487 -54.672912 0.0 0.0 0.0 0.0 0.0 0.0
5000.0 1.0 -0.0 0.0 0.0 0.0 0.0 0.0 0.0
1.002828 -1.695892 0.0 0.0 0.0 0.0 0.0 0.0
1.061029 -79.726539 0.0 0.0 0.0 0.0 0.0 0.0
1.063335 -80.560115 0.0 0.0 0.0 0.0 0.0 0.0
5050.0 1.0 0.0 0.0 0.0 0.0 0.0 0.0 0.0
1.002251 -1.764914 0.0 0.0 0.0 0.0 0.0 0.0
1.045458 -106.791649 0.0 0.0 0.0 0.0 0.0 0.0
1.048131 -107.637459 0.0 0.0 0.0 0.0 0.0 0.0
5100.0 1.0 -0.0 0.0 0.0 0.0 0.0 0.0 0.0
1.00083 -1.710811 0.0 0.0 0.0 0.0 0.0 0.0
1.007117 -131.193416 0.0 0.0 0.0 0.0 0.0 0.0
1.009192 -132.075164 0.0 0.0 0.0 0.0 0.0 0.0
5150.0 1.0 0.0 0.0 0.0 0.0 0.0 0.0 0.0
1.001283 -1.674249 0.0 0.0 0.0 0.0 0.0 0.0
1.019712 -155.373075 0.0 0.0 0.0 0.0 0.0 0.0
1.021137 -156.232423 0.0 0.0 0.0 0.0 0.0 0.0
5200.0 1.0 0.0 0.0 0.0 0.0 0.0 0.0 0.0
1.001232 -1.697008 0.0 0.0 0.0 0.0 0.0 0.0
1.041688 178.751063 0.0 0.0 0.0 0.0 0.0 0.0
1.043068 177.924714 0.0 0.0 0.0 0.0 0.0 0.0
5250.0 1.0 0.0 0.0 0.0 0.0 0.0 0.0 0.0
1.000505 -1.702258 0.0 0.0 0.0 0.0 0.0 0.0
1.048402 151.991544 0.0 0.0 0.0 0.0 0.0 0.0
1.049969 151.185736 0.0 0.0 0.0 0.0 0.0 0.0
5300.0 1.0 0.0 0.0 0.0 0.0 0.0 0.0 0.0
0.999858 -1.67472 0.0 0.0 0.0 0.0 0.0 0.0
1.040649 125.357514 0.0 0.0 0.0 0.0 0.0 0.0
1.04246 124.55826 0.0 0.0 0.0 0.0 0.0 0.0
5350.0 1.0 -0.0 0.0 0.0 0.0 0.0 0.0 0.0
0.999839 -1.651554 0.0 0.0 0.0 0.0 0.0 0.0
1.028653 99.037241 0.0 0.0 0.0 0.0 0.0 0.0
1.030683 98.238478 0.0 0.0 0.0 0.0 0.0 0.0
5400.0 1.0 0.0 0.0 0.0 0.0 0.0 0.0 0.0
0.999422 -1.681279 0.0 0.0 0.0 0.0 0.0 0.0
1.003452 72.431078 0.0 0.0 0.0 0.0 0.0 0.0
1.00575 71.616274 0.0 0.0 0.0 0.0 0.0 0.0
5450.0 1.0 -0.0 0.0 0.0 0.0 0.0 0.0 0.0
0.997946 -1.64196 0.0 0.0 0.0 0.0 0.0 0.0
0.957141 47.902014 0.0 0.0 0.0 0.0 0.0 0.0
0.95893 47.04149 0.0 0.0 0.0 0.0 0.0 0.0
5500.0 1.0 0.0 0.0 0.0 0.0 0.0 0.0 0.0
0.99806 -1.580936 0.0 0.0 0.0 0.0 0.0 0.0
0.960943 25.145447 0.0 0.0 0.0 0.0 0.0 0.0
0.961724 24.293354 0.0 0.0 0.0 0.0 0.0 0.0
5550.0 1.0 0.0 0.0 0.0 0.0 0.0 0.0 0.0
0.998026 -1.582623 0.0 0.0 0.0 0.0 0.0 0.0
0.993884 0.446958 0.0 0.0 0.0 0.0 0.0 0.0
0.994261 -0.3593 0.0 0.0 0.0 0.0 0.0 0.0
5600.0 1.0 0.0 0.0 0.0 0.0 0.0 0.0 0.0
0.997188 -1.57311 0.0 0.0 0.0 0.0 0.0 0.0
1.023867 -25.885505 0.0 0.0 0.0 0.0 0.0 0.0
1.024351 -26.65387 0.0 0.0 0.0 0.0 0.0 0.0
5650.0 1.0 0.0 0.0 0.0 0.0 0.0 0.0 0.0
0.996342 -1.522806 0.0 0.0 0.0 0.0 0.0 0.0
1.035193 -52.837322 0.0 0.0 0.0 0.0 0.0 0.0
1.035996 -53.584134 0.0 0.0 0.0 0.0 0.0 0.0
5700.0 1.0 0.0 0.0 0.0 0.0 0.0 0.0 0.0
0.996148 -1.456777 0.0 0.0 0.0 0.0 0.0 0.0
1.028583 -79.622783 0.0 0.0 0.0 0.0 0.0 0.0
1.029721 -80.362 0.0 0.0 0.0 0.0 0.0 0.0
5750.0 1.0 0.0 0.0 0.0 0.0 0.0 0.0 0.0
0.996383 -1.423071 0.0 0.0 0.0 0.0 0.0 0.0
1.015702 -106.477573 0.0 0.0 0.0 0.0 0.0 0.0
1.017195 -107.223267 0.0 0.0 0.0 0.0 0.0 0.0
5800.0 1.0 0.0 0.0 0.0 0.0 0.0 0.0 0.0
0.99581 -1.389751 0.0 0.0 0.0 0.0 0.0 0.0
0.973952 -132.086783 0.0 0.0 0.0 0.0 0.0 0.0
0.975343 -132.868991 0.0 0.0 0.0 0.0 0.0 0.0
5850.0 1.0 0.0 0.0 0.0 0.0 0.0 0.0 0.0
0.996141 -1.309021 0.0 0.0 0.0 0.0 0.0 0.0
