! File created by SignalIntegrity v1.3.2: Signal and Power Integrity Tools
! https://github.com/TeledyneLeCroy/SignalIntegrity
# MHz S MA R 50.0
0.0 1.0 0.0 0.0 0.0 0.0 0.0 0.0 0.0
0.498624 0.0 0.0 0.0 0.0 0.0 0.0 0.0
0.00146 180.0 0.0 0.0 0.0 0.0 0.0 0.0
0.511858 0.0 0.0 0.0 0.0 0.0 0.0 0.0
20.0 1.0 0.0 0.0 0.0 0.0 0.0 0.0 0.0
0.495282 -11.327797 0.0 0.0 0.0 0.0 0.0 0.0
0.000919 99.58034 0.0 0.0 0.0 0.0 0.0 0.0
0.508466 -12.515136 0.0 0.0 0.0 0.0 0.0 0.0
40.0 1.0 -0.0 0.0 0.0 0.0 0.0 0.0 0.0
0.492803 -22.100346 0.0 0.0 0.0 0.0 0.0 0.0
8.8e-05 -92.65407 0.0 0.0 0.0 0.0 0.0 0.0
0.506038 -24.475295 0.0 0.0 0.0 0.0 0.0 0.0
60.0 1.0 -0.0 0.0 0.0 0.0 0.0 0.0 0.0
0.491469 -33.006953 0.0 0.0 0.0 0.0 0.0 0.0
0.000411 166.611214 0.0 0.0 0.0 0.0 0.0 0.0
0.504862 -36.570053 0.0 0.0 0.0 0.0 0.0 0.0
80.0 1.0 0.0 0.0 0.0 0.0 0.0 0.0 0.0
0.489461 -43.819119 0.0 0.0 0.0 0.0 0.0 0.0
0.000577 160.355166 0.0 0.0 0.0 0.0 0.0 0.0
0.503068 -48.571181 0.0 0.0 0.0 0.0 0.0 0.0
100.0 1.0 0.0 0.0 0.0 0.0 0.0 0.0 0.0
0.487632 -54.637807 0.0 0.0 0.0 0.0 0.0 0.0
0.000913 118.374936 0.0 0.0 0.0 0.0 0.0 0.0
0.501534 -60.579909 0.0 0.0 0.0 0.0 0.0 0.0
120.0 1.0 0.0 0.0 0.0 0.0 0.0 0.0 0.0
0.48556 -65.342835 0.0 0.0 0.0 0.0 0.0 0.0
0.000775 70.204341 0.0 0.0 0.0 0.0 0.0 0.0
0.499822 -72.476319 0.0 0.0 0.0 0.0 0.0 0.0
140.0 1.0 -0.0 0.0 0.0 0.0 0.0 0.0 0.0
0.484325 -76.07043 0.0 0.0 0.0 0.0 0.0 0.0
0.000445 37.792632 0.0 0.0 0.0 0.0 0.0 0.0
0.499044 -84.396899 0.0 0.0 0.0 0.0 0.0 0.0
160.0 1.0 0.0 0.0 0.0 0.0 0.0 0.0 0.0
0.482584 -86.784325 0.0 0.0 0.0 0.0 0.0 0.0
0.000174 40.115533 0.0 0.0 0.0 0.0 0.0 0.0
0.497816 -96.305641 0.0 0.0 0.0 0.0 0.0 0.0
180.0 1.0 -0.0 0.0 0.0 0.0 0.0 0.0 0.0
0.481432 -97.479259 0.0 0.0 0.0 0.0 0.0 0.0
0.000177 84.373001 0.0 0.0 0.0 0.0 0.0 0.0
0.497266 -108.197535 0.0 0.0 0.0 0.0 0.0 0.0
200.0 1.0 0.0 0.0 0.0 0.0 0.0 0.0 0.0
0.47987 -108.216893 0.0 0.0 0.0 0.0 0.0 0.0
0.000377 98.5152 0.0 0.0 0.0 0.0 0.0 0.0
0.496362 -120.134491 0.0 0.0 0.0 0.0 0.0 0.0
220.0 1.0 0.0 0.0 0.0 0.0 0.0 0.0 0.0
0.478226 -118.89208 0.0 0.0 0.0 0.0 0.0 0.0
0.000501 47.350019 0.0 0.0 0.0 0.0 0.0 0.0
0.495439 -132.011605 0.0 0.0 0.0 0.0 0.0 0.0
240.0 1.0 -0.0 0.0 0.0 0.0 0.0 0.0 0.0
0.47687 -129.566363 0.0 0.0 0.0 0.0 0.0 0.0
0.000304 175.206494 0.0 0.0 0.0 0.0 0.0 0.0
0.494882 -143.890656 0.0 0.0 0.0 0.0 0.0 0.0
260.0 1.0 0.0 0.0 0.0 0.0 0.0 0.0 0.0
0.47527 -140.273286 0.0 0.0 0.0 0.0 0.0 0.0
0.001846 97.839384 0.0 0.0 0.0 0.0 0.0 0.0
0.494135 -155.805418 0.0 0.0 0.0 0.0 0.0 0.0
280.0 1.0 0.0 0.0 0.0 0.0 0.0 0.0 0.0
0.473206 -150.875724 0.0 0.0 0.0 0.0 0.0 0.0
0.003082 29.757529 0.0 0.0 0.0 0.0 0.0 0.0
0.492968 -167.618989 0.0 0.0 0.0 0.0 0.0 0.0
300.0 1.0 0.0 0.0 0.0 0.0 0.0 0.0 0.0
0.472631 -161.435479 0.0 0.0 0.0 0.0 0.0 0.0
0.003211 -34.002643 0.0 0.0 0.0 0.0 0.0 0.0
0.493413 -179.393387 0.0 0.0 0.0 0.0 0.0 0.0
320.0 1.0 0.0 0.0 0.0 0.0 0.0 0.0 0.0
0.471904 -172.196649 0.0 0.0 0.0 0.0 0.0 0.0
0.002264 -89.745953 0.0 0.0 0.0 0.0 0.0 0.0
0.493765 168.627082 0.0 0.0 0.0 0.0 0.0 0.0
340.0 1.0 0.0 0.0 0.0 0.0 0.0 0.0 0.0
0.469844 177.107422 0.0 0.0 0.0 0.0 0.0 0.0
0.001238 -118.09507 0.0 0.0 0.0 0.0 0.0 0.0
0.49278 156.708876 0.0 0.0 0.0 0.0 0.0 0.0
360.0 1.0 0.0 0.0 0.0 0.0 0.0 0.0 0.0
0.46834 166.510678 0.0 0.0 0.0 0.0 0.0 0.0
0.001142 -136.175256 0.0 0.0 0.0 0.0 0.0 0.0
0.492433 144.885744 0.0 0.0 0.0 0.0 0.0 0.0
380.0 1.0 -0.0 0.0 0.0 0.0 0.0 0.0 0.0
0.467256 155.855626 0.0 0.0 0.0 0.0 0.0 0.0
0.000898 179.33422 0.0 0.0 0.0 0.0 0.0 0.0
0.492584 133.000012 0.0 0.0 0.0 0.0 0.0 0.0
400.0 1.0 0.0 0.0 0.0 0.0 0.0 0.0 0.0
0.465656 145.180556 0.0 0.0 0.0 0.0 0.0 0.0
0.000484 150.362964 0.0 0.0 0.0 0.0 0.0 0.0
0.492245 121.089795 0.0 0.0 0.0 0.0 0.0 0.0
420.0 1.0 -0.0 0.0 0.0 0.0 0.0 0.0 0.0
0.464212 134.559964 0.0 0.0 0.0 0.0 0.0 0.0
0.000525 129.967708 0.0 0.0 0.0 0.0 0.0 0.0
0.492122 109.229425 0.0 0.0 0.0 0.0 0.0 0.0
440.0 1.0 0.0 0.0 0.0 0.0 0.0 0.0 0.0
0.462871 123.872524 0.0 0.0 0.0 0.0 0.0 0.0
0.000725 69.169457 0.0 0.0 0.0 0.0 0.0 0.0
0.492158 97.297419 0.0 0.0 0.0 0.0 0.0 0.0
460.0 1.0 -0.0 0.0 0.0 0.0 0.0 0.0 0.0
0.460816 113.213414 0.0 0.0 0.0 0.0 0.0 0.0
0.000904 -0.033904 0.0 0.0 0.0 0.0 0.0 0.0
0.49148 85.388808 0.0 0.0 0.0 0.0 0.0 0.0
480.0 1.0 0.0 0.0 0.0 0.0 0.0 0.0 0.0
0.459028 102.622874 0.0 0.0 0.0 0.0 0.0 0.0
0.000836 -64.265153 0.0 0.0 0.0 0.0 0.0 0.0
0.491131 73.543694 0.0 0.0 0.0 0.0 0.0 0.0
500.0 1.0 -0.0 0.0 0.0 0.0 0.0 0.0 0.0
0.457573 92.015901 0.0 0.0 0.0 0.0 0.0 0.0
0.000371 -106.150754 0.0 0.0 0.0 0.0 0.0 0.0
0.491182 61.676946 0.0 0.0 0.0 0.0 0.0 0.0
520.0 1.0 0.0 0.0 0.0 0.0 0.0 0.0 0.0
0.456014 81.364549 0.0 0.0 0.0 0.0 0.0 0.0
0.00042 -42.899378 0.0 0.0 0.0 0.0 0.0 0.0
0.491161 49.7605 0.0 0.0 0.0 0.0 0.0 0.0
540.0 1.0 -0.0 0.0 0.0 0.0 0.0 0.0 0.0
0.453992 70.735685 0.0 0.0 0.0 0.0 0.0 0.0
0.000885 -61.691828 0.0 0.0 0.0 0.0 0.0 0.0
0.49068 37.861112 0.0 0.0 0.0 0.0 0.0 0.0
560.0 1.0 -0.0 0.0 0.0 0.0 0.0 0.0 0.0
0.452138 60.148109 0.0 0.0 0.0 0.0 0.0 0.0
0.001581 -82.311128 0.0 0.0 0.0 0.0 0.0 0.0
0.490415 25.997482 0.0 0.0 0.0 0.0 0.0 0.0
580.0 1.0 0.0 0.0 0.0 0.0 0.0 0.0 0.0
0.450267 49.554048 0.0 0.0 0.0 0.0 0.0 0.0
0.002683 -119.535169 0.0 0.0 0.0 0.0 0.0 0.0
0.490165 14.121746 0.0 0.0 0.0 0.0 0.0 0.0
600.0 1.0 0.0 0.0 0.0 0.0 0.0 0.0 0.0
0.448385 38.990044 0.0 0.0 0.0 0.0 0.0 0.0
0.003425 -165.851421 0.0 0.0 0.0 0.0 0.0 0.0
0.489933 2.270364 0.0 0.0 0.0 0.0 0.0 0.0
620.0 1.0 -0.0 0.0 0.0 0.0 0.0 0.0 0.0
0.446734 28.443189 0.0 0.0 0.0 0.0 0.0 0.0
0.003187 149.591307 0.0 0.0 0.0 0.0 0.0 0.0
0.489984 -9.569648 0.0 0.0 0.0 0.0 0.0 0.0
640.0 1.0 -0.0 0.0 0.0 0.0 0.0 0.0 0.0
0.445369 17.866835 0.0 0.0 0.0 0.0 0.0 0.0
0.0022 120.520344 0.0 0.0 0.0 0.0 0.0 0.0
0.490378 -21.444998 0.0 0.0 0.0 0.0 0.0 0.0
660.0 1.0 -0.0 0.0 0.0 0.0 0.0 0.0 0.0
0.443678 7.251901 0.0 0.0 0.0 0.0 0.0 0.0
0.001829 125.287495 0.0 0.0 0.0 0.0 0.0 0.0
0.49044 -33.364826 0.0 0.0 0.0 0.0 0.0 0.0
680.0 1.0 -0.0 0.0 0.0 0.0 0.0 0.0 0.0
0.441854 -3.321155 0.0 0.0 0.0 0.0 0.0 0.0
0.002766 115.302578 0.0 0.0 0.0 0.0 0.0 0.0
0.49038 -45.248722 0.0 0.0 0.0 0.0 0.0 0.0
700.0 1.0 0.0 0.0 0.0 0.0 0.0 0.0 0.0
0.440196 -13.910422 0.0 0.0 0.0 0.0 0.0 0.0
0.003521 83.573325 0.0 0.0 0.0 0.0 0.0 0.0
0.490526 -57.154815 0.0 0.0 0.0 0.0 0.0 0.0
720.0 1.0 0.0 0.0 0.0 0.0 0.0 0.0 0.0
0.43819 -24.513428 0.0 0.0 0.0 0.0 0.0 0.0
0.003429 51.371576 0.0 0.0 0.0 0.0 0.0 0.0
0.490303 -69.080663 0.0 0.0 0.0 0.0 0.0 0.0
740.0 1.0 0.0 0.0 0.0 0.0 0.0 0.0 0.0
0.435877 -35.056402 0.0 0.0 0.0 0.0 0.0 0.0
0.002951 29.588837 0.0 0.0 0.0 0.0 0.0 0.0
0.48975 -80.95252 0.0 0.0 0.0 0.0 0.0 0.0
760.0 1.0 -0.0 0.0 0.0 0.0 0.0 0.0 0.0
0.434033 -45.527598 0.0 0.0 0.0 0.0 0.0 0.0
0.002752 16.290967 0.0 0.0 0.0 0.0 0.0 0.0
0.489737 -92.758657 0.0 0.0 0.0 0.0 0.0 0.0
780.0 1.0 0.0 0.0 0.0 0.0 0.0 0.0 0.0
0.432693 -56.054793 0.0 0.0 0.0 0.0 0.0 0.0
0.002833 3.529456 0.0 0.0 0.0 0.0 0.0 0.0
0.490309 -104.62686 0.0 0.0 0.0 0.0 0.0 0.0
800.0 1.0 -0.0 0.0 0.0 0.0 0.0 0.0 0.0
0.430982 -66.617685 0.0 0.0 0.0 0.0 0.0 0.0
0.003095 -11.357329 0.0 0.0 0.0 0.0 0.0 0.0
0.490473 -116.53683 0.0 0.0 0.0 0.0 0.0 0.0
820.0 1.0 0.0 0.0 0.0 0.0 0.0 0.0 0.0
0.429121 -77.135396 0.0 0.0 0.0 0.0 0.0 0.0
0.003414 -30.139315 0.0 0.0 0.0 0.0 0.0 0.0
0.490477 -128.407685 0.0 0.0 0.0 0.0 0.0 0.0
840.0 1.0 0.0 0.0 0.0 0.0 0.0 0.0 0.0
0.427664 -87.621763 0.0 0.0 0.0 0.0 0.0 0.0
0.003612 -50.746928 0.0 0.0 0.0 0.0 0.0 0.0
0.490951 -140.253254 0.0 0.0 0.0 0.0 0.0 0.0
860.0 1.0 0.0 0.0 0.0 0.0 0.0 0.0 0.0
0.426558 -98.185754 0.0 0.0 0.0 0.0 0.0 0.0
0.003815 -71.442452 0.0 0.0 0.0 0.0 0.0 0.0
0.491839 -152.182485 0.0 0.0 0.0 0.0 0.0 0.0
880.0 1.0 0.0 0.0 0.0 0.0 0.0 0.0 0.0
0.424732 -108.801811 0.0 0.0 0.0 0.0 0.0 0.0
0.004018 -97.046669 0.0 0.0 0.0 0.0 0.0 0.0
0.491905 -164.169801 0.0 0.0 0.0 0.0 0.0 0.0
900.0 1.0 -0.0 0.0 0.0 0.0 0.0 0.0 0.0
0.422546 -119.330908 0.0 0.0 0.0 0.0 0.0 0.0
0.00367 -128.45034 0.0 0.0 0.0 0.0 0.0 0.0
0.491553 -176.076148 0.0 0.0 0.0 0.0 0.0 0.0
920.0 1.0 -0.0 0.0 0.0 0.0 0.0 0.0 0.0
0.420774 -129.822893 0.0 0.0 0.0 0.0 0.0 0.0
0.002495 -157.960792 0.0 0.0 0.0 0.0 0.0 0.0
0.491683 172.048659 0.0 0.0 0.0 0.0 0.0 0.0
940.0 1.0 0.0 0.0 0.0 0.0 0.0 0.0 0.0
0.419057 -140.34615 0.0 0.0 0.0 0.0 0.0 0.0
0.001213 -152.217355 0.0 0.0 0.0 0.0 0.0 0.0
0.491874 160.136274 0.0 0.0 0.0 0.0 0.0 0.0
960.0 1.0 0.0 0.0 0.0 0.0 0.0 0.0 0.0
0.41721 -150.831115 0.0 0.0 0.0 0.0 0.0 0.0
0.001894 -128.396493 0.0 0.0 0.0 0.0 0.0 0.0
0.491912 148.256302 0.0 0.0 0.0 0.0 0.0 0.0
980.0 1.0 0.0 0.0 0.0 0.0 0.0 0.0 0.0
0.415965 -161.325342 0.0 0.0 0.0 0.0 0.0 0.0
0.002681 -154.325345 0.0 0.0 0.0 0.0 0.0 0.0
0.492656 136.361235 0.0 0.0 0.0 0.0 0.0 0.0
1000.0 1.0 0.0 0.0 0.0 0.0 0.0 0.0 0.0
0.41432 -171.930367 0.0 0.0 0.0 0.0 0.0 0.0
0.002568 174.723324 0.0 0.0 0.0 0.0 0.0 0.0
0.492923 124.349588 0.0 0.0 0.0 0.0 0.0 0.0
1020.0 1.0 -0.0 0.0 0.0 0.0 0.0 0.0 0.0
0.411815 177.555093 0.0 0.0 0.0 0.0 0.0 0.0
0.001793 155.839902 0.0 0.0 0.0 0.0 0.0 0.0
0.492157 112.4227 0.0 0.0 0.0 0.0 0.0 0.0
1040.0 1.0 0.0 0.0 0.0 0.0 0.0 0.0 0.0
0.410052 167.152453 0.0 0.0 0.0 0.0 0.0 0.0
0.001607 167.225308 0.0 0.0 0.0 0.0 0.0 0.0
0.492264 100.60204 0.0 0.0 0.0 0.0 0.0 0.0
1060.0 1.0 0.0 0.0 0.0 0.0 0.0 0.0 0.0
0.408977 156.634011 0.0 0.0 0.0 0.0 0.0 0.0
0.002259 152.998339 0.0 0.0 0.0 0.0 0.0 0.0
0.49319 88.65997 0.0 0.0 0.0 0.0 0.0 0.0
1080.0 1.0 -0.0 0.0 0.0 0.0 0.0 0.0 0.0
0.406855 146.032824 0.0 0.0 0.0 0.0 0.0 0.0
0.002189 121.06848 0.0 0.0 0.0 0.0 0.0 0.0
0.492842 76.629611 0.0 0.0 0.0 0.0 0.0 0.0
1100.0 1.0 0.0 0.0 0.0 0.0 0.0 0.0 0.0
0.404236 135.603844 0.0 0.0 0.0 0.0 0.0 0.0
0.00128 102.923588 0.0 0.0 0.0 0.0 0.0 0.0
0.491871 64.765982 0.0 0.0 0.0 0.0 0.0 0.0
1120.0 1.0 0.0 0.0 0.0 0.0 0.0 0.0 0.0
0.402791 125.226075 0.0 0.0 0.0 0.0 0.0 0.0
0.001223 137.111163 0.0 0.0 0.0 0.0 0.0 0.0
0.492312 52.948156 0.0 0.0 0.0 0.0 0.0 0.0
1140.0 1.0 0.0 0.0 0.0 0.0 0.0 0.0 0.0
0.401521 114.706786 0.0 0.0 0.0 0.0 0.0 0.0
0.002109 124.4723 0.0 0.0 0.0 0.0 0.0 0.0
0.492952 40.983474 0.0 0.0 0.0 0.0 0.0 0.0
1160.0 1.0 0.0 0.0 0.0 0.0 0.0 0.0 0.0
0.399352 104.182413 0.0 0.0 0.0 0.0 0.0 0.0
0.002506 100.228074 0.0 0.0 0.0 0.0 0.0 0.0
0.492472 29.008447 0.0 0.0 0.0 0.0 0.0 0.0
1180.0 1.0 -0.0 0.0 0.0 0.0 0.0 0.0 0.0
0.397235 93.781532 0.0 0.0 0.0 0.0 0.0 0.0
0.002753 80.448739 0.0 0.0 0.0 0.0 0.0 0.0
0.492032 17.151728 0.0 0.0 0.0 0.0 0.0 0.0
1200.0 1.0 0.0 0.0 0.0 0.0 0.0 0.0 0.0
0.395837 83.360896 0.0 0.0 0.0 0.0 0.0 0.0
0.003143 56.720955 0.0 0.0 0.0 0.0 0.0 0.0
0.492462 5.270148 0.0 0.0 0.0 0.0 0.0 0.0
1220.0 1.0 -0.0 0.0 0.0 0.0 0.0 0.0 0.0
0.394226 72.872313 0.0 0.0 0.0 0.0 0.0 0.0
0.003276 27.993523 0.0 0.0 0.0 0.0 0.0 0.0
0.492607 -6.684407 0.0 0.0 0.0 0.0 0.0 0.0
1240.0 1.0 0.0 0.0 0.0 0.0 0.0 0.0 0.0
0.392356 62.408803 0.0 0.0 0.0 0.0 0.0 0.0
0.003498 0.739477 0.0 0.0 0.0 0.0 0.0 0.0
0.492406 -18.618835 0.0 0.0 0.0 0.0 0.0 0.0
1260.0 1.0 0.0 0.0 0.0 0.0 0.0 0.0 0.0
0.390525 51.964054 0.0 0.0 0.0 0.0 0.0 0.0
0.004368 -42.457748 0.0 0.0 0.0 0.0 0.0 0.0
0.492228 -30.539364 0.0 0.0 0.0 0.0 0.0 0.0
1280.0 1.0 -0.0 0.0 0.0 0.0 0.0 0.0 0.0
0.388696 41.521985 0.0 0.0 0.0 0.0 0.0 0.0
0.004995 -108.183315 0.0 0.0 0.0 0.0 0.0 0.0
0.492025 -42.461994 0.0 0.0 0.0 0.0 0.0 0.0
1300.0 1.0 0.0 0.0 0.0 0.0 0.0 0.0 0.0
0.386752 31.098942 0.0 0.0 0.0 0.0 0.0 0.0
0.005355 176.957787 0.0 0.0 0.0 0.0 0.0 0.0
0.491648 -54.370292 0.0 0.0 0.0 0.0 0.0 0.0
1320.0 1.0 -0.0 0.0 0.0 0.0 0.0 0.0 0.0
0.384975 20.724887 0.0 0.0 0.0 0.0 0.0 0.0
0.005519 106.822375 0.0 0.0 0.0 0.0 0.0 0.0
0.491455 -66.234212 0.0 0.0 0.0 0.0 0.0 0.0
1340.0 1.0 0.0 0.0 0.0 0.0 0.0 0.0 0.0
0.383622 10.34435 0.0 0.0 0.0 0.0 0.0 0.0
0.004845 50.150138 0.0 0.0 0.0 0.0 0.0 0.0
0.491776 -78.109136 0.0 0.0 0.0 0.0 0.0 0.0
1360.0 1.0 0.0 0.0 0.0 0.0 0.0 0.0 0.0
0.382464 -0.091751 0.0 0.0 0.0 0.0 0.0 0.0
0.003664 13.82066 0.0 0.0 0.0 0.0 0.0 0.0
0.492321 -90.044061 0.0 0.0 0.0 0.0 0.0 0.0
1380.0 1.0 -0.0 0.0 0.0 0.0 0.0 0.0 0.0
0.381044 -10.587576 0.0 0.0 0.0 0.0 0.0 0.0
0.003107 -3.079548 0.0 0.0 0.0 0.0 0.0 0.0
0.492504 -102.04306 0.0 0.0 0.0 0.0 0.0 0.0
1400.0 1.0 -0.0 0.0 0.0 0.0 0.0 0.0 0.0
0.379203 -21.070756 0.0 0.0 0.0 0.0 0.0 0.0
0.003186 -21.139095 0.0 0.0 0.0 0.0 0.0 0.0
0.492112 -114.033674 0.0 0.0 0.0 0.0 0.0 0.0
1420.0 1.0 -0.0 0.0 0.0 0.0 0.0 0.0 0.0
0.377227 -31.511143 0.0 0.0 0.0 0.0 0.0 0.0
0.002961 -43.918029 0.0 0.0 0.0 0.0 0.0 0.0
0.491509 -125.98567 0.0 0.0 0.0 0.0 0.0 0.0
1440.0 1.0 -0.0 0.0 0.0 0.0 0.0 0.0 0.0
0.375372 -41.907801 0.0 0.0 0.0 0.0 0.0 0.0
0.002322 -56.256995 0.0 0.0 0.0 0.0 0.0 0.0
0.491029 -137.898023 0.0 0.0 0.0 0.0 0.0 0.0
1460.0 1.0 0.0 0.0 0.0 0.0 0.0 0.0 0.0
0.373834 -52.310157 0.0 0.0 0.0 0.0 0.0 0.0
0.002383 -50.185107 0.0 0.0 0.0 0.0 0.0 0.0
0.490929 -149.820071 0.0 0.0 0.0 0.0 0.0 0.0
1480.0 1.0 0.0 0.0 0.0 0.0 0.0 0.0 0.0
0.372287 -62.768445 0.0 0.0 0.0 0.0 0.0 0.0
0.00333 -61.51904 0.0 0.0 0.0 0.0 0.0 0.0
0.490784 -161.801962 0.0 0.0 0.0 0.0 0.0 0.0
1500.0 1.0 0.0 0.0 0.0 0.0 0.0 0.0 0.0
0.370185 -73.236107 0.0 0.0 0.0 0.0 0.0 0.0
0.003952 -85.165908 0.0 0.0 0.0 0.0 0.0 0.0
0.48987 -173.797048 0.0 0.0 0.0 0.0 0.0 0.0
1520.0 1.0 -0.0 0.0 0.0 0.0 0.0 0.0 0.0
0.367953 -83.585893 0.0 0.0 0.0 0.0 0.0 0.0
0.004071 -106.952016 0.0 0.0 0.0 0.0 0.0 0.0
0.488742 174.322009 0.0 0.0 0.0 0.0 0.0 0.0
1540.0 1.0 0.0 0.0 0.0 0.0 0.0 0.0 0.0
0.366497 -93.925391 0.0 0.0 0.0 0.0 0.0 0.0
0.004307 -123.886574 0.0 0.0 0.0 0.0 0.0 0.0
0.488607 162.447707 0.0 0.0 0.0 0.0 0.0 0.0
1560.0 1.0 0.0 0.0 0.0 0.0 0.0 0.0 0.0
0.364843 -104.360261 0.0 0.0 0.0 0.0 0.0 0.0
0.005026 -145.642457 0.0 0.0 0.0 0.0 0.0 0.0
0.488171 150.474473 0.0 0.0 0.0 0.0 0.0 0.0
1580.0 1.0 -0.0 0.0 0.0 0.0 0.0 0.0 0.0
0.362773 -114.712232 0.0 0.0 0.0 0.0 0.0 0.0
0.005541 -174.083475 0.0 0.0 0.0 0.0 0.0 0.0
0.487138 138.580666 0.0 0.0 0.0 0.0 0.0 0.0
1600.0 1.0 0.0 0.0 0.0 0.0 0.0 0.0 0.0
0.361546 -125.030113 0.0 0.0 0.0 0.0 0.0 0.0
0.006276 157.842851 0.0 0.0 0.0 0.0 0.0 0.0
0.4872 126.717564 0.0 0.0 0.0 0.0 0.0 0.0
1620.0 1.0 0.0 0.0 0.0 0.0 0.0 0.0 0.0
0.360259 -135.54146 0.0 0.0 0.0 0.0 0.0 0.0
0.008283 117.78205 0.0 0.0 0.0 0.0 0.0 0.0
0.487144 114.657697 0.0 0.0 0.0 0.0 0.0 0.0
1640.0 1.0 0.0 0.0 0.0 0.0 0.0 0.0 0.0
0.357341 -146.008128 0.0 0.0 0.0 0.0 0.0 0.0
0.010318 61.671823 0.0 0.0 0.0 0.0 0.0 0.0
0.484839 102.639295 0.0 0.0 0.0 0.0 0.0 0.0
1660.0 1.0 0.0 0.0 0.0 0.0 0.0 0.0 0.0
0.354648 -156.191209 0.0 0.0 0.0 0.0 0.0 0.0
0.01158 0.243053 0.0 0.0 0.0 0.0 0.0 0.0
0.482787 90.901351 0.0 0.0 0.0 0.0 0.0 0.0
1680.0 1.0 0.0 0.0 0.0 0.0 0.0 0.0 0.0
0.353349 -166.349742 0.0 0.0 0.0 0.0 0.0 0.0
0.011916 -60.004927 0.0 0.0 0.0 0.0 0.0 0.0
0.482591 79.18491 0.0 0.0 0.0 0.0 0.0 0.0
1700.0 1.0 -0.0 0.0 0.0 0.0 0.0 0.0 0.0
0.352456 -176.627256 0.0 0.0 0.0 0.0 0.0 0.0
0.010537 -114.063277 0.0 0.0 0.0 0.0 0.0 0.0
0.482911 67.346529 0.0 0.0 0.0 0.0 0.0 0.0
1720.0 1.0 -0.0 0.0 0.0 0.0 0.0 0.0 0.0
0.351372 173.060409 0.0 0.0 0.0 0.0 0.0 0.0
0.008078 -153.71172 0.0 0.0 0.0 0.0 0.0 0.0
0.482934 55.470451 0.0 0.0 0.0 0.0 0.0 0.0
1740.0 1.0 0.0 0.0 0.0 0.0 0.0 0.0 0.0
0.350533 162.728888 0.0 0.0 0.0 0.0 0.0 0.0
0.00647 -177.685649 0.0 0.0 0.0 0.0 0.0 0.0
0.483258 43.572392 0.0 0.0 0.0 0.0 0.0 0.0
1760.0 1.0 0.0 0.0 0.0 0.0 0.0 0.0 0.0
0.349461 152.307647 0.0 0.0 0.0 0.0 0.0 0.0
0.005802 162.385887 0.0 0.0 0.0 0.0 0.0 0.0
0.483224 31.581903 0.0 0.0 0.0 0.0 0.0 0.0
1780.0 1.0 0.0 0.0 0.0 0.0 0.0 0.0 0.0
0.347876 141.926134 0.0 0.0 0.0 0.0 0.0 0.0
0.005018 144.013634 0.0 0.0 0.0 0.0 0.0 0.0
0.48244 19.628511 0.0 0.0 0.0 0.0 0.0 0.0
1800.0 1.0 0.0 0.0 0.0 0.0 0.0 0.0 0.0
0.346531 131.58587 0.0 0.0 0.0 0.0 0.0 0.0
0.004392 135.080506 0.0 0.0 0.0 0.0 0.0 0.0
0.481947 7.71382 0.0 0.0 0.0 0.0 0.0 0.0
1820.0 1.0 -0.0 0.0 0.0 0.0 0.0 0.0 0.0
0.345174 121.195973 0.0 0.0 0.0 0.0 0.0 0.0
0.004628 127.705888 0.0 0.0 0.0 0.0 0.0 0.0
0.481396 -4.252974 0.0 0.0 0.0 0.0 0.0 0.0
1840.0 1.0 -0.0 0.0 0.0 0.0 0.0 0.0 0.0
0.343379 110.826803 0.0 0.0 0.0 0.0 0.0 0.0
0.004963 113.726467 0.0 0.0 0.0 0.0 0.0 0.0
0.480191 -16.201429 0.0 0.0 0.0 0.0 0.0 0.0
1860.0 1.0 0.0 0.0 0.0 0.0 0.0 0.0 0.0
0.341699 100.547472 0.0 0.0 0.0 0.0 0.0 0.0
0.005098 100.257568 0.0 0.0 0.0 0.0 0.0 0.0
0.479103 -28.062357 0.0 0.0 0.0 0.0 0.0 0.0
1880.0 1.0 -0.0 0.0 0.0 0.0 0.0 0.0 0.0
0.340515 90.249816 0.0 0.0 0.0 0.0 0.0 0.0
0.005439 87.393375 0.0 0.0 0.0 0.0 0.0 0.0
0.478667 -39.94384 0.0 0.0 0.0 0.0 0.0 0.0
1900.0 1.0 0.0 0.0 0.0 0.0 0.0 0.0 0.0
0.339169 79.884182 0.0 0.0 0.0 0.0 0.0 0.0
0.005967 71.974209 0.0 0.0 0.0 0.0 0.0 0.0
0.477961 -51.895455 0.0 0.0 0.0 0.0 0.0 0.0
1920.0 1.0 -0.0 0.0 0.0 0.0 0.0 0.0 0.0
0.337379 69.54595 0.0 0.0 0.0 0.0 0.0 0.0
0.006601 52.238442 0.0 0.0 0.0 0.0 0.0 0.0
0.476587 -63.821747 0.0 0.0 0.0 0.0 0.0 0.0
1940.0 1.0 -0.0 0.0 0.0 0.0 0.0 0.0 0.0
0.33564 59.31117 0.0 0.0 0.0 0.0 0.0 0.0
0.006792 26.389167 0.0 0.0 0.0 0.0 0.0 0.0
0.475239 -75.646588 0.0 0.0 0.0 0.0 0.0 0.0
1960.0 1.0 0.0 0.0 0.0 0.0 0.0 0.0 0.0
0.334637 49.091341 0.0 0.0 0.0 0.0 0.0 0.0
0.006128 -0.102396 0.0 0.0 0.0 0.0 0.0 0.0
0.47489 -87.458403 0.0 0.0 0.0 0.0 0.0 0.0
1980.0 1.0 0.0 0.0 0.0 0.0 0.0 0.0 0.0
0.333785 38.738854 0.0 0.0 0.0 0.0 0.0 0.0
0.005577 -27.458404 0.0 0.0 0.0 0.0 0.0 0.0
0.474715 -99.404727 0.0 0.0 0.0 0.0 0.0 0.0
2000.0 1.0 -0.0 0.0 0.0 0.0 0.0 0.0 0.0
0.332137 28.343881 0.0 0.0 0.0 0.0 0.0 0.0
0.004992 -74.330153 0.0 0.0 0.0 0.0 0.0 0.0
0.473365 -111.395312 0.0 0.0 0.0 0.0 0.0 0.0
2020.0 1.0 -0.0 0.0 0.0 0.0 0.0 0.0 0.0
0.330028 18.074022 0.0 0.0 0.0 0.0 0.0 0.0
0.00451 -153.421709 0.0 0.0 0.0 0.0 0.0 0.0
0.471314 -123.262486 0.0 0.0 0.0 0.0 0.0 0.0
2040.0 1.0 0.0 0.0 0.0 0.0 0.0 0.0 0.0
0.328285 7.917499 0.0 0.0 0.0 0.0 0.0 0.0
0.00653 124.654948 0.0 0.0 0.0 0.0 0.0 0.0
0.469739 -135.017953 0.0 0.0 0.0 0.0 0.0 0.0
2060.0 1.0 0.0 0.0 0.0 0.0 0.0 0.0 0.0
0.327099 -2.192169 0.0 0.0 0.0 0.0 0.0 0.0
0.009314 66.503163 0.0 0.0 0.0 0.0 0.0 0.0
0.468916 -146.728122 0.0 0.0 0.0 0.0 0.0 0.0
2080.0 1.0 0.0 0.0 0.0 0.0 0.0 0.0 0.0
0.326688 -12.330109 0.0 0.0 0.0 0.0 0.0 0.0
0.010431 22.9835 0.0 0.0 0.0 0.0 0.0 0.0
0.469164 -158.468047 0.0 0.0 0.0 0.0 0.0 0.0
2100.0 1.0 0.0 0.0 0.0 0.0 0.0 0.0 0.0
0.326522 -22.623214 0.0 0.0 0.0 0.0 0.0 0.0
0.010072 -8.476279 0.0 0.0 0.0 0.0 0.0 0.0
0.469727 -170.364551 0.0 0.0 0.0 0.0 0.0 0.0
2120.0 1.0 0.0 0.0 0.0 0.0 0.0 0.0 0.0
0.325644 -32.988035 0.0 0.0 0.0 0.0 0.0 0.0
0.009351 -30.968662 0.0 0.0 0.0 0.0 0.0 0.0
0.469226 177.665888 0.0 0.0 0.0 0.0 0.0 0.0
2140.0 1.0 0.0 0.0 0.0 0.0 0.0 0.0 0.0
0.324451 -43.258427 0.0 0.0 0.0 0.0 0.0 0.0
0.008792 -47.70099 0.0 0.0 0.0 0.0 0.0 0.0
0.46823 165.789483 0.0 0.0 0.0 0.0 0.0 0.0
2160.0 1.0 -0.0 0.0 0.0 0.0 0.0 0.0 0.0
0.323737 -53.510126 0.0 0.0 0.0 0.0 0.0 0.0
0.008606 -61.464178 0.0 0.0 0.0 0.0 0.0 0.0
0.467885 153.93057 0.0 0.0 0.0 0.0 0.0 0.0
2180.0 1.0 0.0 0.0 0.0 0.0 0.0 0.0 0.0
0.322868 -63.841602 0.0 0.0 0.0 0.0 0.0 0.0
0.008688 -75.249732 0.0 0.0 0.0 0.0 0.0 0.0
0.467274 141.990747 0.0 0.0 0.0 0.0 0.0 0.0
2200.0 1.0 0.0 0.0 0.0 0.0 0.0 0.0 0.0
0.321637 -74.094453 0.0 0.0 0.0 0.0 0.0 0.0
0.008618 -89.197561 0.0 0.0 0.0 0.0 0.0 0.0
0.466098 130.128485 0.0 0.0 0.0 0.0 0.0 0.0
2220.0 1.0 -0.0 0.0 0.0 0.0 0.0 0.0 0.0
0.321074 -84.304767 0.0 0.0 0.0 0.0 0.0 0.0
0.008583 -99.772091 0.0 0.0 0.0 0.0 0.0 0.0
0.465849 118.307766 0.0 0.0 0.0 0.0 0.0 0.0
2240.0 1.0 0.0 0.0 0.0 0.0 0.0 0.0 0.0
0.320661 -94.647289 0.0 0.0 0.0 0.0 0.0 0.0
0.009396 -110.784949 0.0 0.0 0.0 0.0 0.0 0.0
0.465778 106.353912 0.0 0.0 0.0 0.0 0.0 0.0
2260.0 1.0 -0.0 0.0 0.0 0.0 0.0 0.0 0.0
0.31958 -105.00866 0.0 0.0 0.0 0.0 0.0 0.0
0.010246 -127.793425 0.0 0.0 0.0 0.0 0.0 0.0
0.464696 94.38035 0.0 0.0 0.0 0.0 0.0 0.0
2280.0 1.0 0.0 0.0 0.0 0.0 0.0 0.0 0.0
0.31848 -115.279782 0.0 0.0 0.0 0.0 0.0 0.0
0.010318 -145.944897 0.0 0.0 0.0 0.0 0.0 0.0
0.463545 82.496246 0.0 0.0 0.0 0.0 0.0 0.0
2300.0 1.0 -0.0 0.0 0.0 0.0 0.0 0.0 0.0
0.31768 -125.582098 0.0 0.0 0.0 0.0 0.0 0.0
0.010009 -162.830275 0.0 0.0 0.0 0.0 0.0 0.0
0.462791 70.580223 0.0 0.0 0.0 0.0 0.0 0.0
2320.0 1.0 -0.0 0.0 0.0 0.0 0.0 0.0 0.0
0.316468 -135.907841 0.0 0.0 0.0 0.0 0.0 0.0
0.009377 -177.93534 0.0 0.0 0.0 0.0 0.0 0.0
