! c:\Lecroy\SPARQ\Temp\TempForSaveMeasurement\Result.s4p
!
! Tue Nov 24 17:02:35 2015
!
!!Measured using LeCroy SPARQ LCRY2401N02022
!MixedMode
!DutToConverterPinDefinitions,-1,+1,+2,-2
!UserPortDefinitions,D1,D2,C1,C2 
!
! freq S11 S12 S13 S14 
! S21 S22 S23 S24 
! S31 S32 S33 S34 
! S41 S42 S43 S44 
! 
# MHz S MA R 50.00  
0.000000000   0.194155  -0.000000   0.800317  -0.000000   0.000503  -0.000000   0.000099 -180.000000 
  0.799068  -0.000000   0.194391  -0.000000   0.001078  -0.000000   0.000559  -0.000000 
  0.000600   0.000000   0.000343 -180.000000   0.194283  -0.000000   0.800105  -0.000000 
  0.001143  -0.000000   0.000608  -0.000000   0.798984  -0.000000   0.194740  -0.000000 
20.000000000   0.204030  -5.927108   0.801899  -4.318195   0.000462 -51.854865   0.000878 -29.682587 
  0.801981  -4.319616   0.204408  -3.752137   0.001264 -46.672569   0.000165  86.837588 
  0.000856 -62.637093   0.000914 -40.777078   0.205120  -0.023748   0.801742  -3.902121 
  0.001337 -37.394253   0.000159  74.233527   0.801976  -3.882075   0.204982   0.166929 
40.000000000   0.194405 -14.523590   0.797278  -8.591444   0.000910 162.211094   0.000540 -136.415285 
  0.797339  -8.603467   0.196906  -9.292761   0.000935 -131.619492   0.003107 -164.542434 
  0.000797 160.763835   0.000442 -112.178772   0.195234  -1.929843   0.796866  -7.759408 
  0.001155 -145.782115   0.003130 -164.453113   0.796425  -7.764682   0.197602  -1.074916 
60.000000000   0.196034 -20.603414   0.800675 -12.751467   0.002302 -109.215119   0.002711 -122.136776 
  0.800096 -12.721347   0.200218 -13.921106   0.001920 -142.440355   0.002533 -151.388232 
  0.002214 -121.992336   0.002508 -122.525152   0.199052  -2.034793   0.800050 -11.477487 
  0.001871 -132.572203   0.002565 -151.717018   0.799622 -11.478792   0.201691  -1.664354 
80.000000000   0.194674 -25.571122   0.807137 -16.469996   0.002818 -139.291186   0.001680 -122.450141 
  0.806364 -16.435969   0.199480 -16.888028   0.002263 -127.800864   0.000656 -62.984427 
  0.002376 -132.640732   0.001955 -128.707375   0.202654  -0.743389   0.805992 -14.800666 
  0.001985 -129.195581   0.000684 -73.138740   0.805438 -14.768987   0.203630  -0.481433 
100.000000000   0.191920 -32.671132   0.813947 -20.094250   0.002139 -147.849009   0.002008 -134.434225 
  0.814438 -20.030298   0.199040 -21.333715   0.000811 -145.186576   0.001165 -93.428999 
  0.002144 -147.913218   0.001788 -128.970612   0.201501  -1.348691   0.812497 -18.012650 
  0.000690 -147.090899   0.001076 -89.477773   0.813102 -17.954184   0.204501  -0.780925 
120.000000000   0.184727 -38.970664   0.819103 -23.898073   0.001952 -134.377161   0.001545 -90.858352 
  0.818907 -23.934605   0.195405 -25.020485   0.001378 -133.267081   0.001089 -87.474290 
  0.002019 -128.340247   0.001432 -102.543260   0.199625  -0.427106   0.816432 -21.380030 
  0.001326 -135.567696   0.000845 -86.421594   0.815981 -21.398685   0.204488   0.233992 
140.000000000   0.176929 -44.398536   0.819198 -27.852250   0.002616 -104.098551   0.001138 -127.693895 
  0.819850 -27.811847   0.193735 -27.948999   0.001643 -87.336150   0.001055 -120.085474 
  0.002163 -96.529083   0.001502 -93.681899   0.201282   0.851561   0.816373 -25.038039 
  0.001685 -81.753823   0.001725 -113.296537   0.816892 -24.990491   0.208164   1.227480 
160.000000000   0.167682 -50.519684   0.820469 -31.721153   0.002993 -90.064366   0.001088 -101.593481 
  0.820247 -31.623123   0.188463 -31.385683   0.000958 -101.613674   0.002318 -130.397499 
  0.003012 -104.782345   0.001063 -68.012023   0.201394   2.279639   0.816189 -28.466102 
  0.001248 -112.720826   0.002110 -124.207402   0.815600 -28.412142   0.210508   2.396337 
180.000000000   0.159893 -55.855136   0.822538 -35.843171   0.003561 -108.219697   0.001583 -87.100990 
  0.823157 -35.838958   0.186030 -34.613626   0.001437 -122.574939   0.002251 -113.429831 
  0.003945 -103.265780   0.001337 -93.939011   0.205230   3.547375   0.815540 -32.162027 
  0.000808 -102.033076   0.002609 -122.514207   0.816335 -32.149648   0.215571   3.099883 
200.000000000   0.151037 -61.346995   0.826392 -40.059775   0.003861 -120.996132   0.001848 -73.476197 
  0.826807 -40.063973   0.183972 -37.313342   0.001664 -94.956588   0.002924 -132.982091 
  0.003530 -117.115677   0.001679 -94.308743   0.211901   4.533444   0.818997 -35.974483 
  0.001520 -117.339901   0.002830 -128.813060   0.818647 -36.001444   0.224149   3.714931 
220.000000000   0.144553 -68.368378   0.832325 -44.423497   0.003278 -129.431416   0.003190 -102.482763 
  0.832152 -44.410208   0.181382 -41.390672   0.001668 -95.711065   0.003274 -115.562874 
  0.002647 -136.197853   0.003267 -100.267383   0.217860   4.435385   0.822680 -39.908179 
  0.002019 -98.785996   0.003433 -121.095476   0.822501 -39.892922   0.230590   3.747183 
240.000000000   0.133828 -75.949261   0.837717 -48.772571   0.003990 -125.773968   0.002868 -106.325851 
  0.837307 -48.796357   0.177147 -45.817373   0.002574 -113.107960   0.003181 -145.225517 
  0.003805 -128.776265   0.003031 -104.393445   0.222510   5.132268   0.826914 -43.818847 
  0.002471 -110.776326   0.003423 -142.979333   0.826226 -43.823154   0.237990   3.555009 
260.000000000   0.121065 -84.995935   0.844528 -53.269696   0.003987 -133.747751   0.002555 -120.486106 
  0.844572 -53.222499   0.169266 -50.544408   0.003763 -124.174460   0.004310 -151.470734 
  0.004366 -117.279904   0.002787 -117.424862   0.227015   6.020823   0.831853 -48.017371 
  0.003452 -124.119360   0.004486 -146.618528   0.831677 -47.962292   0.243680   3.411273 
280.000000000   0.110598 -91.780625   0.845552 -57.593723   0.006783 -146.113679   0.004879 -141.931213 
  0.846186 -57.494600   0.163532 -54.592605   0.005037 -139.351797   0.004906 -150.819762 
  0.006693 -140.375894   0.004904 -144.955167   0.237160   6.033136   0.830091 -52.101061 
  0.004860 -135.441529   0.005009 -145.019782   0.830671 -52.004661   0.250117   2.885826 
300.000000000   0.103083 -97.029231   0.852355 -61.734599   0.006507 -134.572042   0.004684 -151.555768 
  0.852319 -61.810710   0.165584 -56.785868   0.003689 -148.400121   0.005608 -145.858095 
  0.006236 -139.377093   0.004650 -152.341421   0.250543   5.689328   0.829997 -55.789656 
  0.003099 -138.300088   0.005449 -143.303074   0.830169 -55.818061   0.266181   2.335585 
320.000000000   0.095982 -102.714976   0.858641 -65.838040   0.006900 -132.219893   0.004646 -153.485084 
  0.858467 -65.925337   0.166209 -60.115435   0.004458 -153.474876   0.005133 -142.341124 
  0.006786 -130.394263   0.004803 -155.851369   0.264683   5.157772   0.831963 -59.273198 
  0.003648 -140.528493   0.004836 -141.087692   0.831973 -59.249751   0.282345   1.090814 
340.000000000   0.087178 -111.058646   0.867387 -70.052973   0.006769 -147.673312   0.004123 -149.794795 
  0.867004 -70.084150   0.162259 -63.090289   0.003637 -157.579156   0.005989 -152.611281 
  0.006869 -139.468308   0.003894 -159.478046   0.278127   4.231104   0.838260 -63.116999 
  0.003734 -146.144770   0.005697 -152.066078   0.838294 -63.058726   0.296066  -0.041094 
360.000000000   0.077263 -118.546795   0.873301 -74.571322   0.005408 -158.293054   0.004858 -163.166296 
  0.871856 -74.583121   0.158814 -65.879715   0.004098 -153.411234   0.004863 -155.700983 
  0.005324 -150.946041   0.004473 -175.030034   0.293530   2.888484   0.839905 -67.167255 
  0.004548 -146.754325   0.005330 -153.139341   0.839296 -67.169799   0.310753  -1.251813 
380.000000000   0.069928 -126.383793   0.879046 -78.889463   0.004756 -165.135954   0.005347 -162.726881 
  0.877977 -78.876987   0.154952 -69.795612   0.003129 -161.964068   0.005554 -148.751980 
  0.004811 -167.264441   0.004695 -173.987228   0.307671   1.464809   0.841750 -70.934081 
  0.003152 -154.038316   0.006456 -149.989570   0.841125 -70.958413   0.325290  -2.792626 
400.000000000   0.061813 -137.743271   0.883385 -83.523847   0.005288 -173.430342   0.004882 -163.129351 
  0.882709 -83.440896   0.149076 -74.220924   0.004366 179.804545   0.005389 -145.490520 
  0.005735 -173.772591   0.004517 -176.719371   0.320659  -0.123777   0.841513 -75.202806 
  0.004185 -176.521936   0.006147 -156.807611   0.840274 -75.140789   0.336548  -4.874767 
420.000000000   0.054313 -145.695495   0.887375 -87.915105   0.005089 -172.285540   0.004446 -168.980194 
  0.888165 -87.903542   0.148589 -77.122525   0.004167 175.924424   0.005926 -151.214070 
  0.005198 -169.537958   0.004200 -179.319489   0.336971  -2.448744   0.837507 -79.139276 
  0.004289 -178.698562   0.006494 -158.380145   0.837206 -79.114243   0.351615  -7.173576 
440.000000000   0.045632 -154.009364   0.891519 -92.528598   0.006674 -168.248557   0.004154 -177.850051 
  0.892403 -92.432094   0.147146 -80.483069   0.003252 178.900172   0.005678 -149.228016 
  0.006283 -173.433064   0.004265 166.278929   0.353666  -4.810212   0.834217 -83.145193 
  0.003730 -163.783080   0.006300 -158.575388   0.834154 -83.009098   0.367529  -9.732216 
460.000000000   0.037497 -164.598558   0.894047 -96.969260   0.006855 -172.529240   0.005196 174.879851 
  0.896144 -97.026294   0.144034 -83.324145   0.003748 173.628558   0.004677 -159.467746 
  0.006832 -177.207096   0.005165 164.854705   0.370780  -7.309049   0.831897 -86.991877 
  0.004285 -167.388026   0.005018 -165.482564   0.833105 -86.977659   0.383137 -12.248107 
480.000000000   0.029390 -176.955737   0.898197 -101.339931   0.005837 -178.876680   0.005263 176.456861 
  0.899109 -101.558302   0.141712 -85.278099   0.002982 -174.476493   0.005137 -159.909260 
  0.005852 172.332539   0.005286 172.241197   0.388700  -9.900684   0.829675 -90.797648 
  0.003322 -167.295559   0.004904 -158.022176   0.830188 -90.917083   0.400306 -14.713706 
500.000000000   0.025171 165.433812   0.902990 -105.999633   0.005924 173.729730   0.003872 171.833534 
  0.901281 -106.137157   0.141933 -89.485680   0.004751 -178.808818   0.004744 -158.915399 
  0.005900 172.436922   0.004592 168.166453   0.403519 -12.716561   0.828430 -94.819792 
  0.004651 -172.403826   0.005083 -157.878198   0.827473 -94.855967   0.415329 -18.035217 
520.000000000   0.027228 143.079733   0.907082 -110.838303   0.006134 158.371334   0.003775 -175.831295 
  0.906371 -110.783218   0.138696 -93.988307   0.004940 155.459723   0.006669 -167.033607 
  0.006422 159.797410   0.004201 178.584573   0.415457 -15.437794   0.826368 -98.933964 
  0.004592 164.940071   0.006615 -166.532967   0.827434 -98.795433   0.428936 -21.170494 
540.000000000   0.029893 121.163732   0.909138 -115.619871   0.006048 159.319128   0.006059 175.266064 
  0.910028 -115.547496   0.136787 -98.897742   0.004583 154.919913   0.005792 -172.850652 
  0.006301 159.293358   0.006801 168.739824   0.427851 -18.292176   0.822294 -102.898944 
  0.003996 177.377830   0.006090 -168.369596   0.825371 -102.802243   0.441040 -24.500042 
560.000000000   0.034072 103.707067   0.911852 -120.069431   0.005935 149.832612   0.005222 154.536297 
  0.911875 -120.096316   0.134086 -103.099103   0.004039 167.824773   0.005730 176.735406 
  0.005629 147.036502   0.006079 142.733753   0.439581 -21.099615   0.820636 -106.659287 
  0.004584 -171.884961   0.006630 172.136661   0.822402 -106.759554   0.452373 -27.706048 
580.000000000   0.037143  90.293230   0.914801 -124.536462   0.005719 146.957885   0.005880 163.830686 
  0.914950 -124.500695   0.133635 -107.350698   0.005026 157.762791   0.005753 -173.904908 
  0.005890 146.951757   0.006158 152.010429   0.451589 -23.945490   0.817466 -110.403983 
  0.005500 172.319747   0.006249 -178.137118   0.818178 -110.515481   0.464519 -30.826965 
600.000000000   0.042090  77.129596   0.919003 -129.096360   0.006371 158.152882   0.005638 156.477350 
  0.917901 -129.051139   0.131983 -111.223194   0.004758 146.789005   0.005610 167.720629 
  0.006564 156.008607   0.006234 143.025302   0.466199 -26.780295   0.814753 -114.199117 
  0.004485 165.083042   0.006514 167.114477   0.813356 -114.308110   0.477986 -33.871848 
620.000000000   0.045219  67.626159   0.917455 -133.648179   0.006740 162.179723   0.005906 165.890456 
  0.918141 -133.690963   0.130867 -115.986766   0.005360 153.868660   0.007048 163.548806 
  0.006435 158.006989   0.005969 146.273037   0.477271 -30.093920   0.808115 -117.966150 
  0.004700 168.304323   0.007209 158.908766   0.807792 -118.126392   0.488433 -37.430193 
640.000000000   0.048909  61.756973   0.919907 -138.186024   0.007040 157.879403   0.005610 154.513652 
  0.920188 -138.194608   0.129043 -120.840631   0.006751 154.133282   0.006617 157.292570 
  0.006242 156.588213   0.006308 132.347967   0.486307 -33.361708   0.804895 -121.727383 
  0.006053 165.426836   0.007189 151.640361   0.804207 -121.809352   0.497729 -40.819360 
660.000000000   0.051092  56.286158   0.923357 -142.723838   0.007265 141.885604   0.005849 160.989634 
  0.922897 -142.719664   0.125312 -125.422421   0.006929 136.180625   0.006787 157.401627 
  0.006981 146.776995   0.005511 136.828442   0.495944 -36.630611   0.802830 -125.465630 
  0.006948 148.512411   0.007073 153.100932   0.801911 -125.500858   0.506863 -43.942716 
680.000000000   0.055045  54.773593   0.923549 -147.398042   0.006797 141.917825   0.005778 155.398706 
  0.923602 -147.340360   0.122837 -131.323861   0.004640 125.698801   0.006683 141.123554 
  0.007431 147.083111   0.005614 138.595698   0.500456 -39.837195   0.797752 -129.354777 
  0.004987 146.034321   0.007419 141.922815   0.797600 -129.321723   0.512432 -47.254658 
700.000000000   0.055542  50.734802   0.925501 -152.234203   0.005283 142.010614   0.009991 136.451066 
  0.925789 -152.161675   0.123699 -137.459945   0.008081 131.921133   0.008757 150.577989 
  0.006530 141.753966   0.009563 137.745796   0.508363 -43.755541   0.793906 -133.292031 
  0.009012 135.679242   0.008898 147.623502   0.793844 -133.235911   0.520784 -50.938850 
720.000000000   0.058681  45.117869   0.926421 -156.850217   0.006210 143.172880   0.007528 135.646674 
  0.928626 -156.881544   0.119972 -144.013855   0.008132 135.640416   0.008587 148.742922 
  0.006967 132.651635   0.008444 130.570973   0.519207 -47.024971   0.791055 -136.904308 
  0.008886 148.888965   0.009067 141.095940   0.792636 -136.941068   0.529079 -54.480254 
740.000000000   0.066426  39.729897   0.924759 -161.469455   0.007281 131.634590   0.006940 120.036867 
  0.924618 -161.559192   0.107336 -150.648364   0.008635 121.664550   0.009839 144.875796 
  0.006832 125.123187   0.008289 125.264604   0.525788 -50.064699   0.787530 -140.671448 
  0.008347 133.112256   0.009766 141.458345   0.787857 -140.765070   0.533936 -57.215402 
760.000000000   0.067259  38.276721   0.927167 -165.946399   0.008288 122.656149   0.006311 132.551170 
  0.925877 -165.890018   0.101919 -157.712581   0.007737 126.292028   0.009890 135.424930 
  0.006984 122.425557   0.008140 128.730015   0.530767 -53.470656   0.785092 -144.314600 
  0.007358 142.906758   0.009766 134.426263   0.785618 -144.260140   0.538124 -60.363485 
780.000000000   0.067085  32.356426   0.930796 -170.465475   0.008453 113.541365   0.007710 139.315647 
  0.927867 -170.444509   0.098683 -161.637321   0.008381 131.254368   0.008371 123.366391 
  0.007630 118.957375   0.009537 129.555867   0.539612 -57.079072   0.781697 -147.988724 
  0.008294 148.659295   0.008629 128.041848   0.781912 -147.961717   0.547230 -63.704867 
800.000000000   0.067044  30.612846   0.933807 -175.139482   0.009324 114.369259   0.009061 134.439789 
  0.931022 -175.040319   0.100378 -168.478419   0.009902 122.780754   0.008018 128.277155 
  0.008793 121.116153   0.009993 121.624280   0.544849 -60.637934   0.777711 -151.554262 
  0.010241 138.772320   0.008859 129.507413   0.778099 -151.467357   0.551859 -67.320372 
820.000000000   0.069531  26.669975   0.933003 -179.817864   0.010879 116.181185   0.009461 125.728244 
  0.933344 -179.820814   0.099485 -175.600562   0.009073 109.851626   0.008746 129.512092 
  0.010084 120.726082   0.009529 106.986225   0.550911 -63.817444   0.772794 -155.073597 
  0.010157 134.689917   0.009748 125.065182   0.774100 -155.120732   0.556442 -70.881497 
840.000000000   0.067904  22.839675   0.930771 175.751606   0.009617 112.053263   0.010627 123.178443 
  0.932788 175.678649   0.099790 178.679537   0.008807 100.323394   0.010465 126.320853 
  0.009640 116.404628   0.009189 107.405791   0.556849 -67.314027   0.769044 -158.438165 
  0.011050 128.583525   0.010485 119.064615   0.769292 -158.554479   0.561829 -74.299949 
860.000000000   0.070895  19.418699   0.928577 171.291391   0.008258 104.768900   0.010242 115.343300 
  0.930073 171.240824   0.094524 171.893523   0.008270  96.251916   0.011687 115.531882 
  0.008810 106.490505   0.008588 107.171795   0.561903 -70.467782   0.765872 -161.986108 
  0.011162 120.887247   0.011396 110.954991   0.764103 -162.047502   0.566889 -77.384627 
880.000000000   0.074575  14.263980   0.929940 166.887329   0.008422  99.108268   0.010894 107.958739 
  0.932125 166.831500   0.087616 166.047278   0.008226  97.490678   0.012622 106.480973 
  0.007903  90.937515   0.009516 102.055901   0.569507 -73.626147   0.763077 -165.560369 
  0.010082 108.135812   0.011470 105.628346   0.762085 -165.588379   0.573924 -80.315923 
900.000000000   0.076470  10.516029   0.935524 162.079965   0.008571 102.715443   0.010720  99.350940 
  0.936311 161.997830   0.086756 158.514703   0.009883 106.697681   0.010795 101.062912 
  0.006341 100.402865   0.010837  93.109610   0.575331 -77.095421   0.760804 -169.323559 
  0.008985 102.624648   0.010166 105.700615   0.760321 -169.386772   0.578060 -83.760615 
920.000000000   0.079225   7.972032   0.934082 157.222174   0.009100  99.595617   0.009798 103.333294 
  0.934765 157.175760   0.086834 149.514272   0.013164  96.720347   0.010983 103.626750 
  0.008141 113.791585   0.010185  88.043978   0.577263 -80.435020   0.756755 -172.874449 
  0.009470  93.806940   0.009847 105.226804   0.757416 -172.974582   0.579396 -87.293330 
940.000000000   0.082108   8.978091   0.931600 152.640358   0.008329 103.922909   0.011382 104.677033 
  0.931950 152.648657   0.087226 140.040545   0.014092  83.623540   0.011808 105.668465 
  0.009850 108.660256   0.011318  87.304267   0.575036 -83.605089   0.755049 -176.247386 
  0.010323  89.983354   0.010363 107.945785   0.754836 -176.336060   0.577912 -90.621418 
960.000000000   0.081503   7.245585   0.930745 148.035111   0.007958 111.228526   0.012479  95.712595 
  0.931235 148.156980   0.089334 133.965369   0.012907  73.719627   0.010954 103.147564 
  0.008963  97.478685   0.013284  79.965804   0.576548 -87.316123   0.754957 -179.842758 
  0.011827  93.627123   0.010304 108.168661   0.753317 -179.752187   0.580802 -94.325635 
980.000000000   0.080080   3.191932   0.929382 143.548556   0.009388 113.737120   0.012351  83.927667 
  0.931470 143.726421   0.088554 128.192533   0.011301  71.535002   0.009604  91.136951 
  0.006886  93.347187   0.015354  68.507823   0.581235 -90.955306   0.753225 176.674336 
  0.012811  93.554256   0.009766  99.604627   0.752048 176.940301   0.587561 -97.965670 
1000.000000000   0.086365  -0.207812   0.931680 139.182473   0.009137 101.705204   0.010826  79.290177 
  0.935694 139.283491   0.087535 117.745199   0.012338  69.878950   0.008487  79.193772 
  0.005607 113.722531   0.014151  59.262570   0.585821 -93.851824   0.753873 173.321520 
  0.014205  87.065321   0.009026  88.098398   0.754920 173.583782   0.591267 -101.225572 
1020.000000000   0.094150  -1.709576   0.932825 134.497606   0.007480  92.691044   0.009993  88.657250 
  0.935383 134.432891   0.087387 104.502327   0.013565  68.959546   0.007203  78.973452 
  0.006261 121.266634   0.011663  53.374408   0.584157 -96.994978   0.754060 169.627270 
  0.013410  77.840044   0.007985  69.777762   0.755909 169.662778   0.588216 -104.698930 
1040.000000000   0.100106  -2.358650   0.933281 129.882317   0.005065  89.292050   0.012780  88.106556 
