! File created by SignalIntegrity v1.1.13: Signal and Power Integrity Tools
! https://github.com/TeledyneLeCroy/SignalIntegrity
# MHz S MA R 50.0
0.0 1.0 180.0
100.0 0.999531 177.681327
200.0 0.999335 175.378603
300.0 0.999184 173.07853
400.0 0.999057 170.779845
500.0 0.998945 168.482056
600.0 0.998844 166.184914
700.0 0.998751 163.888268
800.0 0.998665 161.592022
900.0 0.998583 159.296107
1000.0 0.998506 157.000475
1100.0 0.998433 154.705087
1200.0 0.998364 152.409916
1300.0 0.998297 150.114939
1400.0 0.998232 147.820135
1500.0 0.99817 145.52549
1600.0 0.99811 143.230992
1700.0 0.998051 140.936628
1800.0 0.997995 138.64239
1900.0 0.99794 136.34827
2000.0 0.997886 134.054259
2100.0 0.997834 131.760354
2200.0 0.997783 129.466547
2300.0 0.997733 127.172833
2400.0 0.997684 124.87921
2500.0 0.997636 122.585672
2600.0 0.997589 120.292216
2700.0 0.997543 117.998838
2800.0 0.997498 115.705537
2900.0 0.997454 113.412309
3000.0 0.99741 111.119152
3100.0 0.997368 108.826063
3200.0 0.997325 106.533041
3300.0 0.997284 104.240083
3400.0 0.997243 101.947188
3500.0 0.997203 99.654355
3600.0 0.997163 97.361581
3700.0 0.997124 95.068865
3800.0 0.997085 92.776206
3900.0 0.997047 90.483603
4000.0 0.99701 88.191054
4100.0 0.996972 85.898559
4200.0 0.996936 83.606116
4300.0 0.996899 81.313724
4400.0 0.996864 79.021383
4500.0 0.996828 76.729092
4600.0 0.996793 74.436849
4700.0 0.996758 72.144655
4800.0 0.996724 69.852508
4900.0 0.99669 67.560407
5000.0 0.996657 65.268353
5100.0 0.996623 62.976344
5200.0 0.99659 60.68438
5300.0 0.996558 58.39246
5400.0 0.996525 56.100584
5500.0 0.996493 53.808751
5600.0 0.996462 51.516961
5700.0 0.99643 49.225214
5800.0 0.996399 46.933508
5900.0 0.996368 44.641844
6000.0 0.996337 42.350222
6100.0 0.996307 40.05864
6200.0 0.996277 37.767098
6300.0 0.996247 35.475597
6400.0 0.996217 33.184136
6500.0 0.996188 30.892714
6600.0 0.996159 28.601332
6700.0 0.99613 26.309989
6800.0 0.996101 24.018685
6900.0 0.996073 21.727419
7000.0 0.996044 19.436192
7100.0 0.996016 17.145003
7200.0 0.995988 14.853852
7300.0 0.99596 12.562738
7400.0 0.995933 10.271663
7500.0 0.995905 7.980625
7600.0 0.995878 5.689624
7700.0 0.995851 3.398661
7800.0 0.995824 1.107735
7900.0 0.995798 -1.183154
8000.0 0.995771 -3.474007
8100.0 0.995745 -5.764822
8200.0 0.995719 -8.055601
8300.0 0.995693 -10.346343
8400.0 0.995667 -12.637048
8500.0 0.995641 -14.927717
8600.0 0.995616 -17.218349
8700.0 0.99559 -19.508945
8800.0 0.995565 -21.799505
8900.0 0.99554 -24.090028
9000.0 0.995515 -26.380515
9100.0 0.99549 -28.670965
9200.0 0.995465 -30.961379
9300.0 0.995441 -33.251757
9400.0 0.995416 -35.542099
9500.0 0.995392 -37.832404
9600.0 0.995368 -40.122672
9700.0 0.995344 -42.412904
9800.0 0.99532 -44.7031
9900.0 0.995296 -46.993259
10000.0 0.995273 -49.283382
10100.0 0.995249 -51.573468
10200.0 0.995226 -53.863518
10300.0 0.995202 -56.15353
10400.0 0.995179 -58.443506
10500.0 0.995156 -60.733445
10600.0 0.995133 -63.023347
10700.0 0.99511 -65.313212
10800.0 0.995087 -67.60304
10900.0 0.995065 -69.892831
11000.0 0.995042 -72.182584
11100.0 0.99502 -74.4723
11200.0 0.994997 -76.761979
11300.0 0.994975 -79.051619
11400.0 0.994953 -81.341222
11500.0 0.994931 -83.630787
11600.0 0.994909 -85.920314
11700.0 0.994887 -88.209802
11800.0 0.994865 -90.499252
11900.0 0.994844 -92.788664
12000.0 0.994822 -95.078037
12100.0 0.994801 -97.367371
12200.0 0.994779 -99.656666
12300.0 0.994758 -101.945922
12400.0 0.994737 -104.235139
12500.0 0.994715 -106.524316
12600.0 0.994694 -108.813454
12700.0 0.994673 -111.102551
12800.0 0.994653 -113.391609
12900.0 0.994632 -115.680626
13000.0 0.994611 -117.969603
13100.0 0.99459 -120.258538
13200.0 0.99457 -122.547434
13300.0 0.994549 -124.836287
13400.0 0.994529 -127.1251
13500.0 0.994508 -129.413871
13600.0 0.994488 -131.7026
13700.0 0.994468 -133.991287
13800.0 0.994448 -136.279932
13900.0 0.994428 -138.568535
14000.0 0.994408 -140.857094
14100.0 0.994388 -143.145611
14200.0 0.994368 -145.434084
14300.0 0.994348 -147.722514
14400.0 0.994329 -150.0109
14500.0 0.994309 -152.299242
14600.0 0.99429 -154.58754
14700.0 0.99427 -156.875793
14800.0 0.994251 -159.164001
14900.0 0.994231 -161.452164
15000.0 0.994212 -163.740282
15100.0 0.994193 -166.028354
15200.0 0.994174 -168.316379
15300.0 0.994155 -170.604359
15400.0 0.994135 -172.892292
15500.0 0.994117 -175.180177
15600.0 0.994098 -177.468016
15700.0 0.994079 -179.755807
15800.0 0.99406 177.95645
15900.0 0.994041 175.668755
16000.0 0.994023 173.381109
16100.0 0.994004 171.093512
16200.0 0.993985 168.805964
16300.0 0.993967 166.518465
16400.0 0.993948 164.231016
16500.0 0.99393 161.943618
16600.0 0.993912 159.65627
16700.0 0.993893 157.368973
16800.0 0.993875 155.081728
16900.0 0.993857 152.794534
17000.0 0.993839 150.507393
17100.0 0.993821 148.220303
17200.0 0.993803 145.933267
17300.0 0.993785 143.646284
17400.0 0.993767 141.359354
17500.0 0.993749 139.072478
17600.0 0.993731 136.785657
17700.0 0.993714 134.49889
17800.0 0.993696 132.212179
17900.0 0.993678 129.925523
18000.0 0.993661 127.638923
18100.0 0.993643 125.352379
18200.0 0.993626 123.065892
18300.0 0.993608 120.779462
18400.0 0.993591 118.49309
18500.0 0.993574 116.206776
18600.0 0.993556 113.920521
18700.0 0.993539 111.634324
18800.0 0.993522 109.348187
18900.0 0.993505 107.062109
19000.0 0.993487 104.776092
19100.0 0.99347 102.490135
19200.0 0.993453 100.20424
19300.0 0.993436 97.918406
19400.0 0.993419 95.632634
19500.0 0.993403 93.346924
19600.0 0.993386 91.061278
19700.0 0.993369 88.775695
19800.0 0.993352 86.490176
19900.0 0.993335 84.204721
20000.0 0.993319 81.919331
