! File created by SignalIntegrity v1.1.13: Signal and Power Integrity Tools
! https://github.com/TeledyneLeCroy/SignalIntegrity
# MHz S MA R 50.0
0.0 1.0 0.0
100.0 0.999598 -2.306643
200.0 0.999429 -4.599414
300.0 0.9993 -6.889723
400.0 0.999191 -9.178659
500.0 0.999095 -11.466644
600.0 0.999008 -13.753899
700.0 0.998929 -16.040556
800.0 0.998854 -18.326702
900.0 0.998785 -20.6124
1000.0 0.998719 -22.897696
1100.0 0.998656 -25.182626
1200.0 0.998596 -27.46722
1300.0 0.998539 -29.7515
1400.0 0.998483 -32.035489
1500.0 0.99843 -34.319203
1600.0 0.998378 -36.602657
1700.0 0.998328 -38.885866
1800.0 0.99828 -41.168841
1900.0 0.998232 -43.451594
2000.0 0.998186 -45.734136
2100.0 0.998142 -48.016476
2200.0 0.998098 -50.298623
2300.0 0.998055 -52.580586
2400.0 0.998013 -54.862374
2500.0 0.997972 -57.143993
2600.0 0.997932 -59.425451
2700.0 0.997892 -61.706756
2800.0 0.997854 -63.987915
2900.0 0.997816 -66.268935
3000.0 0.997778 -68.549821
3100.0 0.997742 -70.830581
3200.0 0.997705 -73.111222
3300.0 0.99767 -75.391748
3400.0 0.997635 -77.672167
3500.0 0.9976 -79.952484
3600.0 0.997566 -82.232706
3700.0 0.997533 -84.512838
3800.0 0.997499 -86.792886
3900.0 0.997467 -89.072856
4000.0 0.997434 -91.352754
4100.0 0.997403 -93.632585
4200.0 0.997371 -95.912354
4300.0 0.99734 -98.192068
4400.0 0.997309 -100.471732
4500.0 0.997279 -102.751351
4600.0 0.997249 -105.030932
4700.0 0.997219 -107.310478
4800.0 0.997189 -109.589997
4900.0 0.99716 -111.869492
5000.0 0.997131 -114.148971
5100.0 0.997103 -116.428437
5200.0 0.997075 -118.707896
5300.0 0.997047 -120.987355
5400.0 0.997019 -123.266817
5500.0 0.996991 -125.546288
5600.0 0.996964 -127.825774
5700.0 0.996937 -130.10528
5800.0 0.996911 -132.384811
5900.0 0.996884 -134.664372
6000.0 0.996858 -136.943969
6100.0 0.996832 -139.223607
6200.0 0.996806 -141.503291
6300.0 0.99678 -143.783027
6400.0 0.996755 -146.062819
6500.0 0.996729 -148.342673
6600.0 0.996704 -150.622595
6700.0 0.99668 -152.902588
6800.0 0.996655 -155.182659
6900.0 0.99663 -157.462813
7000.0 0.996606 -159.743055
7100.0 0.996582 -162.02339
7200.0 0.996558 -164.303823
7300.0 0.996534 -166.58436
7400.0 0.99651 -168.865005
7500.0 0.996487 -171.145765
7600.0 0.996464 -173.426643
7700.0 0.99644 -175.707646
7800.0 0.996417 -177.988778
7900.0 0.996395 179.729956
8000.0 0.996372 177.448549
8100.0 0.996349 175.166998
8200.0 0.996327 172.885297
8300.0 0.996304 170.60344
8400.0 0.996282 168.321424
8500.0 0.99626 166.039241
8600.0 0.996238 163.756889
8700.0 0.996216 161.47436
8800.0 0.996195 159.191651
8900.0 0.996173 156.908756
9000.0 0.996152 154.625669
9100.0 0.996131 152.342387
9200.0 0.996109 150.058903
9300.0 0.996088 147.775213
9400.0 0.996067 145.491312
9500.0 0.996046 143.207194
9600.0 0.996026 140.922854
9700.0 0.996005 138.638288
9800.0 0.995985 136.35349
9900.0 0.995964 134.068455
10000.0 0.995944 131.783178
10100.0 0.995924 129.497655
10200.0 0.995904 127.21188
10300.0 0.995884 124.925848
10400.0 0.995864 122.639554
10500.0 0.995844 120.352993
10600.0 0.995824 118.06616
10700.0 0.995804 115.77905
10800.0 0.995785 113.491659
10900.0 0.995765 111.20398
11000.0 0.995746 108.91601
11100.0 0.995727 106.627743
11200.0 0.995708 104.339175
11300.0 0.995689 102.0503
11400.0 0.99567 99.761114
11500.0 0.995651 97.471611
11600.0 0.995632 95.181787
11700.0 0.995613 92.891637
11800.0 0.995594 90.601156
11900.0 0.995576 88.31034
12000.0 0.995557 86.019182
12100.0 0.995539 83.72768
12200.0 0.99552 81.435827
12300.0 0.995502 79.143619
12400.0 0.995484 76.851051
12500.0 0.995466 74.558119
12600.0 0.995448 72.264818
12700.0 0.99543 69.971143
12800.0 0.995412 67.677089
12900.0 0.995394 65.382652
13000.0 0.995376 63.087827
13100.0 0.995358 60.792609
13200.0 0.995341 58.496994
13300.0 0.995323 56.200977
13400.0 0.995305 53.904554
13500.0 0.995288 51.60772
13600.0 0.995271 49.31047
13700.0 0.995253 47.0128
13800.0 0.995236 44.714706
13900.0 0.995219 42.416182
14000.0 0.995202 40.117225
14100.0 0.995185 37.81783
14200.0 0.995168 35.517993
14300.0 0.995151 33.217709
14400.0 0.995134 30.916974
14500.0 0.995117 28.615783
14600.0 0.9951 26.314133
14700.0 0.995083 24.012018
14800.0 0.995067 21.709435
14900.0 0.99505 19.40638
15000.0 0.995034 17.102848
15100.0 0.995017 14.798835
15200.0 0.995001 12.494337
15300.0 0.994984 10.18935
15400.0 0.994968 7.883869
15500.0 0.994952 5.577891
15600.0 0.994935 3.271412
15700.0 0.994919 0.964427
15800.0 0.994903 -1.343067
15900.0 0.994887 -3.651074
16000.0 0.994871 -5.959599
16100.0 0.994855 -8.268644
16200.0 0.994839 -10.578215
16300.0 0.994823 -12.888314
16400.0 0.994807 -15.198946
16500.0 0.994792 -17.510114
16600.0 0.994776 -19.821822
16700.0 0.99476 -22.134074
16800.0 0.994744 -24.446872
16900.0 0.994729 -26.760222
17000.0 0.994713 -29.074126
17100.0 0.994698 -31.388588
17200.0 0.994682 -33.703611
17300.0 0.994667 -36.019199
17400.0 0.994652 -38.335355
17500.0 0.994636 -40.652083
17600.0 0.994621 -42.969386
17700.0 0.994606 -45.287266
17800.0 0.994591 -47.605728
17900.0 0.994575 -49.924775
18000.0 0.99456 -52.244409
18100.0 0.994545 -54.564634
18200.0 0.99453 -56.885452
18300.0 0.994515 -59.206868
18400.0 0.9945 -61.528883
18500.0 0.994485 -63.851501
18600.0 0.994471 -66.174725
18700.0 0.994456 -68.498557
18800.0 0.994441 -70.823
18900.0 0.994426 -73.148056
19000.0 0.994412 -75.47373
19100.0 0.994397 -77.800022
19200.0 0.994382 -80.126936
19300.0 0.994368 -82.454474
19400.0 0.994353 -84.782639
19500.0 0.994339 -87.111433
19600.0 0.994324 -89.440858
19700.0 0.99431 -91.770918
19800.0 0.994295 -94.101613
19900.0 0.994281 -96.432946
20000.0 0.994267 -98.764919
