! File created by SignalIntegrity v1.1.13: Signal and Power Integrity Tools
! https://github.com/TeledyneLeCroy/SignalIntegrity
# MHz S MA R 50.0
0.0 0.0 0.0 1.0 0.0 1.0 0.0 0.0 0.0
100.0 0.012151 83.325632 0.999295 -3.695616 0.999295 -3.695616 0.012151 83.325632
200.0 0.023858 80.492872 0.998824 -7.368629 0.998824 -7.368629 0.023858 80.492872
300.0 0.035396 77.207498 0.998284 -11.035924 0.998284 -11.035924 0.035396 77.207498
400.0 0.046747 73.776264 0.997654 -14.698306 0.997654 -14.698306 0.046747 73.776264
500.0 0.057875 70.278666 0.996929 -18.355586 0.996929 -18.355586 0.057875 70.278666
600.0 0.068739 66.746156 0.996115 -22.007318 0.996115 -22.007318 0.068739 66.746156
700.0 0.079298 63.194203 0.995219 -25.652996 0.995219 -25.652996 0.079298 63.194203
800.0 0.089512 59.631524 0.994253 -29.292138 0.994253 -29.292138 0.089512 59.631524
900.0 0.099341 56.063493 0.993229 -32.924317 0.993229 -32.924317 0.099341 56.063493
1000.0 0.108749 52.493638 0.992161 -36.549194 0.992161 -36.549194 0.108749 52.493638
1100.0 0.117701 48.924357 0.991065 -40.166524 0.991065 -40.166524 0.117701 48.924357
1200.0 0.126164 45.357306 0.989956 -43.77617 0.989956 -43.77617 0.126164 45.357306
1300.0 0.134109 41.79362 0.988849 -47.378103 0.988849 -47.378103 0.134109 41.79362
1400.0 0.141508 38.234041 0.987761 -50.972409 0.987761 -50.972409 0.141508 38.234041
1500.0 0.148336 34.679011 0.986707 -54.559284 0.986707 -54.559284 0.148336 34.679011
1600.0 0.154571 31.128724 0.985702 -58.139032 0.985702 -58.139032 0.154571 31.128724
1700.0 0.160194 27.583173 0.984759 -61.712061 0.984759 -61.712061 0.160194 27.583173
1800.0 0.165186 24.042179 0.983893 -65.278876 0.983893 -65.278876 0.165186 24.042179
1900.0 0.169532 20.505419 0.983114 -68.840068 0.983114 -68.840068 0.169532 20.505419
2000.0 0.173221 16.972449 0.982434 -72.396313 0.982434 -72.396313 0.173221 16.972449
2100.0 0.17624 13.442722 0.981861 -75.948351 0.981861 -75.948351 0.17624 13.442722
2200.0 0.178583 9.91561 0.981403 -79.496984 0.981403 -79.496984 0.178583 9.91561
2300.0 0.180241 6.390419 0.981067 -83.04306 0.981067 -83.04306 0.180241 6.390419
2400.0 0.18121 2.866407 0.980854 -86.587462 0.980854 -86.587462 0.18121 2.866407
2500.0 0.181488 -0.657199 0.980769 -90.131094 0.980769 -90.131094 0.181488 -0.657199
2600.0 0.181075 -4.181188 0.980812 -93.674872 0.980812 -93.674872 0.181075 -4.181188
2700.0 0.17997 -7.706343 0.98098 -97.219707 0.98098 -97.219707 0.17997 -7.706343
2800.0 0.178179 -11.233435 0.981272 -100.766494 0.981272 -100.766494 0.178179 -11.233435
2900.0 0.175705 -14.763194 0.981681 -104.316098 0.981681 -104.316098 0.175705 -14.763194
3000.0 0.172555 -18.296304 0.982201 -107.869346 0.982201 -107.869346 0.172555 -18.296304
3100.0 0.16874 -21.833376 0.982824 -111.427008 0.982824 -111.427008 0.16874 -21.833376
3200.0 0.164271 -25.374938 0.983539 -114.989791 0.983539 -114.989791 0.164271 -25.374938
3300.0 0.15916 -28.921408 0.984336 -118.558326 0.984336 -118.558326 0.15916 -28.921408
3400.0 0.153425 -32.473081 0.985201 -122.133158 0.985201 -122.133158 0.153425 -32.473081
3500.0 0.147082 -36.030099 0.986121 -125.714739 0.986121 -125.714739 0.147082 -36.030099
3600.0 0.140154 -39.592424 0.987081 -129.303415 0.987081 -129.303415 0.140154 -39.592424
3700.0 0.132663 -43.159797 0.988065 -132.899427 0.988065 -132.899427 0.132663 -43.159797
3800.0 0.124635 -46.731693 0.989058 -136.5029 0.989058 -136.5029 0.124635 -46.731693
3900.0 0.1161 -50.307234 0.990044 -140.11384 0.990044 -140.11384 0.1161 -50.307234
4000.0 0.107087 -53.885083 0.991005 -143.732138 0.991005 -143.732138 0.107087 -53.885083
4100.0 0.097632 -57.463241 0.991926 -147.357564 0.991926 -147.357564 0.097632 -57.463241
4200.0 0.087769 -61.038713 0.992791 -150.989772 0.992791 -150.989772 0.087769 -61.038713
4300.0 0.077539 -64.606873 0.993586 -154.628303 0.993586 -154.628303 0.077539 -64.606873
4400.0 0.066983 -68.160197 0.994297 -158.272597 0.994297 -158.272597 0.066983 -68.160197
4500.0 0.056143 -71.685441 0.994911 -161.921992 0.994911 -161.921992 0.056143 -71.685441
4600.0 0.045065 -75.156516 0.995418 -165.575743 0.995418 -165.575743 0.045065 -75.156516
4700.0 0.033796 -78.512825 0.995809 -169.233028 0.995809 -169.233028 0.033796 -78.512825
4800.0 0.022386 -81.57063 0.996076 -172.892966 0.996076 -172.892966 0.022386 -81.57063
4900.0 0.010889 -83.370956 0.996214 -176.554629 0.996214 -176.554629 0.010889 -83.370956
5000.0 0.000968 44.443489 0.996221 179.78294 0.996221 179.78294 0.000968 44.443489
5100.0 0.012251 82.524485 0.996096 176.120713 0.996096 176.120713 0.012251 82.524485
5200.0 0.023733 80.423055 0.99584 172.459657 0.99584 172.459657 0.023733 80.423055
5300.0 0.035115 77.310272 0.995457 168.800722 0.995457 168.800722 0.035115 77.310272
5400.0 0.046345 73.935624 0.994954 165.144817 0.994954 165.144817 0.046345 73.935624
5500.0 0.057373 70.457018 0.994337 161.492802 0.994337 161.492802 0.057373 70.457018
5600.0 0.068152 66.928656 0.993617 157.845471 0.993617 157.845471 0.068152 66.928656
5700.0 0.078639 63.374411 0.992805 154.203538 0.992805 154.203538 0.078639 63.374411
5800.0 0.08879 59.806579 0.991914 150.567625 0.991914 150.567625 0.08879 59.806579
5900.0 0.098565 56.232208 0.990958 146.938255 0.990958 146.938255 0.098565 56.232208
6000.0 0.107925 52.655649 0.989953 143.315842 0.989953 143.315842 0.107925 52.655649
6100.0 0.116836 49.079722 0.988913 139.700688 0.988913 139.700688 0.116836 49.079722
6200.0 0.125263 45.506301 0.987855 136.092976 0.987855 136.092976 0.125263 45.506301
6300.0 0.133177 41.936629 0.986796 132.492772 0.986796 132.492772 0.133177 41.936629
6400.0 0.140549 38.371501 0.985751 128.900023 0.985751 128.900023 0.140549 38.371501
6500.0 0.147355 34.811378 0.984736 125.314558 0.984736 125.314558 0.147355 34.811378
6600.0 0.153572 31.256459 0.983767 121.736097 0.983767 121.736097 0.153572 31.256459
6700.0 0.159179 27.706731 0.982857 118.164253 0.982857 118.164253 0.159179 27.706731
6800.0 0.164159 24.162007 0.98202 114.598539 0.98202 114.598539 0.164159 24.162007
6900.0 0.168497 20.621955 0.981268 111.038377 0.981268 111.038377 0.168497 20.621955
7000.0 0.17218 17.08612 0.980612 107.483109 0.980612 107.483109 0.17218 17.08612
7100.0 0.175196 13.553949 0.980061 103.932005 0.980061 103.932005 0.175196 13.553949
7200.0 0.177538 10.024809 0.979623 100.384273 0.979623 100.384273 0.177538 10.024809
7300.0 0.179198 6.498002 0.979304 96.839077 0.979304 96.839077 0.179198 6.498002
7400.0 0.180171 2.972788 0.979107 93.295542 0.979107 93.295542 0.180171 2.972788
7500.0 0.180456 -0.551602 0.979035 89.75277 0.979035 89.75277 0.180456 -0.551602
7600.0 0.180052 -4.075948 0.97909 86.209854 0.97909 86.209854 0.180052 -4.075948
7700.0 0.178959 -7.601023 0.979269 82.665887 0.979269 82.665887 0.178959 -7.601023
7800.0 0.177181 -11.127578 0.979569 79.119981 0.979569 79.119981 0.177181 -11.127578
7900.0 0.174722 -14.656322 0.979986 75.571272 0.979986 75.571272 0.174722 -14.656322
8000.0 0.171591 -18.187905 0.980513 72.018939 0.980513 72.018939 0.171591 -18.187905
8100.0 0.167796 -21.722899 0.981142 68.462213 0.981142 68.462213 0.167796 -21.722899
8200.0 0.163348 -25.26178 0.981863 64.90039 0.981863 64.90039 0.163348 -25.26178
8300.0 0.158261 -28.804901 0.982664 61.332839 0.982664 61.332839 0.158261 -28.804901
8400.0 0.152551 -32.352471 0.983534 57.759016 0.983534 57.759016 0.152551 -32.352471
8500.0 0.146236 -35.90452 0.984458 54.178471 0.984458 54.178471 0.146236 -35.90452
8600.0 0.139337 -39.460864 0.985421 50.590854 0.985421 50.590854 0.139337 -39.460864
8700.0 0.131877 -43.021055 0.98641 46.995925 0.98641 46.995925 0.131877 -43.021055
8800.0 0.123882 -46.584302 0.987407 43.393558 0.987407 43.393558 0.123882 -46.584302
8900.0 0.11538 -50.149371 0.988396 39.783741 0.988396 39.783741 0.11538 -50.149371
9000.0 0.106404 -53.714414 0.989362 36.166582 0.989362 36.166582 0.106404 -53.714414
9100.0 0.096985 -57.276689 0.990288 32.542309 0.990288 32.542309 0.096985 -57.276689
9200.0 0.087161 -60.832076 0.991158 28.911263 0.991158 28.911263 0.087161 -60.832076
9300.0 0.07697 -64.374166 0.991959 25.273898 0.991959 25.273898 0.07697 -64.374166
9400.0 0.066454 -67.892424 0.992677 21.630771 0.992677 21.630771 0.066454 -67.892424
9500.0 0.055656 -71.368119 0.993299 17.982538 0.993299 17.982538 0.055656 -71.368119
9600.0 0.04462 -74.763984 0.993814 14.32994 0.993814 14.32994 0.04462 -74.763984
9700.0 0.033395 -77.992639 0.994214 10.673794 0.994214 10.673794 0.033395 -77.992639
9800.0 0.022031 -80.786287 0.994491 7.014976 0.994491 7.014976 0.022031 -80.786287
9900.0 0.010588 -81.718818 0.99464 3.354409 0.99464 3.354409 0.010588 -81.718818
10000.0 0.001365 44.452697 0.994659 -0.306954 0.994659 -0.306954 0.001365 44.452697
10100.0 0.012508 81.333267 0.994546 -3.968146 0.994546 -3.968146 0.012508 81.333267
10200.0 0.023939 79.79771 0.994303 -7.628204 0.994303 -7.628204 0.023939 79.79771
10300.0 0.035277 76.893326 0.993934 -11.286183 0.993934 -11.286183 0.035277 76.893326
10400.0 0.046464 73.627005 0.993445 -14.941174 0.993445 -14.941174 0.046464 73.627005
10500.0 0.05745 70.21488 0.992842 -18.592322 0.992842 -18.592322 0.05745 70.21488
10600.0 0.06819 66.731561 0.992137 -22.238835 0.992137 -22.238835 0.06819 66.731561
10700.0 0.078638 63.20992 0.991341 -25.88 0.991341 -25.88 0.078638 63.20992
10800.0 0.088752 59.666835 0.990466 -29.515197 0.990466 -29.515197 0.088752 59.666835
10900.0 0.09849 56.111936 0.989526 -33.143903 0.989526 -33.143903 0.09849 56.111936
11000.0 0.107816 52.551138 0.988536 -36.765703 0.988536 -36.765703 0.107816 52.551138
11100.0 0.116693 48.988267 0.987512 -40.380295 0.987512 -40.380295 0.116693 48.988267
11200.0 0.125088 45.425869 0.986469 -43.987496 0.986469 -43.987496 0.125088 45.425869
11300.0 0.132972 41.865659 0.985425 -47.587237 0.985425 -47.587237 0.132972 41.865659
11400.0 0.140315 38.308774 0.984395 -51.17957 0.984395 -51.17957 0.140315 38.308774
11500.0 0.147094 34.755927 0.983394 -54.764662 0.983394 -54.764662 0.147094 34.755927
11600.0 0.153284 31.207507 0.982438 -58.342791 0.982438 -58.342791 0.153284 31.207507
11700.0 0.158867 27.663652 0.981541 -61.914341 0.981541 -61.914341 0.158867 27.663652
11800.0 0.163825 24.124293 0.980717 -65.479795 0.980717 -65.479795 0.163825 24.124293
11900.0 0.168142 20.589195 0.979977 -69.039727 0.979977 -69.039727 0.168142 20.589195
12000.0 0.171805 17.057985 0.979331 -72.594792 0.979331 -72.594792 0.171805 17.057985
12100.0 0.174804 13.530176 0.97879 -76.145716 0.97879 -76.145716 0.174804 13.530176
12200.0 0.177129 10.005194 0.978361 -79.693286 0.978361 -79.693286 0.177129 10.005194
12300.0 0.178775 6.482395 0.97805 -83.238336 0.97805 -83.238336 0.178775 6.482395
12400.0 0.179736 2.961086 0.97786 -86.781735 0.97786 -86.781735 0.179736 2.961086
12500.0 0.18001 -0.559459 0.977796 -90.324377 0.977796 -90.324377 0.18001 -0.559459
12600.0 0.179596 -4.079976 0.977856 -93.867167 0.977856 -93.867167 0.179596 -4.079976
12700.0 0.178495 -7.601198 0.97804 -97.411005 0.97804 -97.411005 0.178495 -7.601198
12800.0 0.176711 -11.123833 0.978344 -100.956778 0.978344 -100.956778 0.176711 -11.123833
12900.0 0.174248 -14.648545 0.978765 -104.505346 0.978765 -104.505346 0.174248 -14.648545
13000.0 0.171114 -18.175938 0.979295 -108.057526 0.979295 -108.057526 0.171114 -18.175938
13100.0 0.167317 -21.706533 0.979926 -111.614084 0.979926 -111.614084 0.167317 -21.706533
13200.0 0.16287 -25.240745 0.980648 -115.175722 0.980648 -115.175722 0.16287 -25.240745
13300.0 0.157785 -28.778859 0.981451 -118.743068 0.981451 -118.743068 0.157785 -28.778859
13400.0 0.152079 -32.321002 0.982321 -122.316664 0.982321 -122.316664 0.152079 -32.321002
13500.0 0.14577 -35.867103 0.983245 -125.896959 0.983245 -125.896959 0.14577 -35.867103
13600.0 0.138878 -39.416854 0.984209 -129.484301 0.984209 -129.484301 0.138878 -39.416854
13700.0 0.131427 -42.969641 0.985197 -133.078929 0.985197 -133.078929 0.131427 -42.969641
13800.0 0.123442 -46.524462 0.986194 -136.68097 0.986194 -136.68097 0.123442 -46.524462
13900.0 0.114953 -50.079792 0.987183 -140.290434 0.987183 -140.290434 0.114953 -50.079792
14000.0 0.105989 -53.633374 0.988148 -143.907214 0.988148 -143.907214 0.105989 -53.633374
14100.0 0.096586 -57.181881 0.989074 -147.531083 0.989074 -147.531083 0.096586 -57.181881
14200.0 0.086778 -60.720304 0.989945 -151.161702 0.989945 -151.161702 0.086778 -60.720304
14300.0 0.076606 -64.240828 0.990746 -154.798618 0.990746 -154.798618 0.076606 -64.240828
14400.0 0.066109 -67.730551 0.991465 -158.441276 0.991465 -158.441276 0.066109 -67.730551
14500.0 0.055331 -71.16641 0.992088 -162.089022 0.992088 -162.089022 0.055331 -71.16641
14600.0 0.044318 -74.50228 0.992605 -165.741118 0.992605 -165.741118 0.044318 -74.50228
14700.0 0.033117 -77.629414 0.993007 -169.396752 0.993007 -169.396752 0.033117 -77.629414
14800.0 0.021779 -80.212093 0.993287 -173.055049 0.993287 -173.055049 0.021779 -80.212093
14900.0 0.010372 -80.436035 0.993439 -176.71509 0.993439 -176.71509 0.010372 -80.436035
15000.0 0.001668 44.427952 0.993462 179.624074 0.993462 179.624074 0.001668 44.427952
15100.0 0.012715 80.421342 0.993353 175.963407 0.993353 175.963407 0.012715 80.421342
15200.0 0.024113 79.292351 0.993116 172.303868 0.993116 172.303868 0.024113 79.292351
15300.0 0.035422 76.542982 0.992753 168.646398 0.992753 168.646398 0.035422 76.542982
15400.0 0.046582 73.358597 0.992269 164.991903 0.992269 164.991903 0.046582 73.358597
15500.0 0.057542 69.997395 0.991674 161.341236 0.991674 161.341236 0.057542 69.997395
15600.0 0.068255 66.548981 0.990977 157.695185 0.990977 157.695185 0.068255 66.548981
15700.0 0.078677 63.052897 0.990188 154.054459 0.990188 154.054459 0.078677 63.052897
15800.0 0.088765 59.529439 0.989321 150.419678 0.989321 150.419678 0.088765 59.529439
15900.0 0.098479 55.99017 0.988389 146.791363 0.988389 146.791363 0.098479 55.99017
16000.0 0.10778 52.44218 0.987408 143.169926 0.987408 143.169926 0.10778 52.44218
16100.0 0.116633 48.89005 0.986393 139.555668 0.986393 139.555668 0.116633 48.89005
16200.0 0.125005 45.336838 0.985359 135.948773 0.985359 135.948773 0.125005 45.336838
16300.0 0.132866 41.784614 0.984324 132.349308 0.984324 132.349308 0.132866 41.784614
16400.0 0.140188 38.234772 0.983302 128.757221 0.983302 128.757221 0.140188 38.234772
16500.0 0.146946 34.688216 0.98231 125.172347 0.98231 125.172347 0.146946 34.688216
16600.0 0.153116 31.145481 0.981363 121.594408 0.981363 121.594408 0.153116 31.145481
16700.0 0.15868 27.606819 0.980474 118.023021 0.980474 118.023021 0.15868 27.606819
16800.0 0.16362 24.072252 0.979657 114.457704 0.979657 114.457704 0.16362 24.072252
16900.0 0.16792 20.541618 0.978925 110.897886 0.978925 110.897886 0.16792 20.541618
17000.0 0.171567 17.014605 0.978286 107.342913 0.978286 107.342913 0.171567 17.014605
17100.0 0.17455 13.49078 0.977752 103.792061 0.977752 103.792061 0.17455 13.49078
17200.0 0.176862 9.969615 0.977329 100.244546 0.977329 100.244546 0.176862 9.969615
17300.0 0.178494 6.450506 0.977023 96.699538 0.977023 96.699538 0.178494 6.450506
17400.0 0.179444 2.932798 0.976839 93.156169 0.976839 93.156169 0.179444 2.932798
17500.0 0.179707 -0.5842 0.976778 89.613548 0.976778 89.613548 0.179707 -0.5842
17600.0 0.179283 -4.10119 0.976842 86.070773 0.976842 86.070773 0.179283 -4.10119
17700.0 0.178174 -7.61887 0.977029 82.526947 0.977029 82.526947 0.178174 -7.61887
17800.0 0.176383 -11.137914 0.977337 78.981185 0.977337 78.981185 0.176383 -11.137914
17900.0 0.173914 -14.658949 0.977759 75.432632 0.977759 75.432632 0.173914 -14.658949
18000.0 0.170775 -18.182541 0.978291 71.880472 0.978291 71.880472 0.170775 -18.182541
18100.0 0.166975 -21.709165 0.978923 68.323942 0.978923 68.323942 0.166975 -21.709165
18200.0 0.162525 -25.239187 0.979646 64.762342 0.979646 64.762342 0.162525 -25.239187
18300.0 0.157439 -28.772834 0.980449 61.195047 0.980449 61.195047 0.157439 -28.772834
18400.0 0.151734 -32.310162 0.981319 57.621517 0.981319 57.621517 0.151734 -32.310162
18500.0 0.145426 -35.851016 0.982243 54.041304 0.982243 54.041304 0.145426 -35.851016
18600.0 0.138537 -39.394978 0.983206 50.454064 0.983206 50.454064 0.138537 -39.394978
18700.0 0.13109 -42.941298 0.984193 46.859556 0.984193 46.859556 0.13109 -42.941298
18800.0 0.123111 -46.488788 0.985189 43.257657 0.985189 43.257657 0.123111 -46.488788
18900.0 0.114628 -50.035676 0.986176 39.648357 0.986176 39.648357 0.114628 -50.035676
19000.0 0.105673 -53.579358 0.98714 36.031763 0.98714 36.031763 0.105673 -53.579358
19100.0 0.096278 -57.116003 0.988065 32.408101 0.988065 32.408101 0.096278 -57.116003
19200.0 0.086482 -60.639843 0.988935 28.777711 0.988935 28.777711 0.086482 -60.639843
19300.0 0.076321 -64.141859 0.989735 25.141044 0.989735 25.141044 0.076321 -64.141859
19400.0 0.065837 -67.607114 0.990453 21.498656 0.990453 21.498656 0.065837 -67.607114
19500.0 0.055074 -71.008813 0.991076 17.851197 0.991076 17.851197 0.055074 -71.008813
19600.0 0.044076 -74.293179 0.991593 14.199404 0.991593 14.199404 0.044076 -74.293179
19700.0 0.032892 -77.332884 0.991995 10.544089 0.991995 10.544089 0.032892 -77.332884
19800.0 0.021575 -79.732589 0.992276 6.886123 0.992276 6.886123 0.021575 -79.732589
19900.0 0.010198 -79.329968 0.992429 3.226421 0.992429 3.226421 0.010198 -79.329968
20000.0 0.001924 44.396333 0.992454 -0.434068 0.992454 -0.434068 0.001924 44.396333
