! File created by SignalIntegrity v1.1.13: Signal and Power Integrity Tools
! https://github.com/TeledyneLeCroy/SignalIntegrity
# MHz S MA R 50.0
0.0 0.0 0.0 1.0 0.0 1.0 0.0 0.0 0.0
100.0 0.0 0.0 0.999255 -3.454255 0.999255 -3.454255 0.0 0.0
200.0 0.0 0.0 0.998942 -6.883176 0.998942 -6.883176 0.0 0.0
300.0 0.0 0.0 0.998703 -10.307927 0.998703 -10.307927 0.0 0.0
400.0 0.0 0.0 0.998501 -13.73052 0.998501 -13.73052 0.0 0.0
500.0 0.0 0.0 0.998323 -17.151733 0.998323 -17.151733 0.0 0.0
600.0 0.0 0.0 0.998162 -20.571966 0.998162 -20.571966 0.0 0.0
700.0 0.0 0.0 0.998014 -23.991457 0.998014 -23.991457 0.0 0.0
800.0 0.0 0.0 0.997876 -27.41036 0.997876 -27.41036 0.0 0.0
900.0 0.0 0.0 0.997747 -30.828782 0.997747 -30.828782 0.0 0.0
1000.0 0.0 0.0 0.997625 -34.246803 0.997625 -34.246803 0.0 0.0
1100.0 0.0 0.0 0.997508 -37.66448 0.997508 -37.66448 0.0 0.0
1200.0 0.0 0.0 0.997397 -41.081861 0.997397 -41.081861 0.0 0.0
1300.0 0.0 0.0 0.997291 -44.49898 0.997291 -44.49898 0.0 0.0
1400.0 0.0 0.0 0.997188 -47.915868 0.997188 -47.915868 0.0 0.0
1500.0 0.0 0.0 0.997089 -51.33255 0.997089 -51.33255 0.0 0.0
1600.0 0.0 0.0 0.996994 -54.749045 0.996994 -54.749045 0.0 0.0
1700.0 0.0 0.0 0.996901 -58.16537 0.996901 -58.16537 0.0 0.0
1800.0 0.0 0.0 0.996811 -61.581542 0.996811 -61.581542 0.0 0.0
1900.0 0.0 0.0 0.996724 -64.997571 0.996724 -64.997571 0.0 0.0
2000.0 0.0 0.0 0.996638 -68.41347 0.996638 -68.41347 0.0 0.0
2100.0 0.0 0.0 0.996555 -71.829248 0.996555 -71.829248 0.0 0.0
2200.0 0.0 0.0 0.996474 -75.244913 0.996474 -75.244913 0.0 0.0
2300.0 0.0 0.0 0.996395 -78.660474 0.996395 -78.660474 0.0 0.0
2400.0 0.0 0.0 0.996317 -82.075936 0.996317 -82.075936 0.0 0.0
2500.0 0.0 0.0 0.996241 -85.491307 0.996241 -85.491307 0.0 0.0
2600.0 0.0 0.0 0.996167 -88.90659 0.996167 -88.90659 0.0 0.0
2700.0 0.0 0.0 0.996094 -92.321792 0.996094 -92.321792 0.0 0.0
2800.0 0.0 0.0 0.996022 -95.736917 0.996022 -95.736917 0.0 0.0
2900.0 0.0 0.0 0.995952 -99.151969 0.995952 -99.151969 0.0 0.0
3000.0 0.0 0.0 0.995882 -102.566952 0.995882 -102.566952 0.0 0.0
3100.0 0.0 0.0 0.995814 -105.981869 0.995814 -105.981869 0.0 0.0
3200.0 0.0 0.0 0.995747 -109.396723 0.995747 -109.396723 0.0 0.0
3300.0 0.0 0.0 0.995681 -112.811518 0.995681 -112.811518 0.0 0.0
3400.0 0.0 0.0 0.995616 -116.226255 0.995616 -116.226255 0.0 0.0
3500.0 0.0 0.0 0.995552 -119.640938 0.995552 -119.640938 0.0 0.0
3600.0 0.0 0.0 0.995489 -123.055568 0.995489 -123.055568 0.0 0.0
3700.0 0.0 0.0 0.995427 -126.470149 0.995427 -126.470149 0.0 0.0
3800.0 0.0 0.0 0.995366 -129.884681 0.995366 -129.884681 0.0 0.0
3900.0 0.0 0.0 0.995305 -133.299167 0.995305 -133.299167 0.0 0.0
4000.0 0.0 0.0 0.995245 -136.713609 0.995245 -136.713609 0.0 0.0
4100.0 0.0 0.0 0.995186 -140.128008 0.995186 -140.128008 0.0 0.0
4200.0 0.0 0.0 0.995128 -143.542366 0.995128 -143.542366 0.0 0.0
4300.0 0.0 0.0 0.995071 -146.956684 0.995071 -146.956684 0.0 0.0
4400.0 0.0 0.0 0.995014 -150.370964 0.995014 -150.370964 0.0 0.0
4500.0 0.0 0.0 0.994957 -153.785206 0.994957 -153.785206 0.0 0.0
4600.0 0.0 0.0 0.994902 -157.199413 0.994902 -157.199413 0.0 0.0
4700.0 0.0 0.0 0.994846 -160.613585 0.994846 -160.613585 0.0 0.0
4800.0 0.0 0.0 0.994792 -164.027724 0.994792 -164.027724 0.0 0.0
4900.0 0.0 0.0 0.994738 -167.44183 0.994738 -167.44183 0.0 0.0
5000.0 0.0 0.0 0.994685 -170.855905 0.994685 -170.855905 0.0 0.0
5100.0 0.0 0.0 0.994632 -174.269949 0.994632 -174.269949 0.0 0.0
5200.0 0.0 0.0 0.99458 -177.683963 0.99458 -177.683963 0.0 0.0
5300.0 0.0 0.0 0.994528 178.902052 0.994528 178.902052 0.0 0.0
5400.0 0.0 0.0 0.994476 175.488095 0.994476 175.488095 0.0 0.0
5500.0 0.0 0.0 0.994426 172.074164 0.994426 172.074164 0.0 0.0
5600.0 0.0 0.0 0.994375 168.660261 0.994375 168.660261 0.0 0.0
5700.0 0.0 0.0 0.994325 165.246383 0.994325 165.246383 0.0 0.0
5800.0 0.0 0.0 0.994276 161.832531 0.994276 161.832531 0.0 0.0
5900.0 0.0 0.0 0.994227 158.418702 0.994227 158.418702 0.0 0.0
6000.0 0.0 0.0 0.994178 155.004898 0.994178 155.004898 0.0 0.0
6100.0 0.0 0.0 0.99413 151.591117 0.99413 151.591117 0.0 0.0
6200.0 0.0 0.0 0.994082 148.177359 0.994082 148.177359 0.0 0.0
6300.0 0.0 0.0 0.994034 144.763623 0.994034 144.763623 0.0 0.0
6400.0 0.0 0.0 0.993987 141.349908 0.993987 141.349908 0.0 0.0
6500.0 0.0 0.0 0.993941 137.936215 0.993941 137.936215 0.0 0.0
6600.0 0.0 0.0 0.993894 134.522542 0.993894 134.522542 0.0 0.0
6700.0 0.0 0.0 0.993848 131.10889 0.993848 131.10889 0.0 0.0
6800.0 0.0 0.0 0.993802 127.695257 0.993802 127.695257 0.0 0.0
6900.0 0.0 0.0 0.993757 124.281643 0.993757 124.281643 0.0 0.0
7000.0 0.0 0.0 0.993712 120.868048 0.993712 120.868048 0.0 0.0
7100.0 0.0 0.0 0.993667 117.454472 0.993667 117.454472 0.0 0.0
7200.0 0.0 0.0 0.993623 114.040914 0.993623 114.040914 0.0 0.0
7300.0 0.0 0.0 0.993579 110.627374 0.993579 110.627374 0.0 0.0
7400.0 0.0 0.0 0.993535 107.213851 0.993535 107.213851 0.0 0.0
7500.0 0.0 0.0 0.993492 103.800345 0.993492 103.800345 0.0 0.0
7600.0 0.0 0.0 0.993449 100.386855 0.993449 100.386855 0.0 0.0
7700.0 0.0 0.0 0.993406 96.973382 0.993406 96.973382 0.0 0.0
7800.0 0.0 0.0 0.993363 93.559925 0.993363 93.559925 0.0 0.0
7900.0 0.0 0.0 0.993321 90.146483 0.993321 90.146483 0.0 0.0
8000.0 0.0 0.0 0.993279 86.733057 0.993279 86.733057 0.0 0.0
8100.0 0.0 0.0 0.993237 83.319647 0.993237 83.319647 0.0 0.0
8200.0 0.0 0.0 0.993195 79.90625 0.993195 79.90625 0.0 0.0
8300.0 0.0 0.0 0.993154 76.492869 0.993154 76.492869 0.0 0.0
8400.0 0.0 0.0 0.993113 73.079502 0.993113 73.079502 0.0 0.0
8500.0 0.0 0.0 0.993072 69.666149 0.993072 69.666149 0.0 0.0
8600.0 0.0 0.0 0.993032 66.252809 0.993032 66.252809 0.0 0.0
8700.0 0.0 0.0 0.992992 62.839484 0.992992 62.839484 0.0 0.0
8800.0 0.0 0.0 0.992951 59.426171 0.992951 59.426171 0.0 0.0
8900.0 0.0 0.0 0.992912 56.012872 0.992912 56.012872 0.0 0.0
9000.0 0.0 0.0 0.992872 52.599585 0.992872 52.599585 0.0 0.0
9100.0 0.0 0.0 0.992833 49.186312 0.992833 49.186312 0.0 0.0
9200.0 0.0 0.0 0.992793 45.77305 0.992793 45.77305 0.0 0.0
9300.0 0.0 0.0 0.992754 42.359801 0.992754 42.359801 0.0 0.0
9400.0 0.0 0.0 0.992716 38.946564 0.992716 38.946564 0.0 0.0
9500.0 0.0 0.0 0.992677 35.533339 0.992677 35.533339 0.0 0.0
9600.0 0.0 0.0 0.992639 32.120126 0.992639 32.120126 0.0 0.0
9700.0 0.0 0.0 0.992601 28.706924 0.992601 28.706924 0.0 0.0
9800.0 0.0 0.0 0.992563 25.293733 0.992563 25.293733 0.0 0.0
9900.0 0.0 0.0 0.992525 21.880553 0.992525 21.880553 0.0 0.0
10000.0 0.0 0.0 0.992487 18.467385 0.992487 18.467385 0.0 0.0
10100.0 0.0 0.0 0.99245 15.054227 0.99245 15.054227 0.0 0.0
10200.0 0.0 0.0 0.992413 11.64108 0.992413 11.64108 0.0 0.0
10300.0 0.0 0.0 0.992376 8.227944 0.992376 8.227944 0.0 0.0
10400.0 0.0 0.0 0.992339 4.814817 0.992339 4.814817 0.0 0.0
10500.0 0.0 0.0 0.992302 1.401701 0.992302 1.401701 0.0 0.0
10600.0 0.0 0.0 0.992266 -2.011405 0.992266 -2.011405 0.0 0.0
10700.0 0.0 0.0 0.99223 -5.424501 0.99223 -5.424501 0.0 0.0
10800.0 0.0 0.0 0.992193 -8.837587 0.992193 -8.837587 0.0 0.0
10900.0 0.0 0.0 0.992157 -12.250664 0.992157 -12.250664 0.0 0.0
11000.0 0.0 0.0 0.992122 -15.663731 0.992122 -15.663731 0.0 0.0
11100.0 0.0 0.0 0.992086 -19.076788 0.992086 -19.076788 0.0 0.0
11200.0 0.0 0.0 0.992051 -22.489837 0.992051 -22.489837 0.0 0.0
11300.0 0.0 0.0 0.992015 -25.902876 0.992015 -25.902876 0.0 0.0
11400.0 0.0 0.0 0.99198 -29.315907 0.99198 -29.315907 0.0 0.0
11500.0 0.0 0.0 0.991945 -32.728928 0.991945 -32.728928 0.0 0.0
11600.0 0.0 0.0 0.99191 -36.141941 0.99191 -36.141941 0.0 0.0
11700.0 0.0 0.0 0.991876 -39.554945 0.991876 -39.554945 0.0 0.0
11800.0 0.0 0.0 0.991841 -42.96794 0.991841 -42.96794 0.0 0.0
11900.0 0.0 0.0 0.991807 -46.380928 0.991807 -46.380928 0.0 0.0
12000.0 0.0 0.0 0.991772 -49.793906 0.991772 -49.793906 0.0 0.0
12100.0 0.0 0.0 0.991738 -53.206877 0.991738 -53.206877 0.0 0.0
12200.0 0.0 0.0 0.991704 -56.619839 0.991704 -56.619839 0.0 0.0
12300.0 0.0 0.0 0.99167 -60.032794 0.99167 -60.032794 0.0 0.0
12400.0 0.0 0.0 0.991637 -63.44574 0.991637 -63.44574 0.0 0.0
12500.0 0.0 0.0 0.991603 -66.858679 0.991603 -66.858679 0.0 0.0
12600.0 0.0 0.0 0.99157 -70.271609 0.99157 -70.271609 0.0 0.0
12700.0 0.0 0.0 0.991537 -73.684533 0.991537 -73.684533 0.0 0.0
12800.0 0.0 0.0 0.991503 -77.097448 0.991503 -77.097448 0.0 0.0
12900.0 0.0 0.0 0.99147 -80.510357 0.99147 -80.510357 0.0 0.0
13000.0 0.0 0.0 0.991437 -83.923257 0.991437 -83.923257 0.0 0.0
13100.0 0.0 0.0 0.991405 -87.336151 0.991405 -87.336151 0.0 0.0
13200.0 0.0 0.0 0.991372 -90.749037 0.991372 -90.749037 0.0 0.0
13300.0 0.0 0.0 0.99134 -94.161916 0.99134 -94.161916 0.0 0.0
13400.0 0.0 0.0 0.991307 -97.574788 0.991307 -97.574788 0.0 0.0
13500.0 0.0 0.0 0.991275 -100.987654 0.991275 -100.987654 0.0 0.0
13600.0 0.0 0.0 0.991243 -104.400512 0.991243 -104.400512 0.0 0.0
13700.0 0.0 0.0 0.991211 -107.813363 0.991211 -107.813363 0.0 0.0
13800.0 0.0 0.0 0.991179 -111.226208 0.991179 -111.226208 0.0 0.0
13900.0 0.0 0.0 0.991147 -114.639046 0.991147 -114.639046 0.0 0.0
14000.0 0.0 0.0 0.991115 -118.051877 0.991115 -118.051877 0.0 0.0
14100.0 0.0 0.0 0.991084 -121.464702 0.991084 -121.464702 0.0 0.0
14200.0 0.0 0.0 0.991052 -124.877521 0.991052 -124.877521 0.0 0.0
14300.0 0.0 0.0 0.991021 -128.290333 0.991021 -128.290333 0.0 0.0
14400.0 0.0 0.0 0.99099 -131.703138 0.99099 -131.703138 0.0 0.0
14500.0 0.0 0.0 0.990959 -135.115938 0.990959 -135.115938 0.0 0.0
14600.0 0.0 0.0 0.990928 -138.528731 0.990928 -138.528731 0.0 0.0
14700.0 0.0 0.0 0.990897 -141.941518 0.990897 -141.941518 0.0 0.0
14800.0 0.0 0.0 0.990866 -145.354299 0.990866 -145.354299 0.0 0.0
14900.0 0.0 0.0 0.990835 -148.767074 0.990835 -148.767074 0.0 0.0
15000.0 0.0 0.0 0.990805 -152.179843 0.990805 -152.179843 0.0 0.0
15100.0 0.0 0.0 0.990774 -155.592607 0.990774 -155.592607 0.0 0.0
15200.0 0.0 0.0 0.990744 -159.005364 0.990744 -159.005364 0.0 0.0
15300.0 0.0 0.0 0.990713 -162.418116 0.990713 -162.418116 0.0 0.0
15400.0 0.0 0.0 0.990683 -165.830862 0.990683 -165.830862 0.0 0.0
15500.0 0.0 0.0 0.990653 -169.243602 0.990653 -169.243602 0.0 0.0
15600.0 0.0 0.0 0.990623 -172.656336 0.990623 -172.656336 0.0 0.0
15700.0 0.0 0.0 0.990593 -176.069066 0.990593 -176.069066 0.0 0.0
15800.0 0.0 0.0 0.990563 -179.481789 0.990563 -179.481789 0.0 0.0
15900.0 0.0 0.0 0.990534 177.105493 0.990534 177.105493 0.0 0.0
16000.0 0.0 0.0 0.990504 173.69278 0.990504 173.69278 0.0 0.0
16100.0 0.0 0.0 0.990475 170.280073 0.990475 170.280073 0.0 0.0
16200.0 0.0 0.0 0.990445 166.867371 0.990445 166.867371 0.0 0.0
16300.0 0.0 0.0 0.990416 163.454674 0.990416 163.454674 0.0 0.0
16400.0 0.0 0.0 0.990387 160.041982 0.990387 160.041982 0.0 0.0
16500.0 0.0 0.0 0.990357 156.629295 0.990357 156.629295 0.0 0.0
16600.0 0.0 0.0 0.990328 153.216614 0.990328 153.216614 0.0 0.0
16700.0 0.0 0.0 0.990299 149.803938 0.990299 149.803938 0.0 0.0
16800.0 0.0 0.0 0.990271 146.391266 0.990271 146.391266 0.0 0.0
16900.0 0.0 0.0 0.990242 142.9786 0.990242 142.9786 0.0 0.0
17000.0 0.0 0.0 0.990213 139.565939 0.990213 139.565939 0.0 0.0
17100.0 0.0 0.0 0.990184 136.153282 0.990184 136.153282 0.0 0.0
17200.0 0.0 0.0 0.990156 132.74063 0.990156 132.74063 0.0 0.0
17300.0 0.0 0.0 0.990127 129.327983 0.990127 129.327983 0.0 0.0
17400.0 0.0 0.0 0.990099 125.915341 0.990099 125.915341 0.0 0.0
17500.0 0.0 0.0 0.990071 122.502704 0.990071 122.502704 0.0 0.0
17600.0 0.0 0.0 0.990043 119.090071 0.990043 119.090071 0.0 0.0
17700.0 0.0 0.0 0.990014 115.677443 0.990014 115.677443 0.0 0.0
17800.0 0.0 0.0 0.989986 112.264819 0.989986 112.264819 0.0 0.0
17900.0 0.0 0.0 0.989958 108.8522 0.989958 108.8522 0.0 0.0
18000.0 0.0 0.0 0.98993 105.439585 0.98993 105.439585 0.0 0.0
18100.0 0.0 0.0 0.989903 102.026975 0.989903 102.026975 0.0 0.0
18200.0 0.0 0.0 0.989875 98.61437 0.989875 98.61437 0.0 0.0
18300.0 0.0 0.0 0.989847 95.201769 0.989847 95.201769 0.0 0.0
18400.0 0.0 0.0 0.98982 91.789172 0.98982 91.789172 0.0 0.0
18500.0 0.0 0.0 0.989792 88.376579 0.989792 88.376579 0.0 0.0
18600.0 0.0 0.0 0.989765 84.963991 0.989765 84.963991 0.0 0.0
18700.0 0.0 0.0 0.989737 81.551407 0.989737 81.551407 0.0 0.0
18800.0 0.0 0.0 0.98971 78.138828 0.98971 78.138828 0.0 0.0
18900.0 0.0 0.0 0.989683 74.726252 0.989683 74.726252 0.0 0.0
19000.0 0.0 0.0 0.989656 71.313681 0.989656 71.313681 0.0 0.0
19100.0 0.0 0.0 0.989629 67.901114 0.989629 67.901114 0.0 0.0
19200.0 0.0 0.0 0.989602 64.48855 0.989602 64.48855 0.0 0.0
19300.0 0.0 0.0 0.989575 61.075991 0.989575 61.075991 0.0 0.0
19400.0 0.0 0.0 0.989548 57.663436 0.989548 57.663436 0.0 0.0
19500.0 0.0 0.0 0.989521 54.250885 0.989521 54.250885 0.0 0.0
19600.0 0.0 0.0 0.989494 50.838338 0.989494 50.838338 0.0 0.0
19700.0 0.0 0.0 0.989468 47.425795 0.989468 47.425795 0.0 0.0
19800.0 0.0 0.0 0.989441 44.013256 0.989441 44.013256 0.0 0.0
19900.0 0.0 0.0 0.989415 40.600721 0.989415 40.600721 0.0 0.0
20000.0 0.0 0.0 0.989388 37.188189 0.989388 37.188189 0.0 0.0
