! File created by SignalIntegrity v1.1.13: Signal and Power Integrity Tools
! https://github.com/TeledyneLeCroy/SignalIntegrity
# MHz S MA R 50.0
0.0 0.0 0.0 1.0 0.0 1.0 0.0 0.0 0.0
100.0 0.011601 85.837527 0.999402 -3.690469 0.999402 -3.690469 0.011601 85.837527
200.0 0.02309 82.304025 0.998981 -7.361924 0.998981 -7.361924 0.02309 82.304025
300.0 0.034466 78.700033 0.998483 -11.028452 0.998483 -11.028452 0.034466 78.700033
400.0 0.045684 75.076214 0.99789 -14.690568 0.99789 -14.690568 0.045684 75.076214
500.0 0.0567 71.445826 0.9972 -18.347963 0.9972 -18.347963 0.0567 71.445826
600.0 0.067467 67.814395 0.996417 -22.00012 0.996417 -22.00012 0.067467 67.814395
700.0 0.077943 64.184876 0.99555 -25.646486 0.99555 -25.646486 0.077943 64.184876
800.0 0.088084 60.559105 0.994609 -29.286538 0.994609 -29.286538 0.088084 60.559105
900.0 0.09785 56.938327 0.993607 -32.919816 0.993607 -32.919816 0.09785 56.938327
1000.0 0.107204 53.323422 0.992558 -36.54595 0.992558 -36.54595 0.107204 53.323422
1100.0 0.11611 49.715004 0.991477 -40.164665 0.991477 -40.164665 0.11611 49.715004
1200.0 0.124535 46.113483 0.99038 -43.775797 0.99038 -43.775797 0.124535 46.113483
1300.0 0.132448 42.519092 0.989281 -47.37929 0.989281 -47.37929 0.132448 42.519092
1400.0 0.139822 38.931908 0.988198 -50.975203 0.988198 -50.975203 0.139822 38.931908
1500.0 0.14663 35.351867 0.987145 -54.563708 0.987145 -54.563708 0.14663 35.351867
1600.0 0.152852 31.778776 0.986138 -58.145085 0.986138 -58.145085 0.152852 31.778776
1700.0 0.158466 28.212322 0.98519 -61.719719 0.98519 -61.719719 0.158466 28.212322
1800.0 0.163455 24.652086 0.984315 -65.288094 0.984315 -65.288094 0.163455 24.652086
1900.0 0.167803 21.097551 0.983525 -68.850783 0.983525 -68.850783 0.167803 21.097551
2000.0 0.171498 17.548114 0.982831 -72.40844 0.982831 -72.40844 0.171498 17.548114
2100.0 0.174528 14.003099 0.982242 -75.961791 0.982242 -75.961791 0.174528 14.003099
2200.0 0.176886 10.461768 0.981765 -79.511623 0.981765 -79.511623 0.176886 10.461768
2300.0 0.178563 6.923337 0.981408 -83.058771 0.981408 -83.058771 0.178563 6.923337
2400.0 0.179556 3.386985 0.981173 -86.604106 0.981173 -86.604106 0.179556 3.386985
2500.0 0.179862 -0.148128 0.981065 -90.148525 0.981065 -90.148525 0.179862 -0.148128
2600.0 0.17948 -3.682848 0.981082 -93.692934 0.981082 -93.692934 0.17948 -3.682848
2700.0 0.178411 -7.218014 0.981225 -97.23824 0.981225 -97.23824 0.178411 -7.218014
2800.0 0.176659 -10.754441 0.98149 -100.785335 0.98149 -100.785335 0.176659 -10.754441
2900.0 0.174228 -14.292904 0.981873 -104.335084 0.981873 -104.335084 0.174228 -14.292904
3000.0 0.171125 -17.834126 0.982367 -107.888313 0.982367 -107.888313 0.171125 -17.834126
3100.0 0.16736 -21.378757 0.982964 -111.445795 0.982964 -111.445795 0.16736 -21.378757
3200.0 0.162945 -24.927357 0.983654 -115.008243 0.983654 -115.008243 0.162945 -24.927357
3300.0 0.157891 -28.480383 0.984426 -118.576294 0.984426 -118.576294 0.157891 -28.480383
3400.0 0.152216 -32.03816 0.985269 -122.150502 0.985269 -122.150502 0.152216 -32.03816
3500.0 0.145937 -35.600863 0.986167 -125.731328 0.986167 -125.731328 0.145937 -35.600863
3600.0 0.139075 -39.168485 0.987108 -129.319131 0.987108 -129.319131 0.139075 -39.168485
3700.0 0.131654 -42.740802 0.988075 -132.914164 0.988075 -132.914164 0.131654 -42.740802
3800.0 0.123698 -46.317315 0.989052 -136.516567 0.989052 -136.516567 0.123698 -46.317315
3900.0 0.115236 -49.897182 0.990025 -140.126364 0.990025 -140.126364 0.115236 -49.897182
4000.0 0.106299 -53.479093 0.990975 -143.74346 0.990975 -143.74346 0.106299 -53.479093
4100.0 0.096921 -57.06108 0.991888 -147.367644 0.991888 -147.367644 0.096921 -57.06108
4200.0 0.087138 -60.640177 0.992748 -150.998587 0.992748 -150.998587 0.087138 -60.640177
4300.0 0.076988 -64.211789 0.99354 -154.63585 0.99354 -154.63585 0.076988 -64.211789
4400.0 0.066512 -67.768418 0.99425 -158.27889 0.99425 -158.27889 0.066512 -67.768418
4500.0 0.055752 -71.296846 0.994867 -161.927062 0.994867 -161.927062 0.055752 -71.296846
4600.0 0.044755 -74.771012 0.995379 -165.57964 0.995379 -165.57964 0.044755 -74.771012
4700.0 0.033566 -78.130339 0.995777 -169.235817 0.995777 -169.235817 0.033566 -78.130339
4800.0 0.022235 -81.191116 0.996053 -172.894728 0.996053 -172.894728 0.022235 -81.191116
4900.0 0.010816 -82.994384 0.996203 -176.555457 0.996203 -176.555457 0.010816 -82.994384
5000.0 0.000962 44.817128 0.996223 179.782939 0.996223 179.782939 0.000962 44.817128
5100.0 0.012172 82.895187 0.996112 176.121424 0.996112 176.121424 0.012172 82.895187
5200.0 0.023581 80.7908 0.995871 172.460956 0.995871 172.460956 0.023581 80.7908
5300.0 0.034893 77.67503 0.995505 168.802478 0.995505 168.802478 0.034893 77.67503
5400.0 0.046055 74.297359 0.995018 165.146898 0.995018 165.146898 0.046055 74.297359
5500.0 0.057019 70.815685 0.994419 161.495073 0.994419 161.495073 0.057019 70.815685
5600.0 0.067737 67.284208 0.993716 157.847797 0.993716 157.847797 0.067737 67.284208
5700.0 0.078165 63.726801 0.992921 154.205788 0.992921 154.205788 0.078165 63.726801
5800.0 0.088261 60.155759 0.992046 150.569673 0.992046 150.569673 0.088261 60.155759
5900.0 0.097984 56.578136 0.991105 146.939982 0.991105 146.939982 0.097984 56.578136
6000.0 0.107297 52.998287 0.990114 143.317137 0.990114 143.317137 0.107297 52.998287
6100.0 0.116162 49.41904 0.989087 139.701449 0.989087 139.701449 0.116162 49.41904
6200.0 0.124549 45.842276 0.988041 136.093115 0.988041 136.093115 0.124549 45.842276
6300.0 0.132425 42.269248 0.986991 132.49221 0.986991 132.49221 0.132425 42.269248
6400.0 0.139763 38.700762 0.985954 128.898696 0.985954 128.898696 0.139763 38.700762
6500.0 0.146539 35.137291 0.984946 125.312416 0.984946 125.312416 0.146539 35.137291
6600.0 0.152728 31.579045 0.983981 121.733104 0.983981 121.733104 0.152728 31.579045
6700.0 0.158312 28.026024 0.983073 118.160386 0.983073 118.160386 0.158312 28.026024
6800.0 0.163272 24.478051 0.982236 114.593791 0.982236 114.593791 0.163272 24.478051
6900.0 0.167593 20.934808 0.981483 111.032754 0.981483 111.032754 0.167593 20.934808
7000.0 0.171262 17.395851 0.980824 107.476631 0.980824 107.476631 0.171262 17.395851
7100.0 0.174268 13.860639 0.980267 103.924703 0.980267 103.924703 0.174268 13.860639
7200.0 0.176603 10.328548 0.979822 100.376193 0.979822 100.376193 0.176603 10.328548
7300.0 0.178259 6.798891 0.979494 96.830275 0.979494 96.830275 0.178259 6.798891
7400.0 0.179233 3.270937 0.979287 93.286083 0.979287 93.286083 0.179233 3.270937
7500.0 0.179521 -0.256077 0.979205 89.742731 0.979205 89.742731 0.179521 -0.256077
7600.0 0.179123 -3.782923 0.979247 86.199317 0.979247 86.199317 0.179123 -3.782923
7700.0 0.178039 -7.310369 0.979413 82.654943 0.979413 82.654943 0.178039 -7.310369
7800.0 0.176273 -10.839162 0.979699 79.108725 0.979699 79.108725 0.176273 -10.839162
7900.0 0.173831 -14.370007 0.980102 75.559804 0.980102 75.559804 0.173831 -14.370007
8000.0 0.170719 -17.903554 0.980614 72.007362 0.980614 72.007362 0.170719 -17.903554
8100.0 0.166945 -21.440374 0.981228 68.45063 0.981228 68.45063 0.166945 -21.440374
8200.0 0.162523 -24.980945 0.981934 64.888903 0.981934 64.888903 0.162523 -24.980945
8300.0 0.157464 -28.525622 0.982721 61.321551 0.982721 61.321551 0.157464 -28.525622
8400.0 0.151785 -32.074619 0.983577 57.748024 0.983577 57.748024 0.151785 -32.074619
8500.0 0.145504 -35.627971 0.984487 54.167868 0.984487 54.167868 0.145504 -35.627971
8600.0 0.138642 -39.185503 0.985439 50.580727 0.985439 50.580727 0.138642 -39.185503
8700.0 0.131222 -42.746771 0.986416 46.986355 0.986416 46.986355 0.131222 -42.746771
8800.0 0.123269 -46.310998 0.987403 43.384615 0.987403 43.384615 0.123269 -46.310998
8900.0 0.114811 -49.876958 0.988384 39.775487 0.988384 39.775487 0.114811 -49.876958
9000.0 0.105881 -53.442814 0.989342 36.159069 0.989342 36.159069 0.105881 -53.442814
9100.0 0.096511 -57.005838 0.990263 32.535575 0.990263 32.535575 0.096511 -57.005838
9200.0 0.086737 -60.561921 0.99113 28.905336 0.99113 28.905336 0.086737 -60.561921
9300.0 0.076598 -64.104668 0.991928 25.268791 0.991928 25.268791 0.076598 -64.104668
9400.0 0.066134 -67.623559 0.992646 21.626488 0.992646 21.626488 0.066134 -67.623559
9500.0 0.055389 -71.099874 0.993269 17.979067 0.993269 17.979067 0.055389 -71.099874
9600.0 0.044408 -74.49636 0.993788 14.327257 0.993788 14.327257 0.044408 -74.49636
9700.0 0.033237 -77.725652 0.994192 10.671864 0.994192 10.671864 0.033237 -77.725652
9800.0 0.021927 -80.519961 0.994476 7.01375 0.994476 7.01375 0.021927 -80.519961
9900.0 0.010539 -81.453192 0.994633 3.35383 0.994633 3.35383 0.010539 -81.453192
10000.0 0.001359 44.717576 0.99466 -0.306955 0.99466 -0.306955 0.001359 44.717576
10100.0 0.01245 81.597342 0.994558 -3.967645 0.994558 -3.967645 0.01245 81.597342
10200.0 0.023829 80.060916 0.994326 -7.627283 0.994326 -7.627283 0.023829 80.060916
10300.0 0.035117 77.155593 0.993969 -11.284932 0.993969 -11.284932 0.035117 77.155593
10400.0 0.046254 73.888259 0.993491 -14.939687 0.993491 -14.939687 0.046254 73.888259
10500.0 0.057194 70.475043 0.992902 -18.590693 0.992902 -18.590693 0.057194 70.475043
10600.0 0.067888 66.990554 0.99221 -22.23716 0.99221 -22.23716 0.067888 66.990554
10700.0 0.078292 63.467665 0.991426 -25.878375 0.991426 -25.878375 0.078292 63.467665
10800.0 0.088364 59.923257 0.990562 -29.513715 0.990562 -29.513715 0.088364 59.923257
10900.0 0.098063 56.366961 0.989634 -33.142652 0.989634 -33.142652 0.098063 56.366961
11000.0 0.107352 52.804699 0.988655 -36.764767 0.988655 -36.764767 0.107352 52.804699
11100.0 0.116194 49.240302 0.987641 -40.379751 0.987641 -40.379751 0.116194 49.240302
11200.0 0.124557 45.676324 0.986607 -43.987412 0.986607 -43.987412 0.124557 45.676324
11300.0 0.132411 42.114489 0.985571 -47.587675 0.985571 -47.587675 0.132411 42.114489
11400.0 0.139727 38.555941 0.984547 -51.180582 0.984547 -51.180582 0.139727 38.555941
11500.0 0.14648 35.001404 0.983551 -54.766289 0.983551 -54.766289 0.14648 35.001404
11600.0 0.152649 31.451277 0.982599 -58.345063 0.982599 -58.345063 0.152649 31.451277
11700.0 0.158212 27.905708 0.981704 -61.917279 0.981704 -61.917279 0.158212 27.905708
11800.0 0.163152 24.364639 0.98088 -65.48341 0.98088 -65.48341 0.163152 24.364639
11900.0 0.167454 20.827844 0.980139 -69.044017 0.980139 -69.044017 0.167454 20.827844
12000.0 0.171105 17.294961 0.979492 -72.599746 0.979492 -72.599746 0.171105 17.294961
12100.0 0.174094 13.765513 0.978947 -76.151314 0.978947 -76.151314 0.174094 13.765513
12200.0 0.176412 10.238936 0.978513 -79.699495 0.978513 -79.699495 0.176412 10.238936
12300.0 0.178053 6.714593 0.978196 -83.245116 0.978196 -83.245116 0.178053 6.714593
12400.0 0.179012 3.191801 0.977999 -86.789039 0.977999 -86.789039 0.179012 3.191801
12500.0 0.179286 -0.33016 0.977926 -90.332148 0.977926 -90.332148 0.179286 -0.33016
12600.0 0.178875 -3.85202 0.977977 -93.875342 0.977977 -93.875342 0.178875 -3.85202
12700.0 0.17778 -7.374504 0.978151 -97.419516 0.978151 -97.419516 0.17778 -7.374504
12800.0 0.176004 -10.898317 0.978445 -100.965552 0.978445 -100.965552 0.176004 -10.898317
12900.0 0.173552 -14.42412 0.978855 -104.514305 0.978855 -104.514305 0.173552 -14.42412
13000.0 0.170431 -17.952513 0.979374 -108.066591 0.979374 -108.066591 0.170431 -17.952513
13100.0 0.16665 -21.484018 0.979993 -111.623174 0.979993 -111.623174 0.16665 -21.484018
13200.0 0.162221 -25.019047 0.980704 -115.184756 0.980704 -115.184756 0.162221 -25.019047
13300.0 0.157157 -28.557889 0.981495 -118.751966 0.981495 -118.751966 0.157157 -28.557889
13400.0 0.151474 -32.100672 0.982355 -122.325347 0.982355 -122.325347 0.151474 -32.100672
13500.0 0.145191 -35.647328 0.983269 -125.905352 0.983269 -125.905352 0.145191 -35.647328
13600.0 0.138327 -39.197554 0.984223 -129.492333 0.984223 -129.492333 0.138327 -39.197554
13700.0 0.130906 -42.750742 0.985202 -133.086535 0.985202 -133.086535 0.130906 -42.750742
13800.0 0.122954 -46.305896 0.986191 -136.688091 0.986191 -136.688091 0.122954 -46.305896
13900.0 0.114499 -49.861498 0.987173 -140.297019 0.987173 -140.297019 0.114499 -49.861498
14000.0 0.105572 -53.415302 0.988133 -143.913219 0.988133 -143.913219 0.105572 -53.415302
14100.0 0.096206 -56.963988 0.989054 -147.536476 0.989054 -147.536476 0.096206 -56.963988
14200.0 0.086438 -60.502557 0.989922 -151.166457 0.989922 -151.166457 0.086438 -60.502557
14300.0 0.076307 -64.023205 0.990722 -154.802722 0.990722 -154.802722 0.076307 -64.023205
14400.0 0.065852 -67.51304 0.99144 -158.444724 0.99144 -158.444724 0.065852 -67.51304
14500.0 0.055117 -70.949009 0.992064 -162.091821 0.992064 -162.091821 0.055117 -70.949009
14600.0 0.044147 -74.284999 0.992584 -165.743285 0.992584 -165.743285 0.044147 -74.284999
14700.0 0.03299 -77.412271 0.992989 -169.398314 0.992989 -169.398314 0.03299 -77.412271
14800.0 0.021696 -79.995118 0.993275 -173.056042 0.993275 -173.056042 0.021696 -79.995118
14900.0 0.010333 -80.219266 0.993433 -176.71556 0.993433 -176.71556 0.010333 -80.219266
15000.0 0.001662 44.644469 0.993463 179.624073 0.993463 179.624073 0.001662 44.644469
15100.0 0.012667 80.637554 0.993363 175.963815 0.993363 175.963815 0.012667 80.637554
15200.0 0.024022 79.508197 0.993135 172.304618 0.993135 172.304618 0.024022 79.508197
15300.0 0.03529 76.758397 0.992781 168.647418 0.992781 168.647418 0.03529 76.758397
15400.0 0.046409 73.573513 0.992308 164.993118 0.992308 164.993118 0.046409 73.573513
15500.0 0.05733 70.211741 0.991723 161.342568 0.991723 161.342568 0.05733 70.211741
15600.0 0.068006 66.762685 0.991036 157.696554 0.991036 157.696554 0.068006 66.762685
15700.0 0.078391 63.265886 0.990258 154.055789 0.990258 154.055789 0.078391 63.265886
15800.0 0.088445 59.741644 0.989401 150.420891 0.989401 150.420891 0.088445 59.741644
15900.0 0.098125 56.201523 0.988479 146.792385 0.988479 146.792385 0.098125 56.201523
16000.0 0.107395 52.652618 0.987507 143.170688 0.987507 143.170688 0.107395 52.652618
16100.0 0.116219 49.099515 0.9865 139.556106 0.9865 139.556106 0.116219 49.099515
16200.0 0.124564 45.545277 0.985474 135.948829 0.985474 135.948829 0.124564 45.545277
16300.0 0.132399 41.991982 0.984445 132.348929 0.984445 132.348929 0.132399 41.991982
16400.0 0.139698 38.441031 0.983429 128.756365 0.983429 128.756365 0.139698 38.441031
16500.0 0.146434 34.893336 0.982441 125.170977 0.982441 125.170977 0.146434 34.893336
16600.0 0.152585 31.349441 0.981497 121.592497 0.981497 121.592497 0.152585 31.349441
16700.0 0.158132 27.809605 0.98061 118.020551 0.98061 118.020551 0.158132 27.809605
16800.0 0.163056 24.273861 0.979794 114.454666 0.979794 114.454666 0.163056 24.273861
16900.0 0.167343 20.742054 0.979061 110.894279 0.979061 110.894279 0.167343 20.742054
17000.0 0.170979 17.213882 0.978421 107.338745 0.978421 107.338745 0.170979 17.213882
17100.0 0.173954 13.68892 0.977884 103.787349 0.977884 103.787349 0.173954 13.68892
17200.0 0.176259 10.166648 0.977457 100.239315 0.977457 100.239315 0.176259 10.166648
17300.0 0.177887 6.64647 0.977146 96.693821 0.977146 96.693821 0.177887 6.64647
17400.0 0.178833 3.127737 0.976956 93.150005 0.976956 93.150005 0.178833 3.127737
17500.0 0.179096 -0.390233 0.976888 89.606983 0.976888 89.606983 0.179096 -0.390233
17600.0 0.178675 -3.908139 0.976945 86.063861 0.976945 86.063861 0.178675 -3.908139
17700.0 0.177569 -7.426673 0.977124 82.519744 0.977124 82.519744 0.177569 -7.426673
17800.0 0.175784 -10.946504 0.977422 78.973753 0.977422 78.973753 0.175784 -10.946504
17900.0 0.173324 -14.468258 0.977836 75.425035 0.977836 75.425035 0.173324 -14.468258
18000.0 0.170195 -17.992496 0.978358 71.872778 0.978358 71.872778 0.170195 -17.992496
18100.0 0.166408 -21.519693 0.97898 68.316219 0.97898 68.316219 0.166408 -21.519693
18200.0 0.161974 -25.050214 0.979694 64.75466 0.979694 64.75466 0.161974 -25.050214
18300.0 0.156905 -28.584287 0.980487 61.187474 0.980487 61.187474 0.156905 -28.584287
18400.0 0.151219 -32.12197 0.981348 57.61412 0.981348 57.61412 0.151219 -32.12197
18500.0 0.144932 -35.66311 0.982263 54.034149 0.982263 54.034149 0.144932 -35.66311
18600.0 0.138067 -39.207294 0.983218 50.44721 0.983218 50.44721 0.138067 -39.207294
18700.0 0.130645 -42.753773 0.984197 46.853061 0.984197 46.853061 0.130645 -42.753773
18800.0 0.122693 -46.301369 0.985186 43.25157 0.985186 43.25157 0.122693 -46.301369
18900.0 0.11424 -49.848314 0.986168 39.642723 0.986168 39.642723 0.11424 -49.848314
19000.0 0.105315 -53.392011 0.987127 36.02662 0.987127 36.02662 0.105315 -53.392011
19100.0 0.095953 -56.928637 0.988048 32.40348 0.988048 32.40348 0.095953 -56.928637
19200.0 0.08619 -60.452433 0.988915 28.773633 0.988915 28.773633 0.08619 -60.452433
19300.0 0.076064 -63.954387 0.989714 25.137522 0.989714 25.137522 0.076064 -63.954387
19400.0 0.065616 -67.419572 0.990432 21.495694 0.990432 21.495694 0.065616 -67.419572
19500.0 0.054889 -70.821203 0.991055 17.84879 0.991055 17.84879 0.054889 -70.821203
19600.0 0.043929 -74.10551 0.991575 14.19754 0.991575 14.19754 0.043929 -74.10551
19700.0 0.032783 -77.145175 0.99198 10.542745 0.99198 10.542745 0.032783 -77.145175
19800.0 0.021503 -79.544867 0.992265 6.885267 0.992265 6.885267 0.021503 -79.544867
19900.0 0.010164 -79.142268 0.992425 3.226016 0.992425 3.226016 0.010164 -79.142268
20000.0 0.001917 44.583969 0.992455 -0.434069 0.992455 -0.434069 0.001917 44.583969
