! Touchstone file from project TL_test
! Exported from Circuit Design 2015.2.0
# GHZ S MA R 50.000000
! Modal data exported
! Port[1] = Port1
! Port[2] = Port2
! Port[3] = Port3
! Port[4] = Port4
0                0.5              0                0.5              0                0.5              0                0.5              180              
                0.5              0                0.5              0                0.5              180              0.5              0                
                0.5              0                0.5              180              0.5              0                0.5              0                
                0.5              180              0.5              0                0.5              0                0.5              0                

0.05             0.47803184       -9.1842928       0.49334477       -20.215842       0.53357983       8.2211571        0.49334477       159.78416        
                0.49334477       -20.215842       0.47803184       -9.1842928       0.49334477       159.78416        0.53357983       8.2211571        
                0.53357983       8.2211571        0.49334477       159.78416        0.47803184       -9.1842928       0.49334477       -20.215842       
                0.49334477       159.78416        0.53357983       8.2211571        0.49334477       -20.215842       0.47803184       -9.1842928       

0.1              0.4210674        -15.914933       0.47710594       -39.468549       0.60617002       10.980564        0.47710594       140.53145        
                0.47710594       -39.468549       0.4210674        -15.914933       0.47710594       140.53145        0.60617002       10.980564        
                0.60617002       10.980564        0.47710594       140.53145        0.4210674        -15.914933       0.47710594       -39.468549       
                0.47710594       140.53145        0.60617002       10.980564        0.47710594       -39.468549       0.4210674        -15.914933       

0.15             0.34996707       -17.786523       0.45908838       -57.33741        0.67527682       9.108974         0.45908838       122.66259        
                0.45908838       -57.33741        0.34996707       -17.786523       0.45908838       122.66259        0.67527682       9.108974         
                0.67527682       9.108974         0.45908838       122.66259        0.34996707       -17.786523       0.45908838       -57.33741        
                0.45908838       122.66259        0.67527682       9.108974         0.45908838       -57.33741        0.34996707       -17.786523       

0.2              0.28937014       -12.439728       0.44591654       -74.002728       0.72012624       4.965722         0.44591654       105.99727        
                0.44591654       -74.002728       0.28937014       -12.439728       0.44591654       105.99727        0.72012624       4.965722         
                0.72012624       4.965722         0.44591654       105.99727        0.28937014       -12.439728       0.44591654       -74.002728       
                0.44591654       105.99727        0.72012624       4.965722         0.44591654       -74.002728       0.28937014       -12.439728       

0.25             0.26470588       7.2265601E-015   0.44117647       -90              0.73529412       -2.6015616E-015  0.44117647       90               
                0.44117647       -90              0.26470588       7.2265601E-015   0.44117647       90               0.73529412       -2.6015616E-015  
                0.73529412       -2.6015616E-015  0.44117647       90               0.26470588       7.2265601E-015   0.44117647       -90              
                0.44117647       90               0.73529412       -2.6015616E-015  0.44117647       -90              0.26470588       7.2265601E-015   

0.3              0.28937014       12.439728        0.44591654       -105.99727       0.72012624       -4.965722        0.44591654       74.002728        
                0.44591654       -105.99727       0.28937014       12.439728        0.44591654       74.002728        0.72012624       -4.965722        
                0.72012624       -4.965722        0.44591654       74.002728        0.28937014       12.439728        0.44591654       -105.99727       
                0.44591654       74.002728        0.72012624       -4.965722        0.44591654       -105.99727       0.28937014       12.439728        

0.35             0.34996707       17.786523        0.45908838       -122.66259       0.67527682       -9.108974        0.45908838       57.33741         
                0.45908838       -122.66259       0.34996707       17.786523        0.45908838       57.33741         0.67527682       -9.108974        
                0.67527682       -9.108974        0.45908838       57.33741         0.34996707       17.786523        0.45908838       -122.66259       
                0.45908838       57.33741         0.67527682       -9.108974        0.45908838       -122.66259       0.34996707       17.786523        

0.4              0.4210674        15.914933        0.47710594       -140.53145       0.60617002       -10.980564       0.47710594       39.468549        
                0.47710594       -140.53145       0.4210674        15.914933        0.47710594       39.468549        0.60617002       -10.980564       
                0.60617002       -10.980564       0.47710594       39.468549        0.4210674        15.914933        0.47710594       -140.53145       
                0.47710594       39.468549        0.60617002       -10.980564       0.47710594       -140.53145       0.4210674        15.914933        

0.45             0.47803184       9.1842928        0.49334477       -159.78416       0.53357983       -8.2211571       0.49334477       20.215842        
                0.49334477       -159.78416       0.47803184       9.1842928        0.49334477       20.215842        0.53357983       -8.2211571       
                0.53357983       -8.2211571       0.49334477       20.215842        0.47803184       9.1842928        0.49334477       -159.78416       
                0.49334477       20.215842        0.53357983       -8.2211571       0.49334477       -159.78416       0.47803184       9.1842928        

0.5              0.5              -9.8281217E-015  0.5              180              0.5              9.8281217E-015   0.5              -2.0884759E-014  
                0.5              180              0.5              -9.8281217E-015  0.5              -2.0884759E-014  0.5              9.8281217E-015   
                0.5              9.8281217E-015   0.5              -2.0884759E-014  0.5              -9.8281217E-015  0.5              180              
                0.5              -2.0884759E-014  0.5              9.8281217E-015   0.5              180              0.5              -9.8281217E-015  

0.55             0.47803184       -9.1842928       0.49334477       159.78416        0.53357983       8.2211571        0.49334477       -20.215842       
                0.49334477       159.78416        0.47803184       -9.1842928       0.49334477       -20.215842       0.53357983       8.2211571        
                0.53357983       8.2211571        0.49334477       -20.215842       0.47803184       -9.1842928       0.49334477       159.78416        
                0.49334477       -20.215842       0.53357983       8.2211571        0.49334477       159.78416        0.47803184       -9.1842928       

0.6              0.4210674        -15.914933       0.47710594       140.53145        0.60617002       10.980564        0.47710594       -39.468549       
                0.47710594       140.53145        0.4210674        -15.914933       0.47710594       -39.468549       0.60617002       10.980564        
                0.60617002       10.980564        0.47710594       -39.468549       0.4210674        -15.914933       0.47710594       140.53145        
                0.47710594       -39.468549       0.60617002       10.980564        0.47710594       140.53145        0.4210674        -15.914933       

0.65             0.34996707       -17.786523       0.45908838       122.66259        0.67527682       9.108974         0.45908838       -57.33741        
                0.45908838       122.66259        0.34996707       -17.786523       0.45908838       -57.33741        0.67527682       9.108974         
                0.67527682       9.108974         0.45908838       -57.33741        0.34996707       -17.786523       0.45908838       122.66259        
                0.45908838       -57.33741        0.67527682       9.108974         0.45908838       122.66259        0.34996707       -17.786523       

0.7              0.28937014       -12.439728       0.44591654       105.99727        0.72012624       4.965722         0.44591654       -74.002728       
                0.44591654       105.99727        0.28937014       -12.439728       0.44591654       -74.002728       0.72012624       4.965722         
                0.72012624       4.965722         0.44591654       -74.002728       0.28937014       -12.439728       0.44591654       105.99727        
                0.44591654       -74.002728       0.72012624       4.965722         0.44591654       105.99727        0.28937014       -12.439728       

0.75             0.26470588       -8.2549521E-015  0.44117647       90               0.73529412       2.9717828E-015   0.44117647       -90              
                0.44117647       90               0.26470588       -8.2549521E-015  0.44117647       -90              0.73529412       2.9717828E-015   
                0.73529412       2.9717828E-015   0.44117647       -90              0.26470588       -8.2549521E-015  0.44117647       90               
                0.44117647       -90              0.73529412       2.9717828E-015   0.44117647       90               0.26470588       -8.2549521E-015  

0.8              0.28937014       12.439728        0.44591654       74.002728        0.72012624       -4.965722        0.44591654       -105.99727       
                0.44591654       74.002728        0.28937014       12.439728        0.44591654       -105.99727       0.72012624       -4.965722        
                0.72012624       -4.965722        0.44591654       -105.99727       0.28937014       12.439728        0.44591654       74.002728        
                0.44591654       -105.99727       0.72012624       -4.965722        0.44591654       74.002728        0.28937014       12.439728        

0.85             0.34996707       17.786523        0.45908838       57.33741         0.67527682       -9.108974        0.45908838       -122.66259       
                0.45908838       57.33741         0.34996707       17.786523        0.45908838       -122.66259       0.67527682       -9.108974        
                0.67527682       -9.108974        0.45908838       -122.66259       0.34996707       17.786523        0.45908838       57.33741         
                0.45908838       -122.66259       0.67527682       -9.108974        0.45908838       57.33741         0.34996707       17.786523        

0.9              0.4210674        15.914933        0.47710594       39.468549        0.60617002       -10.980564       0.47710594       -140.53145       
                0.47710594       39.468549        0.4210674        15.914933        0.47710594       -140.53145       0.60617002       -10.980564       
                0.60617002       -10.980564       0.47710594       -140.53145       0.4210674        15.914933        0.47710594       39.468549        
                0.47710594       -140.53145       0.60617002       -10.980564       0.47710594       39.468549        0.4210674        15.914933        

0.95             0.47803184       9.1842928        0.49334477       20.215842        0.53357983       -8.2211571       0.49334477       -159.78416       
                0.49334477       20.215842        0.47803184       9.1842928        0.49334477       -159.78416       0.53357983       -8.2211571       
                0.53357983       -8.2211571       0.49334477       -159.78416       0.47803184       9.1842928        0.49334477       20.215842        
                0.49334477       -159.78416       0.53357983       -8.2211571       0.49334477       20.215842        0.47803184       9.1842928        

1                0.5              -1.9656243E-014  0.5              -4.1769517E-014  0.5              1.9656243E-014   0.5              180              
                0.5              -4.1769517E-014  0.5              -1.9656243E-014  0.5              180              0.5              1.9656243E-014   
                0.5              1.9656243E-014   0.5              180              0.5              -1.9656243E-014  0.5              -4.1769517E-014  
                0.5              180              0.5              1.9656243E-014   0.5              -4.1769517E-014  0.5              -1.9656243E-014  

1.05             0.47803184       -9.1842928       0.49334477       -20.215842       0.53357983       8.2211571        0.49334477       159.78416        
                0.49334477       -20.215842       0.47803184       -9.1842928       0.49334477       159.78416        0.53357983       8.2211571        
                0.53357983       8.2211571        0.49334477       159.78416        0.47803184       -9.1842928       0.49334477       -20.215842       
                0.49334477       159.78416        0.53357983       8.2211571        0.49334477       -20.215842       0.47803184       -9.1842928       

1.1              0.4210674        -15.914933       0.47710594       -39.468549       0.60617002       10.980564        0.47710594       140.53145        
                0.47710594       -39.468549       0.4210674        -15.914933       0.47710594       140.53145        0.60617002       10.980564        
                0.60617002       10.980564        0.47710594       140.53145        0.4210674        -15.914933       0.47710594       -39.468549       
                0.47710594       140.53145        0.60617002       10.980564        0.47710594       -39.468549       0.4210674        -15.914933       

1.15             0.34996707       -17.786523       0.45908838       -57.33741        0.67527682       9.108974         0.45908838       122.66259        
                0.45908838       -57.33741        0.34996707       -17.786523       0.45908838       122.66259        0.67527682       9.108974         
                0.67527682       9.108974         0.45908838       122.66259        0.34996707       -17.786523       0.45908838       -57.33741        
                0.45908838       122.66259        0.67527682       9.108974         0.45908838       -57.33741        0.34996707       -17.786523       

1.2              0.28937014       -12.439728       0.44591654       -74.002728       0.72012624       4.965722         0.44591654       105.99727        
                0.44591654       -74.002728       0.28937014       -12.439728       0.44591654       105.99727        0.72012624       4.965722         
                0.72012624       4.965722         0.44591654       105.99727        0.28937014       -12.439728       0.44591654       -74.002728       
                0.44591654       105.99727        0.72012624       4.965722         0.44591654       -74.002728       0.28937014       -12.439728       

1.25             0.26470588       -1.3758254E-014  0.44117647       -90              0.73529412       4.9529713E-015   0.44117647       90               
                0.44117647       -90              0.26470588       -1.3758254E-014  0.44117647       90               0.73529412       4.9529713E-015   
                0.73529412       4.9529713E-015   0.44117647       90               0.26470588       -1.3758254E-014  0.44117647       -90              
                0.44117647       90               0.73529412       4.9529713E-015   0.44117647       -90              0.26470588       -1.3758254E-014  

1.3              0.28937014       12.439728        0.44591654       -105.99727       0.72012624       -4.965722        0.44591654       74.002728        
                0.44591654       -105.99727       0.28937014       12.439728        0.44591654       74.002728        0.72012624       -4.965722        
                0.72012624       -4.965722        0.44591654       74.002728        0.28937014       12.439728        0.44591654       -105.99727       
                0.44591654       74.002728        0.72012624       -4.965722        0.44591654       -105.99727       0.28937014       12.439728        

1.35             0.34996707       17.786523        0.45908838       -122.66259       0.67527682       -9.108974        0.45908838       57.33741         
                0.45908838       -122.66259       0.34996707       17.786523        0.45908838       57.33741         0.67527682       -9.108974        
                0.67527682       -9.108974        0.45908838       57.33741         0.34996707       17.786523        0.45908838       -122.66259       
                0.45908838       57.33741         0.67527682       -9.108974        0.45908838       -122.66259       0.34996707       17.786523        

1.4              0.4210674        15.914933        0.47710594       -140.53145       0.60617002       -10.980564       0.47710594       39.468549        
                0.47710594       -140.53145       0.4210674        15.914933        0.47710594       39.468549        0.60617002       -10.980564       
                0.60617002       -10.980564       0.47710594       39.468549        0.4210674        15.914933        0.47710594       -140.53145       
                0.47710594       39.468549        0.60617002       -10.980564       0.47710594       -140.53145       0.4210674        15.914933        

1.45             0.47803184       9.1842928        0.49334477       -159.78416       0.53357983       -8.2211571       0.49334477       20.215842        
                0.49334477       -159.78416       0.47803184       9.1842928        0.49334477       20.215842        0.53357983       -8.2211571       
                0.53357983       -8.2211571       0.49334477       20.215842        0.47803184       9.1842928        0.49334477       -159.78416       
                0.49334477       20.215842        0.53357983       -8.2211571       0.49334477       -159.78416       0.47803184       9.1842928        

1.5              0.5              1.1226735E-014   0.5              -180             0.5              -1.1226735E-014  0.5              2.3856812E-014   
                0.5              -180             0.5              1.1226735E-014   0.5              2.3856812E-014   0.5              -1.1226735E-014  
                0.5              -1.1226735E-014  0.5              2.3856812E-014   0.5              1.1226735E-014   0.5              -180             
                0.5              2.3856812E-014   0.5              -1.1226735E-014  0.5              -180             0.5              1.1226735E-014   

1.55             0.47803184       -9.1842928       0.49334477       159.78416        0.53357983       8.2211571        0.49334477       -20.215842       
                0.49334477       159.78416        0.47803184       -9.1842928       0.49334477       -20.215842       0.53357983       8.2211571        
                0.53357983       8.2211571        0.49334477       -20.215842       0.47803184       -9.1842928       0.49334477       159.78416        
                0.49334477       -20.215842       0.53357983       8.2211571        0.49334477       159.78416        0.47803184       -9.1842928       

1.6              0.4210674        -15.914933       0.47710594       140.53145        0.60617002       10.980564        0.47710594       -39.468549       
