! MARKI MICROWAVE INC.
! Email:             	info@markimicrowave.com   				Phone:   408-778-4200
! Model Number:      	BAL-0003						Date:    06/12
! Filename:		BAL-0003.S3P						Version: 1.0
! Description:       	3-port S-parameter data for Balun BAL-0003
! Frequency Range: 	10 MHz to 3 GHz		
! Port Configuration:	PORT 1: OUTPUT (0 DEGREE), PORT 2: OUTPUT (180 DEGREE), PORT 3: COMMON
# Hz S  dB   R 50
10000000 -15.801069 160.82463 -8.4400482 4.5369878 -6.6791482 -0.65393662
-8.4351473 4.3207254 -15.780443 160.37959 -6.7137361 179.38983
-6.6746645 0.50985909 -6.7074966 -179.26569 -22.566696 154.94786
13737500 -16.214878 166.66452 -8.4692392 2.5932798 -6.7274256 -1.2001061
-8.4722681 2.4865563 -16.114849 166.61952 -6.7521033 178.85315
-6.7151704 -0.30866954 -6.7362432 179.85915 -23.328388 161.74463
17475000 -16.217945 170.45354 -8.4988918 1.5267594 -6.7306056 -1.4764279
-8.5041399 1.4357269 -16.077005 170.70186 -6.752593 178.50858
-6.723011 -0.87120336 -6.7433043 179.17511 -23.417435 166.88705
21212500 -16.118879 172.48677 -8.5387888 0.93688905 -6.7291393 -1.6862576
-8.5415764 0.84839773 -15.934237 172.93234 -6.7579055 178.24843
-6.7259932 -1.3622367 -6.752944 178.64807 -23.185476 170.20137
24950000 -15.990869 173.43716 -8.5665388 0.48507819 -6.7249799 -1.9568375
-8.5714922 0.44648111 -15.804194 173.7849 -6.7551303 177.97707
-6.7274971 -1.8806483 -6.7587967 178.10532 -22.915728 171.00377
28687500 -15.88369 173.5607 -8.5994282 0.20643878 -6.7226062 -2.2670212
-8.5975885 0.19496277 -15.708037 173.8235 -6.7621055 177.68689
-6.7287536 -2.3424375 -6.7698336 177.64476 -22.745138 170.96576
32425000 -15.812332 173.27095 -8.6191282 0.058751941 -6.7249603 -2.6213315
-8.611412 0.036505975 -15.64426 173.44646 -6.7670341 177.3512
-6.732265 -2.7678771 -6.7803001 177.21878 -22.622116 169.93925
36162500 -15.773267 172.64978 -8.6182146 -0.1230997 -6.7205677 -3.0381186
-8.6154289 -0.14243808 -15.613084 172.71587 -6.7667408 176.91898
-6.725606 -3.1255114 -6.7800136 176.87444 -22.543129 168.55392
39900000 -15.772831 172.00903 -8.6177454 -0.21892886 -6.7201886 -3.4372277
-8.6120844 -0.23545058 -15.61216 171.99536 -6.7700443 176.56396
-6.7247462 -3.5138509 -6.7789216 176.49771 -22.529747 167.04732
43637500 -15.803461 171.25432 -8.6086054 -0.34443 -6.7204833 -3.8233948
-8.6027985 -0.34453136 -15.656234 171.23492 -6.7691264 176.19647
-6.7243562 -3.9158607 -6.78158 176.11002 -22.577168 165.57114
47375000 -15.855634 170.54051 -8.5925045 -0.48382291 -6.7210493 -4.1927452
-8.5866508 -0.49166727 -15.717997 170.45798 -6.7711315 175.8266
-6.7218342 -4.326025 -6.7789445 175.71451 -22.684008 164.20743
51112500 -15.928868 169.88013 -8.570673 -0.61985308 -6.7198358 -4.5654163
-8.5680742 -0.63507038 -15.794273 169.82297 -6.7683687 175.48669
-6.7199397 -4.7215161 -6.7732601 175.33922 -22.796654 163.11803
54850000 -16.010063 169.27415 -8.5492048 -0.77680665 -6.7196736 -4.8488121
-8.545475 -0.80804116 -15.879507 169.26103 -6.7675362 175.20308
-6.7153659 -5.1479874 -6.7669082 174.94582 -22.945072 162.21327
58587500 -16.098265 168.91792 -8.5244169 -0.92619359 -6.7154799 -5.1804848
-8.5195255 -0.97085303 -15.969584 168.80775 -6.7599492 174.86115
-6.7107668 -5.5022101 -6.7596765 174.58949 -23.085609 161.72034
62325000 -16.19549 168.62411 -8.4977503 -1.0759399 -6.711545 -5.513957
-8.4974575 -1.1195784 -16.052427 168.49243 -6.7541094 174.54443
-6.7064052 -5.8597565 -6.750957 174.24535 -23.201635 161.41032
66062500 -16.285187 168.47595 -8.4702625 -1.2402151 -6.7030315 -5.8393235
-8.4734554 -1.2766306 -16.141647 168.24783 -6.745873 174.2092
-6.7005906 -6.1700506 -6.7433171 173.90782 -23.293665 161.13701
69800000 -16.378334 168.26396 -8.4463987 -1.4489193 -6.6972771 -6.2052407
-8.4497108 -1.4415596 -16.219723 168.08476 -6.7376513 173.85788
-6.6954002 -6.5233645 -6.7347794 173.55316 -23.368212 160.80157
73537500 -16.456398 168.07892 -8.4199514 -1.6852903 -6.6867518 -6.5926852
-8.4206295 -1.6545396 -16.296253 167.87178 -6.7254272 173.48341
-6.6851778 -6.8677263 -6.7231464 173.17717 -23.436062 160.53502
77275000 -16.538395 168.03009 -8.396575 -1.9085001 -6.6786041 -6.9722257
-8.3964052 -1.8693596 -16.37915 167.73108 -6.7177634 173.07945
-6.6769657 -7.2499633 -6.7161589 172.77379 -23.486427 159.97475
81012500 -16.611992 167.94707 -8.3732433 -2.1507735 -6.6712804 -7.3703456
-8.3734884 -2.1106467 -16.451147 167.59811 -6.7102513 172.68292
-6.6692367 -7.6369467 -6.7094064 172.37311 -23.546873 159.47499
84750000 -16.685444 167.90538 -8.3539848 -2.3979406 -6.6656814 -7.7605352
-8.352294 -2.3401501 -16.526543 167.49579 -6.7046824 172.29497
-6.6638966 -7.9982958 -6.7077179 171.99638 -23.632404 158.9832
88487500 -16.758553 167.87366 -8.3360815 -2.6284025 -6.6618185 -8.1478024
-8.3333426 -2.6120389 -16.608429 167.37553 -6.703474 171.88039
-6.6579123 -8.3791189 -6.7046604 171.62062 -23.701069 158.51552
92225000 -16.832649 167.83136 -8.3172712 -2.8908644 -6.6578879 -8.5590048
-8.3144236 -2.9039593 -16.676434 167.22678 -6.700388 171.44728
-6.6557002 -8.7588997 -6.703146 171.24471 -23.797024 158.02127
95962500 -16.900261 167.72507 -8.3012819 -3.1870639 -6.6543579 -8.9729137
-8.2973995 -3.1964653 -16.745201 167.09889 -6.6982813 171.02696
-6.6511035 -9.1705275 -6.7007222 170.83746 -23.881189 157.4344
99700000 -16.966593 167.62448 -8.2841854 -3.4877958 -6.6523476 -9.4098682
-8.2800121 -3.5161908 -16.817907 167.01857 -6.6973681 170.61073
-6.6491027 -9.6003742 -6.6984239 170.44403 -23.981464 156.93298
103437500 -17.041067 167.54781 -8.2708511 -3.7975502 -6.6497312 -9.8235512
-8.2651691 -3.8157976 -16.879833 166.97853 -6.6949849 170.20421
-6.6457782 -10.008479 -6.6956649 170.03481 -24.061472 156.49855
107175000 -17.106831 167.46581 -8.2549877 -4.1180429 -6.6466031 -10.251969
-8.2519064 -4.0744467 -16.936939 166.96472 -6.6902652 169.84036
-6.6420536 -10.42455 -6.691618 169.62195 -24.145853 156.03413
110912500 -17.169695 167.48816 -8.2433043 -4.4101892 -6.6437855 -10.65387
-8.239459 -4.3566399 -16.993113 166.9921 -6.6873231 169.43823
-6.6394434 -10.822907 -6.6876378 169.22493 -24.227608 155.86386
114650000 -17.241262 167.54965 -8.2291164 -4.6957941 -6.6406651 -11.049018
-8.2274981 -4.6414537 -17.048906 167.08755 -6.6821084 169.05843
-6.6387248 -11.210251 -6.6824026 168.8398 -24.28406 155.74899
118387500 -17.296494 167.64471 -8.2166643 -4.9701195 -6.6378832 -11.427919
-8.2168941 -4.9073067 -17.09602 167.1252 -6.6774125 168.68013
-6.6356368 -11.583722 -6.6777263 168.45979 -24.338861 155.70613
122125000 -17.352036 167.77676 -8.206069 -5.2434268 -6.6337128 -11.821382
-8.2064381 -5.1987834 -17.143814 167.16811 -6.672514 168.26759
-6.633409 -11.95517 -6.6718354 168.08032 -24.393688 155.6376
125862500 -17.405972 167.97874 -8.1955585 -5.4859052 -6.6319547 -12.18548
-8.1961069 -5.4989409 -17.193485 167.19856 -6.6682448 167.83571
-6.6308746 -12.316814 -6.6692286 167.71584 -24.436579 155.6111
129600000 -17.44976 168.10242 -8.1866646 -5.7628074 -6.6278 -12.579785
-8.1857853 -5.7620144 -17.243536 167.23691 -6.6656752 167.448
-6.6290946 -12.690651 -6.6671529 167.32135 -24.482702 155.53406
133337500 -17.486456 168.24777 -8.1776438 -6.0365276 -6.6240139 -12.9571
-8.1764507 -6.0305748 -17.286659 167.33284 -6.6632857 167.06235
-6.6244512 -13.082726 -6.666316 166.92424 -24.523718 155.36984
137075000 -17.528257 168.39113 -8.170373 -6.2944264 -6.6223006 -13.351789
-8.1677208 -6.2958603 -17.33754 167.40602 -6.6633477 166.66167
-6.6221051 -13.469193 -6.6648793 166.53978 -24.57155 155.20284
140812500 -17.563351 168.50554 -8.1611691 -6.5705266 -6.620687 -13.743891
-8.1586533 -6.5725479 -17.376072 167.51195 -6.6619668 166.26965
-6.6189079 -13.858178 -6.6630831 166.15369 -24.621553 154.9904
144550000 -17.602461 168.60577 -8.1548319 -6.8375869 -6.62009 -14.129894
-8.1523733 -6.8368912 -17.424824 167.59319 -6.6645617 165.89285
-6.6182537 -14.255452 -6.6646614 165.76642 -24.676319 154.77762
148287500 -17.630299 168.62411 -8.1480694 -7.1449771 -6.6147566 -14.553909
-8.1447115 -7.0856175 -17.460106 167.74484 -6.6617322 165.52737
-6.6147909 -14.681978 -6.6636677 165.35645 -24.702131 154.30522
152025000 -17.662254 168.72626 -8.1388617 -7.4015951 -6.6173549 -14.940523
-8.1375971 -7.3421469 -17.504854 167.87703 -6.6634326 165.16118
-6.6138082 -15.063436 -6.6620073 164.96938 -24.762112 154.07915
155762500 -17.699968 168.79199 -8.1326332 -7.6785064 -6.6167946 -15.334874
-8.1308279 -7.6256299 -17.533266 167.96713 -6.6624317 164.77733
-6.6132793 -15.469938 -6.6610165 164.59006 -24.805195 154.01993
159500000 -17.733974 168.91583 -8.1268854 -7.9550729 -6.6143494 -15.726823
-8.1243019 -7.9041381 -17.560444 168.05188 -6.6575294 164.40056
-6.6133432 -15.85925 -6.6606011 164.19722 -24.846354 153.89726
163237500 -17.768177 169.03577 -8.1209497 -8.2273512 -6.6142535 -16.095932
-8.1196709 -8.1878757 -17.589399 168.177 -6.657403 164.02351
-6.6132116 -16.253302 -6.6573634 163.81615 -24.880789 153.83578
166975000 -17.79673 169.11536 -8.114995 -8.5172548 -6.6140065 -16.469488
-8.1142406 -8.4446125 -17.615746 168.25253 -6.655304 163.6494
-6.6117101 -16.646559 -6.6544509 163.42056 -24.902397 153.78032
170712500 -17.82534 169.22017 -8.110177 -8.7883625 -6.6133628 -16.864578
-8.1089897 -8.7253628 -17.640566 168.2728 -6.6540217 163.25713
-6.6108413 -17.042786 -6.6518116 163.02205 -24.928968 153.60674
174450000 -17.85026 169.36806 -8.1049376 -9.0637131 -6.6121387 -17.23049
-8.1054554 -8.9978304 -17.66704 168.3443 -6.6532788 162.87308
-6.6107845 -17.41523 -6.6501818 162.64497 -24.954964 153.543
178187500 -17.874781 169.50531 -8.1008768 -9.3270435 -6.6106076 -17.613558
-8.0995007 -9.255578 -17.681177 168.40294 -6.6508555 162.49316
-6.6080556 -17.802187 -6.6497488 162.23117 -24.969946 153.3728
181925000 -17.900291 169.65242 -8.0942087 -9.6043863 -6.6106129 -17.99881
-8.0955105 -9.5151281 -17.702765 168.48537 -6.6501145 162.10176
-6.6083698 -18.177633 -6.6467538 161.83821 -24.991154 153.16147
185662500 -17.91073 169.76985 -8.0926647 -9.87467 -6.6086373 -18.39674
-8.0901718 -9.7884645 -17.72344 168.53247 -6.6493506 161.70261
-6.6064358 -18.567766 -6.6491699 161.45444 -25.028322 152.92403
189400000 -17.927166 169.88382 -8.087821 -10.152839 -6.6061015 -18.786604
-8.0849133 -10.056954 -17.747175 168.6097 -6.6487122 161.31372
-6.602344 -18.959108 -6.6486888 161.0567 -25.036469 152.7608
193137500 -17.945906 169.97461 -8.0836582 -10.427851 -6.6053724 -19.194435
-8.0815058 -10.334538 -17.762184 168.66563 -6.6485171 160.91679
-6.6026149 -19.355385 -6.6491294 160.66302 -25.067911 152.54329
196875000 -17.958975 170.08614 -8.0813293 -10.699164 -6.6036534 -19.58766
-8.0784492 -10.587619 -17.786751 168.73154 -6.648962 160.53526
-6.6012497 -19.743334 -6.6509376 160.27008 -25.089304 152.27005
200612500 -17.974255 170.15781 -8.0777969 -10.985441 -6.6031866 -20.001808
-8.0717468 -10.869519 -17.799158 168.7916 -6.6464481 160.14539
-6.5997939 -20.126221 -6.6504469 159.89503 -25.09782 152.06436
204350000 -17.99365 170.27365 -8.0741186 -11.24098 -6.6038117 -20.400681
-8.068778 -11.142634 -17.818729 168.89908 -6.6466298 159.74716
-6.6017385 -20.540762 -6.6516061 159.5154 -25.1535 151.83748
208087500 -18.010838 170.20952 -8.0681934 -11.535946 -6.5994024 -20.836302
-8.0679045 -11.459097 -17.83106 168.85403 -6.6452446 159.31963
-6.5995212 -20.86442 -6.6473875 159.19554 -25.1472 151.81934
211825000 -18.026886 170.31979 -8.06528 -11.812462 -6.6027789 -21.228481
-8.0655251 -11.718619 -17.84 168.90436 -6.645607 158.93143
-6.6015096 -21.247046 -6.6462555 158.81006 -25.17145 151.67125
215562500 -18.047464 170.38068 -8.0625296 -12.103669 -6.6011224 -21.637417
-8.0646486 -12.000087 -17.855278 168.95798 -6.6440692 158.51637
-6.6016655 -21.627153 -6.6450009 158.43126 -25.175911 151.45946
219300000 -18.060404 170.54332 -8.0586472 -12.373114 -6.5999284 -22.034782
-8.0610266 -12.256144 -17.864912 169.00879 -6.6416631 158.13113
-6.6018353 -22.005404 -6.6420407 158.06088 -25.172752 151.34596
223037500 -18.077091 170.61639 -8.057126 -12.665272 -6.6036091 -22.425663
-8.0623541 -12.530676 -17.871313 169.03691 -6.6435003 157.73114
-6.6030245 -22.389778 -6.6411595 157.63995 -25.192513 151.14799
226775000 -18.091539 170.73866 -8.0558233 -12.926356 -6.5999188 -22.821369
-8.0577202 -12.81371 -17.885347 169.10674 -6.6402364 157.33479
-6.6027946 -22.778677 -6.6415119 157.25548 -25.210142 151.07109
230512500 -18.110426 170.88202 -8.0558119 -13.192352 -6.6011987 -23.198505
-8.0595522 -13.064845 -17.901854 169.15372 -6.641161 156.95107
-6.6042747 -23.158392 -6.6412549 156.86504 -25.219501 150.89659
234250000 -18.114159 171.02754 -8.0526943 -13.429841 -6.5986681 -23.585821
-8.0585461 -13.313727 -17.914406 169.2887 -6.6401181 156.54819
-6.6016178 -23.527084 -6.6417017 156.5041 -25.215946 150.62125
237987500 -18.119637 171.12653 -8.0496063 -13.706639 -6.600647 -23.965248
-8.0543308 -13.603412 -17.921755 169.35677 -6.6422257 156.16309
-6.5982256 -23.934553 -6.6378741 156.09828 -25.222029 150.47183
241725000 -18.118128 171.22423 -8.0457306 -13.969207 -6.5974655 -24.365206
-8.0526066 -13.85335 -17.932419 169.40776 -6.6406026 155.77748
-6.5988674 -24.321484 -6.6406927 155.72343 -25.227352 150.27696
245462500 -18.115236 171.30011 -8.0444832 -14.205967 -6.5959849 -24.742607
-8.0476599 -14.109235 -17.933708 169.541 -6.6390285 155.40773
-6.5970454 -24.696487 -6.6405325 155.34 -25.241674 150.07803
249200000 -18.122206 171.38239 -8.0427828 -14.486917 -6.5972056 -25.148199
-8.0459557 -14.384648 -17.945133 169.60132 -6.6402764 155.01248
-6.5963755 -25.095716 -6.6401477 154.96588 -25.266739 149.88387
252937500 -18.125315 171.58627 -8.0431471 -14.700473 -6.5986247 -25.470892
-8.0420256 -14.667231 -17.934425 169.55293 -6.6384583 154.59984
-6.5969257 -25.498016 -6.6394134 154.55624 -25.261858 149.40382
256675000 -18.11615 171.66347 -8.0445881 -14.960923 -6.5978432 -25.874468
-8.0373487 -14.939955 -17.939247 169.62291 -6.6348419 154.21544
-6.5976162 -25.89188 -6.642107 154.16734 -25.259945 149.23112
260412500 -18.115774 171.70844 -8.0428076 -15.236131 -6.5966706 -26.277519
-8.0387468 -15.216434 -17.935513 169.75381 -6.6345387 153.83757
-6.5965066 -26.294638 -6.6400909 153.79166 -25.242479 149.01595
264150000 -18.114605 171.84079 -8.0380211 -15.487798 -6.5977025 -26.648317
-8.0341396 -15.45879 -17.927774 169.82152 -6.6344781 153.44466
-6.5949416 -26.665657 -6.6371613 153.42314 -25.282663 148.66116
267887500 -18.124151 171.8548 -8.038022 -15.735469 -6.6000543 -27.020714
-8.0364332 -15.737072 -17.938658 169.8549 -6.6367388 153.06955
-6.5970926 -27.071226 -6.6371293 153.04292 -25.24419 148.43504
271625000 -18.134565 171.89006 -8.0344229 -15.984509 -6.601038 -27.430901
-8.0341492 -16.01511 -17.931459 169.9281 -6.6346788 152.66988
-6.6000681 -27.451303 -6.6364908 152.66664 -25.249796 148.188
275362500 -18.139229 172.0157 -8.0368929 -16.26269 -6.6020555 -27.808962
-8.0330276 -16.267944 -17.936613 169.92426 -6.6329761 152.27715
-6.5994186 -27.81671 -6.6364651 152.26967 -25.246195 148.12923
279100000 -18.146353 172.08742 -8.037343 -16.55492 -6.5976291 -28.197903
-8.0333757 -16.526667 -17.938408 169.91551 -6.6302776 151.91151
-6.5998778 -28.200302 -6.6373539 151.86617 -25.252792 147.87354
282837500 -18.128613 172.23087 -8.035593 -16.791502 -6.5988717 -28.578114
-8.0328226 -16.803377 -17.936819 169.94612 -6.6337709 151.49567
-6.6022029 -28.593483 -6.6387382 151.48056 -25.26819 147.57074
286575000 -18.135843 172.25346 -8.0350981 -17.06155 -6.5971613 -28.974991
-8.0365524 -17.060524 -17.94982 170.04774 -6.635788 151.10756
-6.6026216 -29.000345 -6.6391797 151.08662 -25.295639 147.24934
290312500 -18.133625 172.31564 -8.0348711 -17.313759 -6.5947766 -29.351908
-8.0352545 -17.313288 -17.956066 170.04906 -6.6349492 150.70863
-6.6021285 -29.35755 -6.6415486 150.71233 -25.311155 147.06566
294050000 -18.136889 172.4639 -8.0338678 -17.5821 -6.5944643 -29.761324
-8.0368986 -17.580196 -17.949022 170.16667 -6.6361823 150.30766
-6.6024289 -29.729198 -6.6409392 150.31433 -25.276133 146.8898
297787500 -18.126871 172.47275 -8.0309267 -17.823963 -6.5920763 -30.139814
-8.0350246 -17.823483 -17.954332 170.22946 -6.6316075 149.95355
-6.6033072 -30.131752 -6.6398878 149.9465 -25.284554 146.63864
301525000 -18.126007 172.56721 -8.0315485 -18.09001 -6.5946865 -30.523024
-8.0315742 -18.072618 -17.951132 170.30052 -6.634201 149.56157
-6.6009169 -30.503822 -6.6401315 149.57263 -25.279604 146.41383
305262500 -18.125658 172.57501 -8.032073 -18.341017 -6.5958533 -30.909018
-8.0293159 -18.333084 -17.940025 170.32277 -6.6340051 149.18393
-6.5989809 -30.923258 -6.6394725 149.1812 -25.262316 146.18617
309000000 -18.126389 172.69014 -8.0331125 -18.611286 -6.5962553 -31.297819
-8.0306721 -18.607016 -17.945076 170.39658 -6.6324644 148.79396
-6.6003804 -31.302727 -6.6386442 148.78174 -25.236628 145.83824
312737500 -18.132946 172.66353 -8.0333252 -18.863794 -6.5982962 -31.708799
-8.0296946 -18.85545 -17.928581 170.40172 -6.6315346 148.39674
-6.5999188 -31.688789 -6.637795 148.43517 -25.246737 145.56587
316475000 -18.118612 172.79332 -8.0337238 -19.110235 -6.6006188 -32.093498
-8.0276184 -19.113234 -17.929354 170.41724 -6.6323633 148.02293
-6.6015224 -32.074692 -6.6374226 148.02324 -25.265579 145.14082
320212500 -18.116703 172.76216 -8.0325346 -19.370897 -6.601018 -32.480267
-8.0265265 -19.382181 -17.91925 170.42218 -6.6297774 147.62009
-6.5993004 -32.4618 -6.6366954 147.64964 -25.255119 144.89487
323950000 -18.116064 172.92928 -8.0336189 -19.644051 -6.5991497 -32.853687
-8.0255079 -19.600471 -17.925375 170.55188 -6.6292901 147.25485
-6.6018219 -32.830658 -6.6376166 147.24336 -25.247536 144.6245
327687500 -18.118069 173.00716 -8.0326328 -19.854952 -6.6048503 -33.237579
-8.0274563 -19.847754 -17.929678 170.62405 -6.6337051 146.86969
-6.6033459 -33.22044 -6.6389289 146.87013 -25.246042 144.52608
331425000 -18.100887 173.11827 -8.0334377 -20.129171 -6.6025534 -33.596302
-8.0267448 -20.103222 -17.940956 170.6506 -6.6296215 146.49731
-6.6027131 -33.593452 -6.6427679 146.46478 -25.250658 144.41797
335162500 -18.094397 173.10687 -8.0340433 -20.390757 -6.6003137 -33.982124
-8.0262079 -20.372551 -17.936157 170.58733 -6.6296382 146.11217
-6.6045275 -33.971725 -6.6419382 146.10403 -25.243422 144.18439
338900000 -18.087925 173.12033 -8.0319939 -20.64031 -6.6005492 -34.3526
-8.0305023 -20.638054 -17.932827 170.64813 -6.6333933 145.73946
-6.6032228 -34.343956 -6.6380839 145.73367 -25.211597 143.94244
342637500 -18.080284 173.21625 -8.0288429 -20.90716 -6.6004734 -34.733078
-8.028018 -20.889448 -17.939245 170.63155 -6.6339903 145.35072
-6.5994635 -34.717953 -6.6333823 145.33929 -25.190075 143.49806
346375000 -18.066769 173.2419 -8.032526 -21.140951 -6.5992203 -35.112961
-8.0278015 -21.142481 -17.930273 170.71304 -6.6305547 144.97241
-6.5986447 -35.117802 -6.6360931 144.9696 -25.176363 143.18262
350112500 -18.062891 173.22885 -8.0371552 -21.390034 -6.6013398 -35.506275
-8.0286055 -21.403749 -17.925623 170.72345 -6.6327634 144.58801
-6.5991187 -35.512215 -6.6399016 144.59137 -25.192318 142.96783
353850000 -18.059793 173.26567 -8.0377979 -21.652548 -6.6014524 -35.897129
-8.0291252 -21.640417 -17.92391 170.74802 -6.630723 144.20251
-6.6007252 -35.884365 -6.6408048 144.20561 -25.180317 142.65919
357587500 -18.040312 173.27168 -8.0335159 -21.885323 -6.6006317 -36.279881
-8.0288677 -21.884214 -17.910286 170.78253 -6.6321955 143.82219
-6.598105 -36.263329 -6.6366148 143.83485 -25.16786 142.39526
361325000 -18.033754 173.28403 -8.033268 -22.158714 -6.5973701 -36.641705
-8.0288 -22.15493 -17.906462 170.77591 -6.6299105 143.45908
-6.600596 -36.680836 -6.6405168 143.43484 -25.14443 142.05539
365062500 -18.031376 173.31609 -8.038456 -22.383129 -6.6017303 -37.030857
-8.0314531 -22.396156 -17.900827 170.80896 -6.6324549 143.07036
-6.6032281 -37.046799 -6.6403351 143.08537 -25.151672 141.78326
