! File created by SignalIntegrity v1.3.2: Signal and Power Integrity Tools
! https://github.com/TeledyneLeCroy/SignalIntegrity
# MHz S MA R 50.0
0.0 0.0 0.0 1.0 0.0 1.0 0.0 0.0 0.0
100.0 0.001692 85.089209 0.999999 -5.40109 0.999999 -5.40109 0.001692 84.108612
200.0 0.003372 80.181826 0.999994 -10.802151 0.999994 -10.802151 0.003372 78.213871
300.0 0.005027 75.28131 0.999987 -16.203159 0.999987 -16.203159 0.005027 72.312372
400.0 0.006644 70.391216 0.999978 -21.604087 0.999978 -21.604087 0.006644 66.400609
500.0 0.008212 65.515258 0.999966 -27.004914 0.999966 -27.004914 0.008212 60.474915
600.0 0.00972 60.657355 0.999953 -32.405619 0.999953 -32.405619 0.00972 54.531408
700.0 0.011155 55.821707 0.999938 -37.806187 0.999938 -37.806187 0.011155 48.565919
800.0 0.012509 51.012861 0.999922 -43.206607 0.999922 -43.206607 0.012509 42.573926
900.0 0.01377 46.235797 0.999905 -48.606871 0.999905 -48.606871 0.01377 36.550461
1000.0 0.014932 41.496024 0.999889 -54.006979 0.999889 -54.006979 0.014932 30.490018
1100.0 0.015985 36.7997 0.999872 -59.406933 0.999872 -59.406933 0.015985 24.386435
1200.0 0.016922 32.153762 0.999857 -64.80674 0.999857 -64.80674 0.016922 18.232759
1300.0 0.017739 27.566093 0.999843 -70.206413 0.999843 -70.206413 0.017739 12.02108
1400.0 0.01843 23.045723 0.99983 -75.605968 0.99983 -75.605968 0.01843 5.74234
1500.0 0.018991 18.603061 0.99982 -81.005426 0.99982 -81.005426 0.018991 -0.613913
1600.0 0.019422 14.250185 0.999811 -86.404809 0.999811 -86.404809 0.019422 -7.059802
1700.0 0.01972 10.001197 0.999806 -91.804141 0.999806 -91.804141 0.01972 -13.60948
1800.0 0.019888 5.872643 0.999802 -97.203451 0.999802 -97.203451 0.019888 -20.279546
1900.0 0.019926 1.884022 0.999801 -102.602766 0.999801 -102.602766 0.019926 -27.089553
2000.0 0.019841 -1.941607 0.999803 -108.002111 0.999803 -108.002111 0.019841 -34.062615
2100.0 0.019637 -5.576922 0.999807 -113.401514 0.999807 -113.401514 0.019637 -41.226106
2200.0 0.019323 -8.989549 0.999813 -118.800998 0.999813 -118.800998 0.019323 -48.612447
2300.0 0.018909 -12.141239 0.999821 -124.200585 0.999821 -124.200585 0.018909 -56.259931
2400.0 0.018409 -14.987128 0.999831 -129.600293 0.999831 -129.600293 0.018409 -64.213457
2500.0 0.017837 -17.475313 0.999841 -135.000135 0.999841 -135.000135 0.017837 -72.524957
2600.0 0.017215 -19.547192 0.999852 -140.400122 0.999852 -140.400122 0.017215 -81.253052
2700.0 0.016564 -21.139317 0.999863 -145.800259 0.999863 -145.800259 0.016564 -90.4612
2800.0 0.015913 -22.18792 0.999873 -151.200545 0.999873 -151.200545 0.015913 -100.21317
2900.0 0.015293 -22.637589 0.999883 -156.600975 0.999883 -156.600975 0.015293 -110.564362
3000.0 0.014739 -22.455431 0.999891 -162.001541 0.999891 -162.001541 0.014739 -121.547652
3100.0 0.014289 -21.650469 0.999898 -167.402228 0.999898 -167.402228 0.014289 -133.153987
3200.0 0.013981 -20.29434 0.999902 -172.803017 0.999902 -172.803017 0.013981 -145.311694
3300.0 0.013848 -18.534025 0.999904 -178.203886 0.999904 -178.203886 0.013848 -157.873747
3400.0 0.013914 -16.584896 0.999903 176.395189 0.999903 176.395189 0.013914 -170.624725
3500.0 0.014187 -14.698612 0.999899 170.994237 0.999899 170.994237 0.014187 176.687086
3600.0 0.014664 -13.115314 0.999892 165.593286 0.999892 165.593286 0.014664 164.301886
3700.0 0.015325 -12.020965 0.999883 160.192366 0.999883 160.192366 0.015325 152.405696
3800.0 0.016144 -11.526798 0.99987 154.791505 0.99987 154.791505 0.016144 141.109809
3900.0 0.017088 -11.672858 0.999854 149.390733 0.999854 149.390733 0.017088 130.454325
4000.0 0.018124 -12.44589 0.999836 143.990077 0.999836 143.990077 0.018124 120.426043
4100.0 0.019221 -13.800251 0.999815 138.589559 0.999815 138.589559 0.019221 110.979369
4200.0 0.02035 -15.675081 0.999793 133.189202 0.999793 133.189202 0.02035 102.053484
4300.0 0.021486 -18.005789 0.999769 127.789021 0.999769 127.789021 0.021486 93.583831
4400.0 0.022606 -20.730603 0.999744 122.389031 0.999744 122.389031 0.022606 85.508664
4500.0 0.023692 -23.79367 0.999719 116.989238 0.999719 116.989238 0.023692 77.772146
4600.0 0.024725 -27.146085 0.999694 111.589647 0.999694 111.589647 0.024725 70.325379
4700.0 0.025692 -30.74579 0.99967 106.190256 0.99967 106.190256 0.025692 63.126301
4800.0 0.02658 -34.556957 0.999647 100.791058 0.999647 100.791058 0.02658 56.139073
4900.0 0.02738 -38.549178 0.999625 95.392043 0.999625 95.392043 0.02738 49.333265
5000.0 0.028081 -42.696632 0.999606 89.993196 0.999606 89.993196 0.028081 42.683024
5100.0 0.028678 -46.977318 0.999589 84.594497 0.999589 84.594497 0.028678 36.166312
5200.0 0.029164 -51.372375 0.999575 79.195925 0.999575 79.195925 0.029164 29.764225
5300.0 0.029536 -55.865504 0.999564 73.797453 0.999564 73.797453 0.029536 23.46041
5400.0 0.02979 -60.442463 0.999556 68.399056 0.999556 68.399056 0.02979 17.240575
5500.0 0.029926 -65.090655 0.999552 63.000704 0.999552 63.000704 0.029926 11.092063
5600.0 0.029942 -69.798754 0.999552 57.60237 0.999552 57.60237 0.029942 5.003493
5700.0 0.029839 -74.556402 0.999555 52.204023 0.999555 52.204023 0.029839 -1.035552
5800.0 0.02962 -79.353921 0.999561 46.805636 0.999561 46.805636 0.02962 -7.034806
5900.0 0.029288 -84.182061 0.999571 41.407184 0.999571 41.407184 0.029288 -13.003572
6000.0 0.028846 -89.03176 0.999584 36.00864 0.999584 36.00864 0.028846 -18.950959
6100.0 0.0283 -93.893905 0.999599 30.609985 0.999599 30.609985 0.0283 -24.886126
6200.0 0.027655 -98.759091 0.999618 25.211198 0.999618 25.211198 0.027655 -30.818513
6300.0 0.026918 -103.617363 0.999638 19.812266 0.999638 19.812266 0.026918 -36.758106
6400.0 0.026097 -108.45794 0.999659 14.413175 0.999659 14.413175 0.026097 -42.715709
6500.0 0.025199 -113.268895 0.999682 9.01392 0.999682 9.01392 0.025199 -48.703266
6600.0 0.024235 -118.036791 0.999706 3.614494 0.999706 3.614494 0.024235 -54.73422
6700.0 0.023212 -122.746264 0.999731 -1.785101 0.999731 -1.785101 0.023212 -60.823938
6800.0 0.022141 -127.379527 0.999755 -7.184863 0.999755 -7.184863 0.022141 -66.9902
6900.0 0.021033 -131.915802 0.999779 -12.584787 0.999779 -12.584787 0.021033 -73.253772
7000.0 0.019898 -136.330665 0.999802 -17.984862 0.999802 -17.984862 0.019898 -79.639059
7100.0 0.018749 -140.595332 0.999824 -23.385078 0.999824 -23.385078 0.018749 -86.174824
7200.0 0.017597 -144.675918 0.999845 -28.785421 0.999845 -28.785421 0.017597 -92.894923
7300.0 0.016455 -148.532793 0.999865 -34.185876 0.999865 -34.185876 0.016455 -99.838959
7400.0 0.015337 -152.120225 0.999882 -39.586427 0.999882 -39.586427 0.015337 -107.052629
7500.0 0.014256 -155.386722 0.999898 -44.987058 0.999898 -44.987058 0.014256 -114.587395
7600.0 0.013227 -158.276686 0.999913 -50.387753 0.999913 -50.387753 0.013227 -122.49882
7700.0 0.012265 -160.734379 0.999925 -55.788496 0.999925 -55.788496 0.012265 -130.842613
7800.0 0.011388 -162.711413 0.999935 -61.18927 0.999935 -61.18927 0.011388 -139.667128
7900.0 0.010611 -164.178899 0.999944 -66.590063 0.999944 -66.590063 0.010611 -149.001227
8000.0 0.00995 -165.144127 0.99995 -71.990861 0.99995 -71.990861 0.00995 -158.837596
8100.0 0.009419 -165.66876 0.999956 -77.391654 0.999956 -77.391654 0.009419 -169.114548
8200.0 0.009028 -165.881222 0.999959 -82.79243 0.999959 -82.79243 0.009028 -179.703639
8300.0 0.008781 -165.973391 0.999961 -88.193184 0.999961 -88.193184 0.008781 169.587023
8400.0 0.008673 -166.175725 0.999962 -93.593908 0.999962 -93.593908 0.008673 158.987908
8500.0 0.008694 -166.716477 0.999962 -98.994598 0.999962 -98.994598 0.008694 148.727281
8600.0 0.008828 -167.781474 0.999961 -104.395251 0.999961 -104.395251 0.008828 138.990971
8700.0 0.009056 -169.490521 0.999959 -109.795866 0.999959 -109.795866 0.009056 129.89879
8800.0 0.00936 -171.895284 0.999956 -115.19644 0.999956 -115.19644 0.00936 121.502404
8900.0 0.009722 -174.992285 0.999953 -120.596975 0.999953 -120.596975 0.009722 113.798335
9000.0 0.010128 -178.741159 0.999949 -125.997471 0.999949 -125.997471 0.010128 106.746216
9100.0 0.010567 176.918856 0.999944 -131.39793 0.999944 -131.39793 0.010567 100.285285
9200.0 0.011029 172.056982 0.999939 -136.798351 0.999939 -136.798351 0.011029 94.346316
9300.0 0.011509 166.743484 0.999934 -142.198736 0.999934 -142.198736 0.011509 88.859043
9400.0 0.012001 161.045619 0.999928 -147.599086 0.999928 -147.599086 0.012001 83.756209
9500.0 0.012504 155.025733 0.999922 -152.9994 0.999922 -152.9994 0.012504 78.975466
9600.0 0.013015 148.740571 0.999915 -158.399679 0.999915 -158.399679 0.013015 74.460072
9700.0 0.013531 142.241183 0.999908 -163.79992 0.999908 -163.79992 0.013531 70.158978
9800.0 0.014051 135.573105 0.999901 -169.200121 0.999901 -169.200121 0.014051 66.026652
9900.0 0.014573 128.776631 0.999894 -174.600282 0.999894 -174.600282 0.014573 62.022805
10000.0 0.015094 121.887114 0.999886 179.999602 0.999886 179.999602 0.015094 58.112089
10100.0 0.015612 114.93527 0.999878 174.599533 0.999878 174.599533 0.015612 54.263795
10200.0 0.016123 107.947493 0.99987 169.199514 0.99987 169.199514 0.016123 50.451535
10300.0 0.016623 100.94619 0.999862 163.79955 0.999862 163.79955 0.016623 46.65291
10400.0 0.017107 93.950129 0.999854 158.399642 0.999854 158.399642 0.017107 42.849154
10500.0 0.017571 86.974815 0.999846 152.999792 0.999846 152.999792 0.017571 39.024769
10600.0 0.01801 80.032876 0.999838 147.600004 0.999838 147.600004 0.01801 35.167131
10700.0 0.018417 73.134448 0.99983 142.200276 0.99983 142.200276 0.018417 31.266103
10800.0 0.018787 66.287568 0.999824 136.800608 0.999824 136.800608 0.018787 27.313648
10900.0 0.019114 59.498541 0.999817 131.400998 0.999817 131.400998 0.019114 23.303456
11000.0 0.019392 52.772296 0.999812 126.001443 0.999812 126.001443 0.019392 19.230591
11100.0 0.019615 46.112717 0.999808 120.601938 0.999808 120.601938 0.019615 15.091158
11200.0 0.019779 39.522954 0.999804 115.202475 0.999804 115.202475 0.019779 10.881995
11300.0 0.019877 33.005709 0.999802 109.803046 0.999802 109.803046 0.019877 6.600383
11400.0 0.019907 26.563512 0.999802 104.403643 0.999802 104.403643 0.019907 2.243774
11500.0 0.019862 20.198985 0.999803 99.004253 0.999803 99.004253 0.019862 -2.190478
11600.0 0.019741 13.915118 0.999805 93.604866 0.999805 93.604866 0.019741 -6.705386
11700.0 0.019539 7.715551 0.999809 88.205468 0.999809 88.205468 0.019539 -11.304614
11800.0 0.019255 1.604894 0.999815 82.806046 0.999815 82.806046 0.019255 -15.992801
11900.0 0.018888 -4.410889 0.999822 77.406587 0.999822 77.406587 0.018888 -20.775936
12000.0 0.018437 -10.324013 0.99983 72.007078 0.99983 72.007078 0.018437 -25.66183
12100.0 0.017902 -16.124271 0.99984 66.607506 0.99984 66.607506 0.017902 -30.660717
12200.0 0.017285 -21.798219 0.999851 61.20786 0.999851 61.20786 0.017285 -35.786062
12300.0 0.016587 -27.328072 0.999862 55.808128 0.999862 55.808128 0.016587 -41.055672
12400.0 0.015812 -32.690142 0.999875 50.408304 0.999875 50.408304 0.015812 -46.493251
12500.0 0.014964 -37.85259 0.999888 45.008379 0.999888 45.008379 0.014964 -52.130652
12600.0 0.014048 -42.772112 0.999901 39.60835 0.999901 39.60835 0.014048 -58.011189
12700.0 0.013071 -47.388957 0.999915 34.208213 0.999915 34.208213 0.013071 -64.194616
12800.0 0.012043 -51.619284 0.999927 28.80797 0.999927 28.80797 0.012043 -70.764775
12900.0 0.010973 -55.343219 0.99994 23.407624 0.99994 23.407624 0.010973 -77.841533
13000.0 0.009877 -58.386068 0.999951 18.007179 0.999951 18.007179 0.009877 -85.599574
13100.0 0.008773 -60.489069 0.999962 12.606644 0.999962 12.606644 0.008773 -94.297644
13200.0 0.00769 -61.266761 0.99997 7.206028 0.99997 7.206028 0.00769 -104.321182
13300.0 0.006669 -60.158538 0.999978 1.805345 0.999978 1.805345 0.006669 -116.230773
13400.0 0.005773 -56.43059 0.999983 -3.595393 0.999983 -3.595393 0.005773 -130.760196
13500.0 0.005095 -49.426834 0.999987 -8.996169 0.999987 -8.996169 0.005095 -148.565504
13600.0 0.004748 -39.384992 0.999989 -14.396966 0.999989 -14.396966 0.004748 -169.40894
13700.0 0.004815 -28.325804 0.999988 -19.797768 0.999988 -19.797768 0.004815 168.730268
13800.0 0.005278 -19.076264 0.999986 -25.198556 0.999986 -25.198556 0.005278 148.679152
13900.0 0.006039 -13.092386 0.999982 -30.599314 0.999982 -30.599314 0.006039 131.893758
14000.0 0.006987 -10.216782 0.999976 -36.000025 0.999976 -36.000025 0.006987 118.216733
14100.0 0.008039 -9.713345 0.999968 -41.400672 0.999968 -41.400672 0.008039 106.912001
14200.0 0.009138 -10.891991 0.999958 -46.801241 0.999958 -46.801241 0.009138 97.289508
14300.0 0.010248 -13.249544 0.999947 -52.201721 0.999947 -52.201721 0.010248 88.846102
14400.0 0.011344 -16.444104 0.999936 -57.602101 0.999936 -57.602101 0.011344 81.239903
14500.0 0.012408 -20.24593 0.999923 -63.002372 0.999923 -63.002372 0.012408 74.241186
14600.0 0.013424 -24.498957 0.99991 -68.402529 0.99991 -68.402529 0.013424 67.693899
14700.0 0.014382 -29.095177 0.999897 -73.80257 0.999897 -73.80257 0.014382 61.490037
14800.0 0.015273 -33.958282 0.999883 -79.202494 0.999883 -79.202494 0.015273 55.553294
14900.0 0.016089 -39.033277 0.999871 -84.602304 0.999871 -84.602304 0.016089 49.828669
15000.0 0.016824 -44.27979 0.999858 -90.002006 0.999858 -90.002006 0.016824 44.275779
15100.0 0.017473 -49.667698 0.999847 -95.401606 0.999847 -95.401606 0.017473 38.864486
15200.0 0.018031 -55.174204 0.999837 -100.801115 0.999837 -100.801115 0.018031 33.571974
15300.0 0.018495 -60.781854 0.999829 -106.200545 0.999829 -106.200545 0.018495 28.380763
15400.0 0.018862 -66.477157 0.999822 -111.599909 0.999822 -111.599909 0.018862 23.277339
15500.0 0.019131 -72.249622 0.999817 -116.999222 0.999817 -116.999222 0.019131 18.251178
15600.0 0.019301 -78.09106 0.999814 -122.398499 0.999814 -122.398499 0.019301 13.294061
15700.0 0.019371 -83.99509 0.999812 -127.797758 0.999812 -127.797758 0.019371 8.399574
15800.0 0.019342 -89.956772 0.999813 -133.197013 0.999813 -133.197013 0.019342 3.562747
15900.0 0.019216 -95.97235 0.999815 -138.59628 0.999815 -138.59628 0.019216 -1.220211
16000.0 0.018993 -102.039056 0.99982 -143.995576 0.99982 -143.995576 0.018993 -5.952097
16100.0 0.018677 -108.154986 0.999826 -149.394915 0.999826 -149.394915 0.018677 -10.634844
16200.0 0.018271 -114.319017 0.999833 -154.794309 0.999833 -154.794309 0.018271 -15.269601
16300.0 0.017778 -120.530765 0.999842 -160.19377 0.999842 -160.19377 0.017778 -19.856775
16400.0 0.017203 -126.790597 0.999852 -165.593308 0.999852 -165.593308 0.017203 -24.396018
16500.0 0.016549 -133.09968 0.999863 -170.992929 0.999863 -170.992929 0.016549 -28.886179
16600.0 0.015823 -139.460094 0.999875 -176.392641 0.999875 -176.392641 0.015823 -33.325188
16700.0 0.015029 -145.875025 0.999887 178.207554 0.999887 178.207554 0.015029 -37.709868
16800.0 0.014173 -152.349068 0.9999 172.807654 0.9999 172.807654 0.014173 -42.035625
16900.0 0.013262 -158.888705 0.999912 167.40766 0.999912 167.40766 0.013262 -46.295976
17000.0 0.012301 -165.503054 0.999924 162.007574 0.999924 162.007574 0.012301 -50.481798
17100.0 0.011297 -172.205075 0.999936 156.607401 0.999936 156.607401 0.011297 -54.580122
17200.0 0.010257 -179.013563 0.999947 151.207148 0.999947 151.207148 0.010257 -58.572141
17300.0 0.009188 174.043404 0.999958 145.806821 0.999958 145.806821 0.009188 -62.429761
17400.0 0.008095 166.922197 0.999967 140.40643 0.999967 140.40643 0.008095 -66.109337
17500.0 0.006987 159.551447 0.999976 135.005984 0.999976 135.005984 0.006987 -69.539479
17600.0 0.005871 151.806293 0.999983 129.605494 0.999983 129.605494 0.005871 -72.595305
17700.0 0.004754 143.447683 0.999989 124.20497 0.999989 124.20497 0.004754 -75.037743
17800.0 0.003648 133.956586 0.999993 118.804423 0.999993 118.804423 0.003648 -76.347739
17900.0 0.002566 121.97577 0.999997 113.403865 0.999997 113.403865 0.002566 -75.16804
18000.0 0.001552 102.761689 0.999999 108.003306 0.999999 108.003306 0.001552 -66.755077
18100.0 0.000826 54.367837 1.0 102.602756 1.0 102.602756 0.000826 -29.162325
18200.0 0.001127 -15.88471 0.999999 97.202224 0.999999 97.202224 0.001127 30.289158
18300.0 0.002 -43.638573 0.999998 91.801719 0.999998 91.801719 0.002 47.242012
18400.0 0.002941 -58.002598 0.999996 86.401249 0.999996 86.401249 0.002941 50.805096
18500.0 0.003872 -68.528084 0.999993 81.000819 0.999993 81.000819 0.003872 50.529722
18600.0 0.004769 -77.519115 0.999989 75.600435 0.999989 75.600435 0.004769 48.719985
18700.0 0.005625 -85.759372 0.999984 70.200101 0.999984 70.200101 0.005625 46.159574
18800.0 0.006433 -93.583247 0.999979 64.799819 0.999979 64.799819 0.006433 43.182885
18900.0 0.007188 -101.156265 0.999974 59.399592 0.999974 59.399592 0.007188 39.955448
19000.0 0.007888 -108.569277 0.999969 53.999419 0.999969 53.999419 0.007888 36.568114
19100.0 0.00853 -115.876039 0.999964 48.599299 0.999964 48.599299 0.00853 33.074636
19200.0 0.00911 -123.110208 0.999959 43.19923 0.999959 43.19923 0.00911 29.508668
19300.0 0.009626 -130.293797 0.999954 37.79921 0.999954 37.79921 0.009626 25.892217
19400.0 0.010078 -137.441705 0.999949 32.399234 0.999949 32.399234 0.010078 22.240173
19500.0 0.010462 -144.564305 0.999945 26.999298 0.999945 26.999298 0.010462 18.562901
19600.0 0.010778 -151.669005 0.999942 21.599396 0.999942 21.599396 0.010778 14.867796
19700.0 0.011025 -158.761228 0.999939 16.199522 0.999939 16.199522 0.011025 11.160271
19800.0 0.011202 -165.845071 0.999937 10.799669 0.999937 10.799669 0.011202 7.444409
19900.0 0.011309 -172.923762 0.999936 5.399831 0.999936 5.399831 0.011309 3.723423
20000.0 0.011344 -180.0 0.999936 0.0 0.999936 0.0 0.011344 0.0
