!Keysight Technologies,E5061B,MY49811124,B.05.20
!Date: Tue May 18 17:53:23 2021
!Data & Calibration Information:
!Freq	S11:NONE(--)	S21:NONE(--)	S12:NONE(--)	S22:NONE(--)
# Hz S RI R 50
2000000.000	1.640450e-001	-6.478497e-003	2.547786e+000	-4.191414e-001	2.483068e+000	-2.883890e-001	1.757533e-001	-3.253293e-002
4000000.000	1.248503e-001	-6.578833e-002	2.476853e+000	-6.476608e-001	2.431761e+000	-5.595195e-001	1.276319e-001	-7.765567e-002
6000000.000	7.958388e-002	-7.289383e-002	2.384641e+000	-8.838890e-001	2.349635e+000	-8.103822e-001	8.365175e-002	-7.859171e-002
8000000.000	4.930890e-002	-5.981620e-002	2.275378e+000	-1.101942e+000	2.246335e+000	-1.041864e+000	5.477193e-002	-6.389598e-002
10000000.000	3.162128e-002	-4.015588e-002	2.141900e+000	-1.313561e+000	2.116314e+000	-1.259242e+000	3.768342e-002	-4.380430e-002
12000000.000	2.414275e-002	-1.862331e-002	1.984821e+000	-1.514786e+000	1.962384e+000	-1.460064e+000	3.028658e-002	-2.239202e-002
14000000.000	2.584316e-002	1.650397e-003	1.825223e+000	-1.685290e+000	1.804421e+000	-1.638547e+000	3.131000e-002	-2.354617e-003
16000000.000	3.425754e-002	1.791366e-002	1.646991e+000	-1.844627e+000	1.627511e+000	-1.800469e+000	3.869751e-002	1.397032e-002
18000000.000	4.721111e-002	2.853674e-002	1.449964e+000	-1.990937e+000	1.433327e+000	-1.944774e+000	5.022547e-002	2.509469e-002
20000000.000	6.200030e-002	3.357242e-002	1.258038e+000	-2.111047e+000	1.240049e+000	-2.070810e+000	6.361601e-002	3.093227e-002
22000000.000	7.658765e-002	3.270048e-002	1.048907e+000	-2.217747e+000	1.031045e+000	-2.178791e+000	7.676928e-002	3.152677e-002
24000000.000	8.919730e-002	2.711031e-002	8.309489e-001	-2.305762e+000	8.128275e-001	-2.267590e+000	8.821367e-002	2.795045e-002
26000000.000	9.869875e-002	1.805329e-002	6.054225e-001	-2.374064e+000	5.867803e-001	-2.336013e+000	9.707918e-002	2.137668e-002
28000000.000	1.046208e-001	6.914073e-003	3.735845e-001	-2.421434e+000	3.542088e-001	-2.382915e+000	1.028987e-001	1.299517e-002
30000000.000	1.067982e-001	-5.091398e-003	1.372246e-001	-2.446831e+000	1.172443e-001	-2.407355e+000	1.057108e-001	3.850570e-003
32000000.000	1.055028e-001	-1.689216e-002	-1.013450e-001	-2.449536e+000	-1.218545e-001	-2.408355e+000	1.056543e-001	-5.183457e-003
34000000.000	1.011061e-001	-2.770181e-002	-3.398312e-001	-2.428972e+000	-3.606961e-001	-2.385727e+000	1.031452e-001	-1.343649e-002
36000000.000	9.411866e-002	-3.689226e-002	-5.759918e-001	-2.385131e+000	-5.968059e-001	-2.339200e+000	9.861683e-002	-2.041975e-002
38000000.000	8.511253e-002	-4.399041e-002	-8.073534e-001	-2.318088e+000	-8.276759e-001	-2.269046e+000	9.254536e-002	-2.577023e-002
40000000.000	7.469745e-002	-4.863552e-002	-1.031156e+000	-2.228416e+000	-1.050664e+000	-2.175717e+000	8.539015e-002	-2.930101e-002
42000000.000	6.350506e-002	-5.074454e-002	-1.245629e+000	-2.116811e+000	-1.263400e+000	-2.060384e+000	7.768570e-002	-3.086500e-002
44000000.000	5.215899e-002	-5.022300e-002	-1.448087e+000	-1.984464e+000	-1.463709e+000	-1.923958e+000	6.990425e-002	-3.046040e-002
46000000.000	4.121705e-002	-4.721756e-002	-1.636683e+000	-1.832456e+000	-1.649310e+000	-1.767940e+000	6.246838e-002	-2.818871e-002
48000000.000	3.114822e-002	-4.192979e-002	-1.809460e+000	-1.662289e+000	-1.818444e+000	-1.593704e+000	5.579116e-002	-2.425612e-002
50000000.000	2.242202e-002	-3.463121e-002	-1.964439e+000	-1.475753e+000	-1.968962e+000	-1.403326e+000	5.018780e-002	-1.884081e-002
52000000.000	1.540673e-002	-2.569378e-002	-2.100183e+000	-1.274701e+000	-2.099532e+000	-1.198583e+000	4.595763e-002	-1.228343e-002
54000000.000	1.031971e-002	-1.549365e-002	-2.215296e+000	-1.061064e+000	-2.208753e+000	-9.817258e-001	4.328433e-002	-4.923099e-003
56000000.000	7.423651e-003	-4.495513e-003	-2.308576e+000	-8.371550e-001	-2.295475e+000	-7.550362e-001	4.229910e-002	2.892188e-003
58000000.000	6.782544e-003	6.857127e-003	-2.379172e+000	-6.052078e-001	-2.358808e+000	-5.208590e-001	4.303990e-002	1.077289e-002
60000000.000	8.425830e-003	1.805956e-002	-2.426380e+000	-3.674787e-001	-2.398185e+000	-2.816930e-001	4.547369e-002	1.833647e-002
62000000.000	1.220333e-002	2.863703e-002	-2.449852e+000	-1.263216e-001	-2.413271e+000	-3.992041e-002	4.950851e-002	2.522358e-002
64000000.000	1.795637e-002	3.816887e-002	-2.449290e+000	1.157450e-001	-2.403897e+000	2.019691e-001	5.490146e-002	3.110991e-002
66000000.000	2.539170e-002	4.630197e-002	-2.424766e+000	3.564576e-001	-2.370416e+000	4.414213e-001	6.143291e-002	3.573710e-002
68000000.000	3.413214e-002	5.274213e-002	-2.376608e+000	5.933449e-001	-2.313075e+000	6.761064e-001	6.880494e-002	3.888368e-002
70000000.000	4.382823e-002	5.724336e-002	-2.305391e+000	8.240506e-001	-2.232517e+000	9.036598e-001	7.665474e-002	4.039328e-002
72000000.000	5.400570e-002	5.973100e-002	-2.211783e+000	1.046456e+000	-2.129766e+000	1.121714e+000	8.462933e-002	4.025048e-002
74000000.000	6.428404e-002	6.015702e-002	-2.096689e+000	1.258350e+000	-2.005830e+000	1.328277e+000	9.239232e-002	3.844240e-002
76000000.000	7.422754e-002	5.856491e-002	-1.961545e+000	1.457662e+000	-1.861982e+000	1.521166e+000	9.957763e-002	3.507534e-002
78000000.000	8.340905e-002	5.512626e-002	-1.807591e+000	1.642476e+000	-1.699767e+000	1.698591e+000	1.059067e-001	3.028372e-002
80000000.000	9.153902e-002	4.999523e-002	-1.636366e+000	1.811185e+000	-1.520891e+000	1.858902e+000	1.110854e-001	2.428190e-002
82000000.000	9.824808e-002	4.349173e-002	-1.449731e+000	1.962049e+000	-1.327020e+000	2.000414e+000	1.148805e-001	1.735073e-002
84000000.000	1.033182e-001	3.591452e-002	-1.249433e+000	2.093720e+000	-1.120122e+000	2.121804e+000	1.171624e-001	9.772065e-003
86000000.000	1.065899e-001	2.769148e-002	-1.037273e+000	2.205157e+000	-9.023238e-001	2.222031e+000	1.177906e-001	1.878117e-003
88000000.000	1.079801e-001	1.916730e-002	-8.152150e-001	2.295296e+000	-6.758114e-001	2.299894e+000	1.167811e-001	-5.968570e-003
90000000.000	1.074644e-001	1.071956e-002	-5.855696e-001	2.363187e+000	-4.428498e-001	2.354863e+000	1.141492e-001	-1.349357e-002
92000000.000	1.051685e-001	2.806127e-003	-3.505239e-001	2.408224e+000	-2.055039e-001	2.386388e+000	1.100145e-001	-2.031585e-002
94000000.000	1.012231e-001	-4.258480e-003	-1.123634e-001	2.430080e+000	3.357843e-002	2.394092e+000	1.045538e-001	-2.623582e-002
96000000.000	9.587008e-002	-1.016410e-002	1.268661e-001	2.428448e+000	2.722965e-001	2.377913e+000	9.795645e-002	-3.100282e-002
98000000.000	8.937363e-002	-1.465562e-002	3.647359e-001	2.403346e+000	5.081726e-001	2.338117e+000	9.049347e-002	-3.436574e-002
100000000.000	8.212602e-002	-1.757852e-002	5.988448e-001	2.355072e+000	7.388483e-001	2.274903e+000	8.239187e-002	-3.630813e-002
102000000.000	7.435615e-002	-1.879134e-002	8.270220e-001	2.284046e+000	9.619751e-001	2.188958e+000	7.395329e-002	-3.673896e-002
104000000.000	6.642090e-002	-1.830613e-002	1.047196e+000	2.190905e+000	1.175410e+000	2.081277e+000	6.535296e-002	-3.564624e-002
106000000.000	5.870558e-002	-1.606948e-002	1.257199e+000	2.076548e+000	1.377084e+000	1.952662e+000	5.685969e-002	-3.294670e-002
108000000.000	5.144511e-002	-1.223241e-002	1.454830e+000	1.942104e+000	1.564856e+000	1.804520e+000	4.869769e-002	-2.872316e-002
110000000.000	4.493985e-002	-6.850145e-003	1.638145e+000	1.788810e+000	1.736712e+000	1.638400e+000	4.106678e-002	-2.295049e-002
112000000.000	3.941392e-002	-7.986412e-005	1.805380e+000	1.618288e+000	1.891020e+000	1.455997e+000	3.425563e-002	-1.565953e-002
114000000.000	3.510108e-002	7.931149e-003	1.955087e+000	1.432081e+000	2.026264e+000	1.259099e+000	2.850434e-002	-6.907565e-003
116000000.000	3.226555e-002	1.702308e-002	2.085575e+000	1.231992e+000	2.141023e+000	1.049671e+000	2.416945e-002	3.163915e-003
118000000.000	3.108652e-002	2.694549e-002	2.195584e+000	1.020143e+000	2.234224e+000	8.297960e-001	2.151004e-002	1.438456e-002
120000000.000	3.183373e-002	3.746597e-002	2.284081e+000	7.985552e-001	2.304789e+000	6.017874e-001	2.090201e-002	2.643227e-002
122000000.000	3.459734e-002	4.816822e-002	2.350118e+000	5.695848e-001	2.351987e+000	3.680516e-001	2.254095e-002	3.894970e-002
124000000.000	3.953438e-002	5.870761e-002	2.393091e+000	3.354477e-001	2.375511e+000	1.309540e-001	2.656932e-002	5.142368e-002
126000000.000	4.668910e-002	6.859760e-002	2.412890e+000	9.843549e-002	2.375099e+000	-1.071187e-001	3.300448e-002	6.335297e-002
128000000.000	5.592444e-002	7.737346e-002	2.409033e+000	-1.391378e-001	2.350834e+000	-3.437485e-001	4.175771e-002	7.424694e-002
130000000.000	6.703510e-002	8.458391e-002	2.381903e+000	-3.748934e-001	2.302973e+000	-5.763884e-001	5.261987e-002	8.357056e-002
132000000.000	7.973812e-002	8.980241e-002	2.331668e+000	-6.064976e-001	2.232201e+000	-8.029138e-001	6.521044e-002	9.093796e-002
134000000.000	9.358818e-002	9.267770e-002	2.259038e+000	-8.317842e-001	2.139199e+000	-1.020938e+000	7.914614e-002	9.602083e-002
136000000.000	1.080962e-001	9.297957e-002	2.164793e+000	-1.048606e+000	2.025010e+000	-1.228307e+000	9.394053e-002	9.856954e-002
138000000.000	1.227141e-001	9.057318e-002	2.049919e+000	-1.254811e+000	1.890879e+000	-1.422972e+000	1.090480e-001	9.847402e-002
140000000.000	1.368893e-001	8.549855e-002	1.915621e+000	-1.448419e+000	1.738300e+000	-1.603081e+000	1.239449e-001	9.569988e-002
142000000.000	1.500664e-001	7.782878e-002	1.763259e+000	-1.627683e+000	1.568847e+000	-1.766925e+000	1.381278e-001	9.036356e-002
144000000.000	1.617683e-001	6.784188e-002	1.594306e+000	-1.791146e+000	1.384114e+000	-1.912929e+000	1.511367e-001	8.264479e-002
146000000.000	1.715256e-001	5.587426e-002	1.410549e+000	-1.937217e+000	1.186157e+000	-2.039829e+000	1.625222e-001	7.281627e-002
148000000.000	1.789996e-001	4.229382e-002	1.213546e+000	-2.064628e+000	9.767874e-001	-2.146297e+000	1.719346e-001	6.126257e-002
150000000.000	1.838877e-001	2.766323e-002	1.005287e+000	-2.172177e+000	7.580788e-001	-2.231415e+000	1.790829e-001	4.835723e-002
152000000.000	1.860509e-001	1.241997e-002	7.877149e-001	-2.258972e+000	5.321350e-001	-2.294634e+000	1.837908e-001	3.460589e-002
154000000.000	1.854355e-001	-2.832144e-003	5.628064e-001	-2.324185e+000	3.012626e-001	-2.335023e+000	1.859348e-001	2.045176e-002
156000000.000	1.820679e-001	-1.759828e-002	3.324244e-001	-2.367311e+000	6.749675e-002	-2.352484e+000	1.855112e-001	6.426945e-003
158000000.000	1.761225e-001	-3.131471e-002	9.913435e-002	-2.387751e+000	-1.666995e-001	-2.346681e+000	1.826103e-001	-7.000652e-003
160000000.000	1.678713e-001	-4.352175e-002	-1.350767e-001	-2.385474e+000	-3.992047e-001	-2.317753e+000	1.774387e-001	-1.937229e-002
162000000.000	1.576191e-001	-5.382924e-002	-3.678618e-001	-2.360201e+000	-6.275178e-001	-2.265936e+000	1.702280e-001	-3.024478e-002
164000000.000	1.457823e-001	-6.186980e-002	-5.970274e-001	-2.312400e+000	-8.495441e-001	-2.191762e+000	1.613029e-001	-3.933129e-002
166000000.000	1.328460e-001	-6.738945e-002	-8.205419e-001	-2.242413e+000	-1.063370e+000	-2.095786e+000	1.511098e-001	-4.634978e-002
168000000.000	1.193515e-001	-7.023921e-002	-1.035997e+000	-2.150974e+000	-1.266602e+000	-1.979024e+000	1.400619e-001	-5.107440e-002
170000000.000	1.057735e-001	-7.034225e-002	-1.241688e+000	-2.038743e+000	-1.457283e+000	-1.842535e+000	1.286206e-001	-5.345132e-002
172000000.000	9.268000e-002	-6.781887e-002	-1.435273e+000	-1.906886e+000	-1.633475e+000	-1.687612e+000	1.172169e-001	-5.345519e-002
174000000.000	8.058948e-002	-6.276778e-002	-1.615058e+000	-1.756614e+000	-1.793246e+000	-1.515837e+000	1.063707e-001	-5.116970e-002
176000000.000	6.992428e-002	-5.541466e-002	-1.779288e+000	-1.589156e+000	-1.935107e+000	-1.328922e+000	9.647784e-002	-4.674653e-002
178000000.000	6.112853e-002	-4.618614e-002	-1.926173e+000	-1.406390e+000	-2.057473e+000	-1.128753e+000	8.793790e-002	-4.045854e-002
180000000.000	5.451545e-002	-3.545057e-002	-2.054348e+000	-1.209913e+000	-2.159068e+000	-9.175869e-001	8.109010e-002	-3.263795e-002
182000000.000	5.034308e-002	-2.364071e-002	-2.162498e+000	-1.001724e+000	-2.239065e+000	-6.972883e-001	7.615828e-002	-2.364905e-002
184000000.000	4.872980e-002	-1.133076e-002	-2.249641e+000	-7.837839e-001	-2.296536e+000	-4.699714e-001	7.334825e-002	-1.389330e-002
186000000.000	4.974557e-002	5.275543e-004	-2.315179e+000	-5.535521e-001	-2.330378e+000	-2.380557e-001	7.273288e-002	-3.283395e-003
188000000.000	5.343705e-002	1.231356e-002	-2.357118e+000	-3.230140e-001	-2.341281e+000	-3.807555e-003	7.424123e-002	6.669651e-003
190000000.000	5.951884e-002	2.309882e-002	-2.375955e+000	-8.968627e-002	-2.328569e+000	2.301639e-001	7.784653e-002	1.609819e-002
192000000.000	6.773239e-002	3.239074e-002	-2.371566e+000	1.440438e-001	-2.292509e+000	4.612323e-001	8.340361e-002	2.459003e-002
194000000.000	7.776413e-002	3.981286e-002	-2.344198e+000	3.759150e-001	-2.233437e+000	6.875607e-001	9.062417e-002	3.177986e-002
196000000.000	8.918837e-002	4.508772e-002	-2.294198e+000	6.035325e-001	-2.152045e+000	9.067348e-001	9.924236e-002	3.737791e-002
198000000.000	1.015341e-001	4.795791e-002	-2.222177e+000	8.247633e-001	-2.049094e+000	1.116437e+000	1.088849e-001	4.113033e-002
200000000.000	1.143339e-001	4.831410e-002	-2.128921e+000	1.037367e+000	-1.925753e+000	1.314656e+000	1.191386e-001	4.291582e-002
202000000.000	1.270653e-001	4.615235e-002	-2.015526e+000	1.239522e+000	-1.783458e+000	1.499488e+000	1.296392e-001	4.259839e-002
204000000.000	1.392245e-001	4.153387e-002	-1.883053e+000	1.429438e+000	-1.623503e+000	1.668974e+000	1.399375e-001	4.020400e-002
206000000.000	1.503515e-001	3.466848e-002	-1.732792e+000	1.605277e+000	-1.447830e+000	1.821462e+000	1.496759e-001	3.577320e-002
208000000.000	1.600498e-001	2.588090e-002	-1.566169e+000	1.765834e+000	-1.258396e+000	1.955333e+000	1.584818e-001	2.941839e-002
210000000.000	1.679313e-001	1.544922e-002	-1.384643e+000	1.909587e+000	-1.057382e+000	2.069448e+000	1.660099e-001	2.139579e-002
212000000.000	1.737082e-001	3.741779e-003	-1.190087e+000	2.035127e+000	-8.466379e-001	2.162843e+000	1.719547e-001	1.200253e-002
214000000.000	1.771699e-001	-8.875224e-003	-9.844102e-001	2.141163e+000	-6.280912e-001	2.234769e+000	1.760096e-001	1.637885e-003
216000000.000	1.782317e-001	-2.194736e-002	-7.697266e-001	2.226592e+000	-4.037703e-001	2.284781e+000	1.781149e-001	-9.200625e-003
218000000.000	1.768426e-001	-3.505901e-002	-5.478480e-001	2.290625e+000	-1.755567e-001	2.312461e+000	1.781558e-001	-2.014604e-002
220000000.000	1.730396e-001	-4.769804e-002	-3.210174e-001	2.332606e+000	5.409416e-002	2.317521e+000	1.761928e-001	-3.080896e-002
222000000.000	1.669804e-001	-5.945361e-002	-9.124761e-002	2.352299e+000	2.831226e-001	2.299996e+000	1.722911e-001	-4.081793e-002
224000000.000	1.588640e-001	-6.985678e-002	1.396754e-001	2.349451e+000	5.094806e-001	2.259971e+000	1.665839e-001	-4.984785e-002
226000000.000	1.489881e-001	-7.858118e-002	3.694258e-001	2.324118e+000	7.309148e-001	2.197636e+000	1.593348e-001	-5.756950e-002
228000000.000	1.376724e-001	-8.528657e-002	5.957162e-001	2.276315e+000	9.452923e-001	2.113747e+000	1.508081e-001	-6.368186e-002
230000000.000	1.253596e-001	-8.976500e-002	8.161520e-001	2.206587e+000	1.150417e+000	2.008936e+000	1.413434e-001	-6.801147e-002
232000000.000	1.124923e-001	-9.184279e-002	1.028649e+000	2.115535e+000	1.344135e+000	1.884174e+000	1.313054e-001	-7.034613e-002
234000000.000	9.949995e-002	-9.145095e-002	1.231182e+000	2.004030e+000	1.524506e+000	1.740798e+000	1.210780e-001	-7.066508e-002
236000000.000	8.689618e-002	-8.861131e-002	1.421817e+000	1.873109e+000	1.689690e+000	1.580129e+000	1.110584e-001	-6.892668e-002
238000000.000	7.508663e-002	-8.344704e-002	1.598617e+000	1.724054e+000	1.838136e+000	1.403771e+000	1.016501e-001	-6.520791e-002
240000000.000	6.447457e-002	-7.615399e-002	1.759990e+000	1.558263e+000	1.968206e+000	1.213415e+000	9.320043e-002	-5.968861e-002
242000000.000	5.548646e-002	-6.697910e-002	1.904146e+000	1.377300e+000	2.078727e+000	1.010934e+000	8.605748e-002	-5.257957e-002
244000000.000	4.842229e-002	-5.628641e-002	2.029700e+000	1.183058e+000	2.168328e+000	7.984021e-001	8.048954e-002	-4.413443e-002
246000000.000	4.350938e-002	-4.443490e-002	2.135349e+000	9.774162e-001	2.236276e+000	5.778313e-001	7.674274e-002	-3.471043e-002
248000000.000	4.095643e-002	-3.185452e-002	2.219994e+000	7.626730e-001	2.281801e+000	3.514598e-001	7.494318e-002	-2.462584e-002
250000000.000	4.080847e-002	-1.900764e-002	2.283102e+000	5.406864e-001	2.304316e+000	1.216989e-001	7.523127e-002	-1.428487e-002
252000000.000	4.311468e-002	-6.337010e-003	2.323829e+000	3.138986e-001	2.303701e+000	-1.088780e-001	7.759591e-002	-4.102872e-003
254000000.000	4.774819e-002	5.739016e-003	2.342022e+000	8.445517e-002	2.280017e+000	-3.381059e-001	8.195441e-002	5.586759e-003
256000000.000	5.454693e-002	1.675831e-002	2.337508e+000	-1.452400e-001	2.233423e+000	-5.635097e-001	8.819948e-002	1.437048e-002
258000000.000	6.331261e-002	2.641587e-002	2.310456e+000	-3.730632e-001	2.164526e+000	-7.828831e-001	9.611957e-002	2.189600e-002
260000000.000	7.369975e-002	3.430678e-002	2.261198e+000	-5.968760e-001	2.074189e+000	-9.941032e-001	1.054488e-001	2.792926e-002
262000000.000	8.538164e-002	4.024591e-002	2.190389e+000	-8.144881e-001	1.963466e+000	-1.194892e+000	1.159212e-001	3.218614e-002
264000000.000	9.793342e-002	4.399367e-002	2.098626e+000	-1.023893e+000	1.833436e+000	-1.383218e+000	1.271052e-001	3.452586e-002
266000000.000	1.109767e-001	4.548314e-002	1.986926e+000	-1.223007e+000	1.685533e+000	-1.557590e+000	1.387374e-001	3.482152e-002
268000000.000	1.240874e-001	4.466967e-002	1.856510e+000	-1.410009e+000	1.521228e+000	-1.716060e+000	1.503433e-001	3.303603e-002
270000000.000	1.368387e-001	4.159509e-002	1.708710e+000	-1.583149e+000	1.342341e+000	-1.857227e+000	1.615768e-001	2.924082e-002
272000000.000	1.488570e-001	3.634925e-002	1.544902e+000	-1.740917e+000	1.150574e+000	-1.979883e+000	1.720766e-001	2.351999e-002
274000000.000	1.597379e-001	2.915461e-002	1.366796e+000	-1.881882e+000	9.478296e-001	-2.082964e+000	1.814997e-001	1.603190e-002
276000000.000	1.691898e-001	2.022383e-002	1.175855e+000	-2.004840e+000	7.360728e-001	-2.165378e+000	1.895631e-001	7.047396e-003
278000000.000	1.769041e-001	9.905440e-003	9.739459e-001	-2.108668e+000	5.174228e-001	-2.226418e+000	1.959842e-001	-3.211310e-003
280000000.000	1.827322e-001	-1.483230e-003	7.631694e-001	-2.192356e+000	2.939933e-001	-2.265636e+000	2.006073e-001	-1.437797e-002
282000000.000	1.864539e-001	-1.353602e-002	5.454670e-001	-2.255079e+000	6.803302e-002	-2.282564e+000	2.032487e-001	-2.613909e-002
284000000.000	1.880808e-001	-2.585958e-002	3.228405e-001	-2.296435e+000	-1.584395e-001	-2.277248e+000	2.038916e-001	-3.811613e-002
286000000.000	1.875883e-001	-3.807602e-002	9.731269e-002	-2.316068e+000	-3.832961e-001	-2.249515e+000	2.025021e-001	-4.997540e-002
288000000.000	1.850541e-001	-4.975538e-002	-1.289170e-001	-2.313739e+000	-6.043108e-001	-2.199766e+000	1.991562e-001	-6.132230e-002
290000000.000	1.806116e-001	-6.059708e-002	-3.541472e-001	-2.289520e+000	-8.193416e-001	-2.128426e+000	1.939430e-001	-7.187228e-002
292000000.000	1.744794e-001	-7.025781e-002	-5.760901e-001	-2.243545e+000	-1.026366e+000	-2.036090e+000	1.870810e-001	-8.123478e-002
294000000.000	1.669351e-001	-7.849545e-002	-7.928164e-001	-2.176056e+000	-1.223290e+000	-1.923743e+000	1.787949e-001	-8.915418e-002
296000000.000	1.582258e-001	-8.505177e-002	-1.002421e+000	-2.087624e+000	-1.408298e+000	-1.792301e+000	1.693899e-001	-9.538842e-002
298000000.000	1.486823e-001	-8.975884e-002	-1.202543e+000	-1.978817e+000	-1.579381e+000	-1.643034e+000	1.591878e-001	-9.975332e-002
300000000.000	1.387001e-001	-9.252214e-002	-1.391141e+000	-1.850890e+000	-1.734823e+000	-1.477464e+000	1.486201e-001	-1.021055e-001
302000000.000	1.286332e-001	-9.330553e-002	-1.566098e+000	-1.704970e+000	-1.872974e+000	-1.297204e+000	1.380068e-001	-1.023801e-001
304000000.000	1.188629e-001	-9.213629e-002	-1.725736e+000	-1.542568e+000	-1.992444e+000	-1.104083e+000	1.277719e-001	-1.006467e-001
