! File created by SignalIntegrity v1.1.13: Signal and Power Integrity Tools
! https://github.com/TeledyneLeCroy/SignalIntegrity
# MHz S MA R 50.0
0.0 0.015838 0.0 0.974885 0.0 0.974885 0.0 0.015838 0.0
20.0 0.030364 6.652109 0.965586 -32.315329 0.965586 -32.315329 0.030364 6.652109
40.0 0.035973 -13.382709 0.961861 -64.308983 0.961861 -64.308983 0.035973 -13.382709
60.0 0.033885 -38.118857 0.959139 -96.25669 0.959139 -96.25669 0.033885 -38.118857
80.0 0.024439 -64.379092 0.956856 -128.187676 0.956856 -128.187676 0.024439 -64.379092
100.0 0.010018 -88.123023 0.954705 -160.106908 0.954705 -160.106908 0.010018 -88.123023
120.0 0.005958 42.016508 0.95259 167.990803 0.95259 167.990803 0.005958 42.016508
140.0 0.01872 21.702272 0.950601 136.108842 0.950601 136.108842 0.01872 21.702272
160.0 0.025423 -6.5114 0.948867 104.241651 0.948867 104.241651 0.025423 -6.5114
180.0 0.024436 -35.455494 0.947399 72.377743 0.947399 72.377743 0.024436 -35.455494
200.0 0.016369 -63.587742 0.946054 40.509396 0.946054 40.509396 0.016369 -63.587742
220.0 0.003967 -77.77147 0.944667 8.639019 0.944667 8.639019 0.003967 -77.77147
240.0 0.009703 42.860423 0.943199 -23.224492 0.943199 -23.224492 0.009703 42.860423
260.0 0.019756 17.033247 0.941766 -55.075732 0.941766 -55.075732 0.019756 17.033247
280.0 0.02377 -12.012255 0.9405 -86.918746 0.9405 -86.918746 0.02377 -12.012255
300.0 0.020668 -41.171461 0.939408 -118.762917 0.939408 -118.762917 0.020668 -41.171461
320.0 0.011529 -68.056676 0.93836 -150.613291 0.93836 -150.613291 0.011529 -68.056676
340.0 0.001798 17.735133 0.937228 177.534337 0.937228 177.534337 0.001798 17.735133
360.0 0.013009 37.142244 0.936016 145.688482 0.936016 145.688482 0.013009 37.142244
380.0 0.020869 9.496953 0.934849 113.852567 0.934849 113.852567 0.020869 9.496953
400.0 0.022439 -19.745271 0.933834 82.021217 0.933834 82.021217 0.022439 -19.745271
420.0 0.017325 -48.506309 0.932941 50.186069 0.932941 50.186069 0.017325 -48.506309
440.0 0.007203 -71.387621 0.93204 18.344695 0.93204 18.344695 0.007203 -71.387621
460.0 0.005421 48.538481 0.931037 -13.497015 0.931037 -13.497015 0.005421 48.538481
480.0 0.015795 29.418691 0.929976 -45.331481 0.929976 -45.331481 0.015795 29.418691
500.0 0.021498 0.966684 0.928985 -77.157772 0.928985 -77.157772 0.021498 0.966684
520.0 0.020759 -28.208608 0.928136 -108.982576 0.928136 -108.982576 0.020759 -28.208608
540.0 0.013865 -56.014891 0.927365 -140.812891 0.927365 -140.812891 0.013865 -56.014891
560.0 0.003233 -62.366096 0.926544 -172.648477 0.926544 -172.648477 0.003233 -62.366096
580.0 0.009111 45.834598 0.92562 155.51771 0.92562 155.51771 0.009111 45.834598
600.0 0.017992 20.822106 0.924669 123.691685 0.924669 123.691685 0.017992 20.822106
620.0 0.021506 -7.995662 0.923814 91.87183 0.923814 91.87183 0.021506 -7.995662
640.0 0.018599 -36.873203 0.923084 60.050721 0.923084 60.050721 0.018599 -36.873203
660.0 0.01022 -62.633236 0.922388 28.22327 0.922388 28.22327 0.01022 -62.633236
680.0 0.00219 24.89483 0.921612 -3.60778 0.921612 -3.60778 0.00219 24.89483
700.0 0.012396 38.867385 0.920745 -35.434985 0.920745 -35.434985 0.012396 38.867385
720.0 0.019542 11.785989 0.919889 -67.254448 0.919889 -67.254448 0.019542 11.785989
740.0 0.020855 -17.134682 0.919144 -99.070081 0.919144 -99.070081 0.020855 -17.134682
760.0 0.015963 -45.399035 0.9185 -130.889256 0.9185 -130.889256 0.015963 -45.399035
780.0 0.006472 -65.932702 0.917847 -162.714715 0.917847 -162.714715 0.006472 -65.932702
800.0 0.005544 48.590281 0.917098 165.458371 0.917098 165.458371 0.005544 48.590281
820.0 0.015176 30.536634 0.916281 133.636997 0.916281 133.636997 0.015176 30.536634
840.0 0.020408 2.523219 0.915511 101.822595 0.915511 101.822595 0.020408 2.523219
860.0 0.019555 -26.286285 0.914858 70.009491 0.914858 70.009491 0.019555 -26.286285
880.0 0.012912 -53.370752 0.914273 38.191189 0.914273 38.191189 0.012912 -53.370752
900.0 0.002951 -52.665383 0.913641 6.367503 0.913641 6.367503 0.002951 -52.665383
920.0 0.00904 45.895309 0.91291 -25.455311 0.91291 -25.455311 0.00904 45.895309
940.0 0.017373 21.603442 0.912145 -57.271513 0.912145 -57.271513 0.017373 21.603442
960.0 0.020572 -6.8374 0.911456 -89.082209 0.911456 -89.082209 0.020572 -6.8374
980.0 0.017647 -35.295975 0.910876 -120.894092 0.910876 -120.894092 0.017647 -35.295975
1000.0 0.009549 -59.924937 0.910327 -152.712042 0.910327 -152.712042 0.009549 -59.924937
1020.0 0.002513 28.09058 0.909703 175.466223 0.909703 175.466223 0.002513 28.09058
1040.0 0.012202 38.944865 0.90899 143.647565 0.90899 143.647565 0.012202 38.944865
1060.0 0.018931 12.369894 0.908279 111.835816 0.908279 111.835816 0.018931 12.369894
1080.0 0.020039 -16.197622 0.907665 80.027563 0.907665 80.027563 0.020039 -16.197622
1100.0 0.0152 -43.951808 0.907141 48.215955 0.907141 48.215955 0.0152 -43.951808
1120.0 0.006031 -62.286649 0.906609 16.398267 0.906609 16.398267 0.006031 -62.286649
1140.0 0.005714 47.960998 0.905985 -15.421131 0.905985 -15.421131 0.005714 47.960998
1160.0 0.014897 30.608144 0.905295 -47.235649 0.905295 -47.235649 0.014897 30.608144
1180.0 0.019811 2.991706 0.904642 -79.043779 0.904642 -79.043779 0.019811 2.991706
1200.0 0.018838 -25.459208 0.904095 -110.850731 0.904095 -110.850731 0.018838 -25.459208
1220.0 0.012305 -51.859366 0.903609 -142.662648 0.903609 -142.662648 0.012305 -51.859366
1240.0 0.002803 -44.725477 0.90308 -174.479831 0.90308 -174.479831 0.002803 -44.725477
1260.0 0.009072 45.39701 0.902455 153.703553 0.902455 153.703553 0.009072 45.39701
1280.0 0.017035 21.668166 0.901795 121.892984 0.901795 121.892984 0.017035 21.668166
1300.0 0.019995 -6.429752 0.901203 90.087532 0.901203 90.087532 0.019995 -6.429752
1320.0 0.017019 -34.493298 0.900712 58.280916 0.900712 58.280916 0.017019 -34.493298
1340.0 0.009081 -58.060582 0.900247 26.468465 0.900247 26.468465 0.009081 -58.060582
1360.0 0.002793 29.94344 0.899711 -5.34774 0.899711 -5.34774 0.002793 29.94344
1380.0 0.012129 38.58575 0.89909 -37.161204 0.89909 -37.161204 0.012129 38.58575
1400.0 0.018552 12.435398 0.898469 -68.968228 0.898469 -68.968228 0.018552 12.435398
1420.0 0.019488 -15.809156 0.897936 -100.77199 0.897936 -100.77199 0.019488 -15.809156
1440.0 0.014657 -43.086917 0.897487 -132.578994 0.897487 -132.578994 0.014657 -43.086917
1460.0 0.005708 -59.324196 0.897028 -164.391877 0.897028 -164.391877 0.005708 -59.324196
1480.0 0.005889 47.201996 0.896483 163.793483 0.896483 163.793483 0.005889 47.201996
1500.0 0.014741 30.338862 0.895873 131.983374 0.895873 131.983374 0.014741 30.338862
1520.0 0.019405 3.068717 0.895296 100.179277 0.895296 100.179277 0.019405 3.068717
1540.0 0.018321 -25.052143 0.894818 68.376252 0.894818 68.376252 0.018321 -25.052143
1560.0 0.011847 -50.809927 0.894397 36.568426 0.894397 36.568426 0.011847 -50.809927
1580.0 0.002726 -37.786491 0.893933 4.755485 0.893933 4.755485 0.002726 -37.786491
1600.0 0.009138 44.737064 0.893379 -27.057005 0.893379 -27.057005 0.009138 44.737064
1620.0 0.016815 21.462607 0.892789 -58.86379 0.892789 -58.86379 0.016815 21.462607
1640.0 0.019576 -6.328467 0.892262 -90.66574 0.892262 -90.66574 0.019576 -6.328467
1660.0 0.016542 -34.025379 0.89183 -122.468859 0.89183 -122.468859 0.016542 -34.025379
1680.0 0.008714 -56.581499 0.891422 -154.277631 0.891422 -154.277631 0.008714 -56.581499
1700.0 0.003043 31.14974 0.890946 173.909936 0.890946 173.909936 0.003043 31.14974
1720.0 0.012106 38.069651 0.890388 142.100071 0.890388 142.100071 0.012106 38.069651
1740.0 0.018282 12.282234 0.889829 110.296326 0.889829 110.296326 0.018282 12.282234
1760.0 0.019069 -15.668036 0.889352 78.495657 0.889352 78.495657 0.019069 -15.668036
1780.0 0.014228 -42.498921 0.888955 46.691815 0.888955 46.691815 0.014228 -42.498921
1800.0 0.005453 -56.700154 0.888548 14.882271 0.888548 14.882271 0.005453 -56.700154
1820.0 0.006058 46.435301 0.888057 -16.929004 0.888057 -16.929004 0.006058 46.435301
1840.0 0.014644 29.929093 0.887504 -48.73596 0.887504 -48.73596 0.014644 29.929093
1860.0 0.019099 2.96516 0.886982 -80.537182 0.886982 -80.537182 0.019099 2.96516
1880.0 0.01791 -24.850561 0.886553 -112.337433 0.886553 -112.337433 0.01791 -24.850561
1900.0 0.011474 -49.997801 0.886178 -144.142364 0.886178 -144.142364 0.011474 -49.997801
1920.0 0.002694 -31.598227 0.885761 -175.952257 0.885761 -175.952257 0.002694 -31.598227
1940.0 0.009219 44.030957 0.885257 152.238261 0.885257 152.238261 0.009219 44.030957
1960.0 0.016656 21.134019 0.884719 120.43425 0.884719 120.43425 0.016656 21.134019
1980.0 0.019246 -6.379342 0.88424 88.63485 0.88424 88.63485 0.019246 -6.379342
2000.0 0.016152 -33.732893 0.883851 56.834257 0.883851 56.834257 0.016152 -33.732893
2020.0 0.008408 -55.312197 0.883485 25.028163 0.883485 25.028163 0.008408 -55.312197
2040.0 0.003272 31.986077 0.883053 -6.781484 0.883053 -6.781484 0.003272 31.986077
2060.0 0.012109 37.492284 0.882541 -38.588658 0.882541 -38.588658 0.012109 37.492284
2080.0 0.018073 12.021483 0.882028 -70.389949 0.882028 -70.389949 0.018073 12.021483
2100.0 0.018726 -15.657741 0.881594 -102.188328 0.881594 -102.188328 0.018726 -15.657741
2120.0 0.013868 -42.064756 0.881236 -133.989837 0.881236 -133.989837 0.013868 -42.064756
2140.0 0.005241 -54.267905 0.880867 -165.79689 0.880867 -165.79689 0.005241 -54.267905
2160.0 0.006221 45.694714 0.880416 162.394384 0.880416 162.394384 0.006221 45.694714
2180.0 0.01458 29.455796 0.879906 130.589833 0.879906 130.589833 0.01458 29.455796
2200.0 0.018852 2.766873 0.879426 98.790795 0.879426 98.790795 0.018852 2.766873
2220.0 0.017567 -24.763754 0.879035 66.99263 0.879035 66.99263 0.017567 -24.763754
2240.0 0.011154 -49.323937 0.878695 35.189881 0.878695 35.189881 0.011154 -49.323937
2260.0 0.002695 -26.049107 0.878313 3.382311 0.878313 3.382311 0.002695 -26.049107
2280.0 0.009305 43.320572 0.877847 -28.424844 0.877847 -28.424844 0.009305 43.320572
2300.0 0.016535 20.744276 0.877349 -60.226704 0.877349 -60.226704 0.016535 20.744276
2320.0 0.018971 -6.514534 0.876908 -92.024143 0.876908 -92.024143 0.018971 -6.514534
2340.0 0.015818 -33.543171 0.876553 -123.822807 0.876553 -123.822807 0.015818 -33.543171
2360.0 0.008144 -54.168874 0.876219 -155.626846 0.876219 -155.626846 0.008144 -54.168874
2380.0 0.003483 32.587364 0.875819 172.565677 0.875819 172.565677 0.003483 32.587364
2400.0 0.012127 36.893346 0.875344 140.760619 0.875344 140.760619 0.012127 36.893346
2420.0 0.017904 11.703355 0.874867 108.961255 0.874867 108.961255 0.017904 11.703355
2440.0 0.018434 -15.723485 0.874468 77.164656 0.874468 77.164656 0.018434 -15.723485
2460.0 0.013554 -41.724438 0.874139 45.364955 0.874139 45.364955 0.013554 -41.724438
2480.0 0.005062 -51.953606 0.8738 13.55985 0.8738 13.55985 0.005062 -51.953606
2500.0 0.006377 44.989075 0.873381 -18.246856 0.873381 -18.246856 0.006377 44.989075
2520.0 0.014537 28.953811 0.872905 -50.049488 0.872905 -50.049488 0.014537 28.953811
2540.0 0.018643 2.515127 0.872459 -81.846794 0.872459 -81.846794 0.018643 2.515127
2560.0 0.017268 -24.746521 0.872098 -113.64332 0.872098 -113.64332 0.017268 -24.746521
2580.0 0.010873 -48.737062 0.871785 -145.444356 0.871785 -145.444356 0.010873 -48.737062
2600.0 0.00272 -21.071117 0.871431 -177.250076 0.871431 -177.250076 0.00272 -21.071117
2620.0 0.009394 42.622636 0.870996 150.94464 0.870996 150.94464 0.009394 42.622636
2640.0 0.016438 20.323318 0.870529 119.144516 0.870529 119.144516 0.016438 20.323318
2660.0 0.018733 -6.699632 0.870119 87.348644 0.870119 87.348644 0.018733 -6.699632
2680.0 0.015524 -33.418074 0.869791 55.55151 0.869791 55.55151 0.015524 -33.418074
2700.0 0.007909 -53.105681 0.869482 23.749111 0.869482 23.749111 0.007909 -53.105681
2720.0 0.003681 33.02838 0.869109 -8.056613 0.869109 -8.056613 0.003681 33.02838
2740.0 0.012154 36.291162 0.868663 -39.859946 0.868663 -39.859946 0.012154 36.291162
2760.0 0.017761 11.353516 0.868217 -71.657743 0.868217 -71.657743 0.017761 11.353516
2780.0 0.018177 -15.83613 0.867844 -103.452909 0.867844 -103.452909 0.018177 -15.83613
2800.0 0.013274 -41.444949 0.86754 -135.251161 0.86754 -135.251161 0.013274 -41.444949
2820.0 0.004907 -49.716212 0.867224 -167.054689 0.867224 -167.054689 0.004907 -49.716212
2840.0 0.006526 44.319066 0.866831 161.140259 0.866831 161.140259 0.006526 44.319066
2860.0 0.014508 28.440576 0.866384 129.339207 0.866384 129.339207 0.014508 28.440576
2880.0 0.018463 2.232027 0.865965 97.543319 0.865965 97.543319 0.018463 2.232027
2900.0 0.017002 -24.773774 0.865629 65.74812 0.865629 65.74812 0.017002 -24.773774
2920.0 0.010619 -48.207654 0.865338 33.948475 0.865338 33.948475 0.010619 -48.207654
2940.0 0.002764 -16.610005 0.865007 2.144272 0.865007 2.144272 0.002764 -16.610005
2960.0 0.009483 41.943861 0.864597 -29.65946 0.864597 -29.65946 0.009483 41.943861
2980.0 0.016358 19.887022 0.864157 -61.458145 0.864157 -61.458145 0.016358 19.887022
3000.0 0.018523 -6.915432 0.863772 -93.252727 0.863772 -93.252727 0.018523 -6.915432
3020.0 0.015258 -33.335578 0.863466 -125.048613 0.863466 -125.048613 0.015258 -33.335578
3040.0 0.007698 -52.095112 0.863178 -156.849666 0.863178 -156.849666 0.007698 -52.095112
3060.0 0.003867 33.354396 0.862827 171.346066 0.862827 171.346066 0.003867 33.354396
3080.0 0.012186 35.69468 0.862405 139.544177 0.862405 139.544177 0.012186 35.69468
3100.0 0.017637 10.98621 0.861984 107.747687 0.861984 107.747687 0.017637 10.98621
3120.0 0.017947 -15.978801 0.861634 75.953706 0.861634 75.953706 0.017947 -15.978801
3140.0 0.01302 -41.206498 0.861351 44.156647 0.861351 44.156647 0.01302 -41.206498
3160.0 0.004773 -47.531624 0.861054 12.354427 0.861054 12.354427 0.004773 -47.531624
3180.0 0.006669 43.682615 0.860683 -19.449235 0.860683 -19.449235 0.006669 43.682615
3200.0 0.014488 27.925386 0.860258 -51.248954 0.860258 -51.248954 0.014488 27.925386
3220.0 0.018302 1.930328 0.859863 -83.043655 0.859863 -83.043655 0.018302 1.930328
3240.0 0.01676 -24.830475 0.859548 -114.837751 0.859548 -114.837751 0.01676 -24.830475
3260.0 0.010388 -47.717367 0.859276 -146.636242 0.859276 -146.636242 0.010388 -47.717367
3280.0 0.00282 -12.616037 0.858964 -178.439171 0.858964 -178.439171 0.00282 -12.616037
3300.0 0.009571 41.286584 0.858574 149.758413 0.858574 149.758413 0.009571 41.286584
3320.0 0.01629 19.444339 0.858157 117.96095 0.858157 117.96095 0.01629 19.444339
3340.0 0.018334 -7.150461 0.857794 86.167451 0.857794 86.167451 0.018334 -7.150461
3360.0 0.015015 -33.282054 0.857507 54.372607 0.857507 54.372607 0.015015 -33.282054
3380.0 0.007506 -51.119527 0.857236 22.572682 0.857236 22.572682 0.007506 -51.119527
3400.0 0.004044 33.594645 0.856903 -9.23035 0.856903 -9.23035 0.004044 33.594645
3420.0 0.012222 35.108337 0.856502 -41.031005 0.856502 -41.031005 0.012222 35.108337
3440.0 0.017528 10.609821 0.856102 -72.82638 0.856102 -72.82638 0.017528 10.609821
3460.0 0.017737 -16.141096 0.855772 -104.619365 0.855772 -104.619365 0.017737 -16.141096
3480.0 0.012786 -40.996451 0.855506 -136.415422 0.855506 -136.415422 0.012786 -40.996451
3500.0 0.004656 -45.385411 0.855226 -168.216533 0.855226 -168.216533 0.004656 -45.385411
3520.0 0.006806 43.076844 0.854873 159.980996 0.854873 159.980996 0.006806 43.076844
3540.0 0.014474 27.413384 0.854468 128.182424 0.854468 128.182424 0.014474 27.413384
3560.0 0.018157 1.61781 0.854093 96.388737 0.854093 96.388737 0.018157 1.61781
3580.0 0.016538 -24.907082 0.853795 64.595571 0.853795 64.595571 0.016538 -24.907082
3600.0 0.010174 -47.25413 0.853539 32.798057 0.853539 32.798057 0.010174 -47.25413
3620.0 0.002888 -9.041871 0.853243 0.996219 0.853243 0.996219 0.002888 -9.041871
3640.0 0.009658 40.651134 0.852872 -30.805061 0.852872 -30.805061 0.009658 40.651134
3660.0 0.016232 19.000531 0.852474 -62.601469 0.852474 -62.601469 0.016232 19.000531
3680.0 0.01816 -7.397507 0.852129 -94.394042 0.852129 -94.394042 0.01816 -7.397507
3700.0 0.014791 -33.248607 0.851858 -126.188002 0.851858 -126.188002 0.014791 -33.248607
3720.0 0.00733 -50.167039 0.851602 -157.986964 0.851602 -157.986964 0.00733 -50.167039
3740.0 0.004212 33.768968 0.851286 170.211072 0.851286 170.211072 0.004212 33.768968
3760.0 0.01226 34.534257 0.850902 138.411489 0.850902 138.411489 0.01226 34.534257
3780.0 0.017429 10.229493 0.85052 106.617078 0.85052 106.617078 0.017429 10.229493
3800.0 0.017543 -16.316292 0.850208 74.824948 0.850208 74.824948 0.017543 -16.316292
3820.0 0.012568 -40.806336 0.849956 43.029744 0.849956 43.029744 0.012568 -40.806336
3840.0 0.004554 -43.269072 0.84969 11.229589 0.84969 11.229589 0.004554 -43.269072
3860.0 0.006939 42.498792 0.849353 -20.571845 0.849353 -20.571845 0.006939 42.498792
3880.0 0.014466 26.907452 0.848966 -52.369418 0.848966 -52.369418 0.014466 26.907452
3900.0 0.018024 1.299408 0.848608 -84.162225 0.848608 -84.162225 0.018024 1.299408
3920.0 0.016332 -24.997264 0.848326 -115.954592 0.848326 -115.954592 0.016332 -24.997264
3940.0 0.009976 -46.809631 0.848083 -147.751267 0.848083 -147.751267 0.009976 -46.809631
3960.0 0.002963 -5.842712 0.847801 -179.552158 0.847801 -179.552158 0.002963 -5.842712
3980.0 0.009743 40.03691 0.847445 148.647558 0.847445 148.647558 0.009743 40.03691
4000.0 0.016181 18.558773 0.847064 116.852073 0.847064 116.852073 0.016181 18.558773
4020.0 0.018 -7.651856 0.846736 85.060304 0.846736 85.060304 0.018 -7.651856
4040.0 0.014581 -33.229188 0.846479 53.267105 0.846479 53.267105 0.014581 -33.229188
4060.0 0.007166 -49.229337 0.846236 21.468977 0.846236 21.468977 0.007166 -49.229337
4080.0 0.004373 33.891369 0.845933 -10.332052 0.845933 -10.332052 0.004373 33.891369
4100.0 0.012299 33.973324 0.845565 -42.130691 0.845565 -42.130691 0.012299 33.973324
4120.0 0.017339 9.848477 0.8452 -73.924256 0.8452 -73.924256 0.017339 9.848477
4140.0 0.017362 -16.499875 0.844902 -105.715646 0.844902 -105.715646 0.017362 -16.499875
4160.0 0.012365 -40.63025 0.844663 -137.51011 0.844663 -137.51011 0.012365 -40.63025
4180.0 0.004464 -41.177949 0.84441 -169.309432 0.84441 -169.309432 0.004464 -41.177949
4200.0 0.007066 41.945695 0.844086 158.890048 0.844086 158.890048 0.007066 41.945695
4220.0 0.014461 26.409188 0.843714 127.09336 0.843714 127.09336 0.014461 26.409188
4240.0 0.017902 0.978356 0.843372 95.301324 0.843372 95.301324 0.017902 0.978356
4260.0 0.016139 -25.09667 0.843104 63.50965 0.843104 63.50965 0.016139 -25.09667
4280.0 0.009789 -46.377937 0.842873 31.713705 0.842873 31.713705 0.009789 -46.377937
4300.0 0.003045 -2.976927 0.842603 -0.086352 0.842603 -0.086352 0.003045 -2.976927
4320.0 0.009826 39.442893 0.84226 -31.885753 0.84226 -31.885753 0.009826 39.442893
4340.0 0.016135 18.121002 0.841894 -63.68042 0.841894 -63.68042 0.016135 18.121002
4360.0 0.01785 -7.910332 0.84158 -95.471484 0.84158 -95.471484 0.01785 -7.910332
4380.0 0.014383 -33.219542 0.841336 -127.264021 0.841336 -127.264021 0.014383 -33.219542
4400.0 0.007014 -48.300442 0.841104 -159.061418 0.841104 -159.061418 0.007014 -48.300442
4420.0 0.004528 33.972056 0.840813 169.138381 0.840813 169.138381 0.004528 33.972056
4440.0 0.012339 33.425741 0.840459 137.340583 0.840459 137.340583 0.012339 33.425741
4460.0 0.017257 9.468868 0.840108 105.547768 0.840108 105.547768 0.017257 9.468868
4480.0 0.017192 -16.688731 0.839824 73.757028 0.839824 73.757028 0.017192 -16.688731
4500.0 0.012172 -40.463941 0.839596 41.963209 0.839596 41.963209 0.012172 -40.463941
4520.0 0.004386 -39.109974 0.839354 10.164624 0.839354 10.164624 0.004386 -39.109974
4540.0 0.007189 41.415062 0.839041 -21.635081 0.839041 -21.635081 0.007189 41.415062
4560.0 0.014459 25.919433 0.838683 -53.43098 0.838683 -53.43098 0.014459 25.919433
4580.0 0.017787 0.656817 0.838355 -85.222332 0.838355 -85.222332 0.017787 0.656817
4600.0 0.015956 -25.202222 0.838099 -117.013397 0.838099 -117.013397 0.015956 -25.202222
4620.0 0.009613 -45.954687 0.837879 -148.8087 0.837879 -148.8087 0.009613 -45.954687
4640.0 0.003131 -0.406531 0.837619 179.391984 0.837619 179.391984 0.003131 -0.406531
4660.0 0.009908 38.867906 0.837289 147.593373 0.837289 147.593373 0.009908 38.867906
4680.0 0.016093 17.688398 0.836937 115.799439 0.836937 115.799439 0.016093 17.688398
