!  .\\filter.s2p

! 

!  written by LeCroy Virtual Probe(tm)

! 

!  freq S11 S21 

!  S12 S22 

!  

# MHz S MA R 50.0
0.0 0.037568 0.0 0.999765 0.0 0.997294 0.0 0.001505 0.0
10.0 0.037993 -5.336384 0.999496 -2.166989 0.997142 -2.129091 0.002119 15.100423
20.0 0.039134 -11.010879 0.999257 -4.318791 0.997164 -4.24714 0.003187 13.748312
30.0 0.040965 -17.219103 0.998865 -6.471002 0.997211 -6.372966 0.004976 3.990227
40.0 0.043254 -24.09722 0.998473 -8.613674 0.997302 -8.499388 0.006949 -7.374699
50.0 0.045894 -31.578636 0.99799 -10.753239 0.997349 -10.633121 0.009536 -18.586399
60.0 0.048628 -39.612226 0.997577 -12.884817 0.997363 -12.769293 0.012199 -29.819513
70.0 0.051339 -47.995585 0.997133 -15.01514 0.997256 -14.910925 0.015288 -39.955665
80.0 0.05381 -56.636489 0.996789 -17.141447 0.997045 -17.052272 0.018316 -50.141443
90.0 0.055957 -65.315408 0.996409 -19.270479 0.99667 -19.193905 0.021526 -59.239892
100.0 0.057651 -73.969493 0.996078 -21.398756 0.996188 -21.329587 0.02456 -68.421853
110.0 0.058865 -82.408741 0.995634 -23.530706 0.995586 -23.459731 0.027557 -76.631332
120.0 0.059571 -90.618473 0.995157 -25.659584 0.994962 -25.579879 0.030322 -84.919363
130.0 0.059799 -98.455161 0.994523 -27.787174 0.994327 -27.692918 0.032891 -92.371061
140.0 0.059605 -105.957379 0.993865 -29.905125 0.993775 -29.797247 0.035233 -99.902623
150.0 0.059034 -113.038052 0.993127 -32.016295 0.993294 -31.898147 0.037277 -106.748395
160.0 0.058178 -119.786536 0.992485 -34.11476 0.992936 -33.99529 0.03913 -113.701774
170.0 0.057052 -126.172377 0.991902 -36.207317 0.992651 -36.093993 0.040608 -120.1361
180.0 0.055727 -132.31836 0.991532 -38.291304 0.992455 -38.192891 0.041916 -126.718816
190.0 0.054148 -138.224646 0.991303 -40.376475 0.992281 -40.295723 0.042759 -132.938336
200.0 0.052339 -144.00497 0.991305 -42.461123 0.99214 -42.399238 0.043417 -139.330442
210.0 0.050181 -149.640848 0.991414 -44.555236 0.99198 -44.505914 0.043498 -145.477699
220.0 0.047674 -155.177644 0.991662 -46.65523 0.99183 -46.611773 0.043347 -151.770926
230.0 0.04468 -160.520777 0.991891 -48.768844 0.99166 -48.719451 0.042512 -157.877428
240.0 0.041232 -165.582558 0.992111 -50.888833 0.991505 -50.825439 0.041403 -164.037379
250.0 0.037244 -170.107643 0.99218 -53.019838 0.991343 -52.933076 0.039547 -169.9993
260.0 0.032845 -173.734979 0.992128 -55.151294 0.991201 -55.039268 0.037416 -175.837555
270.0 0.028083 -175.778251 0.991872 -57.285986 0.991053 -57.147539 0.034552 178.626295
280.0 0.0233 -175.058476 0.991498 -59.412116 0.990918 -59.254481 0.031479 173.535373
290.0 0.01892 -169.523948 0.991004 -61.533537 0.990772 -61.36338 0.02778 169.049421
300.0 0.015973 -156.8795 0.990528 -63.64097 0.99064 -63.470556 0.024027 165.711119
310.0 0.015623 -138.880854 0.990111 -65.742906 0.990505 -65.579547 0.01988 163.940871
320.0 0.018245 -124.073335 0.989875 -67.835198 0.99039 -67.68688 0.016012 165.366058
330.0 0.022765 -116.472096 0.989817 -69.931148 0.990286 -69.796672 0.012319 172.00449
340.0 0.028172 -114.487174 0.989954 -72.028837 0.990204 -71.905882 0.009978 -172.434052
350.0 0.033813 -115.676378 0.990193 -74.141056 0.990129 -74.018811 0.009504 -149.615647
360.0 0.039392 -118.775635 0.990459 -76.26228 0.990058 -76.132353 0.011475 -131.872276
370.0 0.044688 -122.896631 0.990627 -78.400036 0.989969 -78.250509 0.014551 -122.307702
380.0 0.049643 -127.701778 0.990621 -80.543264 0.989847 -80.369611 0.01825 -119.48384
390.0 0.054152 -132.86839 0.990371 -82.695132 0.989672 -82.49293 0.021929 -119.210278
400.0 0.058243 -138.325478 0.989862 -84.84159 0.989424 -84.615957 0.025669 -121.249829
410.0 0.061844 -143.945343 0.989115 -86.984771 0.989092 -86.741029 0.029131 -123.859168
420.0 0.065007 -149.741539 0.988189 -89.111485 0.988665 -88.86286 0.032538 -127.513791
430.0 0.067646 -155.662562 0.987187 -91.226549 0.988155 -90.98322 0.035564 -131.287338
440.0 0.069807 -161.737146 0.986207 -93.321074 0.987569 -93.096732 0.038492 -135.692245
450.0 0.071379 -167.942326 0.985376 -95.405202 0.986948 -95.205502 0.040944 -140.127752
460.0 0.072404 -174.29198 0.984751 -97.475369 0.986316 -97.305126 0.043241 -145.012145
470.0 0.072765 179.228035 0.984405 -99.54562 0.985733 -99.399331 0.044946 -149.920851
480.0 0.072514 172.627447 0.984292 -101.614488 0.985222 -101.48565 0.046422 -155.150787
490.0 0.071557 165.915305 0.9844 -103.695197 0.984834 -103.569587 0.047191 -160.40095
500.0 0.069975 159.123427 0.984596 -105.783385 0.984562 -105.650337 0.047664 -165.846957
510.0 0.067718 152.247243 0.984828 -107.887271 0.984425 -107.733984 0.047353 -171.292897
520.0 0.064902 145.329493 0.98495 -109.997199 0.984373 -109.819563 0.046721 -176.798654
530.0 0.061521 138.337791 0.984964 -112.116174 0.984395 -111.911719 0.045294 177.725668
540.0 0.057707 131.311109 0.984794 -114.231896 0.98442 -114.007473 0.043576 172.339995
550.0 0.053478 124.168577 0.984538 -116.346803 0.984443 -116.10907 0.041125 167.02235
560.0 0.048952 116.933387 0.984189 -118.451007 0.984406 -118.211657 0.038464 161.966281
570.0 0.044153 109.454087 0.983901 -120.550755 0.984343 -120.31609 0.035193 157.030866
580.0 0.039163 101.717465 0.983666 -122.641017 0.984233 -122.41764 0.031827 152.584506
590.0 0.034014 93.454378 0.983618 -124.731904 0.984151 -124.518241 0.028004 148.359529
600.0 0.02876 84.533945 0.983677 -126.821745 0.984093 -126.615496 0.024215 145.012747
610.0 0.023467 74.358219 0.983908 -128.921084 0.984137 -128.713748 0.020133 142.19933
620.0 0.018213 62.19312 0.984144 -131.027248 0.984255 -130.813345 0.016219 141.252801
630.0 0.013218 45.714903 0.984396 -133.146637 0.984479 -132.92011 0.0122 142.349232
640.0 0.008925 19.574666 0.984469 -135.271624 0.984723 -135.0348 0.008646 149.819948
650.0 0.006829 -25.510165 0.984409 -137.402716 0.984963 -137.16173 0.005718 170.326849
660.0 0.008367 -72.199476 0.984092 -139.528791 0.985061 -139.298693 0.005333 -150.58381
670.0 0.011934 -99.975994 0.983676 -141.648588 0.984977 -141.445484 0.007456 -122.602087
680.0 0.015896 -117.895235 0.98313 -143.753371 0.984584 -143.595202 0.010814 -113.060967
690.0 0.019656 -131.562786 0.982693 -145.845868 0.983901 -145.742951 0.014345 -109.571574
700.0 0.023037 -143.434666 0.982365 -147.92392 0.982888 -147.879298 0.017998 -110.122054
710.0 0.025868 -154.282368 0.982377 -149.99615 0.981674 -149.998561 0.021475 -111.512059
720.0 0.02817 -164.635051 0.982663 -152.066919 0.980328 -152.093993 0.024891 -114.39969
730.0 0.029857 -174.675833 0.983357 -154.148572 0.979067 -154.164945 0.027972 -117.337133
740.0 0.031035 175.417626 0.984253 -156.247575 0.977999 -156.212243 0.030879 -121.063555
750.0 0.031676 165.518162 0.985341 -158.373454 0.977326 -158.243107 0.033295 -124.622313
760.0 0.031934 155.538032 0.986289 -160.526865 0.977079 -160.265754 0.03544 -128.621349
770.0 0.031831 145.298983 0.987023 -162.707334 0.977333 -162.291871 0.036957 -132.321446
780.0 0.031539 134.738394 0.987219 -164.905416 0.977969 -164.330853 0.038136 -136.188223
790.0 0.031116 123.617941 0.986905 -167.110298 0.978925 -166.391186 0.038608 -139.595293
800.0 0.030737 111.91897 0.985924 -169.306817 0.97997 -168.476311 0.038752 -142.878009
810.0 0.030501 99.414236 0.984509 -171.481887 0.980994 -170.586194 0.038223 -145.459991
820.0 0.030563 86.234357 0.982707 -173.624704 0.98178 -172.71622 0.037507 -147.577628
830.0 0.031054 72.332028 0.980905 -175.730141 0.982288 -174.858936 0.03632 -148.682464
840.0 0.032061 58.080474 0.979229 -177.79991 0.982415 -177.005264 0.035252 -149.010048
850.0 0.033684 43.667234 0.978047 -179.841234 0.982258 -179.14614 0.034083 -148.119741
860.0 0.035869 29.522028 0.97737 178.132352 0.981845 178.725062 0.033439 -146.478644
870.0 0.03862 15.834172 0.977384 176.106929 0.981373 176.612539 0.033072 -143.913041
880.0 0.041747 2.812345 0.977893 174.066129 0.980927 174.515282 0.033485 -141.255614
890.0 0.045179 -9.485265 0.978876 171.999476 0.980689 172.429796 0.034281 -138.43751
900.0 0.048672 -21.058534 0.979966 169.89747 0.980671 170.348206 0.03576 -136.266446
910.0 0.052138 -31.89937 0.981032 167.761147 0.980941 168.263295 0.037425 -134.372507
920.0 0.055362 -42.081132 0.98168 165.593234 0.981378 166.166619 0.039511 -133.254488
930.0 0.058284 -51.576844 0.981836 163.4084 0.981928 164.054383 0.041577 -132.311943
940.0 0.060774 -60.467814 0.981273 161.219536 0.98239 161.923782 0.043933 -131.90101
950.0 0.062836 -68.706336 0.980148 159.047716 0.982674 159.7789 0.046259 -131.457645
960.0 0.064444 -76.3836 0.978503 156.904569 0.98261 157.624553 0.048962 -131.383661
970.0 0.065661 -83.465984 0.976729 154.804019 0.982197 155.471732 0.051787 -131.286644
980.0 0.066535 -90.081364 0.975026 152.7438 0.981403 153.328874 0.055144 -131.649989
990.0 0.067121 -96.240832 0.973813 150.722163 0.980388 151.207079 0.058718 -132.211339
1000.0 0.067453 -102.111953 0.973209 148.720827 0.979274 149.109683 0.062804 -133.418101
1010.0 0.067494 -107.731977 0.973433 146.72674 0.978316 147.039484 0.066941 -135.002849
1020.0 0.067195 -113.256192 0.974352 144.715415 0.97766 144.988936 0.071314 -137.262171
1030.0 0.0664 -118.681757 0.975911 142.675627 0.977496 142.950457 0.075351 -139.88323
1040.0 0.064994 -124.076419 0.977751 140.590182 0.977839 140.908123 0.079216 -143.018505
1050.0 0.062772 -129.323835 0.979654 138.460672 0.978684 138.850137 0.082312 -146.345499
1060.0 0.059654 -134.332816 0.981202 136.284005 0.979831 136.760907 0.08488 -149.919023
1070.0 0.05552 -138.778496 0.982197 134.076794 0.98106 134.634841 0.086378 -153.430812
1080.0 0.050489 -142.258806 0.982347 131.848917 0.981999 132.468292 0.087211 -156.860839
1090.0 0.044749 -143.984423 0.981648 129.628125 0.982347 130.273086 0.086988 -159.923741
1100.0 0.038917 -142.87838 0.9801 127.429869 0.981814 128.064805 0.086345 -162.562405
1110.0 0.03394 -137.482576 0.978018 125.280943 0.980343 125.872203 0.085101 -164.565803
1120.0 0.031369 -127.477996 0.975719 123.18619 0.978033 123.719718 0.08409 -165.954931
1130.0 0.032435 -115.697489 0.973703 121.154429 0.975267 121.63374 0.083223 -166.717478
1140.0 0.037087 -106.973659 0.97232 119.168051 0.972534 119.623785 0.083296 -167.093076
1150.0 0.044007 -102.93427 0.971909 117.216272 0.970453 117.692285 0.084012 -167.295947
1160.0 0.051891 -102.756272 0.972561 115.268746 0.96956 115.819793 0.085848 -167.680763
1170.0 0.059776 -104.998225 0.974324 113.310833 0.970313 113.98036 0.088147 -168.440914
1180.0 0.067071 -108.750123 0.977063 111.313564 0.972924 112.131009 0.091083 -169.770328
1190.0 0.073341 -113.290111 0.980617 109.26599 0.977376 110.230928 0.093798 -171.665981
1200.0 0.078361 -118.234275 0.984669 107.143991 0.983322 108.234 0.09639 -174.107038
1210.0 0.081961 -123.196345 0.988836 104.944531 0.990149 106.110745 0.098007 -176.956209
1220.0 0.084192 -127.943582 0.992599 102.657221 0.996989 103.840815 0.09884 179.954798
1230.0 0.08517 -132.181449 0.995447 100.29964 1.002887 101.432272 0.098218 176.834835
1240.0 0.0853 -135.741462 0.996929 97.885125 1.006939 98.907805 0.096604 173.967967
1250.0 0.085033 -138.465715 0.996784 95.451825 1.008482 96.315315 0.093698 171.596433
1260.0 0.085025 -140.425764 0.994986 93.024591 1.00721 93.706162 0.090368 170.046743
1270.0 0.085742 -141.819342 0.991707 90.641507 1.003225 91.140583 0.086707 169.45464
1280.0 0.087564 -143.065672 0.987308 88.317951 0.997006 88.664374 0.083835 169.945546
1290.0 0.09043 -144.550726 0.982199 86.076841 0.989286 86.317059 0.081869 171.271143
1300.0 0.09414 -146.612033 0.976878 83.916133 0.980953 84.113605 0.081671 173.110395
1310.0 0.09819 -149.36685 0.971761 81.840766 0.972877 82.05747 0.082852 174.89323
1320.0 0.102171 -152.835326 0.967273 79.831365 0.96585 80.127186 0.085698 176.235742
1330.0 0.105566 -156.907623 0.963639 77.877637 0.960428 78.294032 0.089353 176.831442
1340.0 0.108078 -161.46731 0.961031 75.950568 0.956944 76.512802 0.093865 176.652293
1350.0 0.109345 -166.352975 0.959378 74.037775 0.955408 74.74275 0.098343 175.724543
1360.0 0.109255 -171.41668 0.958627 72.115905 0.955614 72.940445 0.102938 174.216772
1370.0 0.107647 -176.486479 0.958562 70.181876 0.957102 71.079482 0.106927 172.238659
1380.0 0.104635 178.612412 0.959102 68.221746 0.95935 69.140343 0.110643 169.985368
1390.0 0.100296 174.066652 0.960037 66.238174 0.961757 67.124823 0.113556 167.525895
1400.0 0.094984 170.079033 0.9613 64.220831 0.963858 65.041183 0.11616 165.020135
1410.0 0.08899 166.835563 0.962651 62.175362 0.96527 62.913596 0.118061 162.456018
1420.0 0.082826 164.524866 0.964009 60.096882 0.965873 60.764618 0.11981 159.943153
1430.0 0.076863 163.251742 0.965139 57.997605 0.965673 58.622363 0.12104 157.389969
1440.0 0.071581 163.064017 0.966049 55.879701 0.96492 56.503956 0.122239 154.877922
1450.0 0.067202 163.841614 0.966627 53.758502 0.963898 54.423836 0.12298 152.275859
1460.0 0.063957 165.389672 0.967035 51.635881 0.963008 52.380814 0.123645 149.6812
1470.0 0.061775 167.401323 0.967269 49.521813 0.962526 50.369438 0.123758 146.966331
1480.0 0.060637 169.632546 0.967554 47.411532 0.96272 48.37142 0.123642 144.276385
1490.0 0.060346 171.871845 0.967875 45.307023 0.963616 46.369249 0.12285 141.50169
1500.0 0.060903 174.016011 0.968395 43.197967 0.965177 44.340686 0.121709 138.839271
1510.0 0.062222 175.951407 0.96899 41.082634 0.967123 42.272473 0.119874 136.190218
1520.0 0.06443 177.561084 0.969713 38.951375 0.969177 40.154875 0.117737 133.789247
1530.0 0.067489 178.658721 0.970333 36.805586 0.970931 37.992099 0.115091 131.521281
1540.0 0.071461 179.061686 0.970857 34.642015 0.972139 35.793643 0.112399 129.623108
1550.0 0.076144 178.613478 0.971047 32.467995 0.972564 33.579247 0.109554 127.918554
1560.0 0.081396 177.253704 0.970962 30.286754 0.972243 31.367581 0.107014 126.601345
1570.0 0.086853 174.99687 0.970445 28.108899 0.971252 29.178318 0.104651 125.403858
1580.0 0.092293 171.937312 0.969666 25.939814 0.969898 27.022295 0.102801 124.473299
1590.0 0.097353 168.185232 0.968575 23.788278 0.968426 24.905088 0.101225 123.488299
1600.0 0.101874 163.88085 0.967436 21.656485 0.967189 22.821431 0.100114 122.606297
1610.0 0.105594 159.129985 0.966256 19.546625 0.966344 20.76119 0.099142 121.52381
1620.0 0.10846 154.057183 0.965312 17.454239 0.966061 18.708006 0.098429 120.459006
1630.0 0.110329 148.733096 0.964559 15.374091 0.966248 16.646215 0.09766 119.156067
1640.0 0.111246 143.258619 0.964181 13.297629 0.966815 14.561835 0.096973 117.891215
1650.0 0.111174 137.670948 0.964016 11.217357 0.967456 12.447889 0.096134 116.431237
1660.0 0.11024 132.048614 0.96414 9.126838 0.967963 10.304508 0.095334 115.072574
1670.0 0.108488 126.391865 0.964307 7.021631 0.968035 8.139962 0.094429 113.558828
1680.0 0.106078 120.750697 0.964539 4.900962 0.967588 5.968232 0.093629 112.165703
1690.0 0.103083 115.083208 0.964574 2.765496 0.966542 3.805623 0.092819 110.585418
1700.0 0.09963 109.409725 0.964446 0.620954 0.965068 1.667896 0.09215 109.065848
1710.0 0.095769 103.654093 0.963948 -1.527182 0.96332 -0.434079 0.091476 107.268747
1720.0 0.09156 97.821182 0.963204 -3.668503 0.961642 -2.494987 0.090858 105.449508
1730.0 0.087015 91.818013 0.96213 -5.79659 0.960261 -4.518142 0.090125 103.278888
1740.0 0.082138 85.653126 0.960973 -7.902001 0.959492 -6.512416 0.089278 101.049525
1750.0 0.076934 79.231441 0.959757 -9.983681 0.959438 -8.494155 0.08818 98.452663
1760.0 0.071379 72.575655 0.958794 -12.038812 0.960208 -10.480564 0.086813 95.813957
1770.0 0.065504 65.598367 0.958126 -14.075656 0.961665 -12.49097 0.085111 92.828537
1780.0 0.059295 58.340184 0.958012 -16.099728 0.963671 -14.538718 0.083037 89.839803
1790.0 0.052843 50.724921 0.958385 -18.127184 0.965892 -16.633723 0.080606 86.530941
1800.0 0.046167 42.80251 0.959333 -20.166859 0.968076 -18.775581 0.077754 83.255909
1810.0 0.039428 34.495072 0.960611 -22.234412 0.96988 -20.959617 0.074568 79.676017
1820.0 0.032681 25.823186 0.962139 -24.331965 0.971148 -23.17188 0.070944 76.155692
1830.0 0.026135 16.646703 0.963576 -26.465422 0.971715 -25.398787 0.06704 72.326159
1840.0 0.01985 6.791159 0.964832 -28.624689 0.97164 -27.62217 0.062698 68.56325
1850.0 0.014034 -4.299974 0.965656 -30.806125 0.970984 -29.830489 0.058138 64.460532
1860.0 0.008735 -18.330981 0.966094 -32.992992 0.96998 -32.01192 0.053141 60.410066
1870.0 0.004247 -42.900436 0.966069 -35.180639 0.968804 -34.164868 0.047991 55.964265
1880.0 0.00217 -126.351802 0.965766 -37.354493 0.967718 -36.288397 0.042415 51.537895
1890.0 0.004593 175.311545 0.965222 -39.515886 0.96685 -38.391474 0.036772 46.620922
1900.0 0.007397 154.938097 0.964668 -41.656983 0.96635 -40.480676 0.030755 41.628854
1910.0 0.009749 140.498968 0.964149 -43.786968 0.966202 -42.569371 0.024809 35.87425
1920.0 0.011695 127.630508 0.963834 -45.904026 0.966396 -44.664066 0.018605 29.528978
1930.0 0.013263 114.736102 0.963687 -48.02187 0.966791 -46.774454 0.012686 20.841811
1940.0 0.014605 101.637895 0.963761 -50.139717 0.967287 -48.900471 0.006804 5.336852
1950.0 0.01585 87.812748 0.963929 -52.269944 0.967719 -51.04449 0.002859 -55.758209
1960.0 0.01716 73.574579 0.964162 -54.407391 0.968016 -53.199305 0.005991 -131.186518
1970.0 0.018725 58.870849 0.964311 -56.559463 0.968089 -55.362379 0.010891 -147.908502
1980.0 0.020656 44.280614 0.96435 -58.715567 0.967964 -57.524061 0.015885 -156.592227
1990.0 0.023115 30.021211 0.964186 -60.87932 0.967656 -59.682665 0.020336 -162.467502
2000.0 0.026092 16.516672 0.96385 -63.037381 0.967261 -61.831441 0.024661 -167.397346
2010.0 0.029665 3.868258 0.963341 -65.193072 0.966842 -63.973257 0.028356 -171.623666
2020.0 0.033722 -7.871844 0.962753 -67.334631 0.96649 -66.106173 0.031893 -175.458401
2030.0 0.038282 -18.746307 0.962149 -69.468896 0.966236 -68.237093 0.03477 -178.983972
2040.0 0.04319 -28.892076 0.961638 -71.588507 0.966107 -70.366387 0.037461 177.7907
2050.0 0.048432 -38.362236 0.961282 -73.705362 0.96607 -72.501327 0.039461 174.769853
2060.0 0.05385 -47.319833 0.961126 -75.816117 0.966087 -74.640543 0.041238 172.090798
2070.0 0.0594 -55.78099 0.961166 -77.935016 0.966093 -76.78841 0.042308 169.653824
2080.0 0.064941 -63.882092 0.961348 -80.058607 0.966041 -78.939889 0.043155 167.701211
2090.0 0.070409 -71.605734 0.961599 -82.198507 0.965895 -81.09625 0.043345 166.136371
2100.0 0.075688 -79.057157 0.961805 -84.346693 0.965647 -83.250483 0.043412 165.281845
2110.0 0.080704 -86.201342 0.961895 -86.509041 0.965323 -85.40344 0.043004 165.034711
2120.0 0.085377 -93.116668 0.961785 -88.672498 0.96496 -87.549471 0.04274 165.728338
2130.0 0.089634 -99.761123 0.961492 -90.839478 0.964623 -89.691975 0.042357 167.189554
2140.0 0.093435 -106.195972 0.961017 -92.99634 0.964353 -91.828486 0.042556 169.593197
2150.0 0.096711 -112.378236 0.960477 -95.147651 0.9642 -93.965523 0.043109 172.557889
2160.0 0.099465 -118.356398 0.959918 -97.284464 0.964161 -96.103029 0.044703 175.922323
2170.0 0.101633 -124.091045 0.95948 -99.41643 0.964234 -98.248331 0.046989 179.144963
2180.0 0.103252 -129.61904 0.959167 -101.539875 0.964353 -100.400774 0.050488 -178.066254
2190.0 0.10426 -134.905314 0.959061 -103.667606 0.964475 -102.565442 0.054653 -176.033704
2200.0 0.104718 -139.974223 0.959076 -105.797355 0.964502 -104.738536 0.059848 -174.840572
2210.0 0.104566 -144.79074 0.959223 -107.940556 0.964395 -106.921306 0.065422 -174.495546
2220.0 0.10388 -149.363077 0.959339 -110.092023 0.964078 -109.106801 0.071697 -174.913036
2230.0 0.102604 -153.648631 0.959411 -112.258108 0.963562 -111.293706 0.078015 -175.989982
2240.0 0.100832 -157.630333 0.959273 -114.428731 0.96283 -113.474015 0.084714 -177.598135
2250.0 0.098528 -161.245306 0.958966 -116.605253 0.961962 -115.646859 0.091166 -179.647033
2260.0 0.09583 -164.43993 0.958394 -118.774984 0.960991 -117.806536 0.097742 177.986612
2270.0 0.092758 -167.121259 0.957706 -120.938295 0.960036 -119.955395 0.103852 175.349607
2280.0 0.089539 -169.199719 0.956889 -123.085303 0.959134 -122.091882 0.109903 172.558699
2290.0 0.0863 -170.571108 0.956165 -125.220664 0.958382 -124.221895 0.115357 169.615113
2300.0 0.083396 -171.16406 0.955537 -127.341241 0.957764 -126.346636 0.120652 166.631251
