! File created by SignalIntegrity v1.4.2: Signal and Power Integrity Tools
! https://github.com/Nubis-Communications/SignalIntegrity
# MHz S MA R 50.0
0.0 0.021299 0.0 0.957227 0.0 0.000666 0.0 0.012582 180.0
0.951943 0.0 0.021145 0.0 0.008793 0.0 0.000443 0.0
0.000702 0.0 0.012646 180.0 0.023078 0.0 0.955585 0.0
0.008877 0.0 0.000446 0.0 0.950395 0.0 0.023006 0.0
100.0 0.125248 -126.814959 0.947655 -48.14067 0.000906 74.587753 0.003544 135.793045
0.946157 -48.066354 0.12601 -125.828771 0.001298 -163.201495 0.000226 116.888807
0.000957 73.391869 0.003688 135.146078 0.038959 -6.833718 0.953187 -49.737248
0.001505 -164.979835 0.000217 73.953294 0.951571 -49.67398 0.041513 -10.958365
200.0 0.174271 -179.669481 0.892917 -92.912435 0.001082 111.567128 0.004013 95.174391
0.891696 -92.80301 0.173064 -177.034291 0.002359 160.569305 0.000941 103.449201
0.001057 102.058902 0.003987 96.331361 0.021383 -18.644262 0.911779 -96.937207
0.00275 168.590946 0.001122 101.696814 0.910289 -96.853932 0.027279 -43.796796
300.0 0.110575 130.659825 0.876134 -135.375964 0.001847 -168.749837 0.002943 85.125738
0.875076 -135.308396 0.108089 137.757116 0.003822 116.597342 0.000633 85.364391
0.001642 -170.811657 0.003024 88.519386 0.035811 -7.576363 0.881899 -142.519022
0.003709 120.49981 0.000626 57.983676 0.881091 -142.457502 0.027942 -37.54444
400.0 0.020894 13.106641 0.869931 -179.703771 0.002634 -178.579849 0.003362 39.96029
0.869951 -179.584313 0.010905 25.72151 0.003623 69.054728 0.001591 -23.701199
0.002562 -176.328689 0.003077 36.391941 0.043646 -7.742366 0.868637 171.308502
0.003777 70.375882 0.001693 -22.332861 0.867743 171.424989 0.028961 -6.971155
500.0 0.110157 -131.850621 0.843648 135.963717 0.003068 144.666621 0.004081 14.438483
0.843455 136.056888 0.108687 -134.607538 0.00461 27.806954 0.002272 -60.319019
0.002806 140.560019 0.003634 6.825886 0.024338 -13.167239 0.848675 125.294329
0.005147 30.643231 0.00226 -56.737553 0.848281 125.357013 0.020941 1.750833
600.0 0.153308 -179.16888 0.815932 92.88089 0.002146 61.654013 0.004959 -17.675194
0.816757 92.977482 0.154276 -179.424453 0.005047 -20.137806 0.001795 -58.371825
0.002504 66.40338 0.004689 -24.200556 0.03007 12.58323 0.829409 79.496126
0.005111 -18.345626 0.00194 -55.531169 0.829539 79.581881 0.027756 10.994261
700.0 0.105556 134.982508 0.807269 49.414134 0.001567 20.654987 0.006896 -48.401482
0.808254 49.440402 0.103728 133.984754 0.0081 -50.981454 0.002261 -32.854191
0.001569 25.31557 0.006901 -50.676211 0.044105 -10.657123 0.810166 33.297704
0.008154 -52.793619 0.002446 -39.590008 0.81075 33.33658 0.043489 -14.320026
800.0 0.009081 -141.659248 0.794684 5.428917 0.001791 149.200217 0.007726 -94.461998
0.796094 5.554591 0.008066 -67.044313 0.009108 -104.354715 0.000997 -1.138276
0.00159 155.997358 0.007478 -96.410536 0.028769 -59.305464 0.791107 -12.245721
0.009161 -98.77201 0.001273 1.171517 0.791898 -12.105358 0.035988 -53.047097
900.0 0.105813 -144.494986 0.767186 -38.259044 0.003392 124.70349 0.007077 -137.044249
0.768975 -38.199887 0.103884 -133.482727 0.009296 -147.196368 0.000524 39.978739
0.003136 121.424704 0.006918 -140.847353 0.016461 92.411599 0.772138 -57.854176
0.009942 -143.017596 0.000536 35.33334 0.773381 -57.762094 0.009059 -28.3464
1000.0 0.143641 173.535143 0.749783 -80.847785 0.000521 160.555178 0.010254 177.375628
0.750793 -80.789478 0.138168 -172.558161 0.011163 168.559206 0.002638 18.6082
0.000759 135.104106 0.010578 177.398048 0.055691 38.742933 0.756666 -103.245773
0.010458 172.73703 0.002343 18.31163 0.757937 -103.167466 0.032002 -10.584842
1100.0 0.096378 126.903293 0.742278 -123.772449 0.005109 -114.091393 0.010009 139.079276
0.743566 -123.718078 0.092884 153.075196 0.012094 126.383843 0.004065 18.040382
0.005597 -113.16144 0.0105 130.268059 0.075129 -8.509932 0.73796 -148.712689
0.011516 129.600304 0.003821 21.035413 0.739364 -148.627141 0.045367 -56.664505
1200.0 0.006533 -43.933805 0.73078 -167.283936 0.005443 -167.757077 0.011385 95.913028
0.73292 -167.385408 0.040197 -157.65115 0.010826 81.861596 0.004865 -6.157639
0.005472 -166.598262 0.0116 89.308936 0.052661 -51.34097 0.723033 166.400165
0.010434 87.077337 0.004539 -7.409763 0.725948 166.355998 0.035742 -133.848779
1300.0 0.105531 -132.113732 0.708284 149.361847 0.00681 142.977503 0.013567 51.759775
0.711387 149.42979 0.122167 -148.369428 0.011492 36.825778 0.003731 -14.743694
0.006367 138.500641 0.012365 45.240411 0.014766 -92.276933 0.710509 120.89898
0.013317 41.994065 0.004127 -18.456568 0.714199 121.055143 0.043601 136.165225
1400.0 0.144065 -170.832035 0.69365 107.029496 0.002782 122.627849 0.012914 -0.304257
0.695069 107.163453 0.152864 -179.501983 0.013253 -4.751852 0.002386 -0.572795
0.002891 120.670905 0.012749 -0.192542 0.015662 -7.390339 0.698062 75.941927
0.012801 4.821917 0.002477 12.349337 0.699334 75.985766 0.045074 64.072034
1500.0 0.118149 154.878956 0.688362 64.368417 0.003214 -142.536707 0.014523 -38.806575
0.689482 64.36825 0.119616 150.604012 0.012624 -51.479103 0.003342 14.930292
0.002943 -140.051887 0.014569 -45.040004 0.017304 -47.488137 0.685141 30.719249
0.011522 -44.136887 0.003057 19.191956 0.687187 30.87062 0.034783 8.972722
1600.0 0.053652 150.29283 0.679034 21.197216 0.004632 -159.236909 0.015733 -83.349315
0.680562 21.021086 0.055809 147.524975 0.014946 -97.555633 0.002763 2.320641
0.00445 -157.499023 0.016717 -92.935851 0.012604 122.811206 0.671452 -14.270936
0.014386 -92.178156 0.003063 -5.810709 0.672568 -14.337186 0.015064 33.725085
1700.0 0.074079 -158.187304 0.665219 -22.261677 0.00389 -164.84766 0.015238 -130.595677
0.666837 -22.11256 0.072868 -159.085499 0.015791 -137.635188 0.00114 -73.652303
0.003097 -165.61726 0.01603 -139.216177 0.043029 61.502761 0.660904 -59.693463
0.014849 -133.842079 0.00164 -108.52578 0.661587 -59.500052 0.038228 36.744145
1800.0 0.115952 -176.126912 0.652496 -64.695785 0.003274 -149.104323 0.016389 178.984171
0.651786 -64.927572 0.117483 -173.262084 0.014034 -177.87778 0.00176 93.100215
0.003481 -151.797604 0.016765 177.450875 0.053932 19.292921 0.64625 -104.62898
0.016258 178.629603 0.001246 118.131493 0.647597 -104.726337 0.045627 -0.761831
1900.0 0.105373 156.15315 0.641132 -107.481185 0.00408 -145.833275 0.016933 142.05502
0.640264 -107.567294 0.107373 164.223661 0.015644 136.167169 0.006664 86.466257
0.004109 -149.246626 0.016754 131.670427 0.040344 -14.634395 0.633984 -149.491829
0.015201 150.27705 0.005418 82.890898 0.633919 -149.594515 0.02549 -48.415527
2000.0 0.064272 141.779568 0.63327 -150.58125 0.003856 163.256196 0.016225 98.016086
0.630954 -150.606801 0.078353 158.736547 0.015222 90.038743 0.005133 79.846179
0.003198 165.987786 0.016795 82.694038 0.020531 21.824784 0.622231 165.61702
0.014962 101.884986 0.005311 82.063947 0.621442 165.440771 0.016622 122.628705
2100.0 0.043746 -165.227185 0.622148 166.446845 0.00381 -151.296097 0.016859 44.683026
0.619657 166.358633 0.072674 178.544515 0.014368 39.963829 0.001813 55.377995
0.004725 -156.79165 0.015989 43.568501 0.039429 16.180697 0.609735 120.310583
0.016312 51.227848 0.001488 65.254464 0.607471 120.323557 0.045341 57.792198
2200.0 0.078833 -162.606094 0.610517 123.746856 0.006081 -117.465661 0.016202 5.943482
0.608485 123.933276 0.090402 175.950545 0.017819 -1.562573 0.005327 112.581478
0.006432 -126.584804 0.019215 -3.319428 0.04992 -20.49813 0.592933 75.770853
0.014443 11.299765 0.005038 109.657163 0.593247 75.836778 0.058206 13.389097
2300.0 0.097275 175.355928 0.602313 81.16964 0.005843 -157.180636 0.018159 -45.369477
0.599906 81.327228 0.099216 155.547797 0.01787 -40.9454 0.006645 122.596212
0.005089 -157.458093 0.017865 -44.173626 0.020574 -47.989172 0.589703 30.750115
0.016624 -35.413296 0.006886 117.225286 0.590194 30.810252 0.041518 0.849403
2400.0 0.081575 165.792084 0.590544 38.330741 0.003401 160.965569 0.019281 -81.921011
0.590578 38.484639 0.063823 142.593154 0.017658 -87.939742 0.006959 86.985895
0.003356 150.322422 0.017548 -90.025905 0.02415 71.32491 0.578583 -13.972402
0.01751 -78.342593 0.007124 83.176972 0.578272 -13.897936 0.041624 22.763635
2500.0 0.06439 175.080964 0.580002 -4.533209 0.003404 -55.81188 0.01688 -120.343632
0.578176 -4.516896 0.030177 179.010544 0.018241 -135.404445 0.003362 79.678709
0.003329 -60.109367 0.015886 -142.556822 0.060438 31.962539 0.562913 -58.885064
0.019545 -118.941074 0.003684 75.741766 0.562402 -59.098634 0.068453 8.086751
2600.0 0.079661 -179.113659 0.567901 -47.221462 0.00457 -103.087054 0.013709 -168.26983
0.567673 -47.055163 0.057318 -155.341125 0.018848 -172.99008 0.00853 118.531466
0.005383 -95.971517 0.017894 178.086073 0.07516 -6.537447 0.553625 -103.567173
0.016263 -159.992679 0.008113 117.648998 0.552571 -103.459852 0.082916 -20.072376
2700.0 0.085246 165.100212 0.560538 -89.847744 0.006699 -155.388531 0.017225 151.328062
0.561134 -89.845015 0.07906 -171.586125 0.01838 143.580915 0.010732 107.384353
0.006167 -152.603976 0.018629 137.600798 0.055571 -39.916336 0.544511 -148.112932
0.018777 155.322928 0.010417 105.125249 0.545012 -148.146717 0.068609 -45.865386
2800.0 0.060554 150.791568 0.548963 -132.550959 0.003656 178.146379 0.017341 114.619353
0.551168 -132.412943 0.067006 175.113344 0.017976 96.766628 0.009678 95.240181
0.003784 174.337013 0.018094 93.674832 0.018637 -56.08175 0.539442 166.993069
0.01795 119.412235 0.010785 89.855742 0.539936 167.281273 0.03866 -55.166413
2900.0 0.039103 -177.00836 0.540888 -175.271272 0.003291 -40.127779 0.019408 71.495665
0.541691 -175.239506 0.050028 -165.977909 0.018152 52.811234 0.006183 95.209433
0.002211 -53.911829 0.017567 45.196705 0.019162 12.726733 0.525335 122.319765
0.020311 71.682565 0.005993 96.324109 0.523204 122.633183 0.039569 -34.310896
3000.0 0.072088 -163.676302 0.529304 141.880536 0.003744 -60.276399 0.016873 33.250077
0.529522 142.300788 0.07419 -153.136909 0.019097 1.346218 0.011133 111.196608
0.001819 -66.331181 0.019243 0.175798 0.042856 10.515163 0.517678 77.5836
0.018833 29.799989 0.009225 122.242612 0.516611 77.738634 0.046485 -43.181184
3100.0 0.09704 173.060752 0.515668 99.607888 0.001604 74.163829 0.019347 -27.776003
0.514536 99.86812 0.094654 -171.075008 0.019701 -53.2167 0.012316 76.632133
0.001735 59.301013 0.019614 -48.765733 0.036066 -8.260303 0.502799 32.629659
0.021163 -22.875039 0.013048 75.140957 0.501958 32.958331 0.030101 -62.227023
3200.0 0.072973 148.384377 0.505982 57.884499 0.006861 -34.916819 0.018266 -80.194198
0.505769 57.711704 0.073726 173.558758 0.015042 -90.401368 0.012012 42.665187
0.006966 -39.031738 0.014031 -98.251275 0.026514 -8.392307 0.493727 -11.478966
0.020542 -75.137136 0.013685 49.567741 0.493787 -11.389872 0.027037 -40.003865
3300.0 0.034827 156.518635 0.501767 15.695623 0.00756 -66.712774 0.01637 -113.233537
0.502084 15.42263 0.050511 -172.465887 0.012359 -127.624001 0.005992 52.638484
0.006246 -69.166294 0.013175 -122.868737 0.036851 13.047376 0.489182 -55.912611
0.017145 -121.707378 0.005717 67.498538 0.489874 -55.799853 0.041049 -24.378697
3400.0 0.059929 -157.807781 0.490129 -26.935982 0.004843 -63.842336 0.01383 -147.354817
0.491385 -27.422139 0.074705 -151.599875 0.017692 -166.803024 0.005152 112.30245
0.004272 -83.54755 0.015808 -165.617943 0.048744 0.446312 0.475502 -100.790287
0.017129 -154.788854 0.006357 110.434266 0.478116 -100.567271 0.0557 -39.245777
3500.0 0.08905 -177.098345 0.480903 -70.078839 0.003319 -137.40671 0.017374 170.918005
0.482357 -69.915931 0.099586 -164.055049 0.015206 151.86609 0.007023 81.528932
0.00424 -165.290237 0.0151 162.446857 0.049418 -23.631462 0.470185 -145.312082
0.016731 170.806695 0.007181 90.658738 0.47103 -144.988593 0.051895 -68.464657
3600.0 0.078822 159.437118 0.477535 -112.674118 0.000406 26.886435 0.016507 126.997442
0.478906 -112.585898 0.093532 178.577768 0.013631 110.232372 0.007781 73.652691
0.002824 115.056226 0.016729 107.975592 0.036915 -46.838942 0.46445 169.832646
0.015705 130.683967 0.00731 78.304292 0.464126 170.119229 0.042091 -86.435203
3700.0 0.046852 160.028128 0.469685 -155.088255 0.007527 41.204143 0.015025 92.538793
0.470128 -155.046623 0.074822 -179.421343 0.014756 73.711343 0.009175 98.517033
0.005418 57.133112 0.017605 69.027397 0.008648 -27.198672 0.456466 125.562209
0.016565 89.462217 0.008968 89.558498 0.456206 125.817431 0.027824 -95.216906
3800.0 0.059927 -158.749813 0.460909 162.186632 0.008317 40.198195 0.015265 48.19934
0.461819 162.222096 0.085391 -162.80347 0.014556 26.234505 0.007228 80.626917
0.005838 26.691108 0.018031 31.673297 0.02475 41.871126 0.450254 81.5506
0.01652 47.100127 0.008507 89.937777 0.450969 81.450507 0.017904 -94.997495
3900.0 0.099978 -169.919249 0.44739 119.872783 0.003201 25.698405 0.017913 -3.592546
0.448282 119.723601 0.113341 -171.226871 0.016873 -12.863605 0.009772 38.036579
0.003963 20.935258 0.017104 -11.591929 0.037069 12.356415 0.440516 36.326531
0.017696 2.362543 0.010308 42.094227 0.442768 36.741664 0.023101 -105.324815
4000.0 0.103276 165.555787 0.440655 77.728443 0.002622 -34.880835 0.019258 -42.925245
0.4422 77.597722 0.115974 170.52186 0.015263 -58.325733 0.005938 53.823096
0.002185 15.804914 0.016688 -52.502728 0.037268 -10.591726 0.435549 -7.866736
0.01843 -42.34756 0.006487 20.492087 0.437522 -7.778977 0.016737 -126.580013
4100.0 0.078595 146.428074 0.426837 34.252676 0.004882 50.334639 0.013665 -84.027362
0.428212 34.662818 0.087061 152.036788 0.017633 -111.043046 0.001651 33.976821
0.004934 68.732619 0.01808 -97.848476 0.028988 -18.028461 0.429412 -53.617719
0.019179 -86.431744 0.001024 21.909033 0.43086 -53.268488 0.003768 15.165081
4200.0 0.074671 170.186858 0.410472 -7.736793 0.009469 79.04835 0.012747 -141.263982
0.407345 -6.710048 0.078104 178.278434 0.014821 -147.514999 0.007942 -64.016298
0.011174 83.151396 0.018386 -149.53333 0.017708 8.639972 0.409837 -97.334762
0.014892 -121.577413 0.007175 -57.300928 0.410613 -97.238054 0.008265 138.589159
4300.0 0.077447 173.523318 0.41447 -48.984256 0.012129 94.430592 0.015221 -179.309041
0.408108 -48.825794 0.09 -176.328894 0.020189 174.78831 0.004129 -147.428157
0.012844 86.643389 0.019302 172.617747 0.022282 -13.842066 0.413675 -142.096378
0.014743 -168.565145 0.006644 -96.221457 0.418789 -141.856695 0.009523 -60.894856
4400.0 0.075337 163.82029 0.404118 -89.476324 0.010186 108.009554 0.013583 140.061102
0.402381 -89.8102 0.093981 173.023394 0.017806 136.797636 0.005194 -125.975043
0.007883 108.636794 0.014747 130.951565 0.021107 -27.956898 0.40483 174.149392
0.016553 140.896133 0.006525 -115.725778 0.409841 174.353132 0.019854 -70.134213
4500.0 0.046485 160.156712 0.404007 -131.13564 0.009987 97.094823 0.011315 106.111963
0.402063 -131.25768 0.071517 171.911351 0.019707 89.347413 0.003981 -168.534324
0.006957 93.977246 0.02047 88.962164 0.023809 -2.587571 0.403233 130.122507
0.013126 114.121726 0.005871 -169.681389 0.403982 130.122731 0.020053 -56.70046
4600.0 0.046937 -170.583742 0.405452 -173.988573 0.011816 86.879837 0.018066 49.424365
0.403425 -173.954916 0.067692 -170.517731 0.019066 41.490574 0.007652 -131.636367
0.011558 80.587492 0.018903 36.978004 0.034147 21.317732 0.392347 85.157009
0.015301 56.400601 0.010063 -138.427787 0.392366 85.007713 0.01899 -55.726898
4700.0 0.078325 -169.527819 0.402147 143.321907 0.01722 86.552286 0.017111 13.14333
0.398871 143.621688 0.09585 -165.906385 0.020359 -10.565083 0.013939 -142.022927
0.017883 89.931892 0.022617 -14.923898 0.041504 -0.355802 0.385955 41.089886
0.014243 16.315692 0.012427 -141.530056 0.38163 41.057233 0.022635 -96.654109
4800.0 0.084925 177.272999 0.391467 101.147216 0.018798 86.074755 0.015398 -35.339722
0.393533 101.032272 0.092279 -174.13737 0.020906 -54.254912 0.017168 -157.667134
0.019282 88.675294 0.019893 -58.60285 0.041305 -33.319556 0.378234 -3.565574
0.014551 -25.989393 0.016179 -154.504788 0.375411 -3.832407 0.026649 -117.801745
4900.0 0.061027 160.489741 0.3858 58.67233 0.019793 91.684622 0.009711 -60.171551
0.388276 58.738241 0.077237 -178.819379 0.01957 -96.285792 0.012824 -159.91466
0.021368 84.187244 0.019662 -109.63926 0.023575 -31.295759 0.370097 -48.133587
0.016048 -59.396917 0.013281 -159.402981 0.368936 -47.731661 0.02363 175.728671
5000.0 0.039341 -178.201336 0.384164 16.177344 0.021635 107.11515 0.010671 -117.025197
0.383435 16.215677 0.077421 -169.555887 0.020174 -137.072365 0.01068 -114.424053
0.022349 96.812147 0.019682 -147.790126 0.024313 -14.845553 0.360698 -92.855092
0.017522 -105.901324 0.009781 -101.606577 0.362913 -92.012194 0.011583 108.779777
5100.0 0.060506 -155.825764 0.37656 -25.413944 0.021633 89.328189 0.015252 -156.041873
0.374389 -25.495787 0.09387 -163.575592 0.020723 -179.185106 0.016772 -114.580314
0.022547 89.237906 0.018778 179.13551 0.030671 -16.470082 0.358367 -136.456398
0.015022 -143.067623 0.016912 -116.136932 0.359266 -135.610322 0.012891 7.765986
5200.0 0.073694 -173.672578 0.374575 -67.657156 0.020967 71.549238 0.015444 156.374916
0.371684 -67.865371 0.103285 -172.89953 0.020516 135.786422 0.02165 -136.174799
0.019687 73.108792 0.019585 124.334647 0.029628 4.024268 0.356214 179.753853
0.015281 169.836816 0.023538 -141.294166 0.353689 -179.790831 0.014204 0.089992
5300.0 0.067237 175.21908 0.368126 -109.803307 0.019676 68.888623 0.015589 112.854929
0.366163 -109.914636 0.092374 179.696465 0.01896 87.619033 0.018484 -143.123354
0.019197 64.14622 0.020764 76.815331 0.030544 6.288277 0.348728 136.050813
0.016372 121.692465 0.018228 -140.668817 0.343683 135.705386 0.01182 39.641376
5400.0 0.043706 179.088583 0.363814 -152.984478 0.011155 106.408354 0.014873 80.198673
0.364325 -152.645408 0.078473 -178.007123 0.01882 48.917005 0.020131 -119.057657
0.009691 102.231614 0.019421 33.896207 0.046412 -7.113285 0.342774 91.194438
0.016457 80.736984 0.017477 -120.872622 0.34209 91.403369 0.029678 6.411525
5500.0 0.060106 -162.010245 0.359693 165.842219 0.014958 107.091978 0.013703 45.894463
0.358959 165.676275 0.084264 -174.475442 0.014243 -10.519604 0.022465 -130.773996
0.012815 104.456806 0.013637 -19.638201 0.042202 -17.649576 0.34141 46.992512
0.017385 41.28106 0.019812 -132.822025 0.339038 47.444734 0.038238 -14.438714
5600.0 0.080039 -170.83987 0.350084 123.472343 0.016431 97.120562 0.012137 -2.455494
0.349637 123.03954 0.098079 -175.585153 0.016762 -45.354432 0.022665 -133.027499
0.015067 87.981855 0.013794 -39.720813 0.023972 -9.420886 0.336858 2.80158
0.013559 -4.781124 0.02347 -130.780474 0.336795 3.682594 0.035221 -32.871933
5700.0 0.076477 173.640937 0.345633 81.160619 0.013234 82.228439 0.015165 -45.447142
0.34728 81.013253 0.093511 170.930241 0.013993 -90.443184 0.021502 -134.270998
0.014954 82.176859 0.017399 -89.964558 0.029909 26.466713 0.327939 -42.171907
0.016915 -43.96344 0.02045 -135.019187 0.333038 -41.190483 0.028145 -37.848486
5800.0 0.063414 169.716265 0.340528 39.160705 0.009779 59.927483 0.019055 -77.945606
0.340489 38.845469 0.068456 168.709401 0.016363 -137.562591 0.015726 -151.724715
0.010135 82.50769 0.018933 -141.555314 0.055762 13.414568 0.319496 -86.220939
0.016659 -88.65037 0.01572 -151.278565 0.320886 -86.483656 0.039493 -40.708498
5900.0 0.064756 177.862607 0.337742 -3.544063 0.011089 95.216857 0.017015 -139.25737
0.337468 -2.776056 0.068685 -175.451717 0.014094 -154.898998 0.018881 -126.949776
0.011057 108.247862 0.013755 -173.21003 0.062386 -4.959023 0.317376 -130.751605
0.012378 -125.652237 0.020677 -128.396261 0.320315 -129.932886 0.045444 -76.317459
6000.0 0.068835 172.857908 0.334968 -45.876316 0.014527 119.930654 0.016474 -178.95086
0.337661 -45.861293 0.076602 -170.052171 0.012306 145.223095 0.016699 -134.92288
0.014445 116.379943 0.013417 143.120196 0.050796 -18.628807 0.314567 -174.657373
0.01482 177.340252 0.014901 -134.028778 0.31723 -174.474471 0.040455 -128.279099
6100.0 0.056971 162.318945 0.328932 -87.614909 0.010795 -172.189329 0.017867 154.94364
0.329481 -87.585192 0.086107 -174.297454 0.014597 96.940367 0.008228 -77.729771
0.007728 179.247821 0.013966 85.776039 0.04966 -32.443763 0.306567 140.365944
