! File created by SignalIntegrity v1.4.2: Signal and Power Integrity Tools
! https://github.com/Nubis-Communications/SignalIntegrity
# MHz S MA R 50.0
0.0 0.021145 0.0 0.957227 0.0 0.951943 0.0 0.021299 0.0
100.0 0.12601 -125.828771 0.947655 -48.14067 0.946157 -48.066354 0.125248 -126.814959
200.0 0.173064 -177.034291 0.892917 -92.912435 0.891696 -92.80301 0.174271 -179.669481
300.0 0.108089 137.757116 0.876134 -135.375964 0.875076 -135.308396 0.110575 130.659825
400.0 0.010905 25.72151 0.869931 -179.703771 0.869951 -179.584313 0.020894 13.106641
500.0 0.108687 -134.607538 0.843648 135.963717 0.843455 136.056888 0.110157 -131.850621
600.0 0.154276 -179.424453 0.815932 92.88089 0.816757 92.977482 0.153308 -179.16888
700.0 0.103728 133.984754 0.807269 49.414134 0.808254 49.440402 0.105556 134.982508
800.0 0.008066 -67.044313 0.794684 5.428917 0.796094 5.554591 0.009081 -141.659248
900.0 0.103884 -133.482727 0.767186 -38.259044 0.768975 -38.199887 0.105813 -144.494986
1000.0 0.138168 -172.558161 0.749783 -80.847785 0.750793 -80.789478 0.143641 173.535143
1100.0 0.092884 153.075196 0.742278 -123.772449 0.743566 -123.718078 0.096378 126.903293
1200.0 0.040197 -157.65115 0.73078 -167.283936 0.73292 -167.385408 0.006533 -43.933805
1300.0 0.122167 -148.369428 0.708284 149.361847 0.711387 149.42979 0.105531 -132.113732
1400.0 0.152864 -179.501983 0.69365 107.029496 0.695069 107.163453 0.144065 -170.832035
1500.0 0.119616 150.604012 0.688362 64.368417 0.689482 64.36825 0.118149 154.878956
1600.0 0.055809 147.524975 0.679034 21.197216 0.680562 21.021086 0.053652 150.29283
1700.0 0.072868 -159.085499 0.665219 -22.261677 0.666837 -22.11256 0.074079 -158.187304
1800.0 0.117483 -173.262084 0.652496 -64.695785 0.651786 -64.927572 0.115952 -176.126912
1900.0 0.107373 164.223661 0.641132 -107.481185 0.640264 -107.567294 0.105373 156.15315
2000.0 0.078353 158.736547 0.63327 -150.58125 0.630954 -150.606801 0.064272 141.779568
2100.0 0.072674 178.544515 0.622148 166.446845 0.619657 166.358633 0.043746 -165.227185
2200.0 0.090402 175.950545 0.610517 123.746856 0.608485 123.933276 0.078833 -162.606094
2300.0 0.099216 155.547797 0.602313 81.16964 0.599906 81.327228 0.097275 175.355928
2400.0 0.063823 142.593154 0.590544 38.330741 0.590578 38.484639 0.081575 165.792084
2500.0 0.030177 179.010544 0.580002 -4.533209 0.578176 -4.516896 0.06439 175.080964
2600.0 0.057318 -155.341125 0.567901 -47.221462 0.567673 -47.055163 0.079661 -179.113659
2700.0 0.07906 -171.586125 0.560538 -89.847744 0.561134 -89.845015 0.085246 165.100212
2800.0 0.067006 175.113344 0.548963 -132.550959 0.551168 -132.412943 0.060554 150.791568
2900.0 0.050028 -165.977909 0.540888 -175.271272 0.541691 -175.239506 0.039103 -177.00836
3000.0 0.07419 -153.136909 0.529304 141.880536 0.529522 142.300788 0.072088 -163.676302
3100.0 0.094654 -171.075008 0.515668 99.607888 0.514536 99.86812 0.09704 173.060752
3200.0 0.073726 173.558758 0.505982 57.884499 0.505769 57.711704 0.072973 148.384377
3300.0 0.050511 -172.465887 0.501767 15.695623 0.502084 15.42263 0.034827 156.518635
3400.0 0.074705 -151.599875 0.490129 -26.935982 0.491385 -27.422139 0.059929 -157.807781
3500.0 0.099586 -164.055049 0.480903 -70.078839 0.482357 -69.915931 0.08905 -177.098345
3600.0 0.093532 178.577768 0.477535 -112.674118 0.478906 -112.585898 0.078822 159.437118
3700.0 0.074822 -179.421343 0.469685 -155.088255 0.470128 -155.046623 0.046852 160.028128
3800.0 0.085391 -162.80347 0.460909 162.186632 0.461819 162.222096 0.059927 -158.749813
3900.0 0.113341 -171.226871 0.44739 119.872783 0.448282 119.723601 0.099978 -169.919249
4000.0 0.115974 170.52186 0.440655 77.728443 0.4422 77.597722 0.103276 165.555787
4100.0 0.087061 152.036788 0.426837 34.252676 0.428212 34.662818 0.078595 146.428074
4200.0 0.078104 178.278434 0.410472 -7.736793 0.407345 -6.710048 0.074671 170.186858
4300.0 0.09 -176.328894 0.41447 -48.984256 0.408108 -48.825794 0.077447 173.523318
4400.0 0.093981 173.023394 0.404118 -89.476324 0.402381 -89.8102 0.075337 163.82029
4500.0 0.071517 171.911351 0.404007 -131.13564 0.402063 -131.25768 0.046485 160.156712
4600.0 0.067692 -170.517731 0.405452 -173.988573 0.403425 -173.954916 0.046937 -170.583742
4700.0 0.09585 -165.906385 0.402147 143.321907 0.398871 143.621688 0.078325 -169.527819
4800.0 0.092279 -174.13737 0.391467 101.147216 0.393533 101.032272 0.084925 177.272999
4900.0 0.077237 -178.819379 0.3858 58.67233 0.388276 58.738241 0.061027 160.489741
5000.0 0.077421 -169.555887 0.384164 16.177344 0.383435 16.215677 0.039341 -178.201336
5100.0 0.09387 -163.575592 0.37656 -25.413944 0.374389 -25.495787 0.060506 -155.825764
5200.0 0.103285 -172.89953 0.374575 -67.657156 0.371684 -67.865371 0.073694 -173.672578
5300.0 0.092374 179.696465 0.368126 -109.803307 0.366163 -109.914636 0.067237 175.21908
5400.0 0.078473 -178.007123 0.363814 -152.984478 0.364325 -152.645408 0.043706 179.088583
5500.0 0.084264 -174.475442 0.359693 165.842219 0.358959 165.676275 0.060106 -162.010245
5600.0 0.098079 -175.585153 0.350084 123.472343 0.349637 123.03954 0.080039 -170.83987
5700.0 0.093511 170.930241 0.345633 81.160619 0.34728 81.013253 0.076477 173.640937
5800.0 0.068456 168.709401 0.340528 39.160705 0.340489 38.845469 0.063414 169.716265
5900.0 0.068685 -175.451717 0.337742 -3.544063 0.337468 -2.776056 0.064756 177.862607
6000.0 0.076602 -170.052171 0.334968 -45.876316 0.337661 -45.861293 0.068835 172.857908
6100.0 0.086107 -174.297454 0.328932 -87.614909 0.329481 -87.585192 0.056971 162.318945
6200.0 0.100477 -176.426915 0.323548 -130.955089 0.323609 -130.18836 0.055248 161.361254
6300.0 0.10235 -171.434533 0.316801 -172.620298 0.31578 -172.371906 0.041674 -177.924889
6400.0 0.109149 -173.576245 0.319548 144.905158 0.315389 144.698562 0.059643 -154.561026
6500.0 0.123408 171.684525 0.307812 102.846905 0.307467 103.096819 0.084966 -173.93699
6600.0 0.110726 166.498474 0.305491 60.594841 0.31073 60.651319 0.083034 177.8848
6700.0 0.110071 169.765271 0.303916 18.902264 0.30329 18.608151 0.065931 179.356207
6800.0 0.09877 170.854678 0.296697 -23.852866 0.296645 -23.091421 0.058308 -163.911081
6900.0 0.108398 167.768414 0.289527 -66.020837 0.289734 -66.270752 0.087768 -169.313824
7000.0 0.095657 162.790805 0.288649 -107.858515 0.288108 -108.088539 0.093771 -174.286921
7100.0 0.078741 171.359885 0.286445 -150.3695 0.283668 -149.494026 0.076514 -167.410684
7200.0 0.083714 171.607691 0.281557 166.329574 0.282272 167.103226 0.087097 -168.392069
7300.0 0.090954 179.80109 0.277759 125.875068 0.277086 125.640872 0.097207 -167.078052
7400.0 0.098999 -179.78189 0.273981 83.607942 0.274345 84.14899 0.090202 -175.409216
7500.0 0.08619 175.877508 0.267307 41.15599 0.270168 41.462767 0.078606 179.235043
7600.0 0.079248 175.084459 0.263351 -0.76174 0.264245 -0.965741 0.067526 -173.328666
7700.0 0.09468 -179.525079 0.262479 -44.241589 0.263686 -44.173565 0.098162 -168.1691
7800.0 0.10019 170.414839 0.251694 -85.089522 0.253795 -84.51315 0.094167 -177.868448
7900.0 0.091574 161.240871 0.248896 -127.391112 0.250136 -126.970538 0.097311 173.983098
8000.0 0.07902 159.561815 0.249497 -168.511149 0.249596 -167.866596 0.086018 167.576738
8100.0 0.068139 164.786366 0.243942 148.215624 0.245673 148.641381 0.088892 166.910833
8200.0 0.060744 164.60604 0.235403 110.094105 0.23795 110.025842 0.0588 163.791275
8300.0 0.0724 169.952739 0.255215 64.738133 0.252749 64.114083 0.080003 162.323233
8400.0 0.076127 155.357432 0.235062 22.005442 0.233808 23.256573 0.075411 157.614012
8500.0 0.065051 165.848007 0.233699 -20.341987 0.237009 -20.495708 0.056125 157.175924
8600.0 0.065213 174.306788 0.229281 -63.851854 0.222215 -64.831241 0.058137 160.253521
8700.0 0.062527 168.656328 0.221735 -102.756464 0.219741 -101.251424 0.059283 172.527096
8800.0 0.053945 174.409571 0.223982 -145.594657 0.226316 -145.485891 0.063169 -176.135399
8900.0 0.073624 179.897512 0.224541 172.223174 0.221017 171.661018 0.08428 -176.613322
9000.0 0.080751 -177.633834 0.215431 128.999662 0.213179 129.415928 0.081139 171.633683
9100.0 0.079596 -175.433464 0.214374 87.531765 0.212598 87.317127 0.087827 -174.995448
9200.0 0.084193 -170.358989 0.20966 44.029372 0.20899 44.151108 0.087729 173.128932
9300.0 0.088582 -166.067928 0.196842 2.110219 0.197797 2.944993 0.096618 177.512603
9400.0 0.094718 -168.534761 0.198724 -38.400473 0.198945 -38.595077 0.092262 177.109209
9500.0 0.099135 -168.627385 0.19739 -81.443473 0.194588 -81.587731 0.09989 -175.754078
9600.0 0.109379 -164.192587 0.189267 -123.434705 0.184319 -123.1973 0.118613 169.188077
9700.0 0.122246 -168.575668 0.180317 -164.438265 0.181347 -164.816791 0.117916 159.970534
9800.0 0.113947 -174.491026 0.177658 156.320337 0.178943 155.716033 0.096922 149.322933
9900.0 0.125863 -176.34173 0.180071 115.481225 0.18136 115.311381 0.078681 136.305066
10000.0 0.126166 -178.450856 0.17834 72.265396 0.17896 71.855557 0.059165 137.154913
10100.0 0.133237 177.421142 0.181716 30.238719 0.179855 30.479394 0.035489 152.17813
10200.0 0.133169 166.977466 0.172945 -13.149541 0.176948 -12.265684 0.030621 -179.662683
10300.0 0.121785 160.414764 0.171023 -53.356714 0.171682 -53.85246 0.03947 -176.849592
10400.0 0.110835 154.486987 0.170631 -94.112839 0.170378 -94.287527 0.055128 -178.155171
10500.0 0.083265 157.909489 0.170578 -136.375042 0.172176 -136.328542 0.053038 -168.994196
10600.0 0.098053 163.161526 0.171077 -177.522594 0.172424 -178.152364 0.057056 -177.929712
10700.0 0.111771 163.081841 0.165167 138.799041 0.172641 138.166783 0.064111 -171.719796
10800.0 0.112353 155.442952 0.165829 96.642049 0.168017 95.065099 0.070844 -179.451947
10900.0 0.110655 151.19877 0.165111 53.501975 0.164556 54.827343 0.073132 172.618482
11000.0 0.092493 145.442024 0.159279 11.207582 0.161439 12.240458 0.076793 163.557564
11100.0 0.105955 150.426963 0.159754 -29.375103 0.161616 -29.76999 0.070094 159.565385
11200.0 0.093854 143.377033 0.158792 -73.132574 0.16095 -73.580674 0.049236 171.087201
11300.0 0.08328 135.99411 0.156452 -113.668816 0.153792 -114.789911 0.069733 172.703072
11400.0 0.076534 149.707963 0.153107 -157.429219 0.152575 -156.564573 0.075818 169.953508
11500.0 0.082698 149.610861 0.145728 159.412419 0.146616 159.85628 0.076606 164.15696
11600.0 0.090277 147.821395 0.140959 119.641092 0.139871 119.824522 0.069602 164.970554
11700.0 0.074461 156.792615 0.140877 78.184109 0.140819 78.959007 0.076675 147.077518
11800.0 0.089945 155.69691 0.141667 37.39597 0.139056 36.336637 0.074684 152.546637
11900.0 0.095364 151.074445 0.142289 -5.875353 0.139101 -5.179927 0.047732 159.963388
12000.0 0.077098 148.175025 0.138574 -46.246374 0.137842 -47.00423 0.042291 -176.14049
12100.0 0.075084 137.039246 0.14159 -86.701227 0.138036 -88.358233 0.070195 -169.269044
12200.0 0.055143 146.445108 0.139625 -131.398337 0.142102 -131.543573 0.061156 179.873893
12300.0 0.064658 152.996929 0.138467 -171.917273 0.141629 -174.503571 0.050189 179.802957
12400.0 0.054491 148.968657 0.138252 142.119727 0.137822 142.374678 0.057882 -159.205449
12500.0 0.049643 157.580511 0.133537 100.656948 0.134409 100.865492 0.074594 -167.452547
12600.0 0.048361 154.865292 0.134413 59.494491 0.131073 58.693379 0.06219 -173.631004
12700.0 0.045744 147.974027 0.133245 16.369727 0.129086 16.541941 0.065394 -162.36013
12800.0 0.041123 173.809752 0.130501 -25.213143 0.126183 -25.714884 0.066119 179.543657
12900.0 0.051136 168.963604 0.126568 -68.216866 0.123993 -68.123955 0.063941 -164.916718
13000.0 0.053291 154.834156 0.123204 -109.802407 0.120477 -109.681248 0.083609 -167.405802
13100.0 0.026574 171.906843 0.120711 -152.974924 0.118937 -150.357144 0.080698 -179.270357
13200.0 0.045457 -163.350491 0.116668 164.754048 0.116613 167.018573 0.084959 178.321416
13300.0 0.067901 -179.101975 0.115958 124.10371 0.111115 125.062932 0.080265 164.405099
13400.0 0.062867 164.478758 0.112753 82.734471 0.109804 85.377979 0.061558 175.141865
13500.0 0.053745 -179.010944 0.114013 41.019965 0.111279 41.55867 0.082425 179.752956
13600.0 0.064804 175.414288 0.110494 -2.452888 0.106383 -0.825603 0.080885 171.372558
13700.0 0.056415 172.410062 0.103318 -43.737431 0.103974 -42.53767 0.095177 162.842936
13800.0 0.068204 173.769083 0.102454 -83.887277 0.101432 -84.300601 0.073537 156.034304
13900.0 0.062186 163.510143 0.098358 -126.997043 0.097154 -123.736509 0.067933 153.740569
14000.0 0.067237 179.856033 0.095334 -168.025568 0.096416 -164.696068 0.070887 152.635283
14100.0 0.081088 159.906647 0.093418 151.790284 0.093785 155.960559 0.046415 165.7431
14200.0 0.054102 161.851821 0.093322 111.873708 0.094881 115.236456 0.071414 177.858248
14300.0 0.062817 178.583174 0.095357 68.791442 0.095402 71.1807 0.068626 170.059944
14400.0 0.073601 -177.2539 0.091535 28.755601 0.090114 30.875388 0.072831 158.743286
14500.0 0.068606 173.552962 0.093246 -11.662663 0.095106 -11.190036 0.05158 173.664649
14600.0 0.05932 -178.562587 0.091355 -53.987402 0.094172 -52.835038 0.068345 176.123013
14700.0 0.051792 -177.326328 0.093301 -96.432679 0.095337 -95.00699 0.0727 174.110832
14800.0 0.057523 -178.683763 0.095348 -139.053583 0.095246 -137.158732 0.064345 157.078902
14900.0 0.052863 -162.566121 0.094681 177.84697 0.091321 179.567397 0.052593 167.832853
15000.0 0.065953 -159.084373 0.095346 134.929833 0.089182 136.260159 0.049064 176.37138
15100.0 0.078103 -158.660525 0.092427 93.052935 0.084113 91.806445 0.060587 -168.463166
15200.0 0.081731 -169.866065 0.087709 51.746675 0.083534 47.963204 0.064522 -165.40899
15300.0 0.083284 -165.373971 0.08354 8.90585 0.08106 5.899008 0.069892 -164.123814
15400.0 0.090598 -167.972699 0.078118 -33.316774 0.077143 -34.13823 0.088896 -150.847927
15500.0 0.099676 167.101206 0.075955 -73.311973 0.076845 -74.219364 0.102094 -166.48981
15600.0 0.089516 154.100229 0.073474 -115.175871 0.07143 -115.332333 0.13369 -172.458853
15700.0 0.072053 152.170859 0.069795 -156.238025 0.066906 -154.878919 0.140642 163.855544
15800.0 0.054853 152.965704 0.070255 166.900724 0.06521 166.935677 0.114815 154.925267
15900.0 0.045249 172.567247 0.072012 127.407443 0.067155 126.67359 0.116837 149.793644
16000.0 0.04806 -167.551742 0.07482 89.287732 0.069424 89.1944 0.109099 126.364842
16100.0 0.040614 -166.249205 0.086584 43.441654 0.081199 44.840201 0.066388 133.901973
16200.0 0.060865 -124.864772 0.080621 -8.742753 0.076317 -4.63956 0.068882 133.490659
16300.0 0.076348 -109.456889 0.074443 -49.787217 0.069738 -44.847861 0.041252 152.266096
16400.0 0.136043 -119.443174 0.069752 -89.710072 0.066028 -84.253301 0.049994 133.665904
16500.0 0.201707 -144.323087 0.069867 -131.450652 0.06475 -125.585052 0.051041 157.013321
16600.0 0.235837 -173.23874 0.067819 -171.204387 0.063944 -168.723906 0.054674 142.329495
16700.0 0.225896 166.104729 0.065537 150.196147 0.063627 149.598423 0.031369 120.248617
16800.0 0.173587 146.211674 0.063175 109.630129 0.065915 107.05955 0.040441 145.71691
16900.0 0.145971 152.425499 0.059666 65.769128 0.064925 64.591482 0.040306 -170.778316
17000.0 0.146684 150.295838 0.061164 24.34305 0.063473 24.764205 0.055817 167.148617
17100.0 0.130088 140.477929 0.060748 -19.800787 0.060932 -16.289389 0.042735 160.570173
17200.0 0.104835 150.622188 0.060701 -63.715772 0.057427 -61.745218 0.042595 150.916985
17300.0 0.106721 150.250181 0.055321 -101.30979 0.051039 -102.650928 0.046917 164.065186
17400.0 0.125986 137.17715 0.056028 -133.371555 0.052616 -134.758038 0.047621 164.173391
17500.0 0.095619 135.26338 0.061156 -176.567486 0.063002 -177.586089 0.047747 173.637243
17600.0 0.087658 139.983447 0.063186 134.993371 0.067331 136.745565 0.042031 172.580459
17700.0 0.096564 137.026878 0.063714 90.852202 0.061278 91.868257 0.065176 -159.88243
17800.0 0.102075 116.667068 0.059147 47.784686 0.056266 46.278844 0.107679 -152.662168
17900.0 0.070562 145.297975 0.055822 4.125027 0.052749 1.572924 0.093514 -170.650018
18000.0 0.098476 132.836165 0.054221 -33.730532 0.051005 -35.986268 0.109421 177.390919
18100.0 0.066325 121.253987 0.054209 -75.925073 0.048125 -77.54544 0.106881 166.893053
18200.0 0.066438 129.790778 0.055187 -117.670747 0.047828 -121.192133 0.08341 177.40969
18300.0 0.059319 122.246324 0.051888 -159.314839 0.046474 -161.173715 0.079419 169.847885
18400.0 0.043809 124.724404 0.050177 159.216426 0.045718 160.188596 0.101823 164.705567
18500.0 0.077495 129.821105 0.049747 116.81916 0.047197 120.504708 0.071932 149.833096
18600.0 0.018237 100.007567 0.048611 72.394758 0.045901 78.236271 0.104202 143.823971
18700.0 0.039469 125.89276 0.050209 31.231813 0.045485 35.904538 0.064356 132.497372
18800.0 0.080928 137.783251 0.046986 -11.779456 0.043658 -9.42456 0.055989 136.637396
18900.0 0.066875 77.584015 0.0445 -52.094335 0.042225 -53.264675 0.048484 124.094898
19000.0 0.025869 116.45407 0.040329 -91.666175 0.039977 -92.707423 0.049481 121.197059
19100.0 0.028707 -175.505515 0.040267 -131.405723 0.039457 -131.408529 0.067556 117.167937
19200.0 0.032555 126.216235 0.039681 -172.798721 0.038663 -172.081785 0.038938 105.4204
19300.0 0.030521 130.442869 0.037757 148.639001 0.036015 148.364382 0.048902 116.836483
19400.0 0.063055 119.599682 0.039253 113.028472 0.037085 111.697984 0.055546 111.498238
19500.0 0.06223 85.171477 0.042359 71.331024 0.040004 72.341795 0.061226 101.539625
19600.0 0.066999 60.782851 0.042873 25.605648 0.040786 26.545739 0.064063 80.617524
19700.0 0.084804 102.399716 0.041164 -13.864025 0.041107 -14.335308 0.059448 99.514288
19800.0 0.013062 -173.976452 0.044255 -56.888079 0.04513 -57.546851 0.070569 105.537755
19900.0 0.026407 143.794507 0.043867 -103.023522 0.044224 -107.176676 0.047156 85.423876
20000.0 0.080087 115.321862 0.04023 -147.271403 0.040694 -151.373011 0.082633 82.752064
