! File created by SignalIntegrity v1.1.13: Signal and Power Integrity Tools
! https://github.com/TeledyneLeCroy/SignalIntegrity
# MHz S MA R 50.0
0.0 0.06586 1.202659 1.002021 -0.277552 0.998106 -0.339733 0.017011 7.09522
100.0 0.051232 161.758396 0.991701 -102.590015 0.993326 -102.526742 0.046804 -34.46786
200.0 0.036246 -151.906057 0.983955 155.467572 0.983202 155.517321 0.053725 179.98023
300.0 0.049557 35.588363 0.980217 53.036984 0.982943 53.217298 0.045954 -168.187152
400.0 0.069275 -63.724569 0.975409 -49.416361 0.973117 -49.005065 0.039032 -148.159893
500.0 0.066751 58.687965 0.965575 -151.355887 0.965608 -151.304689 0.075904 -161.360112
600.0 0.032359 175.342052 0.965648 106.693676 0.964249 106.889465 0.017726 124.517888
700.0 0.010149 123.730228 0.961272 4.665406 0.964457 4.895455 0.026995 -167.87222
800.0 0.024896 -123.616599 0.958969 -97.580634 0.960402 -96.884448 0.05182 -115.321032
900.0 0.075493 -11.621428 0.958256 160.482721 0.959912 161.003889 0.03401 -53.189167
1000.0 0.029113 69.240251 0.950007 58.476617 0.956231 59.010865 0.027561 -107.243909
1100.0 0.034246 171.089858 0.9552 -43.491272 0.953606 -43.249027 0.097092 163.356726
1200.0 0.077369 83.814531 0.937959 -145.612145 0.940335 -144.901893 0.16961 -177.663938
1300.0 0.112498 -85.712339 0.937179 111.983597 0.938237 112.803098 0.144911 -155.368737
1400.0 0.085155 55.007401 0.928985 10.095302 0.928139 11.107057 0.106097 -175.6791
1500.0 0.03398 -112.625042 0.942733 -91.622576 0.936427 -90.394254 0.089917 111.661445
1600.0 0.116012 61.515362 0.935739 166.202725 0.935149 167.442394 0.165002 105.019395
1700.0 0.125677 -118.445066 0.926925 64.609426 0.925662 65.533818 0.112916 114.279356
1800.0 0.060874 32.57453 0.919646 -37.730698 0.928352 -36.696091 0.076991 82.66464
1900.0 0.024049 -42.906231 0.930091 -140.243533 0.932016 -139.372476 0.011033 -5.59198
2000.0 0.052036 50.630312 0.928968 117.398076 0.935372 118.624969 0.029459 170.090496
2100.0 0.050545 73.974914 0.926761 15.043401 0.932426 16.162268 0.106039 -174.998331
2200.0 0.107198 -99.739529 0.927283 -87.167972 0.93253 -85.740512 0.058693 -134.711825
2300.0 0.074805 60.621843 0.92096 170.57707 0.918613 171.586835 0.1057 142.620873
2400.0 0.055858 -100.774894 0.918113 68.294155 0.916642 69.435313 0.183993 111.343428
2500.0 0.193954 47.220954 0.902986 -34.374107 0.905092 -33.482988 0.236005 117.829226
2600.0 0.194563 -126.934469 0.908491 -136.839314 0.914995 -135.544987 0.166347 137.688986
2700.0 0.091998 61.384083 0.905062 121.31142 0.902712 122.621339 0.10292 76.34555
2800.0 0.075072 -100.41846 0.896246 18.788025 0.895478 20.293684 0.098386 53.168981
2900.0 0.157402 26.760751 0.880923 -82.987915 0.882168 -81.587973 0.185005 59.459626
3000.0 0.044084 174.02537 0.89475 174.801048 0.900511 176.15758 0.105776 58.809826
3100.0 0.034182 -109.378752 0.907364 72.004594 0.901981 73.619477 0.02746 -70.579046
3200.0 0.020102 -1.844262 0.902431 -30.507962 0.902225 -28.959282 0.091773 104.976998
3300.0 0.081485 -67.759792 0.893722 -133.691385 0.895865 -131.662908 0.030471 105.519866
3400.0 0.196624 48.24104 0.893745 122.799286 0.915189 125.474736 0.168742 175.165057
3500.0 0.1204 -133.112472 0.879904 20.935871 0.886037 22.78111 0.118874 144.349804
3600.0 0.022976 -79.134675 0.894914 -80.731584 0.888578 -79.585173 0.11377 9.032263
3700.0 0.045599 -97.404919 0.875118 175.564666 0.879695 176.696699 0.085616 92.422127
3800.0 0.174964 15.218994 0.86324 71.851221 0.88665 73.012647 0.254449 77.490302
3900.0 0.017928 132.330831 0.875934 -29.316464 0.871703 -27.908589 0.094177 17.726615
4000.0 0.096053 -139.798476 0.895713 -133.259377 0.888902 -131.45094 0.117599 -126.182654
4100.0 0.034458 49.152422 0.875754 123.550006 0.891658 124.62495 0.072149 45.704622
4200.0 0.096033 -56.31339 0.866264 20.882895 0.870631 21.605377 0.158889 -49.341745
4300.0 0.089949 -9.507564 0.869509 -83.815896 0.856361 -82.147683 0.084637 -173.088053
4400.0 0.091691 119.197006 0.85952 173.598449 0.851044 175.846654 0.120519 89.209829
4500.0 0.05097 -87.513682 0.871408 69.64766 0.882139 71.860114 0.092307 -15.831004
4600.0 0.052045 176.672906 0.869003 -35.497295 0.874245 -32.160299 0.164854 133.76396
4700.0 0.194892 -65.331435 0.832331 -138.842424 0.841207 -135.873694 0.154175 30.560997
4800.0 0.15834 62.371978 0.878861 119.61637 0.879604 121.769372 0.170049 -70.290127
4900.0 0.052721 -96.237211 0.874451 12.155356 0.874919 14.836465 0.020514 -132.924392
5000.0 0.100318 104.259292 0.838388 -91.802263 0.849585 -89.613287 0.192195 -16.043449
5100.0 0.180829 -110.825752 0.853828 165.728432 0.856335 167.63815 0.20332 -123.641121
5200.0 0.074585 -49.061192 0.875672 57.872985 0.867779 60.708566 0.138932 123.859923
5300.0 0.14834 2.611291 0.848578 -47.896625 0.854112 -44.367847 0.096437 -39.039725
5400.0 0.031378 168.508978 0.839546 -152.553661 0.844963 -150.102384 0.129684 -155.567817
5500.0 0.129686 84.97081 0.830923 99.354092 0.82493 102.495234 0.175661 66.035798
5600.0 0.277984 -127.347659 0.781986 -3.381384 0.7813 0.663659 0.230611 -58.596946
5700.0 0.152788 18.467849 0.839798 -111.698604 0.839526 -108.276222 0.178559 -141.622527
5800.0 0.184332 -108.592407 0.791467 138.915578 0.798364 143.334151 0.110281 -36.233569
5900.0 0.29255 37.604519 0.761223 32.69994 0.762292 37.211755 0.221158 -97.811325
6000.0 0.202725 -161.860749 0.808392 -75.954651 0.814786 -69.6938 0.101746 116.365884
6100.0 0.079735 8.631067 0.752917 170.991144 0.794597 175.371584 0.282316 -37.70531
6200.0 0.257131 164.663062 0.707662 59.377526 0.757448 63.144076 0.295331 -88.454811
6300.0 0.337058 -65.297119 0.600882 -60.030077 0.688463 -52.736832 0.44852 -87.703803
6400.0 0.310274 95.849431 0.493308 -169.052135 0.576526 -166.847951 0.724818 -121.547695
6500.0 0.63984 -91.200536 0.477671 77.747235 0.444552 77.977456 0.72598 -156.191949
6600.0 0.69986 76.79719 0.353444 -35.96812 0.35956 -27.080471 0.779653 -172.202013
6700.0 0.582692 -104.30721 0.222928 -133.236967 0.270698 -135.53562 0.9007 162.885878
6800.0 0.66384 75.383173 0.195486 128.039227 0.204642 119.331988 0.871743 134.591191
6900.0 0.864603 -112.338726 0.156424 11.433341 0.141845 19.767678 0.814986 115.026823
7000.0 0.735629 68.441486 0.104867 -90.018366 0.122958 -83.635723 0.873136 97.469747
7100.0 0.714909 -103.224699 0.077648 -178.32506 0.089973 172.072718 0.884868 73.16635
7200.0 0.890042 83.062673 0.07296 90.589222 0.073294 77.46989 0.7649 52.976455
7300.0 0.916741 -102.107777 0.055078 -14.459263 0.06868 -11.49057 0.777068 35.450143
7400.0 0.749973 94.020495 0.041784 -103.452705 0.062634 -116.759623 0.911148 10.411561
7500.0 0.800581 -79.016048 0.044906 160.243268 0.053335 136.672433 0.845238 -12.982267
7600.0 1.010249 103.898296 0.045173 56.173815 0.043793 28.817133 0.751446 -27.580648
7700.0 0.929853 -82.152029 0.032186 -54.977188 0.042475 -70.698826 0.827892 -52.590002
7800.0 0.808614 116.406487 0.026624 -142.179835 0.035972 -162.309332 0.879954 -75.662253
7900.0 0.901272 -61.513174 0.019425 95.969431 0.030848 103.816135 0.839931 -84.689574
8000.0 0.968908 113.83994 0.021577 -10.063619 0.022989 14.419525 0.782781 -94.260454
8100.0 0.835364 -65.097493 0.019957 -125.769456 0.02184 -93.642427 0.833319 -118.961309
8200.0 0.842788 133.479698 0.010911 110.27743 0.021045 166.706501 0.873298 -135.424693
8300.0 0.923187 -49.173319 0.007106 -23.885031 0.018202 80.592626 0.85594 -139.428692
8400.0 0.858135 131.981438 0.001857 -144.226245 0.014397 -16.568459 0.839263 -153.439431
8500.0 0.760028 -38.414618 0.00717 -1.954562 0.015176 -128.156273 0.946853 -177.721862
8600.0 0.818933 151.157183 0.007302 -133.481531 0.009426 162.832054 1.003869 175.63369
8700.0 0.875855 -39.880842 0.006222 52.388476 0.01675 69.5196 1.043906 175.631476
8800.0 0.750445 142.711786 0.0065 -57.290884 0.008546 -46.382615 0.988715 160.055633
8900.0 0.685854 -18.014495 0.004893 -165.845894 0.008337 -171.905503 1.149215 130.577106
9000.0 0.643974 170.487461 0.004192 -14.836567 0.011783 86.629677 1.269503 121.774001
9100.0 0.586269 -27.811081 0.007003 -163.455625 0.005356 -33.835534 1.209694 123.891467
9200.0 0.576884 150.036803 0.0051 126.028704 0.00392 -88.61677 1.100022 106.781881
9300.0 0.636123 -1.70941 0.007032 -22.521739 0.003409 22.009022 1.133664 76.045171
9400.0 0.725494 -178.521085 0.008392 -124.683485 0.006829 -29.93817 1.229176 70.499041
9500.0 0.606902 -23.63009 0.015741 127.009296 0.007161 -148.915234 1.241845 72.217316
9600.0 0.671822 161.120733 0.010683 11.182179 0.005617 90.799061 0.968665 56.905299
9700.0 0.925588 10.349999 0.010658 -62.626311 0.006567 -3.794713 0.85216 31.746902
9800.0 0.986868 -175.055025 0.004845 -161.958543 0.003026 -106.779837 0.975836 23.762617
9900.0 0.658606 2.540947 0.001108 77.380624 0.003739 45.977303 0.963592 20.880991
10000.0 0.717754 -179.869482 0.008258 -22.645487 0.001559 -68.599608 0.856131 11.087452
