!Keysight Technologies,N5227B,US57180239,A.12.70.07
!Date: Monday, December 11, 2017 05:03:27
!Correction: S11(Full 4 Port(1,2,3,4)) 
!S12(Full 4 Port(1,2,3,4)) 
!S13(Full 4 Port(1,2,3,4)) 
!S14(Full 4 Port(1,2,3,4)) 
!S21(Full 4 Port(1,2,3,4)) 
!S22(Full 4 Port(1,2,3,4)) 
!S23(Full 4 Port(1,2,3,4)) 
!S24(Full 4 Port(1,2,3,4)) 
!S31(Full 4 Port(1,2,3,4)) 
!S32(Full 4 Port(1,2,3,4)) 
!S33(Full 4 Port(1,2,3,4)) 
!S34(Full 4 Port(1,2,3,4)) 
!S41(Full 4 Port(1,2,3,4)) 
!S42(Full 4 Port(1,2,3,4)) 
!S43(Full 4 Port(1,2,3,4)) 
!S44(Full 4 Port(1,2,3,4)) 
!S4P File: Measurements: <S11,S12,S13,S14>,
!<S21,S22,S23,S24>,
!<S31,S32,S33,S34>,
!<S41,S42,S43,S44>:
# Hz S  dB   R 50

110134529.14798 -55.38118 47.98185 -0.22312424 -176.56613 -111.78905 153.72308 -93.973579 1.5526279
-0.22688352 -176.57584 -50.34948 31.59613 -91.258453 -89.928177 -93.819946 29.759029
-104.39279 14.369125 -107.73241 -53.265961 -41.710579 127.78888 -0.22936776 -176.57207
-100.19972 18.519943 -106.04877 13.260747 -0.22968197 -176.57126 -38.661552 38.984295
210269058.29596 -67.317612 144.35214 -0.30787423 23.768541 -91.862221 -161.83897 -106.47507 21.657827
-0.31139624 23.76848 -63.203983 113.0544 -94.919365 121.09959 -101.22655 -160.50169
-101.25671 165.1113 -91.248253 32.097076 -52.420582 -4.2456431 -0.31443581 23.763727
-104.06444 -115.7914 -117.19685 123.97607 -0.31508699 23.752413 -55.191879 -114.42676
310403587.44395 -50.442028 -78.711662 -0.3744795 -135.76256 -90.817604 -51.994797 -94.015411 -115.62483
-0.37831345 -135.77069 -50.14349 -85.291145 -88.716255 -137.55196 -87.731514 73.021065
-103.94928 131.17198 -90.005486 90.232445 -43.780823 -133.86258 -0.38117418 -135.79353
-97.047615 103.42767 -102.35355 -94.605141 -0.3818554 -135.79594 -49.879627 45.145702
410538116.59193 -41.865467 -58.614845 -0.43350714 64.766548 -93.034782 131.75558 -95.838882 121.92435
-0.43604058 64.76368 -42.189007 -49.597286 -92.157913 -59.111885 -90.055832 -6.0120754
-86.221916 34.483528 -89.192642 -176.67389 -39.864799 -22.146791 -0.43949175 64.742561
-94.736176 27.607162 -90.950775 11.121673 -0.44191289 64.73658 -37.77552 -63.223625
510672645.73991 -38.246441 -35.226089 -0.48546842 -94.661545 -93.29525 -154.75502 -89.270012 -139.88002
-0.48909155 -94.663391 -37.842098 -35.736252 -88.694832 -118.81005 -97.100166 -140.00417
-94.265862 132.7254 -85.846558 -82.589989 -36.387478 -41.375553 -0.49324468 -94.691452
-88.641502 -109.96815 -90.910805 -79.757904 -0.49626854 -94.704491 -37.864101 -23.018669
610807174.88789 -36.122383 -12.793131 -0.53553224 105.93989 -100.94322 -170.93062 -101.78603 166.45943
-0.53959024 105.93327 -34.93478 -19.896505 -90.627388 150.49585 -94.976616 -71.122108
-98.478203 123.43504 -93.493721 -154.62383 -34.152431 4.5174875 -0.5453977 105.90381
-94.184174 -64.9067 -92.212639 158.47086 -0.54614323 105.89877 -32.162811 -22.316746
710941704.03587 -35.285492 8.0066786 -0.58339721 -53.426155 -96.358475 142.4791 -93.502968 46.439285
-0.5869835 -53.432514 -33.716942 -2.2656891 -90.617447 138.63089 -94.232445 151.39497
-92.71183 120.05788 -96.348717 -132.88248 -33.722897 16.648699 -0.59195155 -53.461174
-98.927773 -8.6846762 -91.717529 -133.53973 -0.59398341 -53.477863 -31.937626 -2.5740335
811076233.18386 -34.26049 29.368656 -0.62543666 147.23625 -87.533386 121.11494 -90.453171 -120.13036
-0.6295265 147.21956 -33.45042 20.241972 -90.576569 -113.98911 -94.202133 18.526106
-97.814011 -146.58228 -105.15078 6.8278809 -33.398987 23.994993 -0.63571787 147.18733
-96.576241 -156.6951 -93.77401 -157.32339 -0.63754004 147.17363 -33.343109 23.337469
911210762.33184 -36.476166 42.059299 -0.6673333 -12.092516 -93.667068 3.117331 -96.875069 -128.04659
-0.67101502 -12.100808 -35.881962 35.482479 -95.249985 -78.897903 -92.518158 -113.70924
-94.63903 138.71147 -91.004074 20.466805 -36.74482 49.321159 -0.6763134 -12.149896
-96.108917 149.14531 -93.092964 147.66217 -0.67640936 -12.166414 -34.601612 30.865911
1011345291.4798 -38.708107 44.412281 -0.70437109 -171.3989 -97.002625 -21.219618 -90.206841 -97.917862
-0.70888424 -171.4118 -43.047852 70.880249 -97.014252 -30.728615 -94.534996 3.3015683
-96.198868 -84.519447 -87.80722 -26.736151 -40.135513 41.349445 -0.71209031 -171.45947
-100.39359 -2.6750481 -93.692108 -35.990494 -0.71358603 -171.48024 -42.689644 56.048977
1111479820.6278 -54.75132 14.18633 -0.73937327 29.308256 -115.64011 -56.15456 -90.942207 -91.112656
-0.74458027 29.295979 -55.423237 -19.295025 -101.98982 123.083 -91.891136 -28.180964
-99.140465 105.56107 -99.129486 86.037178 -66.704781 87.300301 -0.74884057 29.24127
-92.005417 88.353455 -95.819519 46.069187 -0.75062513 29.218685 -49.708485 36.851501
1211614349.7758 -39.347748 -40.646179 -0.77365196 -129.97331 -88.992371 61.437019 -95.060272 141.63979
-0.77804208 -129.97874 -36.924873 -76.543892 -94.998512 -114.26904 -112.79727 78.412125
-99.853073 -5.3645034 -98.8536 -65.698654 -39.527893 -32.604858 -0.78157192 -130.04041
-91.409576 63.579357 -98.549171 152.72968 -0.78454322 -130.06174 -36.912117 -80.660774
1311748878.9238 -36.094307 -43.746037 -0.80670643 70.757629 -92.404274 -175.76485 -116.4093 64.970825
-0.81115431 70.753891 -34.159481 -61.421093 -92.759689 -17.310307 -95.849968 -160.77647
-94.892822 -155.46051 -96.17379 134.33339 -36.044544 -51.267742 -0.81497884 70.681839
-94.046844 58.931644 -107.87039 61.732246 -0.81710237 70.661438 -35.005592 -58.022587
1411883408.0717 -33.907993 -34.709251 -0.84010518 -88.49662 -103.77767 -111.9847 -95.183083 -156.10379
-0.84355849 -88.514809 -32.962578 -41.51284 -92.606888 -67.797562 -99.164764 144.54495
-100.05856 -71.666191 -91.590103 91.17926 -33.593719 -16.202106 -0.84824413 -88.571518
-102.01554 2.1383483 -91.912712 128.25119 -0.85034066 -88.601318 -30.672211 -45.152897
1512017937.2197 -32.390511 -18.808254 -0.87137252 112.25447 -90.670189 158.76414 -97.326317 -71.661469
-0.87449741 112.23121 -32.560997 -18.846312 -90.559181 -144.80312 -89.067162 109.16981
-94.129387 -85.829079 -90.489166 78.750221 -31.421785 -9.9754152 -0.87967902 112.16806
-98.900536 145.25301 -98.953857 -13.085536 -0.88247192 112.13123 -31.02285 -15.49395
1612152466.3677 -32.988297 1.4076394 -0.90231711 -46.996487 -90.735596 -21.628325 -98.773262 -93.42321
-0.90482241 -47.018547 -33.203705 -0.087941587 -91.813965 120.66489 -97.743004 28.86455
-108.05979 81.341583 -90.237564 -66.464066 -32.080521 9.7859344 -0.91044885 -47.08884
-104.15454 -6.7664962 -101.5683 -56.960175 -0.9153204 -47.1273 -31.44928 3.4144123
1712286995.5157 -34.731716 13.993187 -0.93075192 153.75911 -101.37442 -118.26063 -92.529518 74.12233
-0.93477243 153.7326 -37.095638 23.581766 -102.93889 -14.108384 -98.047241 107.47687
-91.984924 94.755264 -96.040207 -45.407478 -33.91238 18.137726 -0.93915373 153.65971
-97.401291 -39.050514 -90.056389 -50.739677 -0.94387114 153.62526 -35.355469 27.555334
1812421524.6637 -38.229733 26.441841 -0.95705146 -5.4772687 -98.072533 -92.402733 -98.410667 98.853722
-0.96250498 -5.510633 -44.087696 63.145737 -94.054337 -53.406658 -102.09509 77.778763
-93.462997 -20.655521 -106.05824 25.48378 -40.182129 31.217745 -0.96565592 -5.579689
-94.872627 31.876909 -98.067886 -88.156372 -0.97301 -5.6090155 -41.613777 37.329411
1912556053.8117 -50.214596 -1.1938628 -0.9814738 -164.70711 -93.096664 -178.72679 -97.360283 45.106674
-0.98722827 -164.7384 -51.272194 -143.55937 -90.679619 -149.29214 -95.771164 153.93634
-94.162498 -22.817045 -91.480057 126.82525 -45.509052 -26.641624 -0.99049217 -164.8078
-90.748589 94.286026 -98.848648 121.08727 -0.99672657 -164.83951 -46.583523 -115.17998
2012690582.9596 -40.865295 -71.986374 -1.0049039 36.069626 -96.659149 108.84058 -109.31661 36.934189
-1.0125624 36.03175 -39.763218 -84.679634 -98.805016 -20.734076 -94.381302 159.21867
-92.828743 -114.53234 -93.449394 -63.017643 -45.228256 -30.953899 -1.0161228 35.950638
-97.63736 156.86644 -92.854836 -28.900412 -1.0218166 35.9244 -39.437351 -116.18884
2112825112.1076 -35.081348 -52.079613 -1.0300897 -123.15582 -90.909843 3.2197649 -91.707222 32.132221
-1.0376964 -123.19128 -33.671249 -70.988014 -96.785072 160.96178 -91.147972 85.950966
-93.441246 76.583725 -96.161591 42.389072 -34.746437 -46.687454 -1.0421268 -123.26849
-99.006363 -132.01749 -95.770935 -174.79866 -1.0470319 -123.29161 -33.212425 -70.53511
2212959641.2556 -32.73938 -28.182581 -1.0566559 77.626549 -93.573959 151.17119 -91.862526 53.900928
-1.064904 77.58812 -30.911552 -55.757179 -91.939796 163.72871 -88.535019 -19.806715
-99.634041 80.763382 -99.573227 -2.7077603 -32.826721 -50.446644 -1.0659637 77.504517
-103.02507 0.15303601 -102.21584 146.58684 -1.0729948 77.485764 -33.846756 -43.333721
2313094170.4036 -32.940445 -44.232754 -1.0804267 -81.594917 -96.397957 -60.05051 -100.78696 -21.921703
-1.0895348 -81.636444 -36.333927 -31.519615 -93.425407 128.95839 -93.691788 112.43665
-95.92672 6.9234343 -95.507698 -61.985428 -31.475834 -25.642546 -1.0926024 -81.715309
-98.502693 66.69313 -87.417969 -153.90805 -1.0998837 -81.74189 -32.186752 -20.531885
2413228699.5516 -31.856363 -11.981946 -1.1074872 119.18809 -93.499725 15.45218 -92.50322 -157.76195
-1.1176805 119.15299 -34.148643 5.5810766 -90.691666 -1.095803 -98.539841 -87.845757
-99.875999 62.314575 -96.884735 -106.88953 -34.426388 -12.989101 -1.1146791 119.05409
-94.043289 19.192423 -96.839188 -92.903282 -1.1223409 119.03474 -34.948486 -11.72596
2513363228.6996 -35.490433 -24.391672 -1.1299608 -40.021976 -95.586411 63.946171 -96.650642 -124.12714
-1.13978 -40.058327 -47.096535 26.066677 -91.97567 83.780418 -96.695488 -72.582458
-92.273544 101.02425 -104.25863 -153.9761 -33.017124 15.665344 -1.1409134 -40.165482
-95.933563 62.336998 -100.72235 -61.678329 -1.1475546 -40.183792 -34.309425 32.289112
2613497757.8475 -42.448074 -23.013494 -1.151804 160.77298 -94.434959 38.561287 -92.286964 -68.124222
-1.1635201 160.73492 -68.449669 -19.84597 -103.51591 61.62278 -92.886536 159.37135
-96.564491 62.368397 -86.290497 -55.791283 -37.573608 -5.3892074 -1.1616871 160.6221
-91.291382 167.32397 -97.612793 77.787529 -1.1687386 160.60135 -46.352642 111.53705
2713632286.9955 -54.789474 -16.659023 -1.1745905 1.5644251 -108.87413 117.34533 -86.04187 -155.26714
-1.1871661 1.5338845 -48.474724 173.84377 -96.060387 114.37125 -97.719193 92.886879
-95.007767 -69.203468 -99.313599 -48.016666 -46.975639 105.98431 -1.1843334 1.4046739
-86.159019 176.38229 -95.17115 -52.856804 -1.192649 1.3834771 -45.516369 75.178047
2813766816.1435 -33.824646 -97.925507 -1.1966529 -157.62186 -89.240593 43.723633 -99.852592 69.343979
-1.2085996 -157.64296 -35.625717 -72.270592 -94.196777 40.827087 -91.675385 20.051762
-99.215637 118.19821 -93.607872 -128.10776 -34.778187 -86.384171 -1.2053076 -157.77356
-95.01107 -129.88182 -92.056046 -127.30312 -1.2136778 -157.79077 -35.485886 -78.271057
2913901345.2915 -38.591316 -77.380722 -1.2182158 43.180882 -87.768707 65.900742 -93.69986 -114.80498
-1.2306741 43.16127 -36.119465 -100.33493 -97.707443 -86.483368 -95.612602 160.90735
-97.826019 97.241295 -95.852501 -123.66982 -33.947544 -95.004974 -1.2273041 43.011181
-96.5793 30.30168 -92.162804 7.5629697 -1.2358769 43.000759 -37.482964 -54.839466
3014035874.4395 -34.675995 -54.703316 -1.241392 -116.00532 -92.42366 116.06432 -95.950233 157.74957
-1.2530181 -116.02582 -34.504726 -65.681259 -90.322304 -13.271173 -90.189713 95.655083
-91.072517 142.80704 -97.798203 -132.52657 -35.80859 -67.894547 -1.2496452 -116.1889
-96.330978 57.696754 -99.476753 -125.95977 -1.259001 -116.19574 -36.33403 -60.781719
3114170403.5874 -34.247665 -59.848125 -1.2627149 84.801414 -95.71653 -66.968307 -86.758842 2.1188304
-1.2739098 84.786942 -39.291824 -29.380209 -97.428085 2.9911547 -95.131004 137.99684
-94.617203 -177.92256 -95.950859 89.09623 -34.307552 -40.894604 -1.272684 84.617722
-100.90994 112.94038 -97.595879 60.993488 -1.282389 84.614708 -34.940258 -31.729689
3214304932.7354 -39.607765 -27.327026 -1.2825984 -74.400497 -104.23661 -11.077475 -89.79892 -18.551535
-1.2949699 -74.402451 -39.186317 -35.407787 -98.939667 151.71216 -94.235535 99.639458
-93.323463 166.47142 -93.225433 -158.21478 -36.816124 -16.785318 -1.29278 -74.58213
-97.373489 48.256802 -92.141769 129.0871 -1.3004854 -74.585976 -36.363171 -16.087347
3314439461.8834 -36.154289 -21.418432 -1.3043118 126.41528 -86.391853 -103.82724 -91.199356 147.27414
-1.3146423 126.41516 -41.026554 57.215073 -90.278999 162.34972 -109.61233 111.59657
-90.919403 -65.317787 -93.266769 105.04478 -35.544224 19.31933 -1.3140821 126.22718
-96.434692 -105.93924 -96.429886 -135.03334 -1.3228633 126.21793 -35.304684 15.827427
3414573991.0314 -42.435753 -119.67854 -1.3222035 -32.765003 -90.782585 175.52632 -90.352257 -169.99306
-1.3327111 -32.75692 -43.356564 -107.06923 -92.117714 175.78929 -92.350914 44.542797
-98.800232 145.30074 -98.300713 -45.950943 -41.406246 14.590608 -1.3341678 -32.961273
-91.577751 66.099495 -93.358932 16.375628 -1.341415 -32.969296 -43.172634 59.423321
3514708520.1794 -46.083946 -36.183388 -1.3423446 168.04787 -95.788445 47.632065 -96.625443 115.90298
-1.3528641 168.0556 -40.34436 172.91783 -98.678963 63.778114 -100.28919 -139.43428
-102.36253 -36.597157 -96.780571 -0.90882039 -44.171154 -138.42398 -1.3521926 167.86337
-93.769775 93.393547 -100.58342 -63.753506 -1.3584087 167.85616 -46.868374 -74.985283
3614843049.3274 -41.822922 -104.62569 -1.3612152 8.8685427 -96.366219 -143.6857 -114.54777 -164.02571
-1.3700601 8.8792191 -41.962448 -131.59677 -97.100449 111.22443 -94.71389 -135.8091
-93.119194 -13.881727 -101.735 147.755 -41.995716 -155.04326 -1.3715733 8.6681995
-96.147179 162.84198 -95.83844 17.039501 -1.379047 8.6658583 -55.382481 -51.893375
3714977578.4753 -34.710609 -101.58599 -1.3800993 -150.298 -94.683945 11.761508 -89.909904 -123.788
-1.3902067 -150.29636 -38.005512 -63.475639 -95.76339 -48.502216 -107.78162 -136.87033
-90.447311 -125.91261 -93.739059 28.754116 -36.189175 -95.338425 -1.3912722 -150.5002
-87.621567 -113.8653 -94.458046 -71.539948 -1.3982196 -150.49892 -38.092365 -66.367325
3815112107.6233 -51.97934 -83.258705 -1.397952 50.510246 -90.37191 -23.38788 -111.5247 -128.79819
-1.4077293 50.522873 -39.063431 -123.82678 -94.180908 -112.44212 -93.164543 140.80728
-95.228386 -92.638893 -97.77697 10.887748 -33.602688 -88.266853 -1.4112738 50.317154
-91.729019 94.521088 -97.303551 -167.26921 -1.4167682 50.317471 -36.031761 -25.792448
3915246636.7713 -38.653412 -54.93605 -1.4165618 -108.66323 -98.895447 -160.73514 -101.98928 87.113113
-1.4270055 -108.65505 -41.654018 -37.690807 -97.668465 -66.009567 -99.311951 26.999435
-91.711761 -70.155869 -93.68705 57.150539 -37.89962 -48.365334 -1.4295218 -108.86466
-90.23452 105.99822 -88.862862 -106.68251 -1.4350221 -108.85876 -36.879917 -38.558105
4015381165.9193 -37.218063 -40.688789 -1.4351356 92.161469 -100.21346 -79.235947 -99.338737 -172.20491
-1.4441341 92.170975 -40.345032 14.761405 -95.906052 -168.75137 -107.23289 -48.732143
-104.0962 6.6704683 -102.44001 -148.74934 -41.14798 2.0651474 -1.446141 91.953415
-88.677414 -114.1262 -97.962448 46.724552 -1.4526004 91.963806 -37.534935 -37.02388
4115515695.0673 -39.302532 -63.076763 -1.45257 -67.017967 -97.758064 33.118774 -92.234879 178.94138
-1.4611686 -67.010048 -42.349869 99.753815 -98.473648 -157.61354 -91.37043 -29.226902
-105.84057 35.396538 -93.799232 171.8243 -41.849785 24.999243 -1.4642129 -67.23304
-95.612587 78.696274 -99.254395 -83.324585 -1.4697099 -67.222572 -39.54184 -5.8300667
4215650224.2152 -49.477333 -89.468925 -1.469389 133.8087 -102.45218 -86.633011 -89.896004 -95.884583
-1.4789153 133.81277 -49.902397 140.76076 -98.62191 -138.07687 -94.345871 148.38097
-94.805984 -5.0293846 -99.941605 28.411551 -45.319687 77.20163 -1.4810122 133.58205
-95.350548 19.623837 -99.692581 158.56129 -1.488225 133.59459 -43.071625 8.7320719
4315784753.3632 -63.832062 70.161674 -1.4863206 -25.360418 -97.734924 4.5035815 -88.962959 -75.047646
-1.4961417 -25.350418 -49.29583 108.58027 -92.75882 -26.356028 -105.24438 141.5999
-90.308609 126.07549 -93.828247 -83.783714 -42.433575 121.32173 -1.4977627 -25.591616
-90.170639 162.25073 -101.91017 50.66621 -1.5046719 -25.576712 -43.234844 16.948673
4415919282.5112 -41.579742 -106.81995 -1.5034211 175.47871 -96.893929 -76.403542 -97.919731 -79.819954
-1.5134411 175.48299 -42.771088 -106.08523 -97.446251 -143.06435 -105.59396 -84.832436
-98.03923 53.326138 -95.972511 -160.18925 -42.206638 177.26384 -1.5146303 175.23747
-118.38148 160.13844 -93.752716 117.88625 -1.522626 175.24965 -45.197342 -13.153574
4516053811.6592 -41.384373 -59.793121 -1.5219324 16.306297 -98.250496 -137.59735 -100.48078 43.868534
-1.5313178 16.309038 -40.326294 -117.18218 -96.691551 -101.5475 -108.59922 -98.169121
-93.617088 110.08331 -92.307785 35.740761 -38.404472 -125.28632 -1.5335802 16.070961
-93.860588 -148.78423 -88.487495 -97.107315 -1.5406979 16.0872 -39.094303 -39.621899
4616188340.8072 -44.350773 -122.27842 -1.5378882 -142.86224 -91.855164 126.21153 -93.240219 5.1407733
-1.5468848 -142.85835 -55.919544 30.133446 -92.655075 -43.151279 -100.79768 32.450291
-96.49234 120.67234 -99.21209 105.82557 -40.865276 -128.71068 -1.5497739 -143.1095
-93.322334 -66.222221 -94.556976 -71.251892 -1.5573399 -143.09769 -41.853714 -6.0363274
4716322869.9552 -40.026657 -124.04607 -1.5553579 57.967522 -89.193008 174.79543 -92.486992 31.194687
-1.5658196 57.974354 -41.335609 63.506615 -93.223892 -173.82997 -89.804123 4.9578309
-88.94873 -76.889877 -91.297775 77.005692 -38.770565 -26.890797 -1.5668314 57.724243
-117.75526 33.030056 -95.920479 -155.03087 -1.5749973 57.744072 -36.228508 -44.516434
4816457399.1031 -44.386864 -39.684559 -1.5714545 -101.20163 -95.652229 -11.98595 -93.071533 -15.797894
-1.5820607 -101.19511 -43.94495 16.21759 -95.806831 110.28341 -95.150543 -57.87326
-99.80423 -111.06922 -102.50519 90.895805 -44.258274 9.6769161 -1.5826628 -101.46208
-104.99167 -118.16254 -92.866951 93.767471 -1.5898689 -101.44001 -40.447414 -33.478565
4916591928.2511 -40.737087 -36.19735 -1.5872771 99.631905 -91.053329 -154.15598 -90.319176 95.043663
-1.597634 99.634895 -40.693703 52.368519 -91.856377 15.856353 -103.38004 -67.795288
-96.895309 65.724197 -102.75117 -111.54677 -35.504837 47.459404 -1.6000777 99.363373
-94.388435 20.972462 -98.484268 -78.388016 -1.6067703 99.381325 -34.616459 -24.884958
5016726457.3991 -45.027824 -65.195023 -1.6042775 -59.525925 -95.779312 -47.156116 -88.9981 160.1344
-1.6132437 -59.527149 -46.247734 111.34451 -94.196373 128.18378 -89.933281 24.914074
-90.419678 78.460388 -89.021179 34.630459 -37.333275 82.307823 -1.615613 -59.802807
-101.17924 -13.260045 -97.709175 164.46211 -1.6223376 -59.785946 -36.689468 -25.078522
5116860986.5471 -47.352184 82.853493 -1.6203041 141.31367 -94.171074 -93.012238 -90.583817 52.925449
-1.6286371 141.31378 -44.551563 15.30585 -101.35107 -145.25339 -102.2719 71.997566
-96.620934 72.764725 -95.914955 -68.973831 -39.109371 82.812233 -1.6312914 141.02107
-93.045044 89.68335 -89.124367 -143.50414 -1.6395797 141.04112 -38.506081 5.7331309
5216995515.6951 -43.271202 24.92939 -1.6354953 -17.851629 -92.274811 -164.97452 -92.780571 -121.03831
-1.6453286 -17.848454 -44.015682 88.516914 -102.40692 -4.1015754 -97.748405 -93.678757
-105.00952 -103.88599 -90.231026 150.32169 -38.349728 158.48874 -1.6487887 -18.143003
-99.557228 -143.24669 -88.118576 124.15679 -1.6549758 -18.114151 -35.839088 -27.395645
5317130044.843 -48.344799 -54.912971 -1.6514394 -177.01639 -91.99437 164.5213 -98.452919 -90.92971
-1.6611012 -176.99457 -53.155544 -23.872408 -104.85023 -160.96545 -99.46386 138.26431
-103.35151 26.778349 -90.196892 -127.59504 -48.589417 -12.869457 -1.6636515 -177.29921
-91.849228 -2.4989192 -93.247787 86.210091 -1.6702766 -177.26982 -45.505795 -82.786758
5417264573.991 -42.737217 -118.84394 -1.6674552 23.826532 -94.486237 7.5369873 -88.925293 156.62842
