! File created by SignalIntegrity v1.1.13: Signal and Power Integrity Tools
! https://github.com/TeledyneLeCroy/SignalIntegrity
# MHz S MA R 50.0
0.0 4e-06 0.0 0.999985 0.0 0.999985 0.0 4e-06 0.0
50.0 0.013966 72.545596 0.995056 -6.387487 0.995056 -6.387487 0.013966 72.545596
100.0 0.025189 70.22753 0.992221 -12.646093 0.992221 -12.646093 0.025189 70.22753
150.0 0.035739 66.012913 0.989655 -18.880915 0.989655 -18.880915 0.035739 66.012913
200.0 0.045676 61.101863 0.987197 -25.101076 0.987197 -25.101076 0.045676 61.101863
250.0 0.054955 55.84577 0.984798 -31.309658 0.984798 -31.309658 0.054955 55.84577
300.0 0.06351 50.392105 0.982443 -37.508042 0.982443 -37.508042 0.06351 50.392105
350.0 0.071267 44.81561 0.980132 -43.697032 0.980132 -43.697032 0.071267 44.81561
400.0 0.078156 39.158954 0.977875 -49.877271 0.977875 -49.877271 0.078156 39.158954
450.0 0.084116 33.448594 0.975682 -56.049426 0.975682 -56.049426 0.084116 33.448594
500.0 0.089091 27.701993 0.973567 -62.214273 0.973567 -62.214273 0.089091 27.701993
550.0 0.093036 21.931291 0.971544 -68.37273 0.971544 -68.37273 0.093036 21.931291
600.0 0.095917 16.145358 0.969623 -74.525857 0.969623 -74.525857 0.095917 16.145358
650.0 0.097711 10.351063 0.967812 -80.674837 0.967812 -80.674837 0.097711 10.351063
700.0 0.098405 4.554129 0.966118 -86.820945 0.966118 -86.820945 0.098405 4.554129
750.0 0.097998 -1.240201 0.964542 -92.965509 0.964542 -92.965509 0.097998 -1.240201
800.0 0.0965 -7.026583 0.963081 -99.109857 0.963081 -99.109857 0.0965 -7.026583
850.0 0.093932 -12.798949 0.96173 -105.255275 0.96173 -105.255275 0.093932 -12.798949
900.0 0.090327 -18.549766 0.960477 -111.402955 0.960477 -111.402955 0.090327 -18.549766
950.0 0.085726 -24.268994 0.95931 -117.553944 0.95931 -117.553944 0.085726 -24.268994
1000.0 0.080185 -29.94251 0.958212 -123.70911 0.958212 -123.70911 0.080185 -29.94251
1050.0 0.073768 -35.549472 0.957164 -129.869103 0.957164 -129.869103 0.073768 -35.549472
1100.0 0.066549 -41.057572 0.956144 -136.034328 0.956144 -136.034328 0.066549 -41.057572
1150.0 0.058615 -46.413768 0.955134 -142.204932 0.955134 -142.204932 0.058615 -46.413768
1200.0 0.05006 -51.524349 0.95411 -148.380799 0.95411 -148.380799 0.05006 -51.524349
1250.0 0.040992 -56.206521 0.953054 -154.561553 0.953054 -154.561553 0.040992 -56.206521
1300.0 0.031534 -60.04958 0.951948 -160.746582 0.951948 -160.746582 0.031534 -60.04958
1350.0 0.02185 -61.904542 0.950777 -166.935061 0.950777 -166.935061 0.02185 -61.904542
1400.0 0.012271 -57.036544 0.949529 -173.125998 0.949529 -173.125998 0.012271 -57.036544
1450.0 0.005118 -8.990282 0.948196 -179.318275 0.948196 -179.318275 0.005118 -8.990282
1500.0 0.010348 57.999547 0.946776 174.489297 0.946776 174.489297 0.010348 57.999547
1550.0 0.019661 66.227738 0.945269 168.297921 0.945269 168.297921 0.019661 66.227738
1600.0 0.029132 65.135485 0.94368 162.108759 0.94368 162.108759 0.029132 65.135485
1650.0 0.038332 61.586538 0.942019 155.922878 0.942019 155.922878 0.038332 61.586538
1700.0 0.047089 57.060406 0.940298 149.741202 0.940298 149.741202 0.047089 57.060406
1750.0 0.055281 52.054698 0.938534 143.564467 0.938534 143.564467 0.055281 52.054698
1800.0 0.062807 46.783125 0.936743 137.393192 0.936743 137.393192 0.062807 46.783125
1850.0 0.069582 41.352914 0.934944 131.227657 0.934944 131.227657 0.069582 41.352914
1900.0 0.075529 35.824102 0.933158 125.06789 0.933158 125.06789 0.075529 35.824102
1950.0 0.080587 30.233245 0.931401 118.913671 0.931401 118.913671 0.080587 30.233245
2000.0 0.084701 24.604239 0.929692 112.764542 0.929692 112.764542 0.084701 24.604239
2050.0 0.087831 18.953789 0.928046 106.619832 0.928046 106.619832 0.087831 18.953789
2100.0 0.089948 13.294454 0.926475 100.478686 0.926475 100.478686 0.089948 13.294454
2150.0 0.091033 7.636514 0.924988 94.340107 0.924988 94.340107 0.091033 7.636514
2200.0 0.091079 1.989274 0.923591 88.203 0.923591 88.203 0.091079 1.989274
2250.0 0.090091 -3.637883 0.922286 82.066221 0.922286 82.066221 0.090091 -3.637883
2300.0 0.088084 -9.23446 0.92107 75.928625 0.92107 75.928625 0.088084 -9.23446
2350.0 0.085086 -14.787637 0.919937 69.789123 0.919937 69.789123 0.085086 -14.787637
2400.0 0.081132 -20.280632 0.918878 63.64672 0.918878 63.64672 0.081132 -20.280632
2450.0 0.076272 -25.69023 0.91788 57.500569 0.91788 57.500569 0.076272 -25.69023
2500.0 0.070566 -30.98272 0.91693 51.35 0.91693 51.35 0.070566 -30.98272
2550.0 0.064083 -36.106726 0.916009 45.194552 0.916009 45.194552 0.064083 -36.106726
2600.0 0.056906 -40.979543 0.9151 39.033996 0.9151 39.033996 0.056906 -40.979543
2650.0 0.049129 -45.458816 0.914185 32.86834 0.914185 32.86834 0.049129 -45.458816
2700.0 0.040864 -49.277295 0.913247 26.697831 0.913247 26.697831 0.040864 -49.277295
2750.0 0.032253 -51.870487 0.912269 20.522943 0.912269 20.522943 0.032253 -51.870487
2800.0 0.02351 -51.82899 0.911238 14.344353 0.911238 14.344353 0.02351 -51.82899
2850.0 0.015114 -44.685446 0.910142 8.162911 0.910142 8.162911 0.015114 -44.685446
2900.0 0.008997 -13.990231 0.908973 1.979599 0.908973 1.979599 0.008997 -13.990231
2950.0 0.010742 37.132893 0.907726 -4.204514 0.907726 -4.204514 0.010742 37.132893
3000.0 0.018121 55.579573 0.906402 -10.388325 0.906402 -10.388325 0.018121 55.579573
3050.0 0.026612 59.070826 0.905002 -16.570747 0.905002 -16.570747 0.026612 59.070826
3100.0 0.035149 57.864873 0.903534 -22.750759 0.903534 -22.750759 0.035149 57.864873
3150.0 0.043405 54.745149 0.902007 -28.927453 0.902007 -28.927453 0.043405 54.745149
3200.0 0.051209 50.682437 0.900435 -35.100076 0.900435 -35.100076 0.051209 50.682437
3250.0 0.058438 46.094815 0.898831 -41.268065 0.898831 -41.268065 0.058438 46.094815
3300.0 0.064998 41.190891 0.897213 -47.431067 0.897213 -47.431067 0.064998 41.190891
3350.0 0.070807 36.086528 0.895597 -53.588956 0.895597 -53.588956 0.070807 36.086528
3400.0 0.075797 30.851659 0.893999 -59.741837 0.893999 -59.741837 0.075797 30.851659
3450.0 0.079913 25.531534 0.892436 -65.890036 0.892436 -65.890036 0.079913 25.531534
3500.0 0.083112 20.157378 0.890921 -72.034084 0.890921 -72.034084 0.083112 20.157378
3550.0 0.085359 14.75221 0.889466 -78.174694 0.889466 -78.174694 0.085359 14.75221
3600.0 0.086635 9.334319 0.88808 -84.312721 0.88808 -84.312721 0.086635 9.334319
3650.0 0.086928 3.919557 0.88677 -90.449131 0.88677 -90.449131 0.086928 3.919557
3700.0 0.08624 -1.47693 0.885539 -96.584948 0.885539 -96.584948 0.08624 -1.47693
3750.0 0.084582 -6.839145 0.884385 -102.721215 0.884385 -102.721215 0.084582 -6.839145
3800.0 0.081977 -12.148567 0.883304 -108.858944 0.883304 -108.858944 0.081977 -12.148567
3850.0 0.078459 -17.38201 0.882291 -114.999073 0.882291 -114.999073 0.078459 -17.38201
3900.0 0.074073 -22.508528 0.881334 -121.142422 0.881334 -121.142422 0.074073 -22.508528
3950.0 0.068874 -27.484486 0.880422 -127.289657 0.880422 -127.289657 0.068874 -27.484486
4000.0 0.06293 -32.245117 0.87954 -133.441265 0.87954 -133.441265 0.06293 -32.245117
4050.0 0.056321 -36.68896 0.878673 -139.597526 0.878673 -139.597526 0.056321 -36.68896
4100.0 0.049142 -40.646953 0.877805 -145.758504 0.877805 -145.758504 0.049142 -40.646953
4150.0 0.041511 -43.81532 0.876921 -151.924043 0.876921 -151.924043 0.041511 -43.81532
4200.0 0.033583 -45.593473 0.876007 -158.093779 0.876007 -158.093779 0.033583 -45.593473
4250.0 0.025605 -44.640235 0.875048 -164.26715 0.875048 -164.26715 0.025605 -44.640235
4300.0 0.018092 -37.525834 0.874036 -170.443429 0.874036 -170.443429 0.018092 -37.525834
4350.0 0.012533 -15.764453 0.872961 -176.621754 0.872961 -176.621754 0.012533 -15.764453
4400.0 0.012307 21.446741 0.871818 177.19883 0.871818 177.19883 0.012307 21.446741
4450.0 0.017589 44.494201 0.870607 171.019325 0.870607 171.019325 0.017589 44.494201
4500.0 0.024941 52.230007 0.869328 164.840735 0.869328 164.840735 0.024941 52.230007
4550.0 0.032765 53.463509 0.867987 158.664016 0.867987 158.664016 0.032765 53.463509
4600.0 0.040517 51.845159 0.866591 152.490037 0.866591 152.490037 0.040517 51.845159
4650.0 0.047944 48.792677 0.865151 146.319534 0.865151 146.319534 0.047944 48.792677
4700.0 0.054894 44.936053 0.863679 140.153082 0.863679 140.153082 0.054894 44.936053
4750.0 0.061253 40.592328 0.862189 133.991069 0.862189 133.991069 0.061253 40.592328
4800.0 0.066933 35.937638 0.860696 127.833675 0.860696 127.833675 0.066933 35.937638
4850.0 0.071859 31.077933 0.859214 121.680875 0.859214 121.680875 0.071859 31.077933
4900.0 0.075973 26.081387 0.857758 115.532435 0.857758 115.532435 0.075973 26.081387
4950.0 0.079228 20.994656 0.85634 109.387924 0.85634 109.387924 0.079228 20.994656
5000.0 0.081588 15.851731 0.854971 103.246743 0.854971 103.246743 0.081588 15.851731
5050.0 0.083029 10.679136 0.853661 97.108146 0.853661 97.108146 0.083029 10.679136
5100.0 0.083538 5.499278 0.852416 90.971278 0.852416 90.971278 0.083538 5.499278
5150.0 0.083113 0.332877 0.851239 84.835213 0.851239 84.835213 0.083113 0.332877
5200.0 0.081762 -4.798986 0.85013 78.698998 0.85013 78.698998 0.081762 -4.798986
5250.0 0.079505 -9.872792 0.849087 72.561694 0.849087 72.561694 0.079505 -9.872792
5300.0 0.076373 -14.860072 0.848105 66.422418 0.848105 66.422418 0.076373 -14.860072
5350.0 0.072408 -19.72392 0.847175 60.280384 0.847175 60.280384 0.072408 -19.72392
5400.0 0.067662 -24.413641 0.846287 54.134934 0.846287 54.134934 0.067662 -24.413641
5450.0 0.0622 -28.855849 0.84543 47.985574 0.84543 47.985574 0.0622 -28.855849
5500.0 0.056101 -32.938663 0.84459 41.83199 0.84459 41.83199 0.056101 -32.938663
5550.0 0.049461 -36.481676 0.843753 35.674064 0.843753 35.674064 0.049461 -36.481676
5600.0 0.042401 -39.174656 0.842905 29.511879 0.842905 29.511879 0.042401 -39.174656
5650.0 0.035085 -40.442146 0.842034 23.345716 0.842034 23.345716 0.035085 -40.442146
5700.0 0.027772 -39.121965 0.841127 17.176038 0.841127 17.176038 0.027772 -39.121965
5750.0 0.020956 -32.704072 0.840175 11.003472 0.840175 11.003472 0.020956 -32.704072
5800.0 0.015782 -16.367474 0.83917 4.828774 0.83917 4.828774 0.015782 -16.367474
5850.0 0.014449 11.099866 0.838106 -1.3472 0.838106 -1.3472 0.014449 11.099866
5900.0 0.017861 34.158057 0.836981 -7.52354 0.836981 -7.52354 0.017861 34.158057
5950.0 0.023947 45.083882 0.835796 -13.699322 0.835796 -13.699322 0.023947 45.083882
6000.0 0.03097 48.65911 0.834555 -19.873651 0.834555 -19.873651 0.03097 48.65911
6050.0 0.038171 48.582012 0.833262 -26.045702 0.833262 -26.045702 0.038171 48.582012
6100.0 0.045199 46.587185 0.831928 -32.214761 0.831928 -32.214761 0.045199 46.587185
6150.0 0.051856 43.498739 0.830563 -38.380255 0.830563 -38.380255 0.051856 43.498739
6200.0 0.058006 39.742302 0.829177 -44.541774 0.829177 -44.541774 0.058006 39.742302
6250.0 0.063548 35.556675 0.827785 -50.699097 0.827785 -50.699097 0.063548 35.556675
6300.0 0.068403 31.08586 0.826399 -56.852191 0.826399 -56.852191 0.068403 31.08586
6350.0 0.072505 26.422362 0.825032 -63.001217 0.825032 -63.001217 0.072505 26.422362
6400.0 0.075805 21.629185 0.823696 -69.146518 0.823696 -69.146518 0.075805 21.629185
6450.0 0.078263 16.75184 0.822401 -75.288602 0.822401 -75.288602 0.078263 16.75184
6500.0 0.079852 11.825373 0.821155 -81.428119 0.821155 -81.428119 0.079852 11.825373
6550.0 0.080556 6.878826 0.819965 -87.565828 0.819965 -87.565828 0.080556 6.878826
6600.0 0.080371 1.938379 0.818834 -93.702566 0.818834 -93.702566 0.080371 1.938379
6650.0 0.079301 -2.97012 0.817764 -99.839205 0.817764 -99.839205 0.079301 -2.97012
6700.0 0.077365 -7.818716 0.816753 -105.976615 0.816753 -105.976615 0.077365 -7.818716
6750.0 0.07459 -12.574562 0.815797 -112.115628 0.815797 -112.115628 0.07459 -12.574562
6800.0 0.071013 -17.196217 0.81489 -118.256994 0.81489 -118.256994 0.071013 -17.196217
6850.0 0.066686 -21.628162 0.814022 -124.401353 0.814022 -124.401353 0.066686 -21.628162
6900.0 0.061672 -25.792003 0.813184 -130.549204 0.813184 -130.549204 0.061672 -25.792003
6950.0 0.056047 -29.571412 0.812365 -136.700886 0.812365 -136.700886 0.056047 -29.571412
7000.0 0.049907 -32.784814 0.811551 -142.856555 0.811551 -142.856555 0.049907 -32.784814
7050.0 0.043375 -35.13294 0.810732 -149.016189 0.810732 -149.016189 0.043375 -35.13294
7100.0 0.036617 -36.09268 0.809895 -155.179577 0.809895 -155.179577 0.036617 -36.09268
7150.0 0.029889 -34.696467 0.80903 -161.34634 0.80903 -161.34634 0.029889 -34.696467
7200.0 0.023644 -29.115535 0.808126 -167.51594 0.808126 -167.51594 0.023644 -29.115535
7250.0 0.018775 -16.400148 0.807177 -173.687711 0.807177 -173.687711 0.018775 -16.400148
7300.0 0.016805 4.461382 0.806178 -179.86089 0.806178 -179.86089 0.016805 4.461382
7350.0 0.018737 25.317823 0.805124 173.965352 0.805124 173.965352 0.018737 25.317823
7400.0 0.023543 38.032728 0.804018 167.791864 0.804018 167.791864 0.023543 38.032728
7450.0 0.029691 43.628164 0.80286 161.619482 0.80286 161.619482 0.029691 43.628164
7500.0 0.036286 45.053084 0.801655 155.448986 0.801655 155.448986 0.036286 45.053084
7550.0 0.04288 44.134849 0.800411 149.281064 0.800411 149.281064 0.04288 44.134849
7600.0 0.04922 41.840633 0.799136 143.116283 0.799136 143.116283 0.04922 41.840633
7650.0 0.055144 38.693841 0.797841 136.955064 0.797841 136.955064 0.055144 38.693841
7700.0 0.060535 34.994468 0.796537 130.79766 0.796537 130.79766 0.060535 34.994468
7750.0 0.065305 30.925133 0.795235 124.644152 0.795235 124.644152 0.065305 30.925133
7800.0 0.069382 26.603497 0.793946 118.49444 0.793946 118.49444 0.069382 26.603497
7850.0 0.072711 22.109586 0.792682 112.348254 0.792682 112.348254 0.072711 22.109586
7900.0 0.075251 17.500896 0.791452 106.205166 0.791452 106.205166 0.075251 17.500896
7950.0 0.076971 12.821264 0.790264 100.064613 0.790264 100.064613 0.076971 12.821264
8000.0 0.077853 8.106463 0.789124 93.925918 0.789124 93.925918 0.077853 8.106463
8050.0 0.077887 3.388064 0.788036 87.78833 0.788036 87.78833 0.077887 3.388064
8100.0 0.077078 -1.303554 0.787001 81.651048 0.787001 81.651048 0.077078 -1.303554
8150.0 0.075439 -5.936448 0.78602 75.513266 0.78602 75.513266 0.075439 -5.936448
8200.0 0.072996 -10.474115 0.785088 69.374207 0.785088 69.374207 0.072996 -10.474115
8250.0 0.069783 -14.871697 0.784201 63.233153 0.784201 63.233153 0.069783 -14.871697
8300.0 0.065849 -19.070572 0.783352 57.089486 0.783352 57.089486 0.065849 -19.070572
8350.0 0.061254 -22.989991 0.782532 50.942706 0.782532 50.942706 0.061254 -22.989991
8400.0 0.056073 -26.513306 0.781731 44.792461 0.781731 44.792461 0.056073 -26.513306
8450.0 0.050401 -29.464131 0.780938 38.63856 0.780938 38.63856 0.050401 -29.464131
8500.0 0.044359 -31.563235 0.780144 32.480977 0.780144 32.480977 0.044359 -31.563235
8550.0 0.038112 -32.348332 0.779336 26.319862 0.779336 26.319862 0.038112 -32.348332
8600.0 0.031905 -31.027029 0.778505 20.155522 0.778505 20.155522 0.031905 -31.027029
8650.0 0.026141 -26.253018 0.777643 13.988416 0.777643 13.988416 0.026141 -26.253018
8700.0 0.021534 -16.112405 0.776742 7.819127 0.776742 7.819127 0.021534 -16.112405
8750.0 0.019191 0.165637 0.775797 1.648339 0.775797 1.648339 0.019191 0.165637
8800.0 0.020019 18.195606 0.774805 -4.523198 0.774805 -4.523198 0.020019 18.195606
8850.0 0.023635 31.42712 0.773765 -10.694704 0.773765 -10.694704 0.023635 31.42712
8900.0 0.028874 38.548749 0.77268 -16.8654 0.77268 -16.8654 0.028874 38.548749
8950.0 0.034819 41.346316 0.771551 -23.034551 0.771551 -23.034551 0.034819 41.346316
9000.0 0.040942 41.485478 0.770386 -29.201496 0.770386 -29.201496 0.040942 41.485478
9050.0 0.046938 39.995227 0.769192 -35.365679 0.769192 -35.365679 0.046938 39.995227
9100.0 0.052614 37.473148 0.767977 -41.526672 0.767977 -41.526672 0.052614 37.473148
9150.0 0.057836 34.273853 0.76675 -47.6842 0.76675 -47.6842 0.057836 34.273853
9200.0 0.062504 30.617029 0.765524 -53.838143 0.765524 -53.838143 0.062504 30.617029
9250.0 0.06654 26.645396 0.764306 -59.988547 0.764306 -59.988547 0.06654 26.645396
9300.0 0.069884 22.45626 0.763108 -66.135621 0.763108 -66.135621 0.069884 22.45626
9350.0 0.07249 18.119375 0.761937 -72.27972 0.761937 -72.27972 0.07249 18.119375
9400.0 0.074324 13.687556 0.760803 -78.421332 0.760803 -78.421332 0.074324 13.687556
9450.0 0.075364 9.203382 0.759709 -84.561056 0.759709 -84.561056 0.075364 9.203382
9500.0 0.0756 4.703766 0.758661 -90.69957 0.758661 -90.69957 0.0756 4.703766
9550.0 0.075031 0.223428 0.757661 -96.837603 0.757661 -96.837603 0.075031 0.223428
9600.0 0.073669 -4.202054 0.756708 -102.975901 0.756708 -102.975901 0.073669 -4.202054
9650.0 0.071535 -8.533092 0.7558 -109.115193 0.7558 -109.115193 0.071535 -8.533092
9700.0 0.068663 -12.722277 0.754933 -115.256157 0.754933 -115.256157 0.068663 -12.722277
9750.0 0.065098 -16.709172 0.754102 -121.399394 0.754102 -121.399394 0.065098 -16.709172
9800.0 0.060897 -20.412566 0.753299 -127.545396 0.753299 -127.545396 0.060897 -20.412566
9850.0 0.056133 -23.718214 0.752515 -133.694525 0.752515 -133.694525 0.056133 -23.718214
9900.0 0.050899 -26.458588 0.751741 -139.847 0.751741 -139.847 0.050899 -26.458588
9950.0 0.045313 -28.378347 0.750968 -146.002884 0.750968 -146.002884 0.045313 -28.378347
10000.0 0.039535 -29.075076 0.750186 -152.162084 0.750186 -152.162084 0.039535 -29.075076
10050.0 0.033795 -27.902913 0.749386 -158.324353 0.749386 -158.324353 0.033795 -27.902913
10100.0 0.02845 -23.855189 0.74856 -164.489304 0.74856 -164.489304 0.02845 -23.855189
10150.0 0.024079 -15.629696 0.747701 -170.656427 0.747701 -170.656427 0.024079 -15.629696
10200.0 0.02152 -2.645314 0.746804 -176.825113 0.746804 -176.825113 0.02152 -2.645314
10250.0 0.021543 12.656608 0.745866 177.005316 0.745866 177.005316 0.021543 12.656608
10300.0 0.024123 25.509037 0.744886 170.835578 0.744886 170.835578 0.024123 25.509037
10350.0 0.028465 33.595262 0.743864 164.666394 0.743864 164.666394 0.028465 33.595262
10400.0 0.03373 37.555299 0.742803 158.498457 0.742803 158.498457 0.03373 37.555299
10450.0 0.039351 38.689752 0.741708 152.332398 0.741708 152.332398 0.039351 38.689752
10500.0 0.044977 37.992616 0.740585 146.168759 0.740585 146.168759 0.044977 37.992616
10550.0 0.050383 36.100377 0.739442 140.00797 0.739442 140.00797 0.050383 36.100377
10600.0 0.055417 33.410069 0.738287 133.850324 0.738287 133.850324 0.055417 33.410069
10650.0 0.059966 30.174328 0.737128 127.695971 0.737128 127.695971 0.059966 30.174328
10700.0 0.063945 26.559641 0.735976 121.544909 0.735976 121.544909 0.063945 26.559641
10750.0 0.067287 22.68028 0.734838 115.396988 0.734838 115.396988 0.067287 22.68028
10800.0 0.069942 18.618248 0.733723 109.251913 0.733723 109.251913 0.069942 18.618248
10850.0 0.071873 14.435391 0.732638 103.109264 0.732638 103.109264 0.071873 14.435391
10900.0 0.073054 10.181112 0.731589 96.968515 0.731589 96.968515 0.073054 10.181112
10950.0 0.073473 5.89761 0.73058 90.829055 0.73058 90.829055 0.073473 5.89761
11000.0 0.073125 1.623789 0.729612 84.69022 0.729612 84.69022 0.073125 1.623789
11050.0 0.072019 -2.601422 0.728687 78.551322 0.728687 78.551322 0.072019 -2.601422
11100.0 0.070174 -6.735797 0.727803 72.41168 0.727803 72.41168 0.070174 -6.735797
11150.0 0.067622 -10.730034 0.726956 66.270652 0.726956 66.270652 0.067622 -10.730034
11200.0 0.064402 -14.52282 0.726143 60.127661 0.726143 60.127661 0.064402 -14.52282
11250.0 0.060572 -18.03378 0.725357 53.982224 0.725357 53.982224 0.060572 -18.03378
11300.0 0.0562 -21.152764 0.72459 47.833972 0.72459 47.833972 0.0562 -21.152764
11350.0 0.051377 -23.722946 0.723834 41.682665 0.723834 41.682665 0.051377 -23.722946
11400.0 0.046216 -25.513637 0.723081 35.528208 0.723081 35.528208 0.046216 -25.513637
11450.0 0.040869 -26.177116 0.722322 29.370648 0.722322 29.370648 0.040869 -26.177116
11500.0 0.035551 -25.1862 0.72155 23.210177 0.72155 23.210177 0.035551 -25.1862
11550.0 0.030578 -21.775284 0.720756 17.047118 0.720756 17.047118 0.030578 -21.775284
11600.0 0.026425 -15.022966 0.719935 10.881915 0.719935 10.881915 0.026425 -15.022966
11650.0 0.02375 -4.486272 0.719081 4.715109 0.719081 4.715109 0.02375 -4.486272
11700.0 0.023192 8.428413 0.718191 -1.452688 0.718191 -1.452688 0.023192 8.428413
