! File created by SignalIntegrity v1.4.3: Signal and Power Integrity Tools
! https://github.com/Nubis-Communications/SignalIntegrity
# MHz S MA R 50.0
0.0 7e-06 180.0 0.999989 0.0 0.999989 0.0 7e-06 180.0
50.0 0.013973 72.559642 0.995052 -6.387861 0.995052 -6.387861 0.013973 72.559642
100.0 0.0252 70.226526 0.992215 -12.646567 0.992215 -12.646567 0.0252 70.226526
150.0 0.035752 66.007227 0.989646 -18.881441 0.989646 -18.881441 0.035752 66.007227
200.0 0.04569 61.094139 0.987186 -25.101628 0.987186 -25.101628 0.04569 61.094139
250.0 0.054971 55.837031 0.984785 -31.310218 0.984785 -31.310218 0.054971 55.837031
300.0 0.063526 50.38284 0.982429 -37.508598 0.982429 -37.508598 0.063526 50.38284
350.0 0.071284 44.806083 0.980118 -43.697573 0.980118 -43.697573 0.071284 44.806083
400.0 0.078174 39.149318 0.977859 -49.87779 0.977859 -49.87779 0.078174 39.149318
450.0 0.084133 33.438946 0.975666 -56.049917 0.975666 -56.049917 0.084133 33.438946
500.0 0.089108 27.692398 0.97355 -62.214734 0.97355 -62.214734 0.089108 27.692398
550.0 0.093053 21.92179 0.971526 -68.373157 0.971526 -68.373157 0.093053 21.92179
600.0 0.095933 16.135983 0.969604 -74.526248 0.969604 -74.526248 0.095933 16.135983
650.0 0.097727 10.341835 0.967794 -80.675192 0.967794 -80.675192 0.097727 10.341835
700.0 0.09842 4.545066 0.966099 -86.821264 0.966099 -86.821264 0.09842 4.545066
750.0 0.098013 -1.249085 0.964523 -92.965792 0.964523 -92.965792 0.098013 -1.249085
800.0 0.096514 -7.035275 0.963062 -99.110106 0.963062 -99.110106 0.096514 -7.035275
850.0 0.093945 -12.807436 0.96171 -105.255491 0.96171 -105.255491 0.093945 -12.807436
900.0 0.090339 -18.558032 0.960458 -111.403138 0.960458 -111.403138 0.090339 -18.558032
950.0 0.085737 -24.277022 0.959291 -117.554096 0.959291 -117.554096 0.085737 -24.277022
1000.0 0.080195 -29.950278 0.958192 -123.709233 0.958192 -123.709233 0.080195 -29.950278
1050.0 0.073777 -35.556947 0.957143 -129.869196 0.957143 -129.869196 0.073777 -35.556947
1100.0 0.066557 -41.064709 0.956124 -136.034393 0.956124 -136.034393 0.066557 -41.064709
1150.0 0.058622 -46.420499 0.955113 -142.204969 0.955113 -142.204969 0.058622 -46.420499
1200.0 0.050066 -51.530569 0.95409 -148.380808 0.95409 -148.380808 0.050066 -51.530569
1250.0 0.040997 -56.212052 0.953033 -154.561533 0.953033 -154.561533 0.040997 -56.212052
1300.0 0.031538 -60.054086 0.951927 -160.746531 0.951927 -160.746531 0.031538 -60.054086
1350.0 0.021853 -61.907286 0.950755 -166.934978 0.950755 -166.934978 0.021853 -61.907286
1400.0 0.012274 -57.035639 0.949507 -173.125881 0.949507 -173.125881 0.012274 -57.035639
1450.0 0.005121 -8.995494 0.948174 -179.318122 0.948174 -179.318122 0.005121 -8.995494
1500.0 0.01035 57.980486 0.946754 174.489488 0.946754 174.489488 0.01035 57.980486
1550.0 0.019663 66.213734 0.945246 168.298153 0.945246 168.298153 0.019663 66.213734
1600.0 0.029135 65.123678 0.943657 162.109035 0.943657 162.109035 0.029135 65.123678
1650.0 0.038336 61.575937 0.941996 155.923201 0.941996 155.923201 0.038336 61.575937
1700.0 0.047093 57.050593 0.940275 149.741573 0.940275 149.741573 0.047093 57.050593
1750.0 0.055285 52.045461 0.93851 143.564889 0.93851 143.564889 0.055285 52.045461
1800.0 0.062812 46.774344 0.936719 137.393666 0.936719 137.393666 0.062812 46.774344
1850.0 0.069587 41.344517 0.934921 131.228185 0.934921 131.228185 0.069587 41.344517
1900.0 0.075535 35.816039 0.933134 125.068473 0.933134 125.068473 0.075535 35.816039
1950.0 0.080593 30.225483 0.931377 118.914309 0.931377 118.914309 0.080593 30.225483
2000.0 0.084707 24.596755 0.929668 112.765236 0.929668 112.765236 0.084707 24.596755
2050.0 0.087838 18.946567 0.928022 106.620582 0.928022 106.620582 0.087838 18.946567
2100.0 0.089954 13.287483 0.926451 100.479492 0.926451 100.479492 0.089954 13.287483
2150.0 0.09104 7.629787 0.924964 94.340969 0.924964 94.340969 0.09104 7.629787
2200.0 0.091086 1.982786 0.923567 88.203916 0.923567 88.203916 0.091086 1.982786
2250.0 0.090098 -3.644134 0.922262 82.06719 0.922262 82.06719 0.090098 -3.644134
2300.0 0.088091 -9.240472 0.921045 75.929647 0.921045 75.929647 0.088091 -9.240472
2350.0 0.085092 -14.793404 0.919913 69.790195 0.919913 69.790195 0.085092 -14.793404
2400.0 0.081138 -20.286146 0.918854 63.647843 0.918854 63.647843 0.081138 -20.286146
2450.0 0.076279 -25.695477 0.917857 57.501741 0.917857 57.501741 0.076279 -25.695477
2500.0 0.070572 -30.987681 0.916906 51.35122 0.916906 51.35122 0.070572 -30.987681
2550.0 0.064089 -36.111372 0.915985 45.195821 0.915985 45.195821 0.064089 -36.111372
2600.0 0.056912 -40.983835 0.915076 39.035312 0.915076 39.035312 0.056912 -40.983835
2650.0 0.049134 -45.462701 0.914162 32.869704 0.914162 32.869704 0.049134 -45.462701
2700.0 0.040869 -49.2807 0.913223 26.699242 0.913223 26.699242 0.040869 -49.2807
2750.0 0.032258 -51.873341 0.912246 20.524402 0.912246 20.524402 0.032258 -51.873341
2800.0 0.023514 -51.831355 0.911214 14.34586 0.911214 14.34586 0.023514 -51.831355
2850.0 0.015118 -44.688663 0.910118 8.164468 0.910118 8.164468 0.015118 -44.688663
2900.0 0.009 -14.005454 0.908949 1.981207 0.908949 1.981207 0.009 -14.005454
2950.0 0.010743 37.109258 0.907702 -4.202855 0.907702 -4.202855 0.010743 37.109258
3000.0 0.018121 55.564043 0.906378 -10.386614 0.906378 -10.386614 0.018121 55.564043
3050.0 0.026612 59.059261 0.904978 -16.568981 0.904978 -16.568981 0.026612 59.059261
3100.0 0.035149 57.855314 0.90351 -22.748937 0.90351 -22.748937 0.035149 57.855314
3150.0 0.043406 54.73679 0.901983 -28.925574 0.901983 -28.925574 0.043406 54.73679
3200.0 0.051209 50.674892 0.900411 -35.09814 0.900411 -35.09814 0.051209 50.674892
3250.0 0.05844 46.087874 0.898807 -41.266069 0.898807 -41.266069 0.05844 46.087874
3300.0 0.065 41.184426 0.897189 -47.429012 0.897189 -47.429012 0.065 41.184426
3350.0 0.070809 36.08046 0.895573 -53.586841 0.895573 -53.586841 0.070809 36.08046
3400.0 0.0758 30.845933 0.893975 -59.739661 0.893975 -59.739661 0.0758 30.845933
3450.0 0.079916 25.526113 0.892412 -65.887799 0.892412 -65.887799 0.079916 25.526113
3500.0 0.083115 20.152234 0.890897 -72.031786 0.890897 -72.031786 0.083115 20.152234
3550.0 0.085363 14.747324 0.889442 -78.172335 0.889442 -78.172335 0.085363 14.747324
3600.0 0.086639 9.329675 0.888056 -84.310302 0.888056 -84.310302 0.086639 9.329675
3650.0 0.086932 3.915145 0.886747 -90.446652 0.886747 -90.446652 0.086932 3.915145
3700.0 0.086244 -1.481117 0.885515 -96.582409 0.885515 -96.582409 0.086244 -1.481117
3750.0 0.084587 -6.843114 0.884361 -102.718618 0.884361 -102.718618 0.084587 -6.843114
3800.0 0.081982 -12.15232 0.883281 -108.856289 0.883281 -108.856289 0.081982 -12.15232
3850.0 0.078465 -17.385549 0.882268 -114.99636 0.882268 -114.99636 0.078465 -17.385549
3900.0 0.074079 -22.511854 0.881311 -121.139652 0.881311 -121.139652 0.074079 -22.511854
3950.0 0.06888 -27.487601 0.880399 -127.286831 0.880399 -127.286831 0.06888 -27.487601
4000.0 0.062936 -32.248025 0.879517 -133.438383 0.879517 -133.438383 0.062936 -32.248025
4050.0 0.056327 -36.691674 0.87865 -139.594588 0.87865 -139.594588 0.056327 -36.691674
4100.0 0.049149 -40.649507 0.877782 -145.75551 0.877782 -145.75551 0.049149 -40.649507
4150.0 0.041517 -43.817807 0.876899 -151.920994 0.876899 -151.920994 0.041517 -43.817807
4200.0 0.033589 -45.596156 0.875984 -158.090674 0.875984 -158.090674 0.033589 -45.596156
4250.0 0.025611 -44.643915 0.875026 -164.263989 0.875026 -164.263989 0.025611 -44.643915
4300.0 0.018098 -37.533289 0.874013 -170.440211 0.874013 -170.440211 0.018098 -37.533289
4350.0 0.012537 -15.784022 0.872938 -176.618479 0.872938 -176.618479 0.012537 -15.784022
4400.0 0.012307 21.418707 0.871796 177.202162 0.871796 177.202162 0.012307 21.418707
4450.0 0.017587 44.475246 0.870585 171.022716 0.870585 171.022716 0.017587 44.475246
4500.0 0.024938 52.217442 0.869306 164.844184 0.869306 164.844184 0.024938 52.217442
4550.0 0.032763 53.454216 0.867965 158.667525 0.867965 158.667525 0.032763 53.454216
4600.0 0.040514 51.837718 0.866569 152.493606 0.866569 152.493606 0.040514 51.837718
4650.0 0.047943 48.786411 0.865129 146.323164 0.865129 146.323164 0.047943 48.786411
4700.0 0.054893 44.930605 0.863657 140.156774 0.863657 140.156774 0.054893 44.930605
4750.0 0.061253 40.587491 0.862168 133.994822 0.862168 133.994822 0.061253 40.587491
4800.0 0.066932 35.933282 0.860674 127.837491 0.860674 127.837491 0.066932 35.933282
4850.0 0.071859 31.073973 0.859193 121.684754 0.859193 121.684754 0.071859 31.073973
4900.0 0.075974 26.077763 0.857736 115.536376 0.857736 115.536376 0.075974 26.077763
4950.0 0.07923 20.991327 0.856318 109.391928 0.856318 109.391928 0.07923 20.991327
5000.0 0.08159 15.848665 0.85495 103.25081 0.85495 103.25081 0.08159 15.848665
5050.0 0.083032 10.676307 0.85364 97.112276 0.85364 97.112276 0.083032 10.676307
5100.0 0.083541 5.496668 0.852395 90.975471 0.852395 90.975471 0.083541 5.496668
5150.0 0.083117 0.330469 0.851218 84.839469 0.851218 84.839469 0.083117 0.330469
5200.0 0.081766 -4.801208 0.850109 78.703316 0.850109 78.703316 0.081766 -4.801208
5250.0 0.07951 -9.874843 0.849067 72.566074 0.849067 72.566074 0.07951 -9.874843
5300.0 0.076379 -14.861968 0.848084 66.42686 0.848084 66.42686 0.076379 -14.861968
5350.0 0.072414 -19.725682 0.847155 60.284887 0.847155 60.284887 0.072414 -19.725682
5400.0 0.067668 -24.415297 0.846267 54.139499 0.846267 54.139499 0.067668 -24.415297
5450.0 0.062207 -28.857444 0.84541 47.9902 0.84541 47.9902 0.062207 -28.857444
5500.0 0.056108 -32.940268 0.84457 41.836677 0.84457 41.836677 0.056108 -32.940268
5550.0 0.049469 -36.483423 0.843733 35.678812 0.843733 35.678812 0.049469 -36.483423
5600.0 0.042409 -39.176797 0.842885 29.516688 0.842885 29.516688 0.042409 -39.176797
5650.0 0.035093 -40.445217 0.842014 23.350585 0.842014 23.350585 0.035093 -40.445217
5700.0 0.027779 -39.12721 0.841108 17.180969 0.841108 17.180969 0.027779 -39.12721
5750.0 0.020963 -32.714554 0.840156 11.008463 0.840156 11.008463 0.020963 -32.714554
5800.0 0.015787 -16.389156 0.839151 4.833826 0.839151 4.833826 0.015787 -16.389156
5850.0 0.01445 11.069354 0.838087 -1.342087 0.838087 -1.342087 0.01445 11.069354
5900.0 0.017859 34.134745 0.836962 -7.518366 0.836962 -7.518366 0.017859 34.134745
5950.0 0.023943 45.069025 0.835777 -13.694086 0.835777 -13.694086 0.023943 45.069025
6000.0 0.030966 48.64916 0.834536 -19.868353 0.834536 -19.868353 0.030966 48.64916
6050.0 0.038166 48.574849 0.833244 -26.040342 0.833244 -26.040342 0.038166 48.574849
6100.0 0.045195 46.581732 0.83191 -32.209339 0.83191 -32.209339 0.045195 46.581732
6150.0 0.051852 43.494424 0.830544 -38.374769 0.830544 -38.374769 0.051852 43.494424
6200.0 0.058003 39.738796 0.829159 -44.536226 0.829159 -44.536226 0.058003 39.738796
6250.0 0.063546 35.553777 0.827767 -50.693486 0.827767 -50.693486 0.063546 35.553777
6300.0 0.068401 31.083438 0.826381 -56.846517 0.826381 -56.846517 0.068401 31.083438
6350.0 0.072505 26.420326 0.825014 -62.995479 0.825014 -62.995479 0.072505 26.420326
6400.0 0.075805 21.627472 0.823678 -69.140716 0.823678 -69.140716 0.075805 21.627472
6450.0 0.078264 16.750401 0.822383 -75.282736 0.822383 -75.282736 0.078264 16.750401
6500.0 0.079853 11.824169 0.821137 -81.422188 0.821137 -81.422188 0.079853 11.824169
6550.0 0.080559 6.877827 0.819947 -87.559833 0.819947 -87.559833 0.080559 6.877827
6600.0 0.080374 1.937555 0.818817 -93.696506 0.818817 -93.696506 0.080374 1.937555
6650.0 0.079306 -2.970797 0.817747 -99.83308 0.817747 -99.83308 0.079306 -2.970797
6700.0 0.07737 -7.819274 0.816736 -105.970426 0.816736 -105.970426 0.07737 -7.819274
6750.0 0.074596 -12.575035 0.81578 -112.109374 0.81578 -112.109374 0.074596 -12.575035
6800.0 0.07102 -17.196647 0.814873 -118.250675 0.814873 -118.250675 0.07102 -17.196647
6850.0 0.066694 -21.628607 0.814005 -124.394969 0.814005 -124.394969 0.066694 -21.628607
6900.0 0.06168 -25.792548 0.813168 -130.542756 0.813168 -130.542756 0.06168 -25.792548
6950.0 0.056055 -29.572188 0.812348 -136.694372 0.812348 -136.694372 0.056055 -29.572188
7000.0 0.049916 -32.786038 0.811535 -142.849977 0.811535 -142.849977 0.049916 -32.786038
7050.0 0.043384 -35.134997 0.810716 -149.009546 0.810716 -149.009546 0.043384 -35.134997
7100.0 0.036626 -36.09629 0.80988 -155.17287 0.80988 -155.17287 0.036626 -36.09629
7150.0 0.029898 -34.703071 0.809014 -161.339569 0.809014 -161.339569 0.029898 -34.703071
7200.0 0.023652 -29.128008 0.808111 -167.509105 0.808111 -167.509105 0.023652 -29.128008
7250.0 0.018781 -16.422811 0.807162 -173.680812 0.807162 -173.680812 0.018781 -16.422811
7300.0 0.016807 4.429957 0.806162 -179.853927 0.806162 -179.853927 0.016807 4.429957
7350.0 0.018735 25.290578 0.805109 173.972378 0.805109 173.972378 0.018735 25.290578
7400.0 0.023538 38.014682 0.804003 167.798954 0.804003 167.798954 0.023538 38.014682
7450.0 0.029685 43.616655 0.802845 161.626636 0.802845 161.626636 0.029685 43.616655
7500.0 0.036281 45.045512 0.80164 155.456202 0.80164 155.456202 0.036281 45.045512
7550.0 0.042875 44.1297 0.800396 149.288343 0.800396 149.288343 0.042875 44.1297
7600.0 0.049215 41.837061 0.799122 143.123626 0.799122 143.123626 0.049215 41.837061
7650.0 0.055139 38.691357 0.797827 136.96247 0.797827 136.96247 0.055139 38.691357
7700.0 0.060531 34.992771 0.796523 130.805131 0.796523 130.805131 0.060531 34.992771
7750.0 0.065301 30.92403 0.795221 124.651686 0.795221 124.651686 0.065301 30.92403
7800.0 0.069379 26.602854 0.793933 118.502038 0.793933 118.502038 0.069379 26.602854
7850.0 0.07271 22.10931 0.792669 112.355916 0.792669 112.355916 0.07271 22.10931
7900.0 0.075251 17.500917 0.791439 106.212894 0.791439 106.212894 0.075251 17.500917
7950.0 0.076972 12.821525 0.790251 100.072405 0.790251 100.072405 0.076972 12.821525
8000.0 0.077855 8.106917 0.789111 93.933777 0.789111 93.933777 0.077855 8.106917
8050.0 0.07789 3.388668 0.788023 87.796254 0.788023 87.796254 0.07789 3.388668
8100.0 0.077082 -1.302841 0.786988 81.659038 0.786988 81.659038 0.077082 -1.302841
8150.0 0.075445 -5.935672 0.786007 75.521323 0.786007 75.521323 0.075445 -5.935672
8200.0 0.073002 -10.473327 0.785076 69.382331 0.785076 69.382331 0.073002 -10.473327
8250.0 0.06979 -14.870963 0.784189 63.241344 0.784189 63.241344 0.06979 -14.870963
8300.0 0.065857 -19.069979 0.78334 57.097744 0.78334 57.097744 0.065857 -19.069979
8350.0 0.061263 -22.989662 0.78252 50.951032 0.78252 50.951032 0.061263 -22.989662
8400.0 0.056083 -26.513425 0.781719 44.800855 0.781719 44.800855 0.056083 -26.513425
8450.0 0.050411 -29.464988 0.780926 38.647021 0.780926 38.647021 0.050411 -29.464988
8500.0 0.044369 -31.565308 0.780132 32.489506 0.780132 32.489506 0.044369 -31.565308
8550.0 0.038122 -32.352451 0.779324 26.328458 0.779324 26.328458 0.038122 -32.352451
8600.0 0.031915 -31.034672 0.778493 20.164185 0.778493 20.164185 0.031915 -31.034672
8650.0 0.026151 -26.266729 0.777631 13.997145 0.777631 13.997145 0.026151 -26.266729
8700.0 0.021541 -16.135391 0.77673 7.827923 0.77673 7.827923 0.021541 -16.135391
8750.0 0.019194 0.134227 0.775786 1.6572 0.775786 1.6572 0.019194 0.134227
8800.0 0.020017 18.165574 0.774794 -4.514272 0.774794 -4.514272 0.020017 18.165574
8850.0 0.02363 31.405611 0.773755 -10.685712 0.773755 -10.685712 0.02363 31.405611
8900.0 0.028867 38.534963 0.772669 -16.856344 0.772669 -16.856344 0.028867 38.534963
8950.0 0.034811 41.337673 0.771541 -23.025431 0.771541 -23.025431 0.034811 41.337673
9000.0 0.040934 41.480104 0.770376 -29.192312 0.770376 -29.192312 0.040934 41.480104
9050.0 0.046931 39.991987 0.769182 -35.356431 0.769182 -35.356431 0.046931 39.991987
9100.0 0.052608 37.471359 0.767967 -41.517361 0.767967 -41.517361 0.052608 37.471359
9150.0 0.057831 34.273091 0.766741 -47.674824 0.766741 -47.674824 0.057831 34.273091
9200.0 0.0625 30.617019 0.765514 -53.828703 0.765514 -53.828703 0.0625 30.617019
9250.0 0.066537 26.645952 0.764297 -59.979043 0.764297 -59.979043 0.066537 26.645952
9300.0 0.069882 22.457249 0.763099 -66.126052 0.763099 -66.126052 0.069882 22.457249
9350.0 0.072489 18.120698 0.761928 -72.270086 0.761928 -72.270086 0.072489 18.120698
9400.0 0.074324 13.689134 0.760794 -78.411633 0.760794 -78.411633 0.074324 13.689134
9450.0 0.075366 9.20515 0.7597 -84.55129 0.7597 -84.55129 0.075366 9.20515
9500.0 0.075603 4.705663 0.758652 -90.689737 0.758652 -90.689737 0.075603 4.705663
9550.0 0.075035 0.225398 0.757652 -96.827703 0.757652 -96.827703 0.075035 0.225398
9600.0 0.073674 -4.200074 0.756699 -102.965933 0.756699 -102.965933 0.073674 -4.200074
9650.0 0.071542 -8.531174 0.755791 -109.105156 0.755791 -109.105156 0.071542 -8.531174
9700.0 0.068671 -12.720508 0.754925 -115.246052 0.754925 -115.246052 0.068671 -12.720508
9750.0 0.065106 -16.707668 0.754094 -121.389219 0.754094 -121.389219 0.065106 -16.707668
9800.0 0.060906 -20.411484 0.753291 -127.535151 0.753291 -127.535151 0.060906 -20.411484
9850.0 0.056144 -23.717784 0.752507 -133.68421 0.752507 -133.68421 0.056144 -23.717784
9900.0 0.05091 -26.459155 0.751734 -139.836616 0.751734 -139.836616 0.05091 -26.459155
9950.0 0.045325 -28.380451 0.750961 -145.99243 0.750961 -145.99243 0.045325 -28.380451
10000.0 0.039547 -29.079595 0.750179 -152.151561 0.750179 -152.151561 0.039547 -29.079595
10050.0 0.033806 -27.911278 0.749379 -158.313761 0.749379 -158.313761 0.033806 -27.911278
10100.0 0.02846 -23.869595 0.748553 -164.478644 0.748553 -164.478644 0.02846 -23.869595
10150.0 0.024086 -15.652589 0.747694 -170.645698 0.747694 -170.645698 0.024086 -15.652589
10200.0 0.021524 -2.676187 0.746797 -176.814317 0.746797 -176.814317 0.021524 -2.676187
10250.0 0.021542 12.624998 0.74586 177.01618 0.74586 177.01618 0.021542 12.624998
10300.0 0.024118 25.484365 0.74488 170.846508 0.74488 170.846508 0.024118 25.484365
10350.0 0.028457 33.57878 0.743858 164.677389 0.743858 164.677389 0.028457 33.57878
10400.0 0.033722 37.545015 0.742797 158.509516 0.742797 158.509516 0.033722 37.545015
10450.0 0.039342 38.683642 0.741703 152.343522 0.741703 152.343522 0.039342 38.683642
10500.0 0.044968 37.989286 0.74058 146.179948 0.74058 146.179948 0.044968 37.989286
10550.0 0.050376 36.098941 0.739437 140.019222 0.739437 140.019222 0.050376 36.098941
10600.0 0.055411 33.409961 0.738282 133.86164 0.738282 133.86164 0.055411 33.409961
10650.0 0.059961 30.175177 0.737123 127.707352 0.737123 127.707352 0.059961 30.175177
10700.0 0.06394 26.561195 0.735971 121.556355 0.735971 121.556355 0.06394 26.561195
10750.0 0.067284 22.682358 0.734833 115.408498 0.734833 115.408498 0.067284 22.682358
10800.0 0.06994 18.620715 0.733719 109.263488 0.733719 109.263488 0.06994 18.620715
10850.0 0.071873 14.438143 0.732634 103.120905 0.732634 103.120905 0.071873 14.438143
10900.0 0.073056 10.184061 0.731585 96.980222 0.731585 96.980222 0.073056 10.184061
10950.0 0.073475 5.900676 0.730575 90.84083 0.730575 90.84083 0.073475 5.900676
11000.0 0.073129 1.626896 0.729608 84.702063 0.729608 84.702063 0.073129 1.626896
11050.0 0.072024 -2.598354 0.728683 78.563234 0.728683 78.563234 0.072024 -2.598354
11100.0 0.070181 -6.732859 0.727799 72.423662 0.727799 72.423662 0.070181 -6.732859
11150.0 0.06763 -10.727336 0.726953 66.282704 0.726953 66.282704 0.06763 -10.727336
11200.0 0.064412 -14.520503 0.72614 60.139784 0.72614 60.139784 0.064412 -14.520503
11250.0 0.060582 -18.032032 0.725353 53.994419 0.725353 53.994419 0.060582 -18.032032
11300.0 0.056212 -21.15185 0.724586 47.846238 0.724586 47.846238 0.056212 -21.15185
11350.0 0.051389 -23.723252 0.723831 41.695003 0.723831 41.695003 0.051389 -23.723252
11400.0 0.046228 -25.515741 0.723078 35.540618 0.723078 35.540618 0.046228 -25.515741
11450.0 0.040882 -26.1819 0.72232 29.383129 0.72232 29.383129 0.040882 -26.1819
11500.0 0.035563 -25.195008 0.721547 23.222728 0.721547 23.222728 0.035563 -25.195008
11550.0 0.030589 -21.789995 0.720754 17.05974 0.720754 17.05974 0.030589 -21.789995
11600.0 0.026433 -15.045489 0.719933 10.894607 0.719933 10.894607 0.026433 -15.045489
11650.0 0.023754 -4.516311 0.719079 4.72787 0.719079 4.72787 0.023754 -4.516311
11700.0 0.023192 8.39619 0.718189 -1.439859 0.718189 -1.439859 0.023192 8.39619
