! File created by SignalIntegrity v1.2.1: Signal and Power Integrity Tools
! https://github.com/TeledyneLeCroy/SignalIntegrity
# MHz S MA R 50.0
0.0 0.068717 0.0 1.001806 0.0 0.9979 0.0 0.014008 0.0
10.0 0.070237 -5.426801 1.001518 -2.161092 0.997534 -2.122692 0.013901 13.06544
20.0 0.074275 -9.960126 1.00143 -4.313101 0.997241 -4.257971 0.013445 20.370907
30.0 0.080094 -13.33912 1.001199 -6.44157 0.99725 -6.41519 0.012844 17.084834
40.0 0.085959 -15.323414 1.000651 -8.568839 0.997664 -8.579078 0.013632 2.423817
50.0 0.090304 -16.692539 1.00016 -10.690953 0.998418 -10.735629 0.01731 -11.711736
60.0 0.092076 -17.792239 0.999603 -12.804834 0.999269 -12.877165 0.022648 -18.483737
70.0 0.090394 -19.279555 0.998961 -14.91409 1.000061 -14.997239 0.027453 -20.189822
80.0 0.085673 -21.663418 0.9981 -17.037176 1.000461 -17.094719 0.030268 -20.12516
90.0 0.078879 -25.309843 0.997416 -19.174477 1.000304 -19.179278 0.030462 -20.839298
100.0 0.07145 -30.083233 0.996936 -21.316225 0.999558 -21.268808 0.028475 -23.774656
110.0 0.064163 -35.184891 0.996648 -23.444348 0.998561 -23.368863 0.025188 -30.11529
120.0 0.056667 -39.343898 0.996174 -25.561724 0.997555 -25.472991 0.021572 -39.49262
130.0 0.047868 -41.877752 0.995444 -27.670979 0.996702 -27.568685 0.017858 -51.776879
140.0 0.03697 -42.725547 0.994326 -29.782479 0.9959 -29.654671 0.01396 -69.212095
150.0 0.023949 -43.191973 0.993099 -31.895253 0.995108 -31.735531 0.011309 -101.065004
160.0 0.009876 -49.048912 0.991975 -34.013089 0.994205 -33.82188 0.013663 -140.364443
170.0 0.005272 177.165142 0.991368 -36.124872 0.993241 -35.919196 0.020969 -161.249167
180.0 0.01757 159.907115 0.991235 -38.226981 0.992265 -38.033143 0.029626 -169.601353
190.0 0.027987 158.964184 0.991477 -40.310513 0.991483 -40.160357 0.037671 -173.108979
200.0 0.035896 158.546661 0.991717 -42.385168 0.990987 -42.297931 0.044029 -175.427328
210.0 0.041735 157.240479 0.991825 -44.45563 0.990859 -44.436948 0.048753 -177.818116
220.0 0.046235 154.983089 0.991636 -46.541177 0.990999 -46.573318 0.052313 179.002429
230.0 0.05005 152.652423 0.991303 -48.648559 0.991321 -48.69976 0.055419 175.49914
240.0 0.053008 151.140365 0.990946 -50.787477 0.991645 -50.817165 0.058176 172.185151
250.0 0.054485 151.110769 0.99083 -52.941201 0.991916 -52.924729 0.060166 169.874267
260.0 0.053641 152.700891 0.990897 -55.096399 0.992083 -55.027962 0.060584 168.471617
270.0 0.05022 155.967937 0.991029 -57.229473 0.992211 -57.124729 0.058963 167.877005
280.0 0.044568 161.035542 0.990896 -59.341856 0.992302 -59.21648 0.05536 167.371821
290.0 0.037844 168.586315 0.990365 -61.433566 0.992376 -61.298584 0.050465 166.832423
300.0 0.031613 179.745092 0.989384 -63.526723 0.992343 -63.374264 0.045194 166.05237
310.0 0.027833 -164.748682 0.988225 -65.630163 0.992143 -65.444541 0.040289 165.98929
320.0 0.027825 -147.572663 0.987219 -67.760167 0.991714 -67.520439 0.036075 167.414249
330.0 0.031522 -133.89964 0.98677 -69.906732 0.991138 -69.606196 0.032622 171.735035
340.0 0.03746 -125.493134 0.987016 -72.064741 0.990521 -71.706537 0.030064 178.846281
350.0 0.044246 -121.226718 0.987866 -74.210807 0.989954 -73.813544 0.028771 -171.540867
360.0 0.050775 -119.543083 0.988899 -76.342603 0.989388 -75.92535 0.028946 -161.745494
370.0 0.056398 -119.581517 0.989635 -78.45675 0.988739 -78.038693 0.030695 -153.17375
380.0 0.060673 -120.802623 0.989719 -80.578207 0.987935 -80.162326 0.033594 -147.144005
390.0 0.063506 -123.065653 0.989188 -82.718723 0.987007 -82.299578 0.037453 -143.09795
400.0 0.064919 -126.300021 0.988382 -84.890804 0.986063 -84.457552 0.041697 -140.771771
410.0 0.065258 -130.599598 0.987708 -87.070649 0.985272 -86.630147 0.046186 -139.426875
420.0 0.064872 -135.889405 0.987381 -89.236923 0.984769 -88.809642 0.050413 -139.05609
430.0 0.064181 -142.054771 0.987308 -91.356281 0.984555 -90.976346 0.054407 -139.300644
440.0 0.063295 -148.779071 0.987223 -93.427335 0.98447 -93.120887 0.057771 -140.190265
450.0 0.062164 -155.826425 0.986807 -95.454842 0.984283 -95.238909 0.060564 -141.341238
460.0 0.060409 -163.127038 0.98598 -97.474537 0.9839 -97.344969 0.062316 -142.800687
470.0 0.057864 -170.97145 0.984899 -99.509901 0.983414 -99.449779 0.062997 -144.428337
480.0 0.054617 -179.898928 0.98402 -101.586392 0.983091 -101.562603 0.062242 -146.615441
490.0 0.051416 169.689508 0.983704 -103.694307 0.983134 -103.674455 0.060365 -149.4443
500.0 0.048973 157.999217 0.984113 -105.820929 0.983613 -105.776095 0.057496 -153.29283
510.0 0.047664 145.978464 0.984932 -107.936113 0.98437 -107.853713 0.054267 -157.904686
520.0 0.047053 134.470018 0.985707 -110.035275 0.98515 -109.907873 0.05078 -163.290431
530.0 0.046574 123.782375 0.985931 -112.117364 0.985609 -111.943023 0.047259 -168.891547
540.0 0.045817 113.571408 0.985538 -114.205526 0.985546 -113.979441 0.043468 -174.930785
550.0 0.044773 103.576526 0.984684 -116.307027 0.984934 -116.035595 0.039567 178.826273
560.0 0.043599 93.569081 0.983863 -118.429395 0.984088 -118.128079 0.0357 171.848543
570.0 0.042418 83.783701 0.983381 -120.554616 0.983394 -120.249582 0.032235 164.846949
580.0 0.041182 74.349621 0.983486 -122.670852 0.983149 -122.38137 0.029215 157.999318
590.0 0.039645 65.428183 0.983968 -124.758526 0.983251 -124.496803 0.02643 152.739824
600.0 0.03764 56.73491 0.98457 -126.822811 0.98343 -126.588977 0.023579 148.909234
610.0 0.035019 48.073643 0.984824 -128.875573 0.983339 -128.666066 0.020468 147.410826
620.0 0.031742 39.091323 0.984658 -130.948662 0.982928 -130.754454 0.017248 147.588869
630.0 0.027624 29.268188 0.984124 -133.057514 0.982362 -132.876166 0.014161 151.32944
640.0 0.022851 16.993799 0.983637 -135.206665 0.982114 -135.044023 0.011631 159.384218
650.0 0.018145 -0.732438 0.983314 -137.370381 0.982577 -137.242577 0.010228 175.365317
660.0 0.015157 -26.407673 0.98322 -139.524548 0.983928 -139.437572 0.010526 -164.776581
670.0 0.014954 -54.919543 0.983001 -141.647126 0.985702 -141.583949 0.012833 -147.152802
680.0 0.016533 -77.322512 0.982553 -143.743071 0.987053 -143.658749 0.016317 -136.091938
690.0 0.018123 -93.815064 0.981781 -145.825218 0.98697 -145.671103 0.020677 -129.657794
700.0 0.018893 -107.527883 0.981121 -147.916122 0.984992 -147.664504 0.025183 -126.44398
710.0 0.018832 -121.04486 0.980936 -150.022555 0.981301 -149.689225 0.030016 -125.173739
720.0 0.018229 -135.203975 0.981757 -152.139971 0.976861 -151.783692 0.034725 -125.092863
730.0 0.017425 -150.000466 0.983521 -154.245625 0.972851 -153.953114 0.039574 -125.581174
740.0 0.016311 -164.880674 0.985894 -156.320515 0.970446 -156.171423 0.043984 -126.263984
750.0 0.014737 179.428886 0.987873 -158.360731 0.970185 -158.386615 0.048065 -126.940389
760.0 0.012702 160.131253 0.988675 -160.395791 0.971964 -160.546093 0.051173 -127.543594
770.0 0.011115 132.943911 0.987717 -162.474014 0.974892 -162.620304 0.053554 -128.035368
780.0 0.011655 98.32545 0.985413 -164.641397 0.977943 -164.620674 0.054771 -128.353031
790.0 0.01548 69.090802 0.982511 -166.909141 0.980232 -166.58894 0.055283 -128.382232
800.0 0.021983 50.563936 0.980164 -169.243645 0.981514 -168.574214 0.05475 -127.944622
810.0 0.030064 39.411976 0.978892 -171.57639 0.98185 -170.60906 0.053707 -126.852687
820.0 0.038902 32.106528 0.978824 -173.833676 0.981601 -172.703074 0.051917 -124.851904
830.0 0.047764 26.683817 0.979221 -175.971029 0.981017 -174.848549 0.050078 -121.765651
840.0 0.05631 22.031699 0.979397 -177.991099 0.980415 -177.027524 0.048047 -117.344019
850.0 0.064203 17.657123 0.978712 -179.946445 0.979933 -179.218339 0.046487 -111.699902
860.0 0.071257 13.316047 0.97745 178.09207 0.97975 178.599927 0.045077 -104.891545
870.0 0.077081 8.891258 0.976275 176.065908 0.979878 176.441728 0.044199 -97.653923
880.0 0.081429 4.290001 0.976265 173.965077 0.980427 174.317462 0.043296 -90.268428
890.0 0.084001 -0.583123 0.977769 171.821495 0.98132 172.232704 0.042497 -83.708413
900.0 0.084856 -5.821148 0.980502 169.689744 0.982405 170.190332 0.041307 -77.857138
910.0 0.084233 -11.502893 0.983201 167.598291 0.983232 168.178005 0.039935 -73.294685
920.0 0.082767 -17.471702 0.984711 165.540593 0.983459 166.167099 0.038115 -69.110328
930.0 0.080749 -23.302422 0.984186 163.471813 0.982929 164.116469 0.035955 -65.464623
940.0 0.077951 -28.434575 0.98191 161.350815 0.982006 161.998172 0.033054 -61.197858
950.0 0.073504 -32.759251 0.978725 159.155937 0.98118 159.810135 0.029271 -57.123977
960.0 0.066898 -36.781065 0.976001 156.919532 0.980939 157.586301 0.024303 -52.985777
970.0 0.058455 -41.720109 0.974532 154.704409 0.981304 155.3767 0.018256 -51.949841
980.0 0.049658 -49.015454 0.974436 152.589252 0.981921 153.2338 0.011604 -58.477009
990.0 0.042431 -59.654581 0.974801 150.601553 0.981986 151.181652 0.006812 -97.398274
1000.0 0.038023 -72.314887 0.97468 148.708497 0.980772 149.205159 0.009558 -152.518815
1010.0 0.035593 -84.165943 0.973547 146.809927 0.977978 147.241144 0.01684 -171.857679
1020.0 0.03291 -94.185822 0.972102 144.810374 0.974321 145.215425 0.025133 178.426533
1030.0 0.028577 -105.456127 0.971627 142.655766 0.971237 143.079708 0.035201 171.794942
1040.0 0.023818 -123.990069 0.97344 140.386567 0.97025 140.854062 0.047205 166.915707
1050.0 0.023054 -151.739523 0.977627 138.093971 0.971885 138.604545 0.061102 164.545867
1060.0 0.028071 -173.716532 0.983014 135.88516 0.975426 136.40432 0.075123 163.764554
1070.0 0.034432 176.317402 0.987346 133.798706 0.979189 134.277203 0.087767 164.210551
1080.0 0.037864 173.002148 0.988643 131.806512 0.981512 132.196473 0.097346 164.780506
1090.0 0.036902 172.430678 0.986036 129.806052 0.981413 130.093558 0.10385 165.176566
1100.0 0.032073 172.728797 0.980569 127.703631 0.979142 127.907955 0.107781 164.843437
1110.0 0.025438 173.590642 0.974679 125.45451 0.976017 125.618279 0.111033 164.177575
1120.0 0.019469 176.976622 0.97111 123.134477 0.973839 123.287569 0.114758 163.495855
1130.0 0.016777 -171.746433 0.971129 120.889016 0.973671 121.044018 0.120015 163.726885
1140.0 0.019817 -153.388756 0.973826 118.869165 0.975046 119.026316 0.126338 165.050178
1150.0 0.0295 -138.790125 0.976566 117.100548 0.976093 117.276952 0.133366 167.620093
1160.0 0.043788 -129.55442 0.976767 115.475756 0.974917 115.703931 0.13983 170.793813
1170.0 0.059446 -123.126151 0.973451 113.770808 0.971054 114.095479 0.145166 174.116224
1180.0 0.072822 -118.258906 0.968069 111.769831 0.966215 112.22264 0.148279 176.729737
1190.0 0.080996 -114.826048 0.96401 109.337795 0.963857 109.931061 0.149504 178.139568
1200.0 0.082287 -113.148044 0.965264 106.527631 0.967928 107.236016 0.149394 177.755369
1210.0 0.076937 -114.282676 0.974461 103.557572 0.981074 104.333581 0.150393 175.790475
1220.0 0.067603 -120.319399 0.991143 100.757438 1.002887 101.549293 0.154124 173.005392
1230.0 0.06058 -133.655321 1.011299 98.385952 1.028987 99.177647 0.161358 171.03653
1240.0 0.063513 -150.21737 1.028568 96.533576 1.051909 97.346522 0.169705 170.970359
1250.0 0.076841 -159.798735 1.036909 95.063802 1.063919 95.943237 0.176379 173.359685
1260.0 0.093827 -160.421294 1.033129 93.704966 1.060375 94.6771 0.178498 177.819594
1270.0 0.108981 -155.627996 1.018414 92.13636 1.041978 93.188614 0.175674 -176.13596
1280.0 0.119391 -148.592535 0.997709 90.141899 1.014544 91.207204 0.168322 -169.388806
1290.0 0.123952 -141.540676 0.977634 87.682604 0.986436 88.66487 0.158704 -162.741283
1300.0 0.122456 -136.060386 0.963417 84.94324 0.964862 85.752703 0.148319 -157.151132
1310.0 0.115892 -133.401038 0.957015 82.208836 0.953249 82.816748 0.139335 -153.209537
1320.0 0.106404 -134.523032 0.95686 79.736211 0.950755 80.190104 0.132299 -151.102943
1330.0 0.097411 -139.874728 0.95964 77.614719 0.953863 78.034941 0.127859 -150.390152
1340.0 0.092089 -148.396438 0.961989 75.787512 0.95832 76.317635 0.124651 -150.448196
1350.0 0.091199 -157.349195 0.962102 74.088159 0.960885 74.84546 0.121705 -150.80917
1360.0 0.091887 -164.36174 0.959884 72.348052 0.960264 73.366911 0.117201 -151.461198
1370.0 0.090398 -169.18049 0.956916 70.443406 0.957475 71.659531 0.110997 -152.669228
1380.0 0.084537 -172.997971 0.955174 68.363136 0.954966 69.631044 0.102826 -154.90155
1390.0 0.074852 -177.420339 0.956134 66.180987 0.955157 67.344403 0.093996 -158.55827
1400.0 0.06373 176.07584 0.959593 64.020613 0.958749 64.979079 0.085158 -164.015265
1410.0 0.054276 166.978072 0.964134 61.956428 0.964395 62.710729 0.077828 -171.29562
1420.0 0.048242 156.811243 0.967741 59.991485 0.969473 60.627734 0.072413 179.713792
1430.0 0.045209 148.723146 0.969277 58.050956 0.971768 58.698483 0.069765 169.801376
1440.0 0.043296 144.544218 0.968675 56.054184 0.97045 56.823288 0.069555 159.656843
1450.0 0.041126 144.064593 0.967151 53.946255 0.966523 54.890444 0.071635 150.339946
1460.0 0.038235 145.80567 0.966035 51.743674 0.962071 52.842007 0.075075 141.930232
1470.0 0.034991 148.188282 0.966419 49.507333 0.959347 50.693644 0.07944 134.624694
1480.0 0.032005 149.627244 0.968215 47.319033 0.959508 48.525357 0.084334 127.883171
1490.0 0.030069 149.430886 0.970693 45.222138 0.962263 46.417899 0.089904 121.885168
1500.0 0.029741 148.028576 0.972578 43.208571 0.966052 44.402734 0.096201 116.554676
1510.0 0.031306 147.092997 0.973226 41.214636 0.96923 42.436115 0.102972 112.434023
1520.0 0.034542 147.688605 0.972587 39.168385 0.970777 40.435645 0.109524 109.458967
1530.0 0.039124 149.772123 0.971587 37.023785 0.970847 38.327743 0.114988 107.699978
1540.0 0.044575 152.182391 0.971079 34.79457 0.970243 36.093936 0.118934 106.624887
1550.0 0.050561 153.757568 0.971655 32.536723 0.969959 33.777059 0.121484 106.022686
1560.0 0.056885 153.561988 0.972862 30.319851 0.970374 31.46356 0.123438 105.480038
1570.0 0.063922 151.443465 0.973944 28.180563 0.971237 29.236136 0.125645 105.15897
1580.0 0.072234 147.904777 0.973884 26.111922 0.971668 27.136126 0.128673 105.104524
1590.0 0.082116 143.960723 0.972466 24.072042 0.970966 25.142748 0.132336 105.662521
1600.0 0.092911 140.289917 0.969927 22.013597 0.968937 23.189777 0.136025 106.697929
1610.0 0.103405 137.075104 0.967279 19.911648 0.966291 21.204088 0.139 108.146463
1620.0 0.112345 134.010133 0.965325 17.776243 0.964061 19.146639 0.140884 109.591576
1630.0 0.119163 130.773309 0.964681 15.646966 0.96316 17.027016 0.141729 110.942056
1640.0 0.123969 127.115927 0.965001 13.564011 0.963599 14.886653 0.141865 112.021155
1650.0 0.127366 123.10846 0.965624 11.544308 0.964695 12.762909 0.141611 113.055998
1660.0 0.129787 118.970055 0.965549 9.562768 0.965289 10.661767 0.140951 114.091317
1670.0 0.131208 115.011536 0.964389 7.568928 0.964596 8.560027 0.139673 115.324033
1680.0 0.131213 111.310072 0.962118 5.508106 0.962402 6.423568 0.137445 116.574519
1690.0 0.129486 107.792413 0.959445 3.354902 0.959289 4.235862 0.134229 117.778414
1700.0 0.126116 104.214344 0.956944 1.117126 0.95608 2.011565 0.130098 118.634599
1710.0 0.121535 100.448289 0.955197 -1.161145 0.953588 -0.204428 0.12538 119.132982
1720.0 0.116175 96.428898 0.95413 -3.433489 0.952022 -2.364199 0.120186 119.128626
1730.0 0.110142 92.246127 0.953581 -5.658126 0.95121 -4.441552 0.114623 118.7435
1740.0 0.103285 87.883435 0.953082 -7.823838 0.950711 -6.454327 0.108517 117.824568
1750.0 0.095402 83.274248 0.952538 -9.93213 0.950393 -8.449723 0.101934 116.371648
1760.0 0.086626 78.156047 0.951885 -12.004479 0.950428 -10.48391 0.094987 114.091361
1770.0 0.077362 72.295923 0.951424 -14.052956 0.951353 -12.588655 0.08813 111.011734
1780.0 0.068283 65.436961 0.95127 -16.094793 0.953539 -14.763347 0.081658 107.017911
1790.0 0.059906 57.617101 0.951577 -18.137034 0.957053 -16.972582 0.075811 102.405329
1800.0 0.052528 49.111434 0.952178 -20.201121 0.961286 -19.175736 0.070546 97.171224
1810.0 0.045934 40.555474 0.953093 -22.303118 0.965268 -21.343233 0.065804 91.611565
1820.0 0.039806 32.561051 0.95425 -24.465061 0.967907 -23.481189 0.061523 85.605652
1830.0 0.033754 25.671625 0.955848 -26.680385 0.968653 -25.618594 0.057716 79.447913
1840.0 0.027788 20.253997 0.957879 -28.933922 0.967626 -27.79468 0.05444 73.159891
1850.0 0.022035 16.734896 0.960288 -31.182188 0.965715 -30.023898 0.051521 67.322325
1860.0 0.01694 15.997325 0.962621 -33.394161 0.963971 -32.291659 0.048711 62.040475
1870.0 0.012873 20.037058 0.964394 -35.541699 0.963218 -34.54932 0.045552 57.630578
1880.0 0.010496 31.63268 0.96507 -37.637174 0.963587 -36.750778 0.041925 53.775597
1890.0 0.01045 48.669824 0.964536 -39.703678 0.964671 -38.868341 0.037705 50.632732
1900.0 0.012832 61.662915 0.963051 -41.78875 0.965754 -40.91663 0.0331 48.155644
1910.0 0.016741 67.624997 0.961352 -43.916678 0.966345 -42.934838 0.02806 47.245739
1920.0 0.021393 68.925754 0.960215 -46.098325 0.966332 -44.977431 0.022759 48.921614
1930.0 0.026163 67.916078 0.960248 -48.301895 0.966113 -47.076452 0.017298 56.243671
1940.0 0.030761 65.551613 0.961431 -50.495303 0.96624 -49.23799 0.012674 74.585886
1950.0 0.034968 62.440781 0.963265 -52.639332 0.967095 -51.429805 0.011226 109.02067
1960.0 0.038755 58.716238 0.964918 -54.73673 0.968572 -53.612929 0.014495 138.936046
1970.0 0.042003 54.555142 0.965728 -56.803508 0.97016 -55.753535 0.02042 153.926873
1980.0 0.044664 49.958476 0.965458 -58.886188 0.971167 -57.850513 0.027083 160.70509
1990.0 0.046496 44.981929 0.964411 -61.008947 0.971153 -59.922537 0.034045 163.99063
2000.0 0.047369 39.476006 0.963205 -63.186765 0.970146 -62.007898 0.040918 165.667945
2010.0 0.047097 33.235093 0.962414 -65.389889 0.968667 -64.129397 0.047744 166.692179
2020.0 0.045798 25.903082 0.962305 -67.58711 0.967452 -66.293193 0.054217 167.49713
2030.0 0.043615 17.052524 0.962685 -69.738183 0.967041 -68.475367 0.06034 168.370252
2040.0 0.041037 6.117531 0.963139 -71.839575 0.967519 -70.648489 0.065741 169.472182
2050.0 0.038669 -7.539571 0.963262 -73.900629 0.968511 -72.787925 0.070325 170.938419
2060.0 0.037575 -24.06112 0.962958 -75.962061 0.969429 -74.897815 0.073639 172.822437
2070.0 0.038808 -42.371601 0.962393 -78.047879 0.96981 -76.995512 0.075596 175.103817
2080.0 0.043033 -59.914448 0.961969 -80.180757 0.969591 -79.112126 0.075968 177.688715
2090.0 0.049941 -74.770716 0.961927 -82.346977 0.96906 -81.261474 0.075125 -179.528391
2100.0 0.058633 -86.436431 0.962361 -84.532754 0.968706 -83.44187 0.073381 -176.536574
2110.0 0.068132 -95.53397 0.962988 -86.708335 0.968865 -85.625937 0.071441 -173.188274
2120.0 0.077589 -102.716319 0.963495 -88.868163 0.969582 -87.785616 0.069583 -169.174614
2130.0 0.086466 -108.61622 0.963493 -91.007452 0.970535 -89.896005 0.068106 -164.306372
2140.0 0.09434 -113.611485 0.963 -93.144492 0.971301 -91.960356 0.066792 -158.586529
2150.0 0.101012 -118.039969 0.962183 -95.28554 0.971497 -93.997162 0.065579 -152.463586
2160.0 0.106269 -122.104767 0.961518 -97.4383 0.971088 -96.041499 0.064196 -146.547856
2170.0 0.110138 -125.979852 0.961273 -99.587781 0.970271 -98.118496 0.062781 -141.674658
2180.0 0.112636 -129.678295 0.961602 -101.726069 0.969437 -100.241319 0.061482 -138.364327
2190.0 0.113912 -133.143415 0.962225 -103.839066 0.968827 -102.397674 0.060752 -136.89734
2200.0 0.113874 -136.258157 0.962877 -105.937538 0.968481 -104.569663 0.060652 -136.874997
2210.0 0.112466 -139.011925 0.96315 -108.033583 0.968107 -106.736259 0.060917 -137.874925
2220.0 0.109527 -141.494219 0.963039 -110.153156 0.967421 -108.894683 0.060659 -139.594654
2230.0 0.105246 -143.882238 0.962593 -112.303758 0.966208 -111.050173 0.059219 -142.537824
2240.0 0.099916 -146.253961 0.962209 -114.486053 0.964591 -113.215016 0.056462 -147.615874
2250.0 0.094038 -148.487066 0.961995 -116.675545 0.962796 -115.390714 0.053591 -156.010913
2260.0 0.087759 -150.232655 0.962078 -118.848589 0.961138 -117.57378 0.052517 -167.693958
2270.0 0.081071 -151.116259 0.962111 -120.98178 0.959727 -119.750898 0.054947 179.376803
2280.0 0.073707 -150.934788 0.961869 -123.07455 0.958624 -121.915312 0.060568 167.900803
2290.0 0.065719 -149.799265 0.961032 -125.139862 0.957699 -124.064172 0.068059 158.700531
2300.0 0.057398 -148.15357 0.959771 -127.208074 0.956938 -126.20488 0.076156 151.066495
