! File created by SignalIntegrity v1.1.13: Signal and Power Integrity Tools
! https://github.com/TeledyneLeCroy/SignalIntegrity
# MHz S MA R 50.0
0.0 0.003944 0.0 0.993666 0.0 0.993666 0.0 0.003944 0.0
40.0 0.015699 27.975351 0.989293 -32.595931 0.989293 -32.595931 0.015699 27.975351
80.0 0.022429 4.627423 0.987458 -65.041713 0.987458 -65.041713 0.022429 4.627423
120.0 0.022926 -23.434585 0.986137 -97.463087 0.986137 -97.463087 0.022926 -23.434585
160.0 0.017069 -52.88978 0.985096 -129.877623 0.985096 -129.877623 0.017069 -52.88978
200.0 0.0066 -81.55722 0.984141 -162.290756 0.984141 -162.290756 0.0066 -81.55722
240.0 0.005406 60.639201 0.983161 165.300876 0.983161 165.300876 0.005406 60.639201
280.0 0.015348 31.889226 0.982183 132.902448 0.982183 132.902448 0.015348 31.889226
320.0 0.020356 0.972789 0.981316 100.513534 0.981316 100.513534 0.020356 0.972789
360.0 0.019025 -30.174351 0.980613 68.12741 0.980613 68.12741 0.019025 -30.174351
400.0 0.011879 -60.906649 0.98 35.737619 0.98 35.737619 0.011879 -60.906649
440.0 0.00125 -74.831431 0.979354 3.344454 0.979354 3.344454 0.00125 -74.831431
480.0 0.009746 51.282838 0.978627 -29.045868 0.978627 -29.045868 0.009746 51.282838
520.0 0.017518 20.754369 0.977895 -61.428477 0.977895 -61.428477 0.017518 20.754369
560.0 0.019802 -10.554834 0.977268 -93.80548 0.977268 -93.80548 0.019802 -10.554834
600.0 0.015948 -41.780678 0.976761 -126.183712 0.976761 -126.183712 0.015948 -41.780678
640.0 0.007203 -71.414783 0.976279 -158.567197 0.976279 -158.567197 0.007203 -71.414783
680.0 0.003754 65.681376 0.975721 169.047188 0.975721 169.047188 0.003754 65.681376
720.0 0.013409 39.200693 0.975091 136.66601 0.975091 136.66601 0.013409 39.200693
760.0 0.018867 8.153554 0.974491 104.291757 0.974491 104.291757 0.018867 8.153554
800.0 0.018453 -23.19126 0.974005 71.919995 0.974005 71.919995 0.018453 -23.19126
840.0 0.01233 -54.054196 0.973601 39.544368 0.973601 39.544368 0.01233 -54.054196
880.0 0.002463 -75.938057 0.973168 7.163732 0.973168 7.163732 0.002463 -75.938057
920.0 0.008219 56.239031 0.972642 -25.216655 0.972642 -25.216655 0.008219 56.239031
960.0 0.016223 26.326522 0.972077 -57.591187 0.972077 -57.591187 0.016223 26.326522
1000.0 0.01917 -4.904998 0.97158 -89.960311 0.97158 -89.960311 0.01917 -4.904998
1040.0 0.016167 -36.110772 0.971192 -122.330006 0.971192 -122.330006 0.016167 -36.110772
1080.0 0.008173 -65.860312 0.970839 -154.705001 0.970839 -154.705001 0.008173 -65.860312
1120.0 0.002417 64.697974 0.970416 172.916555 0.970416 172.916555 0.002417 64.697974
1160.0 0.012096 43.872683 0.969909 140.540916 0.969909 140.540916 0.012096 43.872683
1200.0 0.018041 13.127047 0.969406 108.171573 0.969406 108.171573 0.018041 13.127047
1240.0 0.018377 -18.123055 0.968999 75.805287 0.968999 75.805287 0.018377 -18.123055
1280.0 0.013019 -48.948903 0.968676 43.435784 0.968676 43.435784 0.013019 -48.948903
1320.0 0.003674 -73.82757 0.968338 11.060896 0.968338 11.060896 0.003674 -73.82757
1360.0 0.006882 59.752081 0.96791 -21.315021 0.96791 -21.315021 0.006882 59.752081
1400.0 0.015185 30.831714 0.967426 -53.686093 0.967426 -53.686093 0.015185 30.831714
1440.0 0.018769 -0.213146 0.966989 -86.051647 0.966989 -86.051647 0.018769 -0.213146
1480.0 0.016527 -31.33793 0.966655 -118.416959 0.966655 -118.416959 0.016527 -31.33793
1520.0 0.009175 -61.199623 0.966367 -150.787232 0.966367 -150.787232 0.009175 -61.199623
1560.0 0.001219 50.959152 0.966022 176.838321 0.966022 176.838321 0.001219 50.959152
1600.0 0.010892 47.867365 0.965587 144.46554 0.965587 144.46554 0.010892 47.867365
1640.0 0.017324 17.531774 0.965138 112.098623 0.965138 112.098623 0.017324 17.531774
1680.0 0.018375 -13.589313 0.96477 79.735339 0.96477 79.735339 0.018375 -13.589313
1720.0 0.013731 -44.375678 0.964491 47.36959 0.964491 47.36959 0.013731 -44.375678
1760.0 0.004866 -70.859167 0.96421 14.998372 0.96421 14.998372 0.004866 -70.859167
1800.0 0.005597 62.36592 0.963846 -17.374819 0.963846 -17.374819 0.005597 62.36592
1840.0 0.014197 34.944172 0.963414 -49.744011 0.963414 -49.744011 0.014197 34.944172
1880.0 0.018399 4.126529 0.963013 -82.107589 0.963013 -82.107589 0.018399 4.126529
1920.0 0.016893 -26.910299 0.962708 -114.470127 0.962708 -114.470127 0.016893 -26.910299
1960.0 0.010159 -56.878828 0.962461 -146.837151 0.962461 -146.837151 0.010159 -56.878828
2000.0 0.000758 -22.26637 0.962167 -179.208837 0.962167 -179.208837 0.000758 -22.26637
2040.0 0.00971 51.488367 0.961784 148.420167 0.961784 148.420167 0.00971 51.488367
2080.0 0.016612 21.680143 0.96137 116.054603 0.96137 116.054603 0.016612 21.680143
2120.0 0.01836 -9.296826 0.961026 83.693184 0.961026 83.693184 0.01836 -9.296826
2160.0 0.014417 -40.047398 0.960773 51.330083 0.960773 51.330083 0.014417 -40.047398
2200.0 0.006033 -67.532735 0.960532 18.961592 0.960532 18.961592 0.006033 -67.532735
2240.0 0.004335 63.793461 0.960214 -13.409651 0.960214 -13.409651 0.004335 63.793461
2280.0 0.013204 38.833587 0.959821 -45.777702 0.959821 -45.777702 0.013204 38.833587
2320.0 0.018004 8.284609 0.959444 -78.140116 0.959444 -78.140116 0.018004 8.284609
2360.0 0.01722 -22.660725 0.959157 -110.500734 0.959157 -110.500734 0.01722 -22.660725
2400.0 0.011105 -52.722465 0.958935 -142.865277 0.958935 -142.865277 0.011105 -52.722465
2440.0 0.001709 -61.392821 0.958682 -175.234812 0.958682 -175.234812 0.001709 -61.392821
2480.0 0.008526 54.785088 0.958338 152.395453 0.958338 152.395453 0.008526 54.785088
2520.0 0.015872 25.675098 0.957952 120.030671 0.957952 120.030671 0.015872 25.675098
2560.0 0.018299 -5.141253 0.957623 87.670462 0.957623 87.670462 0.018299 -5.141253
2600.0 0.015055 -35.855907 0.957385 55.309361 0.957385 55.309361 0.015055 -35.855907
2640.0 0.007167 -64.021394 0.957173 22.943075 0.957173 22.943075 0.007167 -64.021394
2680.0 0.003097 62.883877 0.956893 -9.42662 0.956893 -9.42662 0.003097 62.883877
2720.0 0.012187 42.553465 0.956532 -41.793922 0.956532 -41.793922 0.012187 42.553465
2760.0 0.01756 12.328341 0.956171 -74.155657 0.956171 -74.155657 0.01756 12.328341
2800.0 0.017489 -18.519232 0.955895 -106.514895 0.955895 -106.514895 0.017489 -18.519232
2840.0 0.012005 -48.657316 0.955691 -138.877433 0.955691 -138.877433 0.012005 -48.657316
2880.0 0.002891 -67.50153 0.955468 -171.24516 0.955468 -171.24516 0.002891 -67.50153
2920.0 0.007333 57.701429 0.955158 156.386088 0.955158 156.386088 0.007333 57.701429
2960.0 0.015088 29.557737 0.954795 124.021753 0.954795 124.021753 0.015088 29.557737
3000.0 0.018176 -1.075688 0.954475 91.662322 0.954475 91.662322 0.018176 -1.075688
3040.0 0.015633 -31.750461 0.954247 59.302786 0.954247 59.302786 0.015633 -31.750461
3080.0 0.008263 -60.401979 0.954056 26.938375 0.954056 26.938375 0.008263 -60.401979
3120.0 0.001918 55.534827 0.953807 -5.429991 0.953807 -5.429991 0.001918 55.534827
3160.0 0.011139 46.112657 0.953474 -37.796766 0.953474 -37.796766 0.011139 46.112657
3200.0 0.017057 16.288668 0.953127 -70.158137 0.953127 -70.158137 0.017057 16.288668
3240.0 0.017692 -14.451039 0.952856 -102.516379 0.952856 -102.516379 0.017692 -14.451039
3280.0 0.012849 -44.647901 0.952664 -134.877242 0.952664 -134.877242 0.012849 -44.647901
3320.0 0.004088 -67.62502 0.952466 -167.243372 0.952466 -167.243372 0.004088 -67.62502
3360.0 0.006129 60.07486 0.952185 160.388711 0.952185 160.388711 0.006129 60.07486
3400.0 0.014255 33.343799 0.951842 128.024615 0.951842 128.024615 0.014255 33.343799
3440.0 0.017985 2.923763 0.951529 95.665655 0.951529 95.665655 0.017985 2.923763
3480.0 0.016143 -27.70404 0.951306 63.30736 0.951306 63.30736 0.016143 -27.70404
3520.0 0.009316 -56.714267 0.951131 30.944594 0.951131 30.944594 0.009316 -56.714267
3560.0 0.001012 22.444135 0.950909 -1.422568 0.950909 -1.422568 0.001012 22.444135
3600.0 0.010059 49.49269 0.9506 -33.788938 0.9506 -33.788938 0.010059 49.49269
3640.0 0.016492 20.180404 0.950266 -66.15016 0.950266 -66.15016 0.016492 20.180404
3680.0 0.01782 -10.437042 0.949998 -98.507697 0.949998 -98.507697 0.01782 -10.437042
3720.0 0.013633 -40.675364 0.949813 -130.86714 0.949813 -130.86714 0.013633 -40.675364
3760.0 0.005269 -65.848193 0.949634 -163.231813 0.949634 -163.231813 0.005269 -65.848193
3800.0 0.004921 61.549242 0.94938 164.40103 0.94938 164.40103 0.004921 61.549242
3840.0 0.013371 37.035351 0.949055 132.037047 0.949055 132.037047 0.013371 37.035351
3880.0 0.01772 6.869957 0.948748 99.678329 0.948748 99.678329 0.01772 6.869957
3920.0 0.016582 -23.701081 0.948527 67.321015 0.948527 67.321015 0.016582 -23.701081
3960.0 0.01032 -52.981171 0.948363 34.959717 0.948363 34.959717 0.01032 -52.981171
4000.0 0.001253 -40.088324 0.948164 2.593688 0.948164 2.593688 0.001253 -40.088324
4040.0 0.008948 52.648028 0.947878 -29.772335 0.947878 -29.772335 0.008948 52.648028
4080.0 0.015861 24.009719 0.947556 -62.133559 0.947556 -62.133559 0.015861 24.009719
4120.0 0.017872 -6.466161 0.947289 -94.490624 0.947289 -94.490624 0.017872 -6.466161
4160.0 0.014351 -36.729075 0.947107 -126.848857 0.947107 -126.848857 0.014351 -36.729075
4200.0 0.006422 -63.244398 0.946945 -159.212174 0.946945 -159.212174 0.006422 -63.244398
4240.0 0.003719 61.292715 0.946714 168.421399 0.946714 168.421399 0.003719 61.292715
4280.0 0.012439 40.62455 0.946407 136.057458 0.946407 136.057458 0.012439 40.62455
4320.0 0.017381 10.769681 0.946105 103.698806 0.946105 103.698806 0.017381 10.769681
4360.0 0.016944 -19.732206 0.945883 71.342253 0.945883 71.342253 0.016944 -19.732206
4400.0 0.01127 -49.216991 0.945727 38.982277 0.945727 38.982277 0.01127 -49.216991
4440.0 0.002286 -59.767174 0.945548 6.61734 0.945548 6.61734 0.002286 -59.767174
4480.0 0.00781 55.494725 0.945284 -25.748353 0.945284 -25.748353 0.00781 55.494725
4520.0 0.015166 27.777206 0.944972 -58.10968 0.944972 -58.10968 0.015166 27.777206
4560.0 0.017843 -2.531905 0.944706 -90.466465 0.944706 -90.466465 0.017843 -2.531905
4600.0 0.014999 -32.802844 0.944525 -122.823672 0.944525 -122.823672 0.014999 -32.802844
4640.0 0.00754 -60.210953 0.944375 -155.185715 0.944375 -155.185715 0.00754 -60.210953
4680.0 0.002552 56.980994 0.944166 172.448588 0.944166 172.448588 0.002552 56.980994
4720.0 0.011459 44.093823 0.943876 140.084656 0.943876 140.084656 0.011459 44.093823
4760.0 0.016966 14.625908 0.943579 107.725934 0.943579 107.725934 0.016966 14.625908
4800.0 0.017227 -15.791663 0.943356 75.369954 0.943356 75.369954 0.017227 -15.791663
4840.0 0.012163 -45.431244 0.943204 43.011167 0.943204 43.011167 0.012163 -45.431244
4880.0 0.003442 -64.058531 0.943041 10.6473 0.943041 10.6473 0.003442 -64.058531
4920.0 0.006651 57.881518 0.942798 -21.718053 0.942798 -21.718053 0.006651 57.881518
4960.0 0.014408 31.479034 0.942498 -54.079548 0.942498 -54.079548 0.014408 31.479034
5000.0 0.017734 1.36934 0.942231 -86.436216 0.942231 -86.436216 0.017734 1.36934
5040.0 0.015574 -28.893045 0.942049 -118.792561 0.942049 -118.792561 0.015574 -28.893045
5080.0 0.008617 -56.927811 0.941909 -151.153402 0.941909 -151.153402 0.008617 -56.927811
5120.0 0.001522 40.238423 0.941719 176.481647 0.941719 176.481647 0.001522 40.238423
5160.0 0.010435 47.413421 0.941447 144.117721 0.941447 144.117721 0.010435 47.413421
5200.0 0.016478 18.43888 0.941155 111.758826 0.941155 111.758826 0.016478 18.43888
5240.0 0.017429 -11.875993 0.940928 79.403248 0.940928 79.403248 0.017429 -11.875993
5280.0 0.012993 -41.630616 0.940779 47.045529 0.940779 47.045529 0.012993 -41.630616
5320.0 0.004611 -64.099465 0.94063 14.682715 0.94063 14.682715 0.004611 -64.099465
5360.0 0.005478 59.521113 0.940407 -17.682267 0.940407 -17.682267 0.005478 59.521113
5400.0 0.01359 35.107062 0.940118 -50.043965 0.940118 -50.043965 0.01359 35.107062
5440.0 0.017544 5.239198 0.939851 -82.400651 0.939851 -82.400651 0.017544 5.239198
5480.0 0.016074 -24.997632 0.939667 -114.75629 0.939667 -114.75629 0.016074 -24.997632
5520.0 0.009647 -53.488095 0.939533 -147.115996 0.939533 -147.115996 0.009647 -53.488095
5560.0 0.001116 -9.606601 0.939361 -179.480178 0.939361 -179.480178 0.001116 -9.606601
5600.0 0.009373 50.535698 0.939106 148.155923 0.939106 148.155923 0.009373 50.535698
5640.0 0.015916 22.206554 0.938819 115.796778 0.938819 115.796778 0.015916 22.206554
5680.0 0.017548 -7.983288 0.938589 83.441451 0.938589 83.441451 0.017548 -7.983288
5720.0 0.013757 -37.82004 0.93844 51.084681 0.93844 51.084681 0.013757 -37.82004
5760.0 0.005765 -62.477573 0.938303 18.722906 0.938303 18.722906 0.005765 -62.477573
5800.0 0.004303 59.810891 0.938098 -13.641661 0.938098 -13.641661 0.004303 59.810891
5840.0 0.012714 38.648133 0.937822 -46.003574 0.937822 -46.003574 0.012714 38.648133
5880.0 0.017273 9.077772 0.937555 -78.360392 0.937555 -78.360392 0.017273 9.077772
5920.0 0.016494 -21.115588 0.937367 -110.71547 0.937367 -110.71547 0.016494 -21.115588
5960.0 0.010627 -49.944825 0.937238 -143.074111 0.937238 -143.074111 0.010627 -49.944825
6000.0 0.001806 -48.101697 0.937081 -175.437493 0.937081 -175.437493 0.001806 -48.101697
6040.0 0.008277 53.383745 0.936843 152.198671 0.936843 152.198671 0.008277 53.383745
6080.0 0.015283 25.92468 0.936563 119.839223 0.936563 119.839223 0.015283 25.92468
6120.0 0.017584 -4.112772 0.936329 87.484011 0.936329 87.484011 0.017584 -4.112772
6160.0 0.014451 -34.003324 0.936178 55.128072 0.936178 55.128072 0.014451 -34.003324
6200.0 0.006891 -60.048106 0.936051 22.76732 0.936051 22.76732 0.006891 -60.048106
6240.0 0.003148 57.284766 0.935863 -9.596782 0.935863 -9.596782 0.003148 57.284766
6280.0 0.011786 42.08248 0.9356 -41.958899 0.9356 -41.958899 0.011786 42.08248
6320.0 0.016923 12.883858 0.935334 -74.315942 0.935334 -74.315942 0.016923 12.883858
6360.0 0.016834 -17.246617 0.935141 -106.670597 0.935141 -106.670597 0.016834 -17.246617
6400.0 0.01155 -46.330464 0.935014 -139.028245 0.935014 -139.028245 0.01155 -46.330464
6440.0 0.002876 -59.152768 0.934871 -171.390801 0.934871 -171.390801 0.002876 -59.152768
6480.0 0.007153 55.828482 0.93465 156.245477 0.93465 156.245477 0.007153 55.828482
6520.0 0.014582 29.586565 0.934377 123.885695 0.934377 123.885695 0.014582 29.586565
6560.0 0.017536 -0.264569 0.93414 91.530475 0.93414 91.530475 0.017536 -0.264569
6600.0 0.015072 -30.183546 0.933985 59.175251 0.933985 59.175251 0.015072 -30.183546
6640.0 0.007981 -57.169677 0.933866 26.815501 0.933866 26.815501 0.007981 -57.169677
6680.0 0.002073 47.58924 0.933694 -5.54808 0.933694 -5.54808 0.002073 47.58924
6720.0 0.010808 45.380816 0.933444 -37.910376 0.933444 -37.910376 0.010808 45.380816
6760.0 0.016493 16.655001 0.933179 -70.267719 0.933179 -70.267719 0.016493 16.655001
6800.0 0.017091 -13.390963 0.932981 -102.622081 0.932981 -102.622081 0.017091 -13.390963
6840.0 0.012414 -42.666081 0.932855 -134.978815 0.932855 -134.978815 0.012414 -42.666081
6880.0 0.004015 -61.785419 0.932724 -167.340518 0.932724 -167.340518 0.004015 -61.785419
6920.0 0.00601 57.639208 0.932519 160.295933 0.932519 160.295933 0.00601 57.639208
6960.0 0.013817 33.182525 0.932254 127.935805 0.932254 127.935805 0.013817 33.182525
7000.0 0.017405 3.560419 0.932014 95.58047 0.932014 95.58047 0.017405 3.560419
7040.0 0.015618 -26.363303 0.931855 63.225843 0.931855 63.225843 0.015618 -26.363303
7080.0 0.009029 -54.017996 0.931741 30.867065 0.931741 30.867065 0.009029 -54.017996
7120.0 0.001317 17.153612 0.931584 -1.495939 0.931584 -1.495939 0.001317 17.153612
7160.0 0.009786 48.499196 0.931348 -33.858372 0.931348 -33.858372 0.009786 48.499196
7200.0 0.015988 20.387412 0.931086 -66.21607 0.931086 -66.21607 0.015988 20.387412
7240.0 0.017264 -9.549318 0.930882 -98.570264 0.930882 -98.570264 0.017264 -9.549318
7280.0 0.013212 -38.966039 0.930754 -130.926166 0.930754 -130.926166 0.013212 -38.966039
7320.0 0.005159 -61.431593 0.930634 -163.286999 0.930634 -163.286999 0.005159 -61.431593
7360.0 0.004859 58.365504 0.930444 164.349693 0.930444 164.349693 0.004859 58.365504
7400.0 0.012989 36.698923 0.930189 131.989223 0.930189 131.989223 0.012989 36.698923
7440.0 0.01719 7.360541 0.929946 99.633679 0.929946 99.633679 0.01719 7.360541
7480.0 0.016085 -22.544889 0.929782 67.279532 0.929782 67.279532 0.016085 -22.544889
7520.0 0.010029 -50.689081 0.929671 34.921689 0.929671 34.921689 0.010029 -50.689081
7560.0 0.001489 -30.492678 0.929528 2.559317 0.929528 2.559317 0.001489 -30.492678
7600.0 0.008727 51.369717 0.929306 -29.8032 0.929306 -29.8032 0.008727 51.369717
7640.0 0.015408 24.075751 0.929047 -62.161292 0.929047 -62.161292 0.015408 24.075751
7680.0 0.017353 -5.722773 0.928838 -94.515433 0.928838 -94.515433 0.017353 -5.722773
7720.0 0.013943 -35.240557 0.928707 -126.870594 0.928707 -126.870594 0.013943 -35.240557
7760.0 0.006286 -59.730506 0.928595 -159.230544 0.928595 -159.230544 0.006286 -59.730506
7800.0 0.003717 57.015006 0.928421 168.406457 0.928421 168.406457 0.003717 57.015006
7840.0 0.012105 40.116591 0.928175 136.045667 0.928175 136.045667 0.012105 40.116591
7880.0 0.016893 11.133375 0.927932 103.689834 0.927932 103.689834 0.016893 11.133375
7920.0 0.016471 -18.730421 0.927761 71.336052 0.927761 71.336052 0.016471 -18.730421
7960.0 0.010977 -47.239825 0.927651 38.979097 0.927651 38.979097 0.010977 -47.239825
8000.0 0.002385 -51.970014 0.927522 6.617407 0.927522 6.617407 0.002385 -51.970014
8040.0 0.007635 53.88281 0.927314 -25.745131 0.927314 -25.745131 0.007635 53.88281
8080.0 0.014757 27.712753 0.92706 -58.10364 0.92706 -58.10364 0.014757 27.712753
8120.0 0.017358 -1.912818 0.926845 -90.457835 0.926845 -90.457835 0.017358 -1.912818
8160.0 0.014602 -31.497207 0.92671 -122.812347 0.92671 -122.812347 0.014602 -31.497207
8200.0 0.007383 -57.317147 0.926605 -155.171415 0.926605 -155.171415 0.007383 -57.317147
8240.0 0.002625 51.025455 0.926445 172.465967 0.926445 172.465967 0.002625 51.025455
8280.0 0.011169 43.408254 0.92621 140.104892 0.92621 140.104892 0.011169 43.408254
8320.0 0.016516 14.875625 0.925966 107.748705 0.925966 107.748705 0.016516 14.875625
8360.0 0.016776 -14.92194 0.925789 75.395174 0.925789 75.395174 0.016776 -14.92194
8400.0 0.011867 -43.706141 0.925679 43.039052 0.925679 43.039052 0.011867 -43.706141
8440.0 0.003469 -58.512322 0.92556 10.678088 0.92556 10.678088 0.003469 -58.512322
8480.0 0.00652 55.851082 0.925366 -21.684402 0.925366 -21.684402 0.00652 55.851082
8520.0 0.014038 31.288639 0.925118 -54.043333 0.925118 -54.043333 0.014038 31.288639
8560.0 0.017277 1.878633 0.924899 -86.39768 0.924899 -86.39768 0.017277 1.878633
8600.0 0.015187 -27.741819 0.924759 -118.751643 0.924759 -118.751643 0.015187 -27.741819
8640.0 0.008443 -54.485098 0.924658 -151.109835 0.924658 -151.109835 0.008443 -54.485098
8680.0 0.001711 32.858682 0.924512 176.527997 0.924512 176.527997 0.001711 32.858682
8720.0 0.010185 46.534202 0.924289 144.166684 0.924289 144.166684 0.010185 46.534202
8760.0 0.016061 18.582959 0.924045 111.810093 0.924045 111.810093 0.016061 18.582959
8800.0 0.016997 -11.121487 0.923861 79.456702 0.923861 79.456702 0.016997 -11.121487
8840.0 0.012695 -40.111892 0.92375 47.101349 0.92375 47.101349 0.012695 -40.111892
8880.0 0.004592 -59.906544 0.92364 14.741146 0.92364 14.741146 0.004592 -59.906544
8920.0 0.00539 56.92857 0.92346 -17.621221 0.92346 -17.621221 0.00539 56.92857
8960.0 0.013256 34.790207 0.92322 -49.980566 0.92322 -49.980566 0.013256 34.790207
9000.0 0.017113 5.64919 0.922997 -82.33515 0.922997 -82.33515 0.017113 5.64919
9040.0 0.015695 -23.979063 0.92285 -114.688665 0.92285 -114.688665 0.015695 -23.979063
9080.0 0.009459 -51.387985 0.922752 -147.046003 0.922752 -147.046003 0.009459 -51.387985
9120.0 0.001398 -8.127118 0.922619 -179.407653 0.922619 -179.407653 0.001398 -8.127118
9160.0 0.009159 49.434771 0.922408 148.230854 0.922408 148.230854 0.009159 49.434771
9200.0 0.01553 22.249756 0.922166 115.873823 0.922166 115.873823 0.01553 22.249756
9240.0 0.017133 -7.331187 0.921976 83.520466 0.921976 83.520466 0.017133 -7.331187
9280.0 0.013457 -36.473648 0.921861 51.165809 0.921861 51.165809 0.013457 -36.473648
9320.0 0.005712 -59.141182 0.921759 18.806393 0.921759 18.806393 0.005712 -59.141182
