! File created by SignalIntegrity v1.1.14: Signal and Power Integrity Tools
! https://github.com/TeledyneLeCroy/SignalIntegrity
# MHz S MA R 50.0
0.0 1.0 0.0 2.0 0.0 0.0 0.0 1.0 180.0
100.0 1.0 0.0 2.0 -14.992907 0.0 0.0 1.0 180.0
200.0 1.0 0.0 1.999997 -30.113829 0.0 0.0 1.0 180.0
300.0 1.0 0.0 1.999934 -45.508954 0.0 0.0 1.0 180.0
400.0 1.0 0.0 1.999345 -61.368868 0.0 0.0 1.0 180.0
500.0 1.0 0.0 1.996105 -77.963211 0.0 0.0 1.0 180.0
600.0 1.0 0.0 1.983413 -95.663827 0.0 0.0 1.0 180.0
700.0 1.0 0.0 1.94473 -114.891581 0.0 0.0 1.0 180.0
800.0 1.0 0.0 1.850764 -135.859194 0.0 0.0 1.0 180.0
900.0 1.0 0.0 1.672211 -158.061625 0.0 0.0 1.0 180.0
1000.0 1.0 0.0 1.414214 -180.0 0.0 0.0 1.0 180.0
1100.0 1.0 0.0 1.128021 160.095415 0.0 0.0 1.0 180.0
1200.0 1.0 0.0 0.868759 143.178289 0.0 0.0 1.0 180.0
1300.0 1.0 0.0 0.660916 129.232609 0.0 0.0 1.0 180.0
1400.0 1.0 0.0 0.503826 117.781733 0.0 0.0 1.0 180.0
1500.0 1.0 0.0 0.387573 108.290397 0.0 0.0 1.0 180.0
1600.0 1.0 0.0 0.301684 100.312522 0.0 0.0 1.0 180.0
1700.0 1.0 0.0 0.237763 93.509909 0.0 0.0 1.0 180.0
1800.0 1.0 0.0 0.189661 87.632823 0.0 0.0 1.0 180.0
1900.0 1.0 0.0 0.153017 82.496648 0.0 0.0 1.0 180.0
2000.0 1.0 0.0 0.124757 77.963211 0.0 0.0 1.0 180.0
2100.0 1.0 0.0 0.102702 73.927405 0.0 0.0 1.0 180.0
2200.0 1.0 0.0 0.085299 70.307901 0.0 0.0 1.0 180.0
2300.0 1.0 0.0 0.071424 67.040734 0.0 0.0 1.0 180.0
2400.0 1.0 0.0 0.060254 64.074834 0.0 0.0 1.0 180.0
2500.0 1.0 0.0 0.051183 61.368868 0.0 0.0 1.0 180.0
2600.0 1.0 0.0 0.043755 58.888973 0.0 0.0 1.0 180.0
2700.0 1.0 0.0 0.037627 56.6071 0.0 0.0 1.0 180.0
2800.0 1.0 0.0 0.032534 54.499786 0.0 0.0 1.0 180.0
2900.0 1.0 0.0 0.028274 52.547235 0.0 0.0 1.0 180.0
3000.0 1.0 0.0 0.024689 50.732607 0.0 0.0 1.0 180.0
3100.0 1.0 0.0 0.021655 49.041476 0.0 0.0 1.0 180.0
3200.0 1.0 0.0 0.019073 47.461404 0.0 0.0 1.0 180.0
3300.0 1.0 0.0 0.016864 45.981601 0.0 0.0 1.0 180.0
3400.0 1.0 0.0 0.014966 44.592658 0.0 0.0 1.0 180.0
3500.0 1.0 0.0 0.013327 43.286326 0.0 0.0 1.0 180.0
3600.0 1.0 0.0 0.011907 42.055341 0.0 0.0 1.0 180.0
3700.0 1.0 0.0 0.010671 40.89328 0.0 0.0 1.0 180.0
3800.0 1.0 0.0 0.009592 39.79444 0.0 0.0 1.0 180.0
3900.0 1.0 0.0 0.008645 38.753738 0.0 0.0 1.0 180.0
4000.0 1.0 0.0 0.007812 37.766628 0.0 0.0 1.0 180.0
4100.0 1.0 0.0 0.007078 36.82903 0.0 0.0 1.0 180.0
4200.0 1.0 0.0 0.006427 35.937276 0.0 0.0 1.0 180.0
4300.0 1.0 0.0 0.00585 35.088052 0.0 0.0 1.0 180.0
4400.0 1.0 0.0 0.005336 34.27836 0.0 0.0 1.0 180.0
4500.0 1.0 0.0 0.004877 33.505479 0.0 0.0 1.0 180.0
4600.0 1.0 0.0 0.004467 32.766936 0.0 0.0 1.0 180.0
4700.0 1.0 0.0 0.004099 32.060475 0.0 0.0 1.0 180.0
4800.0 1.0 0.0 0.003768 31.384036 0.0 0.0 1.0 180.0
4900.0 1.0 0.0 0.003469 30.73573 0.0 0.0 1.0 180.0
5000.0 1.0 0.0 0.0032 30.113829 0.0 0.0 1.0 180.0
5100.0 1.0 0.0 0.002956 29.516741 0.0 0.0 1.0 180.0
5200.0 1.0 0.0 0.002735 28.943001 0.0 0.0 1.0 180.0
5300.0 1.0 0.0 0.002535 28.391259 0.0 0.0 1.0 180.0
5400.0 1.0 0.0 0.002352 27.860266 0.0 0.0 1.0 180.0
5500.0 1.0 0.0 0.002186 27.348868 0.0 0.0 1.0 180.0
5600.0 1.0 0.0 0.002034 26.855994 0.0 0.0 1.0 180.0
5700.0 1.0 0.0 0.001895 26.380651 0.0 0.0 1.0 180.0
5800.0 1.0 0.0 0.001767 25.921915 0.0 0.0 1.0 180.0
5900.0 1.0 0.0 0.001651 25.478928 0.0 0.0 1.0 180.0
6000.0 1.0 0.0 0.001543 25.050889 0.0 0.0 1.0 180.0
6100.0 1.0 0.0 0.001444 24.63705 0.0 0.0 1.0 180.0
6200.0 1.0 0.0 0.001354 24.236714 0.0 0.0 1.0 180.0
6300.0 1.0 0.0 0.00127 23.849228 0.0 0.0 1.0 180.0
6400.0 1.0 0.0 0.001192 23.473981 0.0 0.0 1.0 180.0
6500.0 1.0 0.0 0.00112 23.110399 0.0 0.0 1.0 180.0
6600.0 1.0 0.0 0.001054 22.757946 0.0 0.0 1.0 180.0
6700.0 1.0 0.0 0.000993 22.416117 0.0 0.0 1.0 180.0
6800.0 1.0 0.0 0.000935 22.084436 0.0 0.0 1.0 180.0
6900.0 1.0 0.0 0.000882 21.762457 0.0 0.0 1.0 180.0
7000.0 1.0 0.0 0.000833 21.449759 0.0 0.0 1.0 180.0
7100.0 1.0 0.0 0.000787 21.145946 0.0 0.0 1.0 180.0
7200.0 1.0 0.0 0.000744 20.850642 0.0 0.0 1.0 180.0
7300.0 1.0 0.0 0.000704 20.563495 0.0 0.0 1.0 180.0
7400.0 1.0 0.0 0.000667 20.28417 0.0 0.0 1.0 180.0
7500.0 1.0 0.0 0.000632 20.012351 0.0 0.0 1.0 180.0
7600.0 1.0 0.0 0.000599 19.747738 0.0 0.0 1.0 180.0
7700.0 1.0 0.0 0.000569 19.490049 0.0 0.0 1.0 180.0
7800.0 1.0 0.0 0.00054 19.239014 0.0 0.0 1.0 180.0
7900.0 1.0 0.0 0.000513 18.994378 0.0 0.0 1.0 180.0
8000.0 1.0 0.0 0.000488 18.7559 0.0 0.0 1.0 180.0
8100.0 1.0 0.0 0.000465 18.523348 0.0 0.0 1.0 180.0
8200.0 1.0 0.0 0.000442 18.296505 0.0 0.0 1.0 180.0
8300.0 1.0 0.0 0.000421 18.075161 0.0 0.0 1.0 180.0
8400.0 1.0 0.0 0.000402 17.85912 0.0 0.0 1.0 180.0
8500.0 1.0 0.0 0.000383 17.648193 0.0 0.0 1.0 180.0
8600.0 1.0 0.0 0.000366 17.442199 0.0 0.0 1.0 180.0
8700.0 1.0 0.0 0.000349 17.240967 0.0 0.0 1.0 180.0
8800.0 1.0 0.0 0.000334 17.044335 0.0 0.0 1.0 180.0
8900.0 1.0 0.0 0.000319 16.852144 0.0 0.0 1.0 180.0
9000.0 1.0 0.0 0.000305 16.664248 0.0 0.0 1.0 180.0
9100.0 1.0 0.0 0.000292 16.480502 0.0 0.0 1.0 180.0
9200.0 1.0 0.0 0.000279 16.300771 0.0 0.0 1.0 180.0
9300.0 1.0 0.0 0.000267 16.124924 0.0 0.0 1.0 180.0
9400.0 1.0 0.0 0.000256 15.952836 0.0 0.0 1.0 180.0
9500.0 1.0 0.0 0.000246 15.784389 0.0 0.0 1.0 180.0
9600.0 1.0 0.0 0.000235 15.619467 0.0 0.0 1.0 180.0
9700.0 1.0 0.0 0.000226 15.457961 0.0 0.0 1.0 180.0
9800.0 1.0 0.0 0.000217 15.299765 0.0 0.0 1.0 180.0
9900.0 1.0 0.0 0.000208 15.14478 0.0 0.0 1.0 180.0
10000.0 1.0 0.0 0.0002 14.992907 0.0 0.0 1.0 180.0
