! File created by SignalIntegrity v1.1.13: Signal and Power Integrity Tools
! https://github.com/TeledyneLeCroy/SignalIntegrity
# MHz S MA R 50.0
0.0 0.0 0.0 1.0 0.0 1.0 0.0 0.0 0.0
100.0 0.0 0.0 0.999258 -3.454083 0.999258 -3.454083 0.0 0.0
200.0 0.0 0.0 0.998946 -6.882934 0.998946 -6.882934 0.0 0.0
300.0 0.0 0.0 0.998708 -10.30763 0.998708 -10.30763 0.0 0.0
400.0 0.0 0.0 0.998506 -13.730176 0.998506 -13.730176 0.0 0.0
500.0 0.0 0.0 0.998329 -17.151349 0.998329 -17.151349 0.0 0.0
600.0 0.0 0.0 0.998169 -20.571546 0.998169 -20.571546 0.0 0.0
700.0 0.0 0.0 0.998022 -23.991003 0.998022 -23.991003 0.0 0.0
800.0 0.0 0.0 0.997885 -27.409874 0.997885 -27.409874 0.0 0.0
900.0 0.0 0.0 0.997756 -30.828267 0.997756 -30.828267 0.0 0.0
1000.0 0.0 0.0 0.997634 -34.24626 0.997634 -34.24626 0.0 0.0
1100.0 0.0 0.0 0.997518 -37.663911 0.997518 -37.663911 0.0 0.0
1200.0 0.0 0.0 0.997408 -41.081266 0.997408 -41.081266 0.0 0.0
1300.0 0.0 0.0 0.997302 -44.498361 0.997302 -44.498361 0.0 0.0
1400.0 0.0 0.0 0.997199 -47.915226 0.997199 -47.915226 0.0 0.0
1500.0 0.0 0.0 0.997101 -51.331885 0.997101 -51.331885 0.0 0.0
1600.0 0.0 0.0 0.997006 -54.748358 0.997006 -54.748358 0.0 0.0
1700.0 0.0 0.0 0.996913 -58.164663 0.996913 -58.164663 0.0 0.0
1800.0 0.0 0.0 0.996824 -61.580813 0.996824 -61.580813 0.0 0.0
1900.0 0.0 0.0 0.996737 -64.996823 0.996737 -64.996823 0.0 0.0
2000.0 0.0 0.0 0.996652 -68.412702 0.996652 -68.412702 0.0 0.0
2100.0 0.0 0.0 0.996569 -71.828461 0.996569 -71.828461 0.0 0.0
2200.0 0.0 0.0 0.996488 -75.244108 0.996488 -75.244108 0.0 0.0
2300.0 0.0 0.0 0.996409 -78.659651 0.996409 -78.659651 0.0 0.0
2400.0 0.0 0.0 0.996332 -82.075095 0.996332 -82.075095 0.0 0.0
2500.0 0.0 0.0 0.996256 -85.490448 0.996256 -85.490448 0.0 0.0
2600.0 0.0 0.0 0.996182 -88.905715 0.996182 -88.905715 0.0 0.0
2700.0 0.0 0.0 0.996109 -92.3209 0.996109 -92.3209 0.0 0.0
2800.0 0.0 0.0 0.996038 -95.736009 0.996038 -95.736009 0.0 0.0
2900.0 0.0 0.0 0.995968 -99.151045 0.995968 -99.151045 0.0 0.0
3000.0 0.0 0.0 0.995899 -102.566012 0.995899 -102.566012 0.0 0.0
3100.0 0.0 0.0 0.995831 -105.980913 0.995831 -105.980913 0.0 0.0
3200.0 0.0 0.0 0.995764 -109.395752 0.995764 -109.395752 0.0 0.0
3300.0 0.0 0.0 0.995698 -112.810531 0.995698 -112.810531 0.0 0.0
3400.0 0.0 0.0 0.995634 -116.225254 0.995634 -116.225254 0.0 0.0
3500.0 0.0 0.0 0.99557 -119.639922 0.99557 -119.639922 0.0 0.0
3600.0 0.0 0.0 0.995507 -123.054538 0.995507 -123.054538 0.0 0.0
3700.0 0.0 0.0 0.995445 -126.469105 0.995445 -126.469105 0.0 0.0
3800.0 0.0 0.0 0.995384 -129.883623 0.995384 -129.883623 0.0 0.0
3900.0 0.0 0.0 0.995324 -133.298095 0.995324 -133.298095 0.0 0.0
4000.0 0.0 0.0 0.995264 -136.712523 0.995264 -136.712523 0.0 0.0
4100.0 0.0 0.0 0.995205 -140.126909 0.995205 -140.126909 0.0 0.0
4200.0 0.0 0.0 0.995147 -143.541253 0.995147 -143.541253 0.0 0.0
4300.0 0.0 0.0 0.99509 -146.955558 0.99509 -146.955558 0.0 0.0
4400.0 0.0 0.0 0.995033 -150.369825 0.995033 -150.369825 0.0 0.0
4500.0 0.0 0.0 0.994977 -153.784055 0.994977 -153.784055 0.0 0.0
4600.0 0.0 0.0 0.994922 -157.198249 0.994922 -157.198249 0.0 0.0
4700.0 0.0 0.0 0.994867 -160.612409 0.994867 -160.612409 0.0 0.0
4800.0 0.0 0.0 0.994813 -164.026535 0.994813 -164.026535 0.0 0.0
4900.0 0.0 0.0 0.994759 -167.440628 0.994759 -167.440628 0.0 0.0
5000.0 0.0 0.0 0.994706 -170.854691 0.994706 -170.854691 0.0 0.0
5100.0 0.0 0.0 0.994653 -174.268723 0.994653 -174.268723 0.0 0.0
5200.0 0.0 0.0 0.994601 -177.682725 0.994601 -177.682725 0.0 0.0
5300.0 0.0 0.0 0.994549 178.903302 0.994549 178.903302 0.0 0.0
5400.0 0.0 0.0 0.994498 175.489356 0.994498 175.489356 0.0 0.0
5500.0 0.0 0.0 0.994448 172.075438 0.994448 172.075438 0.0 0.0
5600.0 0.0 0.0 0.994397 168.661546 0.994397 168.661546 0.0 0.0
5700.0 0.0 0.0 0.994348 165.247679 0.994348 165.247679 0.0 0.0
5800.0 0.0 0.0 0.994298 161.833838 0.994298 161.833838 0.0 0.0
5900.0 0.0 0.0 0.994249 158.420021 0.994249 158.420021 0.0 0.0
6000.0 0.0 0.0 0.994201 155.006228 0.994201 155.006228 0.0 0.0
6100.0 0.0 0.0 0.994153 151.592458 0.994153 151.592458 0.0 0.0
6200.0 0.0 0.0 0.994105 148.178711 0.994105 148.178711 0.0 0.0
6300.0 0.0 0.0 0.994058 144.764985 0.994058 144.764985 0.0 0.0
6400.0 0.0 0.0 0.994011 141.351282 0.994011 141.351282 0.0 0.0
6500.0 0.0 0.0 0.993964 137.937599 0.993964 137.937599 0.0 0.0
6600.0 0.0 0.0 0.993918 134.523937 0.993918 134.523937 0.0 0.0
6700.0 0.0 0.0 0.993872 131.110295 0.993872 131.110295 0.0 0.0
6800.0 0.0 0.0 0.993827 127.696672 0.993827 127.696672 0.0 0.0
6900.0 0.0 0.0 0.993782 124.283069 0.993782 124.283069 0.0 0.0
7000.0 0.0 0.0 0.993737 120.869485 0.993737 120.869485 0.0 0.0
7100.0 0.0 0.0 0.993692 117.455919 0.993692 117.455919 0.0 0.0
7200.0 0.0 0.0 0.993648 114.042371 0.993648 114.042371 0.0 0.0
7300.0 0.0 0.0 0.993604 110.62884 0.993604 110.62884 0.0 0.0
7400.0 0.0 0.0 0.993561 107.215327 0.993561 107.215327 0.0 0.0
7500.0 0.0 0.0 0.993518 103.801831 0.993518 103.801831 0.0 0.0
7600.0 0.0 0.0 0.993475 100.388352 0.993475 100.388352 0.0 0.0
7700.0 0.0 0.0 0.993432 96.974888 0.993432 96.974888 0.0 0.0
7800.0 0.0 0.0 0.993389 93.561441 0.993389 93.561441 0.0 0.0
7900.0 0.0 0.0 0.993347 90.148009 0.993347 90.148009 0.0 0.0
8000.0 0.0 0.0 0.993305 86.734593 0.993305 86.734593 0.0 0.0
8100.0 0.0 0.0 0.993264 83.321192 0.993264 83.321192 0.0 0.0
8200.0 0.0 0.0 0.993222 79.907805 0.993222 79.907805 0.0 0.0
8300.0 0.0 0.0 0.993181 76.494433 0.993181 76.494433 0.0 0.0
8400.0 0.0 0.0 0.99314 73.081075 0.99314 73.081075 0.0 0.0
8500.0 0.0 0.0 0.9931 69.667731 0.9931 69.667731 0.0 0.0
8600.0 0.0 0.0 0.993059 66.254401 0.993059 66.254401 0.0 0.0
8700.0 0.0 0.0 0.993019 62.841085 0.993019 62.841085 0.0 0.0
8800.0 0.0 0.0 0.992979 59.427782 0.992979 59.427782 0.0 0.0
8900.0 0.0 0.0 0.99294 56.014491 0.99294 56.014491 0.0 0.0
9000.0 0.0 0.0 0.9929 52.601214 0.9929 52.601214 0.0 0.0
9100.0 0.0 0.0 0.992861 49.187949 0.992861 49.187949 0.0 0.0
9200.0 0.0 0.0 0.992822 45.774697 0.992822 45.774697 0.0 0.0
9300.0 0.0 0.0 0.992783 42.361457 0.992783 42.361457 0.0 0.0
9400.0 0.0 0.0 0.992744 38.948229 0.992744 38.948229 0.0 0.0
9500.0 0.0 0.0 0.992706 35.535012 0.992706 35.535012 0.0 0.0
9600.0 0.0 0.0 0.992668 32.121808 0.992668 32.121808 0.0 0.0
9700.0 0.0 0.0 0.99263 28.708614 0.99263 28.708614 0.0 0.0
9800.0 0.0 0.0 0.992592 25.295432 0.992592 25.295432 0.0 0.0
9900.0 0.0 0.0 0.992554 21.882262 0.992554 21.882262 0.0 0.0
10000.0 0.0 0.0 0.992517 18.469102 0.992517 18.469102 0.0 0.0
