! File created by SignalIntegrity v1.1.13: Signal and Power Integrity Tools
! https://github.com/TeledyneLeCroy/SignalIntegrity
# MHz S MA R 50.0
0.0 1.0 0.0
100.0 0.999598 177.871194
200.0 0.999429 175.75604
300.0 0.9993 173.643134
400.0 0.999191 171.531392
500.0 0.999095 169.420392
600.0 0.999008 167.30992
700.0 0.998929 165.199849
800.0 0.998854 163.090094
900.0 0.998785 160.980598
1000.0 0.998719 158.871319
1100.0 0.998656 156.762225
1200.0 0.998596 154.65329
1300.0 0.998539 152.544497
1400.0 0.998483 150.435828
1500.0 0.99843 148.32727
1600.0 0.998378 146.218813
1700.0 0.998328 144.110447
1800.0 0.99828 142.002164
1900.0 0.998232 139.893958
2000.0 0.998186 137.785822
2100.0 0.998142 135.677751
2200.0 0.998098 133.569741
2300.0 0.998055 131.461788
2400.0 0.998013 129.353887
2500.0 0.997972 127.246036
2600.0 0.997932 125.138231
2700.0 0.997892 123.030471
2800.0 0.997854 120.922752
2900.0 0.997816 118.815072
3000.0 0.997778 116.70743
3100.0 0.997742 114.599823
3200.0 0.997705 112.492251
3300.0 0.99767 110.38471
3400.0 0.997635 108.2772
3500.0 0.9976 106.169719
3600.0 0.997566 104.062267
3700.0 0.997533 101.954841
3800.0 0.997499 99.847442
3900.0 0.997467 97.740067
4000.0 0.997434 95.632716
4100.0 0.997403 93.525389
4200.0 0.997371 91.418083
4300.0 0.99734 89.310799
4400.0 0.997309 87.203536
4500.0 0.997279 85.096292
4600.0 0.997249 82.989068
4700.0 0.997219 80.881863
4800.0 0.997189 78.774676
4900.0 0.99716 76.667506
5000.0 0.997131 74.560353
5100.0 0.997103 72.453217
5200.0 0.997075 70.346096
5300.0 0.997047 68.238992
5400.0 0.997019 66.131902
5500.0 0.996991 64.024827
5600.0 0.996964 61.917766
5700.0 0.996937 59.810719
5800.0 0.996911 57.703686
5900.0 0.996884 55.596666
6000.0 0.996858 53.489659
6100.0 0.996832 51.382664
6200.0 0.996806 49.275682
6300.0 0.99678 47.168712
6400.0 0.996755 45.061753
6500.0 0.996729 42.954805
6600.0 0.996704 40.847869
6700.0 0.99668 38.740944
6800.0 0.996655 36.634029
6900.0 0.99663 34.527124
7000.0 0.996606 32.42023
7100.0 0.996582 30.313346
7200.0 0.996558 28.206471
7300.0 0.996534 26.099606
7400.0 0.99651 23.992751
7500.0 0.996487 21.885904
7600.0 0.996464 19.779067
7700.0 0.99644 17.672238
7800.0 0.996417 15.565418
7900.0 0.996395 13.458606
8000.0 0.996372 11.351803
8100.0 0.996349 9.245008
8200.0 0.996327 7.138221
8300.0 0.996304 5.031441
8400.0 0.996282 2.92467
8500.0 0.99626 0.817906
8600.0 0.996238 -1.288851
8700.0 0.996216 -3.3956
8800.0 0.996195 -5.502343
8900.0 0.996173 -7.609078
9000.0 0.996152 -9.715806
9100.0 0.996131 -11.822527
9200.0 0.996109 -13.929242
9300.0 0.996088 -16.03595
9400.0 0.996067 -18.142651
9500.0 0.996046 -20.249346
9600.0 0.996026 -22.356035
9700.0 0.996005 -24.462718
9800.0 0.995985 -26.569394
9900.0 0.995964 -28.676065
10000.0 0.995944 -30.782729
