! File created by SignalIntegrity v1.1.17: Signal and Power Integrity Tools
! https://github.com/TeledyneLeCroy/SignalIntegrity
# MHz S MA R 50.0
0.0 0.053444 0.0 0.975862 0.0 0.974581 0.0 0.010273 180.0
50.0 0.046044 -90.468873 0.974106 -51.271424 0.972919 -51.253685 0.003252 61.992302
100.0 0.032929 155.584009 0.975662 -102.283164 0.975605 -102.230242 0.024214 -67.261776
150.0 0.024963 20.689773 0.980078 -153.575171 0.981092 -153.532563 0.045839 -116.19276
200.0 0.027326 -142.973112 0.976283 155.05761 0.977277 155.129519 0.044107 -154.925707
250.0 0.048384 104.838721 0.971389 104.202545 0.97234 104.337394 0.030535 -158.966805
300.0 0.045424 39.774698 0.974964 53.254057 0.97525 53.457957 0.035643 -155.761061
350.0 0.051592 8.695895 0.976091 1.800656 0.976202 2.100074 0.03254 -165.58378
400.0 0.0664 -63.620003 0.970686 -49.477504 0.971167 -49.180081 0.028517 -148.558654
450.0 0.060446 -177.099374 0.967834 -100.441735 0.967513 -100.18054 0.049965 -141.815763
500.0 0.067043 58.327462 0.966772 -151.414801 0.966352 -151.183825 0.069969 -171.661838
550.0 0.05591 -51.202587 0.965557 157.696228 0.964242 157.836963 0.05805 151.073934
600.0 0.028444 179.087251 0.965845 106.729555 0.963629 106.939462 0.024144 128.396529
650.0 0.018179 44.283989 0.963068 55.654108 0.963979 55.834523 0.017554 -162.107649
700.0 0.010117 100.760315 0.960836 4.795656 0.959563 4.693225 0.024064 -175.211637
750.0 0.033149 17.114159 0.964224 -46.271371 0.955763 -46.091324 0.015826 -142.011849
800.0 0.025337 -118.108942 0.962324 -97.688022 0.957738 -96.928581 0.035774 -132.820958
850.0 0.056104 88.944184 0.955126 -148.695437 0.957522 -147.991464 0.041835 -155.359391
900.0 0.073112 -11.602535 0.954025 160.499412 0.955236 161.083426 0.024501 -161.418501
950.0 0.040855 -123.56454 0.952745 109.404764 0.954729 110.075797 0.041706 -103.201732
1000.0 0.03036 62.584527 0.949146 58.478786 0.952189 58.943138 0.082256 -127.728087
1050.0 0.031904 -62.561777 0.950698 7.500526 0.950408 7.853268 0.088712 -152.469245
1100.0 0.022949 175.820304 0.948521 -43.755505 0.947827 -43.343003 0.078136 -160.907045
1150.0 0.032139 123.329661 0.944241 -94.527829 0.943257 -94.122535 0.08971 -154.034749
1200.0 0.079765 66.75186 0.951567 -145.378075 0.950712 -144.72969 0.121412 -172.008215
1250.0 0.113896 -11.245588 0.954132 162.835695 0.958161 163.630059 0.096227 164.828995
1300.0 0.105055 -99.759084 0.939291 111.332001 0.943288 112.006107 0.07845 -174.658768
1350.0 0.086842 157.518594 0.928415 60.810276 0.928158 61.673696 0.120694 -177.335677
1400.0 0.081356 57.030407 0.930477 10.276409 0.93015 11.353103 0.143262 164.281829
1450.0 0.060351 -31.350696 0.935828 -40.540943 0.933432 -39.498918 0.135461 144.449222
1500.0 0.03547 -121.649706 0.942216 -91.547007 0.936784 -90.351306 0.111422 139.388135
1550.0 0.054438 145.787278 0.942614 -142.811577 0.939429 -141.490147 0.123922 136.404559
1600.0 0.113951 63.378795 0.934785 166.232424 0.934229 167.437531 0.126228 118.470446
1650.0 0.150385 -23.1195 0.930455 115.523239 0.930243 116.619887 0.100691 102.106645
1700.0 0.128592 -119.584118 0.928009 64.375314 0.926992 65.497976 0.075488 104.025326
1750.0 0.09073 131.891078 0.921387 13.153445 0.921499 14.480538 0.087468 102.035714
1800.0 0.058435 35.145433 0.920185 -37.798824 0.925563 -36.483974 0.084496 73.373592
1850.0 0.024848 -12.048313 0.926592 -89.002349 0.932421 -88.043159 0.049981 34.309695
1900.0 0.021292 -46.587888 0.930231 -140.429477 0.931578 -139.474732 0.010968 -42.28829
1950.0 0.024033 159.215324 0.929796 168.405185 0.932952 169.598794 0.015249 -173.769526
2000.0 0.051644 53.089529 0.929955 117.412913 0.936676 118.548798 0.02162 -144.216118
2050.0 0.027696 -35.996896 0.929553 66.279191 0.935672 67.422071 0.05687 -154.223581
2100.0 0.049819 78.154294 0.926505 15.060891 0.933034 16.359517 0.077314 177.079757
2150.0 0.109949 -9.147866 0.92404 -36.07451 0.930393 -34.751739 0.064377 159.706808
2200.0 0.108236 -101.384831 0.924887 -87.227346 0.929026 -85.893973 0.060417 -175.872213
2250.0 0.083453 154.407954 0.925463 -138.444596 0.927617 -137.196671 0.11346 -176.885606
2300.0 0.073533 61.702751 0.923293 170.499712 0.921658 171.580609 0.150459 158.844451
2350.0 0.065745 -9.592023 0.920619 119.568337 0.916495 120.640426 0.143147 139.537942
2400.0 0.060868 -104.750172 0.916477 68.406536 0.914221 69.431677 0.139904 135.172017
2450.0 0.108517 134.315537 0.906706 16.93153 0.906437 17.846154 0.156902 123.998263
2500.0 0.191414 41.570996 0.891646 -34.493595 0.893431 -33.526254 0.150986 109.313916
2550.0 0.218525 -43.705548 0.880367 -85.463191 0.885076 -84.407016 0.131743 99.708103
2600.0 0.174162 -131.603226 0.882946 -136.252851 0.888386 -135.143955 0.118244 102.996137
2650.0 0.118994 138.114417 0.894269 172.528841 0.897981 173.720899 0.149509 98.721752
2700.0 0.09372 62.403514 0.901485 121.087275 0.902008 122.367649 0.150445 75.612412
2750.0 0.090194 -4.805821 0.902477 69.866193 0.90018 71.264062 0.103983 63.075927
2800.0 0.076114 -101.215732 0.898479 18.764366 0.89589 20.241647 0.088562 79.642271
2850.0 0.102106 127.580571 0.889164 -32.200463 0.888054 -30.717491 0.121023 77.264609
2900.0 0.154453 27.882559 0.882027 -82.924881 0.883568 -81.459886 0.128882 55.921808
2950.0 0.128529 -62.923495 0.884405 -133.793212 0.888082 -132.410818 0.107609 40.35668
3000.0 0.046366 172.778074 0.893408 174.866204 0.896186 176.198603 0.098036 29.203443
3050.0 0.055356 1.029373 0.901652 123.254897 0.901794 124.668266 0.086502 3.349415
3100.0 0.034089 -114.314754 0.905383 71.829817 0.903599 73.397458 0.052034 -46.805673
3150.0 0.029201 60.21499 0.906527 20.699013 0.905787 22.378818 0.033705 -174.77003
3200.0 0.019383 -5.764976 0.904626 -30.470764 0.906109 -28.891407 0.066384 101.803935
3250.0 0.05211 17.415333 0.898632 -81.798771 0.898549 -80.222476 0.068598 46.857831
3300.0 0.081465 -70.857485 0.89291 -133.521042 0.892904 -131.424479 0.040212 -21.818388
3350.0 0.092833 159.887501 0.882456 174.163231 0.889652 176.785294 0.038421 -148.543606
3400.0 0.159778 46.892435 0.863898 122.399234 0.877319 125.033289 0.063185 152.892478
3450.0 0.179354 -43.197445 0.858278 71.957698 0.871632 74.226307 0.083727 136.107238
3500.0 0.109215 -134.294489 0.873064 21.42964 0.880625 23.149129 0.127108 112.629924
3550.0 0.030283 92.541833 0.885501 -29.734383 0.884083 -28.394412 0.143615 76.582605
3600.0 0.01731 -79.734092 0.890086 -80.892693 0.885089 -79.638063 0.108888 38.618261
3650.0 0.021738 37.750785 0.890314 -132.548041 0.887128 -131.397996 0.028134 2.931587
3700.0 0.037871 -106.475449 0.876265 175.240995 0.875525 176.598116 0.073602 130.710935
3750.0 0.095798 107.905107 0.854079 123.535455 0.863291 125.359782 0.143707 92.039596
3800.0 0.157574 11.314363 0.842948 72.557509 0.862135 74.051924 0.166692 61.114396
3850.0 0.120056 -77.047113 0.850061 21.803315 0.86043 22.669548 0.174664 34.443892
3900.0 0.020206 122.098379 0.872147 -29.350948 0.866187 -28.180356 0.165135 2.661029
3950.0 0.090683 -43.771114 0.892452 -81.318448 0.8821 -79.52504 0.126426 -36.304808
4000.0 0.092398 -141.410536 0.895753 -133.417172 0.890199 -131.452635 0.065798 -97.584112
4050.0 0.059879 109.856358 0.887952 174.920281 0.890751 176.695029 0.059706 130.254252
4100.0 0.037193 48.278021 0.876271 123.440291 0.88649 124.70375 0.11783 57.431698
4150.0 0.077476 22.673909 0.866008 72.201943 0.875616 72.91344 0.147245 4.716507
4200.0 0.095225 -54.312437 0.867819 20.834672 0.869562 21.445818 0.139867 -49.09426
4250.0 0.032591 173.488822 0.873678 -31.401867 0.866931 -30.403604 0.108074 -109.470523
4300.0 0.094274 -6.863714 0.868313 -83.771602 0.857059 -82.171251 0.085363 -173.164614
4350.0 0.113633 -110.720821 0.85914 -135.290849 0.849133 -133.122957 0.090308 132.784446
4400.0 0.087918 117.213792 0.858878 173.590439 0.855378 176.116389 0.112023 87.149168
4450.0 0.098918 -4.116704 0.86569 121.990861 0.870745 124.497662 0.127342 38.021503
4500.0 0.055763 -83.399301 0.87119 69.708361 0.878429 71.992291 0.107394 -25.50676
4550.0 0.03487 -77.906333 0.871816 17.118917 0.874855 19.689818 0.075335 -129.57441
4600.0 0.051596 170.445283 0.868156 -35.571304 0.873812 -32.335721 0.124846 129.142082
4650.0 0.128596 35.624053 0.853194 -87.992982 0.866268 -84.762528 0.180895 70.924422
4700.0 0.197361 -65.74925 0.833454 -138.762742 0.844877 -136.080284 0.205662 26.304744
4750.0 0.17999 -173.921765 0.843834 171.572552 0.848559 174.010033 0.194811 -14.515427
4800.0 0.156279 63.014586 0.879019 119.696913 0.880587 122.060146 0.150637 -54.230572
4850.0 0.126853 -40.6608 0.889834 65.672463 0.889744 68.004024 0.083754 -99.49374
4900.0 0.051299 -95.627767 0.871561 12.214695 0.873724 14.719542 0.02807 127.93931
4950.0 0.065946 -123.883625 0.852703 -40.116514 0.862261 -37.602694 0.106683 30.513399
5000.0 0.101126 107.534825 0.838127 -91.910714 0.852227 -89.74452 0.17792 -18.433945
5050.0 0.180326 -9.431764 0.834529 -142.882923 0.845683 -141.055145 0.217287 -65.560975
5100.0 0.179027 -111.851556 0.855809 165.662378 0.858734 167.511174 0.21444 -117.330529
5150.0 0.09033 123.080693 0.879329 112.175521 0.873683 114.473881 0.170679 -176.66743
5200.0 0.069294 -50.226166 0.87727 57.905683 0.868382 60.887071 0.121665 113.735726
5250.0 0.075946 138.792171 0.859618 4.593361 0.855802 8.107908 0.105736 38.487097
5300.0 0.149376 2.943485 0.846712 -47.883625 0.852352 -44.428288 0.111978 -27.398673
5350.0 0.143247 -97.619397 0.840196 -100.216985 0.849879 -97.342525 0.11401 -86.466543
5400.0 0.031132 167.537052 0.841157 -152.643055 0.84568 -150.15306 0.113757 -152.156903
5450.0 0.06067 -133.101116 0.84717 153.859169 0.844557 156.529724 0.13505 128.954651
5500.0 0.131201 86.285264 0.831225 99.319175 0.823272 102.419347 0.186473 56.755523
5550.0 0.247349 -28.403325 0.791176 46.647485 0.780684 50.407771 0.232281 -0.230064
5600.0 0.280517 -129.112149 0.784533 -3.421888 0.780795 0.814586 0.249007 -48.84308
5650.0 0.216446 126.322285 0.82343 -55.849579 0.826952 -52.10948 0.215723 -96.48835
5700.0 0.153402 21.820092 0.840484 -111.642582 0.840059 -108.360017 0.12666 -145.808435
5750.0 0.124345 -47.706865 0.817519 -167.066868 0.814229 -163.237476 0.029924 123.12332
5800.0 0.173408 -110.520913 0.791769 138.971342 0.798421 143.463618 0.092967 -11.58644
5850.0 0.235462 150.204431 0.771459 85.35024 0.783554 89.705851 0.168657 -56.855126
5900.0 0.300651 37.813812 0.759103 32.679606 0.761809 37.235258 0.200118 -100.024096
5950.0 0.311877 -65.927776 0.777779 -20.183047 0.775701 -14.532535 0.17034 -152.753348
6000.0 0.200389 -162.604481 0.804447 -75.938217 0.813225 -69.664054 0.114503 116.494843
6050.0 0.076698 101.644137 0.793266 -133.283432 0.820289 -127.463589 0.189652 17.000783
6100.0 0.081186 10.265333 0.752233 170.786305 0.79461 175.264133 0.285781 -36.052045
6150.0 0.180567 -86.92958 0.723094 116.099062 0.768493 119.29921 0.307607 -69.843381
6200.0 0.255136 163.077553 0.709227 59.403438 0.752712 63.061252 0.276651 -84.996955
6250.0 0.304882 45.043881 0.671863 -0.261036 0.727403 5.449595 0.295777 -82.475168
6300.0 0.330111 -64.602361 0.592958 -59.804807 0.673821 -52.542366 0.413532 -86.796484
6350.0 0.293573 -166.380334 0.507849 -115.281196 0.604551 -109.354234 0.558743 -102.886696
6400.0 0.290309 93.065243 0.462525 -167.851009 0.539805 -165.967736 0.661449 -123.427249
6450.0 0.411069 -1.175182 0.443589 137.064312 0.467949 136.17518 0.688004 -142.861808
6500.0 0.583416 -92.074789 0.413339 79.350832 0.386559 80.106886 0.662201 -156.808507
6550.0 0.673793 173.888955 0.36639 21.871732 0.333407 28.262804 0.659853 -164.580555
6600.0 0.661207 76.413643 0.31089 -33.921823 0.314921 -25.195782 0.72019 -172.261643
6650.0 0.611234 -18.020765 0.253165 -86.205565 0.290605 -81.629814 0.804411 176.237533
6700.0 0.571418 -104.305191 0.210938 -132.821561 0.255936 -135.477451 0.86676 162.159955
6750.0 0.585296 169.472999 0.19829 -178.773773 0.230108 172.797798 0.89163 147.461376
6800.0 0.668833 75.075322 0.196496 128.289941 0.202836 119.486423 0.87136 133.455727
6850.0 0.793916 -20.527175 0.182479 69.864876 0.168019 67.845617 0.825492 122.846066
6900.0 0.862339 -111.749011 0.154736 11.60989 0.143703 19.794956 0.814667 114.922595
6950.0 0.824919 158.75333 0.125664 -41.897195 0.132638 -30.281889 0.832828 106.244358
7000.0 0.740879 68.042833 0.104277 -90.478721 0.122373 -83.908144 0.865387 96.498063
7050.0 0.690067 -20.362733 0.088492 -136.04867 0.108382 -137.786476 0.897243 84.475347
7100.0 0.707344 -102.577146 0.077404 -178.325624 0.092897 171.245757 0.889628 71.342508
7150.0 0.791218 173.723194 0.073399 139.180376 0.0805 123.860451 0.847864 59.758999
7200.0 0.890191 81.950198 0.071758 90.685741 0.07169 78.317183 0.804981 50.823418
7250.0 0.952481 -12.521607 0.065543 36.815996 0.067431 34.317443 0.79068 43.907481
7300.0 0.922832 -101.76541 0.054002 -16.488425 0.068573 -13.041842 0.82164 36.741028
7350.0 0.820999 175.789452 0.043823 -61.797377 0.067252 -64.935358 0.882184 26.353311
7400.0 0.744906 94.171558 0.042195 -102.197933 0.063067 -115.210015 0.917734 12.496842
7450.0 0.742522 8.246136 0.045156 -148.8445 0.061124 -166.198529 0.892938 -1.725594
7500.0 0.809238 -78.364584 0.046042 159.94082 0.056109 138.318681 0.834308 -13.077955
7550.0 0.907513 -165.103398 0.044697 108.494969 0.047399 84.299411 0.79244 -21.158631
7600.0 0.980432 103.556116 0.0429 55.943634 0.042302 32.938496 0.791809 -28.076536
7650.0 0.994938 8.627848 0.038901 0.755107 0.039862 -19.953825 0.826298 -36.64661
7700.0 0.939054 -82.283499 0.0319 -52.071846 0.03809 -69.393806 0.858531 -48.014302
7750.0 0.844088 -163.864983 0.026942 -98.150753 0.038784 -116.150059 0.854028 -60.472504
7800.0 0.807194 117.563109 0.025588 -147.725122 0.0382 -163.723775 0.816049 -71.383999
7850.0 0.837845 30.704963 0.02353 156.36765 0.035363 150.678041 0.777723 -79.770522
7900.0 0.903619 -62.313465 0.021647 100.631179 0.03142 103.859304 0.754076 -86.520646
7950.0 0.964973 -154.564768 0.021443 43.734077 0.025428 56.858371 0.753626 -91.95154
8000.0 0.971804 114.065701 0.02132 -13.033157 0.02212 12.709442 0.788299 -98.056422
8050.0 0.917593 22.307244 0.021468 -68.01163 0.022505 -39.489973 0.832101 -106.66924
8100.0 0.839844 -65.654543 0.020448 -128.243817 0.022467 -95.702766 0.852071 -116.783436
8150.0 0.801864 -145.749955 0.015349 167.391141 0.021697 -145.069153 0.839205 -126.373841
8200.0 0.841722 133.989484 0.009377 110.000615 0.021441 172.010288 0.811183 -133.837997
8250.0 0.892503 44.736098 0.007175 55.059052 0.021309 128.994842 0.795721 -139.14344
8300.0 0.915675 -49.666799 0.006444 -18.045527 0.01913 82.630418 0.806615 -143.634906
8350.0 0.909807 -141.1104 0.004917 -92.307672 0.015433 39.247025 0.843482 -148.728277
8400.0 0.867213 132.220414 0.003418 -161.612386 0.014486 -5.99939 0.893799 -155.62652
8450.0 0.80046 46.709224 0.003197 102.830093 0.014214 -66.722905 0.929899 -164.290244
8500.0 0.748672 -38.538238 0.004723 8.066748 0.011917 -126.303538 0.930849 -173.33948
8550.0 0.762262 -122.132499 0.005503 -59.632666 0.009991 -163.113766 0.898957 179.319659
8600.0 0.829276 151.560099 0.004776 -110.083232 0.011893 168.196714 0.871798 174.996148
8650.0 0.87076 57.963909 0.003281 -156.436221 0.015207 123.591263 0.885727 172.152863
8700.0 0.863105 -39.987869 0.001191 133.312185 0.015214 64.750499 0.938916 168.052762
8750.0 0.821632 -133.557214 0.001761 -22.870418 0.010807 3.557404 1.005428 162.081353
8800.0 0.756329 142.498446 0.003493 -74.679597 0.008255 -47.458321 1.080458 154.007279
8850.0 0.705673 63.621293 0.004941 -118.792695 0.009917 -113.518278 1.114403 143.178148
8900.0 0.675772 -17.801647 0.005101 178.343764 0.010181 175.02551 1.068475 133.269972
8950.0 0.659478 -102.782845 0.00312 83.043209 0.008064 129.245356 1.003723 126.796779
9000.0 0.649016 169.350906 0.002653 -39.120907 0.00873 91.4493 0.959118 122.684187
9050.0 0.617294 75.263757 0.002856 -88.274125 0.007047 29.163739 0.946167 120.123054
9100.0 0.582585 -26.591403 0.004875 -123.965568 0.002844 -30.053623 0.98216 117.73636
9150.0 0.58339 -125.994712 0.005666 172.669186 0.002016 -68.100538 1.06512 112.65391
9200.0 0.581337 148.714485 0.004211 105.506192 0.003931 -154.410625 1.139743 103.697104
9250.0 0.591064 75.215512 0.003327 39.920199 0.00546 129.086827 1.147238 92.595012
9300.0 0.649001 -0.265813 0.004232 -27.013515 0.004247 60.21843 1.071929 83.02866
9350.0 0.706627 -85.665171 0.005718 -89.318856 0.001422 21.392365 0.98631 77.492121
9400.0 0.714794 -179.151751 0.006291 -143.119059 0.002309 -9.362594 0.931838 74.562565
9450.0 0.665343 81.075873 0.006854 178.683979 0.005414 -119.938986 0.93072 72.884583
9500.0 0.616808 -22.94333 0.010036 131.292911 0.007834 157.107889 0.968896 69.176402
9550.0 0.621562 -119.826035 0.012212 65.018983 0.006506 111.684834 1.023442 63.341069
9600.0 0.663235 160.268463 0.010084 3.284813 0.008247 87.209366 1.053073 53.841837
9650.0 0.7807 88.51835 0.00807 -29.16473 0.008798 32.609198 0.999056 45.034189
9700.0 0.935368 9.160979 0.009235 -71.141087 0.005408 -20.137497 0.945245 39.695828
9750.0 1.007546 -80.02248 0.007079 -125.002015 0.002838 -56.460904 0.912905 35.309407
9800.0 0.959866 -173.958249 0.004531 -162.596063 0.002012 -116.041376 0.904869 31.307603
9850.0 0.820298 92.447454 0.003459 137.044779 0.003224 148.367472 0.905801 26.010169
9900.0 0.67371 0.746379 0.00226 59.918994 0.00541 59.370035 0.89554 20.544341
9950.0 0.631567 -90.3879 0.003914 33.155804 0.004634 -29.416468 0.88631 15.595603
10000.0 0.713576 -179.249846 0.008305 -24.395365 0.000675 -84.521338 0.887363 10.71215
10050.0 0.829215 96.485852 0.009997 -79.919296 0.003605 -60.118044 0.895759 5.364083
10100.0 0.905018 14.568812 0.010049 -124.21757 0.004826 -156.854884 0.905174 -0.875306
10150.0 0.930034 -69.674319 0.008825 -171.816468 0.00267 121.819681 0.900735 -7.220457
10200.0 0.902043 -158.469806 0.006586 154.136728 0.001907 154.550361 0.904602 -13.275625
10250.0 0.823772 110.650639 0.008774 113.280321 0.004092 108.001588 0.90196 -20.303934
10300.0 0.733887 20.796121 0.011352 45.073233 0.005065 56.601128 0.888445 -26.801791
10350.0 0.706842 -68.170275 0.012371 -14.259906 0.005187 2.415765 0.874302 -33.023055
10400.0 0.768527 -156.818072 0.014248 -61.9807 0.004697 -36.060142 0.863683 -38.587207
10450.0 0.849303 116.88325 0.014727 -111.549446 0.007208 -75.557369 0.860733 -44.116891
10500.0 0.874746 33.262576 0.013062 -151.42711 0.00987 -137.131012 0.87284 -49.477145
10550.0 0.844755 -50.651473 0.013424 165.497696 0.010276 166.527774 0.891416 -56.537298
10600.0 0.792307 -137.244222 0.01153 106.151867 0.010493 118.277846 0.896862 -63.665493
10650.0 0.742489 136.054816 0.008867 52.183174 0.009985 65.074184 0.90306 -71.951716
10700.0 0.720852 51.667853 0.010508 -2.491247 0.007751 13.977278 0.868002 -79.860979
10750.0 0.753068 -35.448983 0.012433 -65.871882 0.006874 -27.521425 0.842583 -85.347554
10800.0 0.83257 -128.604748 0.012893 -113.136094 0.00894 -80.946163 0.826682 -90.54891
10850.0 0.911984 138.634546 0.016489 -159.477029 0.012048 -147.772535 0.832821 -94.499182
10900.0 0.921511 51.976999 0.017373 138.997234 0.013046 146.640803 0.868547 -99.833566
10950.0 0.871115 -29.839356 0.013518 84.525968 0.011214 96.960135 0.911789 -106.857875
11000.0 0.823994 -112.189237 0.013286 41.16558 0.01158 59.569829 0.945978 -116.001218
11050.0 0.817447 163.11291 0.014554 -22.186726 0.012564 4.109158 0.939881 -126.158584
11100.0 0.862301 78.146556 0.012007 -88.882194 0.011328 -63.632807 0.889736 -134.820825
11150.0 0.931754 -9.555716 0.009707 -141.660363 0.010529 -138.289627 0.844432 -140.088374
11200.0 0.981642 -103.676058 0.009808 154.298557 0.010361 147.93826 0.831509 -144.728866
11250.0 1.008319 159.346138 0.008391 75.004796 0.009248 93.96889 0.830302 -149.14093
11300.0 0.998718 68.135461 0.006079 13.533834 0.010383 53.187878 0.855721 -154.352419
11350.0 0.958594 -13.833862 0.007036 -26.213613 0.009852 -5.28694 0.869769 -161.442973
11400.0 0.953999 -92.560523 0.007402 -86.109249 0.004922 -41.648006 0.868722 -167.86364
11450.0 0.985576 -175.734339 0.00322 -120.689714 0.00758 -57.718324 0.871279 -174.43448
11500.0 1.008992 96.87938 0.006114 -95.503518 0.009773 -138.814699 0.858629 179.48004
