! File created by SignalIntegrity v1.1.14: Signal and Power Integrity Tools
! https://github.com/TeledyneLeCroy/SignalIntegrity
# MHz S MA R 50.0
0.0 1.0 0.0 2.0 0.0 0.0 0.0 1.0 180.0
100.0 1.0 0.0 2.001223 0.359546 0.0 0.0 1.0 180.0
200.0 1.0 0.0 2.004888 0.716374 0.0 0.0 1.0 180.0
300.0 1.0 0.0 2.010977 1.067817 0.0 0.0 1.0 180.0
400.0 1.0 0.0 2.019463 1.411298 0.0 0.0 1.0 180.0
500.0 1.0 0.0 2.030307 1.744377 0.0 0.0 1.0 180.0
600.0 1.0 0.0 2.043461 2.064786 0.0 0.0 1.0 180.0
700.0 1.0 0.0 2.058866 2.370462 0.0 0.0 1.0 180.0
800.0 1.0 0.0 2.076453 2.659571 0.0 0.0 1.0 180.0
900.0 1.0 0.0 2.096144 2.930524 0.0 0.0 1.0 180.0
1000.0 1.0 0.0 2.117855 3.181987 0.0 0.0 1.0 180.0
1100.0 1.0 0.0 2.14149 3.412886 0.0 0.0 1.0 180.0
1200.0 1.0 0.0 2.166948 3.622403 0.0 0.0 1.0 180.0
1300.0 1.0 0.0 2.194121 3.809965 0.0 0.0 1.0 180.0
1400.0 1.0 0.0 2.222894 3.975233 0.0 0.0 1.0 180.0
1500.0 1.0 0.0 2.253146 4.118081 0.0 0.0 1.0 180.0
1600.0 1.0 0.0 2.284753 4.238583 0.0 0.0 1.0 180.0
1700.0 1.0 0.0 2.317584 4.336986 0.0 0.0 1.0 180.0
1800.0 1.0 0.0 2.351506 4.413689 0.0 0.0 1.0 180.0
1900.0 1.0 0.0 2.386381 4.469221 0.0 0.0 1.0 180.0
2000.0 1.0 0.0 2.42207 4.50422 0.0 0.0 1.0 180.0
2100.0 1.0 0.0 2.45843 4.519414 0.0 0.0 1.0 180.0
2200.0 1.0 0.0 2.495317 4.515596 0.0 0.0 1.0 180.0
2300.0 1.0 0.0 2.532585 4.493614 0.0 0.0 1.0 180.0
2400.0 1.0 0.0 2.570089 4.454349 0.0 0.0 1.0 180.0
2500.0 1.0 0.0 2.607681 4.398705 0.0 0.0 1.0 180.0
2600.0 1.0 0.0 2.645216 4.327596 0.0 0.0 1.0 180.0
2700.0 1.0 0.0 2.682548 4.241933 0.0 0.0 1.0 180.0
2800.0 1.0 0.0 2.719534 4.14262 0.0 0.0 1.0 180.0
2900.0 1.0 0.0 2.75603 4.030545 0.0 0.0 1.0 180.0
3000.0 1.0 0.0 2.791897 3.906574 0.0 0.0 1.0 180.0
3100.0 1.0 0.0 2.826997 3.771547 0.0 0.0 1.0 180.0
3200.0 1.0 0.0 2.861196 3.626273 0.0 0.0 1.0 180.0
3300.0 1.0 0.0 2.894363 3.471534 0.0 0.0 1.0 180.0
3400.0 1.0 0.0 2.926372 3.308076 0.0 0.0 1.0 180.0
3500.0 1.0 0.0 2.957101 3.136614 0.0 0.0 1.0 180.0
3600.0 1.0 0.0 2.986433 2.957828 0.0 0.0 1.0 180.0
3700.0 1.0 0.0 3.014256 2.772367 0.0 0.0 1.0 180.0
3800.0 1.0 0.0 3.040465 2.58085 0.0 0.0 1.0 180.0
3900.0 1.0 0.0 3.06496 2.383864 0.0 0.0 1.0 180.0
4000.0 1.0 0.0 3.087649 2.181968 0.0 0.0 1.0 180.0
4100.0 1.0 0.0 3.108445 1.975695 0.0 0.0 1.0 180.0
4200.0 1.0 0.0 3.127269 1.765555 0.0 0.0 1.0 180.0
4300.0 1.0 0.0 3.14405 1.552033 0.0 0.0 1.0 180.0
4400.0 1.0 0.0 3.158724 1.335596 0.0 0.0 1.0 180.0
4500.0 1.0 0.0 3.171236 1.116693 0.0 0.0 1.0 180.0
4600.0 1.0 0.0 3.181539 0.895759 0.0 0.0 1.0 180.0
4700.0 1.0 0.0 3.189593 0.673215 0.0 0.0 1.0 180.0
4800.0 1.0 0.0 3.195367 0.449472 0.0 0.0 1.0 180.0
4900.0 1.0 0.0 3.198841 0.224934 0.0 0.0 1.0 180.0
5000.0 1.0 0.0 3.2 0.0 0.0 0.0 1.0 180.0
5100.0 1.0 0.0 3.198841 -0.224934 0.0 0.0 1.0 180.0
5200.0 1.0 0.0 3.195367 -0.449472 0.0 0.0 1.0 180.0
5300.0 1.0 0.0 3.189593 -0.673215 0.0 0.0 1.0 180.0
5400.0 1.0 0.0 3.181539 -0.895759 0.0 0.0 1.0 180.0
5500.0 1.0 0.0 3.171236 -1.116693 0.0 0.0 1.0 180.0
5600.0 1.0 0.0 3.158724 -1.335596 0.0 0.0 1.0 180.0
5700.0 1.0 0.0 3.14405 -1.552033 0.0 0.0 1.0 180.0
5800.0 1.0 0.0 3.127269 -1.765555 0.0 0.0 1.0 180.0
5900.0 1.0 0.0 3.108445 -1.975695 0.0 0.0 1.0 180.0
6000.0 1.0 0.0 3.087649 -2.181968 0.0 0.0 1.0 180.0
6100.0 1.0 0.0 3.06496 -2.383864 0.0 0.0 1.0 180.0
6200.0 1.0 0.0 3.040465 -2.58085 0.0 0.0 1.0 180.0
6300.0 1.0 0.0 3.014256 -2.772367 0.0 0.0 1.0 180.0
6400.0 1.0 0.0 2.986433 -2.957828 0.0 0.0 1.0 180.0
6500.0 1.0 0.0 2.957101 -3.136614 0.0 0.0 1.0 180.0
6600.0 1.0 0.0 2.926372 -3.308076 0.0 0.0 1.0 180.0
6700.0 1.0 0.0 2.894363 -3.471534 0.0 0.0 1.0 180.0
6800.0 1.0 0.0 2.861196 -3.626273 0.0 0.0 1.0 180.0
6900.0 1.0 0.0 2.826997 -3.771547 0.0 0.0 1.0 180.0
7000.0 1.0 0.0 2.791897 -3.906574 0.0 0.0 1.0 180.0
7100.0 1.0 0.0 2.75603 -4.030545 0.0 0.0 1.0 180.0
7200.0 1.0 0.0 2.719534 -4.14262 0.0 0.0 1.0 180.0
7300.0 1.0 0.0 2.682548 -4.241933 0.0 0.0 1.0 180.0
7400.0 1.0 0.0 2.645216 -4.327596 0.0 0.0 1.0 180.0
7500.0 1.0 0.0 2.607681 -4.398705 0.0 0.0 1.0 180.0
7600.0 1.0 0.0 2.570089 -4.454349 0.0 0.0 1.0 180.0
7700.0 1.0 0.0 2.532585 -4.493614 0.0 0.0 1.0 180.0
7800.0 1.0 0.0 2.495317 -4.515596 0.0 0.0 1.0 180.0
7900.0 1.0 0.0 2.45843 -4.519414 0.0 0.0 1.0 180.0
8000.0 1.0 0.0 2.42207 -4.50422 0.0 0.0 1.0 180.0
8100.0 1.0 0.0 2.386381 -4.469221 0.0 0.0 1.0 180.0
8200.0 1.0 0.0 2.351506 -4.413689 0.0 0.0 1.0 180.0
8300.0 1.0 0.0 2.317584 -4.336986 0.0 0.0 1.0 180.0
8400.0 1.0 0.0 2.284753 -4.238583 0.0 0.0 1.0 180.0
8500.0 1.0 0.0 2.253146 -4.118081 0.0 0.0 1.0 180.0
8600.0 1.0 0.0 2.222894 -3.975233 0.0 0.0 1.0 180.0
8700.0 1.0 0.0 2.194121 -3.809965 0.0 0.0 1.0 180.0
8800.0 1.0 0.0 2.166948 -3.622403 0.0 0.0 1.0 180.0
8900.0 1.0 0.0 2.14149 -3.412886 0.0 0.0 1.0 180.0
9000.0 1.0 0.0 2.117855 -3.181987 0.0 0.0 1.0 180.0
9100.0 1.0 0.0 2.096144 -2.930524 0.0 0.0 1.0 180.0
9200.0 1.0 0.0 2.076453 -2.659571 0.0 0.0 1.0 180.0
9300.0 1.0 0.0 2.058866 -2.370462 0.0 0.0 1.0 180.0
9400.0 1.0 0.0 2.043461 -2.064786 0.0 0.0 1.0 180.0
9500.0 1.0 0.0 2.030307 -1.744377 0.0 0.0 1.0 180.0
9600.0 1.0 0.0 2.019463 -1.411298 0.0 0.0 1.0 180.0
9700.0 1.0 0.0 2.010977 -1.067817 0.0 0.0 1.0 180.0
9800.0 1.0 0.0 2.004888 -0.716374 0.0 0.0 1.0 180.0
9900.0 1.0 0.0 2.001223 -0.359546 0.0 0.0 1.0 180.0
10000.0 1.0 0.0 2.0 -0.0 0.0 0.0 1.0 180.0
