! File created by SignalIntegrity v1.1.14: Signal and Power Integrity Tools
! https://github.com/TeledyneLeCroy/SignalIntegrity
# MHz S MA R 50.0
0.0 1.0 0.0 1.588656 0.0 0.0 0.0 1.0 180.0
100.0 1.0 0.0 1.589279 -0.379574 0.0 0.0 1.0 180.0
200.0 1.0 0.0 1.591125 -0.767756 0.0 0.0 1.0 180.0
300.0 1.0 0.0 1.594124 -1.172708 0.0 0.0 1.0 180.0
400.0 1.0 0.0 1.598166 -1.601754 0.0 0.0 1.0 180.0
500.0 1.0 0.0 1.603108 -2.061054 0.0 0.0 1.0 180.0
600.0 1.0 0.0 1.608781 -2.555405 0.0 0.0 1.0 180.0
700.0 1.0 0.0 1.614998 -3.088134 0.0 0.0 1.0 180.0
800.0 1.0 0.0 1.621568 -3.661119 0.0 0.0 1.0 180.0
900.0 1.0 0.0 1.628301 -4.274882 0.0 0.0 1.0 180.0
1000.0 1.0 0.0 1.635014 -4.928754 0.0 0.0 1.0 180.0
1100.0 1.0 0.0 1.64154 -5.62108 0.0 0.0 1.0 180.0
1200.0 1.0 0.0 1.64773 -6.349433 0.0 0.0 1.0 180.0
1300.0 1.0 0.0 1.653454 -7.110825 0.0 0.0 1.0 180.0
1400.0 1.0 0.0 1.658605 -7.901903 0.0 0.0 1.0 180.0
1500.0 1.0 0.0 1.663095 -8.719114 0.0 0.0 1.0 180.0
1600.0 1.0 0.0 1.666859 -9.558846 0.0 0.0 1.0 180.0
1700.0 1.0 0.0 1.669849 -10.417533 0.0 0.0 1.0 180.0
1800.0 1.0 0.0 1.672032 -11.291737 0.0 0.0 1.0 180.0
1900.0 1.0 0.0 1.673392 -12.178205 0.0 0.0 1.0 180.0
2000.0 1.0 0.0 1.673925 -13.073907 0.0 0.0 1.0 180.0
2100.0 1.0 0.0 1.673636 -13.976052 0.0 0.0 1.0 180.0
2200.0 1.0 0.0 1.672539 -14.882102 0.0 0.0 1.0 180.0
2300.0 1.0 0.0 1.670657 -15.789764 0.0 0.0 1.0 180.0
2400.0 1.0 0.0 1.668016 -16.696989 0.0 0.0 1.0 180.0
2500.0 1.0 0.0 1.664647 -17.601955 0.0 0.0 1.0 180.0
2600.0 1.0 0.0 1.660583 -18.503054 0.0 0.0 1.0 180.0
2700.0 1.0 0.0 1.655861 -19.398876 0.0 0.0 1.0 180.0
2800.0 1.0 0.0 1.650517 -20.288192 0.0 0.0 1.0 180.0
2900.0 1.0 0.0 1.64459 -21.169938 0.0 0.0 1.0 180.0
3000.0 1.0 0.0 1.638116 -22.043198 0.0 0.0 1.0 180.0
3100.0 1.0 0.0 1.631133 -22.907189 0.0 0.0 1.0 180.0
3200.0 1.0 0.0 1.623677 -23.761248 0.0 0.0 1.0 180.0
3300.0 1.0 0.0 1.615786 -24.604819 0.0 0.0 1.0 180.0
3400.0 1.0 0.0 1.607492 -25.437439 0.0 0.0 1.0 180.0
3500.0 1.0 0.0 1.598829 -26.258732 0.0 0.0 1.0 180.0
3600.0 1.0 0.0 1.58983 -27.068392 0.0 0.0 1.0 180.0
3700.0 1.0 0.0 1.580525 -27.866184 0.0 0.0 1.0 180.0
3800.0 1.0 0.0 1.570943 -28.651926 0.0 0.0 1.0 180.0
3900.0 1.0 0.0 1.561111 -29.42549 0.0 0.0 1.0 180.0
4000.0 1.0 0.0 1.551056 -30.186792 0.0 0.0 1.0 180.0
4100.0 1.0 0.0 1.540803 -30.935788 0.0 0.0 1.0 180.0
4200.0 1.0 0.0 1.530374 -31.672468 0.0 0.0 1.0 180.0
4300.0 1.0 0.0 1.519792 -32.396853 0.0 0.0 1.0 180.0
4400.0 1.0 0.0 1.509077 -33.108988 0.0 0.0 1.0 180.0
4500.0 1.0 0.0 1.498249 -33.808944 0.0 0.0 1.0 180.0
4600.0 1.0 0.0 1.487326 -34.49681 0.0 0.0 1.0 180.0
4700.0 1.0 0.0 1.476324 -35.172692 0.0 0.0 1.0 180.0
4800.0 1.0 0.0 1.465259 -35.836713 0.0 0.0 1.0 180.0
4900.0 1.0 0.0 1.454146 -36.489007 0.0 0.0 1.0 180.0
5000.0 1.0 0.0 1.442998 -37.129717 0.0 0.0 1.0 180.0
5100.0 1.0 0.0 1.431828 -37.759 0.0 0.0 1.0 180.0
5200.0 1.0 0.0 1.420649 -38.377016 0.0 0.0 1.0 180.0
5300.0 1.0 0.0 1.409469 -38.983933 0.0 0.0 1.0 180.0
5400.0 1.0 0.0 1.398301 -39.579924 0.0 0.0 1.0 180.0
5500.0 1.0 0.0 1.387153 -40.165167 0.0 0.0 1.0 180.0
5600.0 1.0 0.0 1.376033 -40.739842 0.0 0.0 1.0 180.0
5700.0 1.0 0.0 1.364949 -41.304132 0.0 0.0 1.0 180.0
5800.0 1.0 0.0 1.353909 -41.858222 0.0 0.0 1.0 180.0
5900.0 1.0 0.0 1.342919 -42.402295 0.0 0.0 1.0 180.0
6000.0 1.0 0.0 1.331985 -42.936539 0.0 0.0 1.0 180.0
6100.0 1.0 0.0 1.321113 -43.461139 0.0 0.0 1.0 180.0
6200.0 1.0 0.0 1.310307 -43.97628 0.0 0.0 1.0 180.0
6300.0 1.0 0.0 1.299573 -44.482147 0.0 0.0 1.0 180.0
6400.0 1.0 0.0 1.288914 -44.978922 0.0 0.0 1.0 180.0
6500.0 1.0 0.0 1.278334 -45.466787 0.0 0.0 1.0 180.0
6600.0 1.0 0.0 1.267836 -45.945921 0.0 0.0 1.0 180.0
6700.0 1.0 0.0 1.257423 -46.416502 0.0 0.0 1.0 180.0
6800.0 1.0 0.0 1.247098 -46.878706 0.0 0.0 1.0 180.0
6900.0 1.0 0.0 1.236863 -47.332706 0.0 0.0 1.0 180.0
7000.0 1.0 0.0 1.226721 -47.778672 0.0 0.0 1.0 180.0
7100.0 1.0 0.0 1.216672 -48.216772 0.0 0.0 1.0 180.0
7200.0 1.0 0.0 1.206719 -48.647172 0.0 0.0 1.0 180.0
7300.0 1.0 0.0 1.196863 -49.070033 0.0 0.0 1.0 180.0
7400.0 1.0 0.0 1.187105 -49.485516 0.0 0.0 1.0 180.0
7500.0 1.0 0.0 1.177446 -49.893777 0.0 0.0 1.0 180.0
7600.0 1.0 0.0 1.167886 -50.294971 0.0 0.0 1.0 180.0
7700.0 1.0 0.0 1.158427 -50.689247 0.0 0.0 1.0 180.0
7800.0 1.0 0.0 1.149068 -51.076754 0.0 0.0 1.0 180.0
7900.0 1.0 0.0 1.139809 -51.457636 0.0 0.0 1.0 180.0
8000.0 1.0 0.0 1.130652 -51.832035 0.0 0.0 1.0 180.0
8100.0 1.0 0.0 1.121596 -52.200091 0.0 0.0 1.0 180.0
8200.0 1.0 0.0 1.11264 -52.561939 0.0 0.0 1.0 180.0
8300.0 1.0 0.0 1.103785 -52.917712 0.0 0.0 1.0 180.0
8400.0 1.0 0.0 1.09503 -53.267541 0.0 0.0 1.0 180.0
8500.0 1.0 0.0 1.086376 -53.611553 0.0 0.0 1.0 180.0
8600.0 1.0 0.0 1.07782 -53.949871 0.0 0.0 1.0 180.0
8700.0 1.0 0.0 1.069364 -54.282619 0.0 0.0 1.0 180.0
8800.0 1.0 0.0 1.061006 -54.609914 0.0 0.0 1.0 180.0
8900.0 1.0 0.0 1.052746 -54.931873 0.0 0.0 1.0 180.0
9000.0 1.0 0.0 1.044583 -55.24861 0.0 0.0 1.0 180.0
9100.0 1.0 0.0 1.036516 -55.560236 0.0 0.0 1.0 180.0
9200.0 1.0 0.0 1.028545 -55.866858 0.0 0.0 1.0 180.0
9300.0 1.0 0.0 1.020668 -56.168582 0.0 0.0 1.0 180.0
9400.0 1.0 0.0 1.012885 -56.465513 0.0 0.0 1.0 180.0
9500.0 1.0 0.0 1.005195 -56.75775 0.0 0.0 1.0 180.0
9600.0 1.0 0.0 0.997597 -57.045392 0.0 0.0 1.0 180.0
9700.0 1.0 0.0 0.99009 -57.328536 0.0 0.0 1.0 180.0
9800.0 1.0 0.0 0.982673 -57.607276 0.0 0.0 1.0 180.0
9900.0 1.0 0.0 0.975345 -57.881703 0.0 0.0 1.0 180.0
10000.0 1.0 0.0 0.968105 -58.151906 0.0 0.0 1.0 180.0
