! File created by SignalIntegrity v1.1.14: Signal and Power Integrity Tools
! https://github.com/TeledyneLeCroy/SignalIntegrity
# MHz S MA R 50.0
0.0 1.0 0.0 2.0 0.0 0.0 0.0 1.0 180.0
100.0 1.0 0.0 1.993622 -12.111856 0.0 0.0 1.0 180.0
200.0 1.0 0.0 1.974562 -24.223712 0.0 0.0 1.0 180.0
300.0 1.0 0.0 1.943034 -36.335559 0.0 0.0 1.0 180.0
400.0 1.0 0.0 1.899381 -48.447307 0.0 0.0 1.0 180.0
500.0 1.0 0.0 1.844056 -60.558448 0.0 0.0 1.0 180.0
600.0 1.0 0.0 1.777592 -72.667086 0.0 0.0 1.0 180.0
700.0 1.0 0.0 1.700591 -84.767885 0.0 0.0 1.0 180.0
800.0 1.0 0.0 1.613742 -96.848624 0.0 0.0 1.0 180.0
900.0 1.0 0.0 1.5179 -108.88556 0.0 0.0 1.0 180.0
1000.0 1.0 0.0 1.414214 -120.838575 0.0 0.0 1.0 180.0
1100.0 1.0 0.0 1.304282 -132.647876 0.0 0.0 1.0 180.0
1200.0 1.0 0.0 1.190247 -144.234339 0.0 0.0 1.0 180.0
1300.0 1.0 0.0 1.074752 -155.50488 0.0 0.0 1.0 180.0
1400.0 1.0 0.0 0.960724 -166.362415 0.0 0.0 1.0 180.0
1500.0 1.0 0.0 0.851018 -176.71793 0.0 0.0 1.0 180.0
1600.0 1.0 0.0 0.748061 173.498886 0.0 0.0 1.0 180.0
1700.0 1.0 0.0 0.653589 164.333276 0.0 0.0 1.0 180.0
1800.0 1.0 0.0 0.568564 155.804224 0.0 0.0 1.0 180.0
1900.0 1.0 0.0 0.493241 147.907468 0.0 0.0 1.0 180.0
2000.0 1.0 0.0 0.427327 140.620839 0.0 0.0 1.0 180.0
2100.0 1.0 0.0 0.370166 133.91013 0.0 0.0 1.0 180.0
2200.0 1.0 0.0 0.320907 127.734311 0.0 0.0 1.0 180.0
2300.0 1.0 0.0 0.278626 122.049581 0.0 0.0 1.0 180.0
2400.0 1.0 0.0 0.242413 116.8122 0.0 0.0 1.0 180.0
2500.0 1.0 0.0 0.211419 111.980273 0.0 0.0 1.0 180.0
2600.0 1.0 0.0 0.184884 107.51476 0.0 0.0 1.0 180.0
2700.0 1.0 0.0 0.162139 103.379936 0.0 0.0 1.0 180.0
2800.0 1.0 0.0 0.14261 99.543503 0.0 0.0 1.0 180.0
2900.0 1.0 0.0 0.125805 95.976488 0.0 0.0 1.0 180.0
3000.0 1.0 0.0 0.111308 92.653025 0.0 0.0 1.0 180.0
3100.0 1.0 0.0 0.09877 89.550092 0.0 0.0 1.0 180.0
3200.0 1.0 0.0 0.087896 86.647216 0.0 0.0 1.0 180.0
3300.0 1.0 0.0 0.078437 83.926199 0.0 0.0 1.0 180.0
3400.0 1.0 0.0 0.070187 81.370853 0.0 0.0 1.0 180.0
3500.0 1.0 0.0 0.06297 78.966762 0.0 0.0 1.0 180.0
3600.0 1.0 0.0 0.05664 76.701066 0.0 0.0 1.0 180.0
3700.0 1.0 0.0 0.051071 74.562276 0.0 0.0 1.0 180.0
3800.0 1.0 0.0 0.046158 72.540105 0.0 0.0 1.0 180.0
3900.0 1.0 0.0 0.041814 70.625322 0.0 0.0 1.0 180.0
4000.0 1.0 0.0 0.037962 68.809627 0.0 0.0 1.0 180.0
4100.0 1.0 0.0 0.034538 67.085542 0.0 0.0 1.0 180.0
4200.0 1.0 0.0 0.031487 65.446311 0.0 0.0 1.0 180.0
4300.0 1.0 0.0 0.028762 63.885822 0.0 0.0 1.0 180.0
4400.0 1.0 0.0 0.026322 62.39853 0.0 0.0 1.0 180.0
4500.0 1.0 0.0 0.024133 60.979394 0.0 0.0 1.0 180.0
4600.0 1.0 0.0 0.022165 59.623826 0.0 0.0 1.0 180.0
4700.0 1.0 0.0 0.020392 58.327637 0.0 0.0 1.0 180.0
4800.0 1.0 0.0 0.018792 57.086997 0.0 0.0 1.0 180.0
4900.0 1.0 0.0 0.017344 55.8984 0.0 0.0 1.0 180.0
5000.0 1.0 0.0 0.016032 54.758625 0.0 0.0 1.0 180.0
5100.0 1.0 0.0 0.014841 53.664715 0.0 0.0 1.0 180.0
5200.0 1.0 0.0 0.013758 52.613944 0.0 0.0 1.0 180.0
5300.0 1.0 0.0 0.012771 51.603801 0.0 0.0 1.0 180.0
5400.0 1.0 0.0 0.011871 50.631962 0.0 0.0 1.0 180.0
5500.0 1.0 0.0 0.011048 49.696282 0.0 0.0 1.0 180.0
5600.0 1.0 0.0 0.010295 48.79477 0.0 0.0 1.0 180.0
5700.0 1.0 0.0 0.009605 47.925581 0.0 0.0 1.0 180.0
5800.0 1.0 0.0 0.008971 47.086999 0.0 0.0 1.0 180.0
5900.0 1.0 0.0 0.008389 46.277428 0.0 0.0 1.0 180.0
6000.0 1.0 0.0 0.007853 45.495383 0.0 0.0 1.0 180.0
6100.0 1.0 0.0 0.007359 44.739476 0.0 0.0 1.0 180.0
6200.0 1.0 0.0 0.006903 44.008414 0.0 0.0 1.0 180.0
6300.0 1.0 0.0 0.006481 43.300986 0.0 0.0 1.0 180.0
6400.0 1.0 0.0 0.006091 42.616059 0.0 0.0 1.0 180.0
6500.0 1.0 0.0 0.00573 41.952573 0.0 0.0 1.0 180.0
6600.0 1.0 0.0 0.005396 41.309532 0.0 0.0 1.0 180.0
6700.0 1.0 0.0 0.005085 40.686001 0.0 0.0 1.0 180.0
6800.0 1.0 0.0 0.004796 40.081103 0.0 0.0 1.0 180.0
6900.0 1.0 0.0 0.004527 39.494011 0.0 0.0 1.0 180.0
7000.0 1.0 0.0 0.004277 38.923948 0.0 0.0 1.0 180.0
7100.0 1.0 0.0 0.004044 38.37018 0.0 0.0 1.0 180.0
7200.0 1.0 0.0 0.003827 37.832016 0.0 0.0 1.0 180.0
7300.0 1.0 0.0 0.003623 37.308802 0.0 0.0 1.0 180.0
7400.0 1.0 0.0 0.003434 36.799924 0.0 0.0 1.0 180.0
7500.0 1.0 0.0 0.003256 36.304796 0.0 0.0 1.0 180.0
7600.0 1.0 0.0 0.00309 35.822867 0.0 0.0 1.0 180.0
7700.0 1.0 0.0 0.002934 35.353615 0.0 0.0 1.0 180.0
7800.0 1.0 0.0 0.002788 34.896545 0.0 0.0 1.0 180.0
7900.0 1.0 0.0 0.002651 34.451185 0.0 0.0 1.0 180.0
8000.0 1.0 0.0 0.002522 34.017092 0.0 0.0 1.0 180.0
8100.0 1.0 0.0 0.0024 33.59384 0.0 0.0 1.0 180.0
8200.0 1.0 0.0 0.002287 33.181028 0.0 0.0 1.0 180.0
8300.0 1.0 0.0 0.002179 32.778272 0.0 0.0 1.0 180.0
8400.0 1.0 0.0 0.002078 32.385209 0.0 0.0 1.0 180.0
8500.0 1.0 0.0 0.001983 32.001493 0.0 0.0 1.0 180.0
8600.0 1.0 0.0 0.001893 31.626791 0.0 0.0 1.0 180.0
8700.0 1.0 0.0 0.001808 31.260791 0.0 0.0 1.0 180.0
8800.0 1.0 0.0 0.001728 30.90319 0.0 0.0 1.0 180.0
8900.0 1.0 0.0 0.001652 30.553703 0.0 0.0 1.0 180.0
9000.0 1.0 0.0 0.00158 30.212055 0.0 0.0 1.0 180.0
9100.0 1.0 0.0 0.001513 29.877985 0.0 0.0 1.0 180.0
9200.0 1.0 0.0 0.001448 29.551244 0.0 0.0 1.0 180.0
9300.0 1.0 0.0 0.001387 29.231591 0.0 0.0 1.0 180.0
9400.0 1.0 0.0 0.00133 28.918799 0.0 0.0 1.0 180.0
9500.0 1.0 0.0 0.001275 28.612647 0.0 0.0 1.0 180.0
9600.0 1.0 0.0 0.001223 28.312927 0.0 0.0 1.0 180.0
9700.0 1.0 0.0 0.001174 28.019437 0.0 0.0 1.0 180.0
9800.0 1.0 0.0 0.001127 27.731985 0.0 0.0 1.0 180.0
9900.0 1.0 0.0 0.001082 27.450385 0.0 0.0 1.0 180.0
10000.0 1.0 0.0 0.00104 27.174461 0.0 0.0 1.0 180.0
