! File created by SignalIntegrity v1.1.13: Signal and Power Integrity Tools
! https://github.com/TeledyneLeCroy/SignalIntegrity
# MHz S MA R 50.0
110.13452914798 0.002291 -74.323677 0.953627 -176.275141 0.953627 -176.275141 0.002291 -74.323677
210.26905829596 0.010276 -76.05821 0.945353 24.145193 0.945353 24.145193 0.010276 -76.05821
310.40358744395 0.016517 -55.794561 0.938867 -135.330113 0.938867 -135.330113 0.016517 -55.794561
410.53811659192996 0.020518 -35.080205 0.933355 65.247936 0.933355 65.247936 0.020518 -35.080205
510.67264573991 0.021935 -14.628448 0.928515 -94.140148 0.928515 -94.140148 0.021935 -14.628448
610.80717488789 0.020671 5.367491 0.92419 106.497205 0.92419 106.497205 0.020671 5.367491
710.94170403587 0.016933 24.54279 0.920267 -52.843821 0.920267 -52.843821 0.016933 24.54279
811.0762331838599 0.011243 41.578681 0.916647 147.834355 0.916647 147.834355 0.011243 41.578681
911.21076233184 0.004503 46.606801 0.913242 -11.470985 0.913242 -11.470985 0.004503 46.606801
1011.3452914798 0.003796 -58.177402 0.909986 -170.76334 0.909986 -170.76334 0.003796 -58.177402
1111.4798206277999 0.010274 -57.533715 0.906844 29.953487 0.906844 29.953487 0.010274 -57.533715
1211.6143497758 0.015621 -41.369514 0.903812 -129.323666 0.903812 -129.323666 0.015621 -41.369514
1311.7488789238 0.018946 -23.072447 0.900905 71.403495 0.900905 71.403495 0.018946 -23.072447
1411.8834080717002 0.019831 -4.316642 0.898139 -87.865047 0.898139 -87.865047 0.019831 -4.316642
1512.0179372197001 0.01819 14.225004 0.895516 112.871883 0.895516 112.871883 0.01819 14.225004
1612.1524663677 0.014277 31.703028 0.893018 -46.384337 0.893018 -46.384337 0.014277 31.703028
1712.2869955157 0.008677 45.251705 0.890609 154.366885 0.890609 154.366885 0.008677 45.251705
1812.4215246637002 0.002814 25.565093 0.888254 -4.875178 0.888254 -4.875178 0.002814 25.565093
1912.5560538117002 0.005741 -56.440923 0.885926 -164.11239 0.885926 -164.11239 0.005741 -56.440923
2012.6905829596 0.011631 -49.092579 0.883623 36.653022 0.883623 36.653022 0.011631 -49.092579
2112.8251121076 0.01618 -32.996773 0.88136 -122.580572 0.88136 -122.580572 0.01618 -32.996773
2212.9596412555998 0.018665 -15.158854 0.879163 78.186462 0.879163 78.186462 0.018665 -15.158854
2313.0941704036004 0.01876 3.016865 0.87705 -81.044945 0.87705 -81.044945 0.01876 3.016865
2413.2286995516 0.016474 20.74374 0.875023 119.72683 0.875023 119.72683 0.016474 20.74374
2513.3632286996003 0.012147 36.660301 0.873064 -39.496815 0.873064 -39.496815 0.012147 36.660301
2613.4977578475 0.006501 44.80254 0.871145 161.284502 0.871145 161.284502 0.006501 44.80254
2713.6322869955 0.002691 -16.848163 0.869238 2.069896 0.869238 2.069896 0.002691 -16.848163
2813.7668161435 0.007645 -52.885569 0.867329 -157.142392 0.867329 -157.142392 0.007645 -52.885569
2913.9013452915 0.012983 -42.001825 0.865427 43.645835 0.865427 43.645835 0.012983 -42.001825
3014.0358744395 0.016769 -25.708963 0.863552 -115.566418 0.863552 -115.566418 0.016769 -25.708963
3114.1704035874 0.018427 -8.124732 0.861727 85.221095 0.861727 85.221095 0.018427 -8.124732
3214.3049327354 0.017739 9.568741 0.859968 -73.99033 0.859968 -73.99033 0.017739 9.568741
3314.4394618834 0.014817 26.415169 0.858271 126.800944 0.858271 126.800944 0.014817 26.415169
3414.5739910314 0.01011 40.147139 0.856615 -32.403975 0.856615 -32.403975 0.01011 40.147139
3514.7085201794 0.004614 37.485288 0.854974 168.394902 0.854974 168.394902 0.004614 37.485288
3614.8430493274004 0.004065 -40.367777 0.853327 9.19643 0.853327 9.19643 0.004065 -40.367777
3714.9775784752997 0.009437 -48.270908 0.85167 -150.001115 0.85167 -150.001115 0.009437 -48.270908
3815.1121076233003 0.014188 -35.348327 0.850016 50.800807 0.850016 50.800807 0.014188 -35.348327
3915.2466367713 0.017209 -18.877081 0.848387 -108.398293 0.848387 -108.398293 0.017209 -18.877081
4015.3811659193 0.018052 -1.523267 0.846805 92.40227 0.846805 92.40227 0.018052 -1.523267
4115.5156950673 0.01661 15.641285 0.845277 -66.796024 0.845277 -66.796024 0.01661 15.641285
4215.6502242152 0.013106 31.345452 0.843795 134.008321 0.843795 134.008321 0.013106 31.345452
4315.7847533632 0.00812 41.559411 0.842337 -25.183957 0.842337 -25.183957 0.00812 41.559411
4415.9192825111995 0.003354 16.29833 0.840879 175.626736 0.840879 175.626736 0.003354 16.29833
4516.0538116592 0.005865 -46.446885 0.839406 16.439045 0.839406 16.439045 0.005865 -46.446885
4616.188340807201 0.011077 -43.063834 0.837922 -142.748658 0.837922 -142.748658 0.011077 -43.063834
4716.3228699552 0.015195 -28.888609 0.836442 58.06253 0.836442 58.06253 0.015195 -28.888609
4816.4573991031 0.017439 -12.31641 0.834991 -101.127426 0.834991 -101.127426 0.017439 -12.31641
4916.5919282510995 0.017483 4.763077 0.833583 99.682494 0.833583 99.682494 0.017483 4.763077
5016.726457399101 0.015333 21.266087 0.832222 -59.506176 0.832222 -59.506176 0.015333 21.266087
5116.8609865471 0.011325 35.337833 0.830894 141.307823 0.830894 141.307823 0.011325 35.337833
5216.9955156951 0.006235 39.268408 0.829576 -17.87517 0.829576 -17.87517 0.006235 39.268408
5317.130044843 0.003395 -15.521665 0.828248 -177.055917 0.828248 -177.055917 0.003395 -15.521665
5417.264573991 0.007694 -46.13612 0.826902 23.764108 0.826902 23.764108 0.007694 -46.13612
5517.399103139 0.012532 -37.511238 0.825547 -135.41655 0.825547 -135.41655 0.012532 -37.511238
5617.533632287 0.015974 -22.544952 0.824201 65.4014 0.824201 65.4014 0.015974 -22.544952
5717.668161435 0.017435 -5.964729 0.822886 -93.781666 0.822886 -93.781666 0.017435 -5.964729
5817.802690583 0.016706 10.752092 0.821613 107.035503 0.821613 107.035503 0.016706 10.752092
5917.937219730899 0.013906 26.364328 0.820378 -52.145612 0.820378 -52.145612 0.013906 26.364328
6018.0717488789 0.009498 37.923576 0.819165 148.675941 0.819165 148.675941 0.009498 37.923576
6118.206278026901 0.004632 29.762709 0.817951 -10.499899 0.817951 -10.499899 0.004632 29.762709
6218.3408071749 0.004608 -34.8266 0.816722 -169.674179 0.816722 -169.674179 0.004608 -34.8266
6318.4753363229 0.009432 -43.197784 0.815474 31.1516 0.815474 31.1516 0.009432 -43.197784
6418.609865470899 0.013776 -31.755054 0.814222 -128.023767 0.814222 -128.023767 0.013776 -31.755054
6518.7443946188005 0.016507 -16.297086 0.812984 72.799411 0.812984 72.799411 0.016507 -16.297086
6618.8789237668 0.017186 0.189304 0.811779 -86.37814 0.811779 -86.37814 0.017186 0.189304
6719.0134529148 0.015721 16.408813 0.810613 114.444965 0.810613 114.444965 0.015721 16.408813
6819.1479820628 0.012346 30.757003 0.809477 -44.729947 0.809477 -44.729947 0.012346 30.757003
6919.2825112108 0.007683 38.166569 0.808353 156.097726 0.808353 156.097726 0.007683 38.166569
7019.4170403586995 0.00372 8.602444 0.80722 -3.072452 0.80722 -3.072452 0.00372 8.602444
7119.5515695067 0.006254 -41.284577 0.806068 -162.241728 0.806068 -162.241728 0.006254 -41.284577
7219.6860986547 0.01102 -38.985774 0.804901 38.588466 0.804901 38.588466 0.01102 -38.985774
7319.8206278027 0.014791 -25.88553 0.803733 -120.582766 0.803733 -120.582766 0.014791 -25.88553
7419.9551569507 0.016785 -10.150086 0.802586 80.244656 0.802586 80.244656 0.016785 -10.150086
7520.0896860986995 0.016695 6.127228 0.801473 -78.928259 0.801473 -78.928259 0.016695 6.127228
7620.224215246601 0.014543 21.651742 0.800394 121.899899 0.800394 121.899899 0.014543 21.651742
7720.3587443946 0.010685 34.118401 0.799338 -37.26977 0.799338 -37.26977 0.010685 34.118401
7820.4932735426 0.00599 34.20679 0.798283 163.562959 0.798283 163.562959 0.00599 34.20679
7920.6278026906 0.003973 -17.077946 0.797215 4.397328 0.797215 4.397328 0.003973 -17.077946
8020.7623318386 0.007969 -41.753373 0.796126 -154.768021 0.796126 -154.768021 0.007969 -41.753373
8120.8968609865 0.012424 -34.08573 0.795027 46.065641 0.795027 46.065641 0.012424 -34.08573
8221.0313901345 0.01556 -19.966462 0.793933 -113.102237 0.793933 -113.102237 0.01556 -19.966462
8321.1659192825 0.016804 -4.12388 0.792864 87.728789 0.792864 87.728789 0.016804 -4.12388
8421.3004484305 0.015969 11.805542 0.791828 -71.44008 0.791828 -71.44008 0.015969 11.805542
8521.4349775785 0.013193 26.339877 0.790822 129.3925 0.790822 129.3925 0.013193 26.339877
8621.569506726499 0.008975 35.861244 0.789829 -29.772667 0.789829 -29.772667 0.008975 35.861244
8721.7040358744 0.004644 22.785442 0.788831 171.064277 0.788831 171.064277 0.004644 22.785442
8821.838565022399 0.005151 -32.396468 0.787815 11.902318 0.787815 11.902318 0.005151 -32.396468
8921.9730941704 0.009613 -39.442963 0.786781 -147.259917 0.786781 -147.259917 0.009613 -39.442963
9022.1076233184 0.013618 -28.792486 0.78574 53.576533 0.78574 53.576533 0.013618 -28.792486
9122.2421524664 0.016074 -14.048372 0.784712 -105.588515 0.784712 -105.588515 0.016074 -14.048372
9222.3766816143 0.016566 1.749274 0.783711 95.245693 0.783711 95.245693 0.016566 1.749274
9322.5112107623 0.015024 17.152064 0.782741 -63.919541 0.782741 -63.919541 0.015024 17.152064
9422.6457399103 0.011705 30.239356 0.781795 136.916971 0.781795 136.916971 0.011705 30.239356
9522.7802690583 0.007293 34.899601 0.780855 -22.244301 0.780855 -22.244301 0.007293 34.899601
9622.9147982063 0.004052 2.153713 0.779903 178.596162 0.779903 178.596162 0.004052 2.153713
9723.0493273543 0.006697 -37.995114 0.778931 19.437169 0.778931 19.437169 0.006697 -37.995114
9823.183856502199 0.011119 -35.703955 0.777944 -139.722575 0.777944 -139.722575 0.011119 -35.703955
9923.3183856502 0.01458 -23.274258 0.776957 61.116185 0.776957 61.116185 0.01458 -23.274258
10023.452914798001 0.016328 -8.176354 0.775987 -98.046378 0.775987 -98.046378 0.016328 -8.176354
10123.587443945999 0.01608 7.423252 0.775047 102.790732 0.775047 102.790732 0.01608 7.423252
10223.721973094 0.013881 22.054549 0.774134 -56.371175 0.774134 -56.371175 0.013881 22.054549
10323.856502242 0.010121 32.955914 0.773238 144.468861 0.773238 144.468861 0.010121 32.955914
10423.99103139 0.005779 29.266313 0.77234 -14.68904 0.77234 -14.68904 0.005779 29.266313
10524.125560538 0.004494 -18.943679 0.771426 -173.845654 0.771426 -173.845654 0.004494 -18.943679
10624.260089686 0.008312 -38.490252 0.770493 26.997745 0.770493 26.997745 0.008312 -38.490252
10724.394618834 0.012446 -31.167716 0.76955 -132.159977 0.76955 -132.159977 0.012446 -31.167716
10824.529147982 0.015298 -17.6387 0.768611 68.680763 0.768611 68.680763 0.015298 -17.6387
10924.66367713 0.016322 -2.39568 0.767695 -90.479535 0.767695 -90.479535 0.016322 -2.39568
11024.798206278 0.015357 12.833221 0.766807 110.360288 0.766807 110.360288 0.015357 12.833221
11124.932735426 0.01257 26.338231 0.765943 -48.798539 0.765943 -48.798539 0.01257 26.338231
11225.067264574 0.008504 33.803539 0.765088 152.044657 0.765088 152.044657 0.008504 33.803539
11325.201793722 0.004689 16.300456 0.764226 -7.110347 0.764226 -7.110347 0.004689 16.300456
11425.33632287 0.005671 -31.087374 0.763345 -166.264551 0.763345 -166.264551 0.005671 -31.087374
11525.470852018 0.009863 -36.392242 0.762447 34.580775 0.762447 34.580775 0.009863 -36.392242
11625.605381166 0.013566 -26.165676 0.761543 -124.57527 0.761543 -124.57527 0.013566 -26.165676
11725.739910314 0.015761 -11.963304 0.760651 76.267236 0.760651 76.267236 0.015761 -11.963304
11825.874439462 0.016059 3.243172 0.759783 -82.890927 0.759783 -82.890927 0.016059 3.243172
11926.00896861 0.014418 17.886625 0.758942 117.951475 0.758942 117.951475 0.014418 17.886625
12026.143497758 0.011128 29.72401 0.758119 -41.204495 0.758119 -41.204495 0.011128 29.72401
12126.278026906 0.006948 31.572512 0.757299 159.641517 0.757299 159.641517 0.006948 31.572512
12226.412556054001 0.004385 -3.223862 0.756466 0.488978 0.756466 0.488978 0.004385 -3.223862
12326.547085201999 0.007146 -35.612803 0.755614 -158.663259 0.755614 -158.663259 0.007146 -35.612803
12426.68161435 0.011282 -32.885879 0.754748 42.183626 0.754748 42.183626 0.011282 -32.885879
12526.816143498 0.014459 -20.891313 0.753882 -116.970984 0.753882 -116.970984 0.014459 -20.891313
12626.950672646 0.015967 -6.311373 0.753033 83.873166 0.753033 83.873166 0.015967 -6.311373
12727.085201794001 0.015551 8.678815 0.752209 -75.282935 0.752209 -75.282935 0.015551 8.678815
12827.219730941999 0.013289 22.447548 0.751409 125.561934 0.751409 125.561934 0.013289 22.447548
12927.35426009 0.009607 31.750989 0.750621 -33.591394 0.750621 -33.591394 0.009607 31.750989
13027.488789238001 0.005617 24.314548 0.749829 167.257103 0.749829 167.257103 0.005617 24.314548
13127.623318386 0.004986 -20.599934 0.749021 8.106632 0.749021 8.106632 0.004986 -20.599934
13227.757847534 0.008675 -35.856684 0.748196 -151.044017 0.748196 -151.044017 0.008675 -35.856684
13327.892376681999 0.012526 -28.566481 0.74736 49.804146 0.74736 49.804146 0.012526 -28.566481
13428.02690583 0.015109 -15.46982 0.746531 -109.349181 0.746531 -109.349181 0.015109 -15.46982
13528.161434978001 0.015915 -0.741909 0.745721 91.496555 0.745721 91.496555 0.015915 -0.741909
13628.295964125999 0.014814 13.831255 0.744937 -67.657523 0.744937 -67.657523 0.014814 13.831255
13728.430493274 0.012 26.30943 0.744173 133.189708 0.744173 133.189708 0.012 26.30943
13828.565022422 0.008077 31.638266 0.743414 -25.9612 0.743414 -25.9612 0.008077 31.638266
13928.69955157 0.004781 10.300015 0.742647 174.889459 0.742647 174.889459 0.004781 10.300015
14028.834080716999 0.00617 -30.217357 0.741861 15.740692 0.741861 15.740692 0.00617 -30.217357
14128.968609865 0.01014 -33.775867 0.74106 -143.408682 0.74106 -143.408682 0.01014 -33.775867
14229.103139013001 0.013566 -23.761691 0.740254 57.440559 0.740254 57.440559 0.013566 -23.761691
14329.237668160999 0.01551 -9.991545 0.73946 -101.711565 0.73946 -101.711565 0.01551 -9.991545
14429.372197309 0.015614 4.682772 0.738687 99.135746 0.738687 99.135746 0.015614 4.682772
14529.506726457 0.013868 18.590283 0.737939 -60.016335 0.737939 -60.016335 0.013868 18.590283
14629.641255605 0.010596 29.146834 0.737205 140.833142 0.737205 140.833142 0.010596 29.146834
14729.775784753001 0.006649 28.089611 0.736471 -18.315578 0.736471 -18.315578 0.006649 28.089611
14829.910313900999 0.004732 -7.651617 0.735724 -177.463075 0.735724 -177.463075 0.004732 -7.651617
14930.044843049 0.007588 -33.710354 0.734958 23.389541 0.734958 23.389541 0.007588 -33.710354
15030.179372197 0.011473 -30.373807 0.73418 -135.758807 0.73418 -135.758807 0.011473 -30.373807
15130.313901345 0.014382 -18.669236 0.733404 65.091383 0.733404 65.091383 0.014382 -18.669236
15230.448430493 0.015657 -4.530063 0.732643 -94.059562 0.732643 -94.059562 0.015657 -4.530063
15330.582959641 0.015074 9.889447 0.731905 106.78934 0.731905 106.78934 0.015074 9.889447
15430.717488789 0.012741 22.796705 0.731188 -52.360773 0.731188 -52.360773 0.012741 22.796705
15530.852017937 0.009133 30.430758 0.73048 148.490817 0.73048 148.490817 0.009133 30.430758
15630.986547085 0.005509 19.344505 0.729767 -10.65596 0.729767 -10.65596 0.005509 19.344505
15731.121076233 0.005459 -21.925689 0.729037 -169.801915 0.729037 -169.801915 0.005459 -21.925689
15831.255605381 0.009041 -33.605394 0.728291 31.051803 0.728291 31.051803 0.009041 -33.605394
15931.390134529 0.012633 -26.186261 0.727536 -128.095703 0.727536 -128.095703 0.012633 -26.186261
16031.524663677 0.01496 -13.420304 0.726789 72.755371 0.726789 72.755371 0.01496 -13.420304
16131.659192825 0.015553 0.846453 0.72606 -86.394377 0.72606 -86.394377 0.015553 0.846453
16231.793721973 0.014312 14.78451 0.725353 114.456143 0.725353 114.456143 0.014312 14.78451
16331.928251121 0.01147 26.210773 0.724664 -44.692045 0.724664 -44.692045 0.01147 26.210773
16432.062780269 0.007692 29.294333 0.723977 156.161499 0.723977 156.161499 0.007692 29.294333
16532.197309417 0.004923 4.849365 0.723281 -2.983586 0.723281 -2.983586 0.004923 4.849365
16632.331838565 0.006648 -29.506647 0.722567 -162.128284 0.722567 -162.128284 0.006648 -29.506647
16732.466367713 0.010423 -31.446841 0.721839 38.726305 0.721839 38.726305 0.010423 -31.446841
16832.600896861 0.013591 -21.521417 0.721108 -120.420481 0.721108 -120.420481 0.013591 -21.521417
16932.735426009 0.015292 -8.111481 0.720389 80.431463 0.720389 80.431463 0.015292 -8.111481
17032.869955157 0.015205 6.066395 0.71969 -78.717041 0.71969 -78.717041 0.015205 6.066395
17133.004484305002 0.013353 19.240211 0.719012 122.13512 0.719012 122.13512 0.013353 19.240211
17233.139013452997 0.0101 28.458325 0.718346 -37.011212 0.718346 -37.011212 0.0101 28.458325
17333.273542601 0.006402 24.416299 0.717678 163.844108 0.717678 163.844108 0.006402 24.416299
17433.408071749 0.005094 -11.241681 0.716996 4.700457 0.716996 4.700457 0.005094 -11.241681
17533.542600897 0.008016 -32.07298 0.716297 -154.443238 0.716297 -154.443238 0.008016 -32.07298
17633.677130045 0.011673 -28.077307 0.715588 46.412042 0.715588 46.412042 0.011673 -28.077307
17733.811659193 0.014328 -16.571768 0.71488 -112.734091 0.71488 -112.734091 0.014328 -16.571768
17833.946188341 0.015376 -2.82274 0.714189 88.118754 0.714189 88.118754 0.015376 -2.82274
17934.080717489 0.014627 11.045913 0.713518 -71.028448 0.713518 -71.028448 0.014627 11.045913
18034.215246637003 0.012225 23.072954 0.712865 129.825362 0.712865 129.825362 0.012225 23.072954
18134.349775785 0.008697 28.942666 0.712219 -29.31921 0.712219 -29.31921 0.008697 28.942666
18234.484304932997 0.005461 14.422511 0.711565 171.537686 0.711565 171.537686 0.005461 14.422511
18334.618834081 0.005918 -22.911379 0.710896 12.39522 0.710896 12.39522 0.005918 -22.911379
18434.753363229 0.009399 -31.597303 0.710212 -146.747695 0.710212 -146.747695 0.009399 -31.597303
18534.887892377 0.012749 -23.970157 0.709522 54.10815 0.709522 54.10815 0.012749 -23.970157
18635.022421525002 0.01483 -11.468785 0.708838 -105.037346 0.708838 -105.037346 0.01483 -11.468785
18735.156950673 0.015215 2.370795 0.708173 95.816459 0.708173 95.816459 0.015215 2.370795
18835.291479821 0.013838 15.677947 0.707528 -63.329383 0.707528 -63.329383 0.013838 15.677947
18935.426008969003 0.01097 26.00766 0.706897 137.526058 0.706897 137.526058 0.01097 26.00766
19035.560538117 0.007352 26.730448 0.706267 -21.616879 0.706267 -21.616879 0.007352 26.730448
19135.695067265 0.005113 0.012548 0.705626 179.241379 0.705626 179.241379 0.005113 0.012548
19235.829596412997 0.007107 -28.82973 0.704969 20.099862 0.704969 20.099862 0.007107 -28.82973
19335.964125561 0.010703 -29.316685 0.7043 -139.042451 0.7043 -139.042451 0.010703 -29.316685
19436.098654709 0.013625 -19.408875 0.703629 61.813883 0.703629 61.813883 0.013625 -19.408875
19536.233183857 0.015091 -6.31185 0.702969 -97.330948 0.702969 -97.330948 0.015091 -6.31185
19636.367713004 0.014819 7.389346 0.702329 103.523891 0.702329 103.523891 0.014819 7.389346
19736.502242152 0.012864 19.816431 0.701707 -55.620546 0.701707 -55.620546 0.012864 19.816431
19836.6367713 0.009637 27.619623 0.701095 145.236482 0.701095 145.236482 0.009637 27.619623
19936.771300448003 0.006209 20.565119 0.700479 -13.904973 0.700479 -13.904973 0.006209 20.565119
20036.905829596002 0.005467 -14.103269 0.699849 -173.045573 0.699849 -173.045573 0.005467 -14.103269
20137.040358743998 0.008428 -30.584424 0.699203 27.813646 0.699203 27.813646 0.008428 -30.584424
20237.174887891997 0.011871 -25.939501 0.698549 -131.328201 0.698549 -131.328201 0.011871 -25.939501
20337.30941704 0.014282 -14.576582 0.697898 69.528596 0.697898 69.528596 0.014282 -14.576582
20437.443946188 0.01511 -1.185293 0.697262 -89.615509 0.697262 -89.615509 0.01511 -1.185293
20537.578475336 0.014202 12.138714 0.696645 111.240444 0.696645 111.240444 0.014202 12.138714
20637.713004484 0.011736 23.251704 0.696044 -47.902564 0.696044 -47.902564 0.011736 23.251704
20737.847533632 0.008299 27.24919 0.695447 152.955971 0.695447 152.955971 0.008299 27.24919
20837.98206278 0.005472 9.653314 0.694842 -6.184177 0.694842 -6.184177 0.005472 9.653314
20938.116591928003 0.006364 -23.582443 0.694222 -165.323851 0.694222 -165.323851 0.006364 -23.582443
21038.251121076 0.009744 -29.749171 0.693588 35.535924 0.693588 35.535924 0.009744 -29.749171
