! File created by SignalIntegrity v1.1.13: Signal and Power Integrity Tools
! https://github.com/TeledyneLeCroy/SignalIntegrity
# MHz S MA R 50.0
0.0 1.0 180.0
100.0 0.999531 -2.315699
200.0 0.999335 -4.615479
300.0 0.999184 -6.912639
400.0 0.999057 -9.208443
500.0 0.998945 -11.50338
600.0 0.998844 -13.797701
700.0 0.998751 -16.091556
800.0 0.998665 -18.385042
900.0 0.998583 -20.678226
1000.0 0.998506 -22.971157
1100.0 0.998433 -25.263872
1200.0 0.998364 -27.556401
1300.0 0.998297 -29.848766
1400.0 0.998232 -32.140986
1500.0 0.99817 -34.433076
1600.0 0.99811 -36.725048
1700.0 0.998051 -39.016915
1800.0 0.997995 -41.308684
1900.0 0.99794 -43.600364
2000.0 0.997886 -45.891962
2100.0 0.997834 -48.183484
2200.0 0.997783 -50.474936
2300.0 0.997733 -52.766321
2400.0 0.997684 -55.057645
2500.0 0.997636 -57.348911
2600.0 0.997589 -59.640123
2700.0 0.997543 -61.931283
2800.0 0.997498 -64.222395
2900.0 0.997454 -66.513461
3000.0 0.99741 -68.804483
3100.0 0.997368 -71.095464
3200.0 0.997325 -73.386406
3300.0 0.997284 -75.67731
3400.0 0.997243 -77.968178
3500.0 0.997203 -80.259012
3600.0 0.997163 -82.549813
3700.0 0.997124 -84.840583
3800.0 0.997085 -87.131323
3900.0 0.997047 -89.422033
4000.0 0.99701 -91.712716
4100.0 0.996972 -94.003371
4200.0 0.996936 -96.294001
4300.0 0.996899 -98.584606
4400.0 0.996864 -100.875187
4500.0 0.996828 -103.165744
4600.0 0.996793 -105.456279
4700.0 0.996758 -107.746792
4800.0 0.996724 -110.037284
4900.0 0.99669 -112.327756
5000.0 0.996657 -114.618208
5100.0 0.996623 -116.90864
5200.0 0.99659 -119.199054
5300.0 0.996558 -121.48945
5400.0 0.996525 -123.779828
5500.0 0.996493 -126.070189
5600.0 0.996462 -128.360533
5700.0 0.99643 -130.650862
5800.0 0.996399 -132.941174
5900.0 0.996368 -135.231471
6000.0 0.996337 -137.521753
6100.0 0.996307 -139.81202
6200.0 0.996277 -142.102273
6300.0 0.996247 -144.392513
6400.0 0.996217 -146.682738
6500.0 0.996188 -148.972951
6600.0 0.996159 -151.26315
6700.0 0.99613 -153.553337
6800.0 0.996101 -155.843511
6900.0 0.996073 -158.133673
7000.0 0.996044 -160.423823
7100.0 0.996016 -162.713962
7200.0 0.995988 -165.004089
7300.0 0.99596 -167.294206
7400.0 0.995933 -169.584311
7500.0 0.995905 -171.874406
7600.0 0.995878 -174.16449
7700.0 0.995851 -176.454564
7800.0 0.995824 -178.744627
7900.0 0.995798 178.965319
8000.0 0.995771 176.675274
8100.0 0.995745 174.385239
8200.0 0.995719 172.095214
8300.0 0.995693 169.805198
8400.0 0.995667 167.51519
8500.0 0.995641 165.225192
8600.0 0.995616 162.935202
8700.0 0.99559 160.64522
8800.0 0.995565 158.355247
8900.0 0.99554 156.065283
9000.0 0.995515 153.775326
9100.0 0.99549 151.485377
9200.0 0.995465 149.195437
9300.0 0.995441 146.905503
9400.0 0.995416 144.615578
9500.0 0.995392 142.32566
9600.0 0.995368 140.035749
9700.0 0.995344 137.745845
9800.0 0.99532 135.455949
9900.0 0.995296 133.16606
10000.0 0.995273 130.876177
