! File created by SignalIntegrity v1.2.1: Signal and Power Integrity Tools
! https://github.com/TeledyneLeCroy/SignalIntegrity
# MHz S MA R 50.0
0.0 0.004514 0.0 0.031609 180.0 0.03125 180.0 0.126344 180.0
50.0 0.078022 -93.028157 0.99704 -51.070068 0.994942 -51.101602 0.030923 2.435867
100.0 0.051232 161.758396 0.991701 -102.590015 0.993326 -102.526742 0.046804 -34.46786
150.0 0.022169 22.799838 0.988734 -153.649738 0.989518 -153.522688 0.030316 -117.486543
200.0 0.036246 -151.906057 0.983955 155.467572 0.983202 155.517321 0.053725 179.98023
250.0 0.058562 94.928288 0.980691 104.148404 0.981698 104.178086 0.05039 173.511692
300.0 0.049557 35.588363 0.980217 53.036984 0.982943 53.217298 0.045954 -168.187152
350.0 0.051771 12.315568 0.976483 1.858797 0.97799 2.256373 0.042633 -168.50429
400.0 0.069275 -63.724569 0.975409 -49.416361 0.973117 -49.005065 0.039032 -148.159893
450.0 0.062525 -173.720131 0.972741 -100.492495 0.970998 -100.302284 0.067262 -138.947346
500.0 0.066751 58.687965 0.965575 -151.355887 0.965608 -151.304689 0.075904 -161.360112
550.0 0.05441 -48.420265 0.96617 157.666942 0.966203 157.926643 0.050478 158.340009
600.0 0.032359 175.342052 0.965648 106.693676 0.964249 106.889465 0.017726 124.517888
650.0 0.017002 50.874995 0.962388 55.712577 0.961665 55.807063 0.017114 -156.471137
700.0 0.010149 123.730228 0.961272 4.665406 0.964457 4.895455 0.026995 -167.87222
750.0 0.033989 14.820488 0.966871 -46.192765 0.949445 -46.241783 0.02673 -130.963653
800.0 0.024896 -123.616599 0.958969 -97.580634 0.960402 -96.884448 0.05182 -115.321032
850.0 0.057156 90.347323 0.956806 -148.777334 0.957773 -148.013176 0.047234 -116.44965
900.0 0.075493 -11.621428 0.958256 160.482721 0.959912 161.003889 0.03401 -53.189167
950.0 0.04477 -123.084807 0.95684 109.366276 0.959598 110.050767 0.052773 -39.027306
1000.0 0.029113 69.240251 0.950007 58.476617 0.956231 59.010865 0.027561 -107.243909
1050.0 0.030345 -64.284899 0.951521 7.438469 0.946134 7.985982 0.070421 167.125618
1100.0 0.034246 171.089858 0.9552 -43.491272 0.953606 -43.249027 0.097092 163.356726
1150.0 0.031617 108.686902 0.951386 -94.503621 0.95055 -94.314233 0.125675 177.870918
1200.0 0.077369 83.814531 0.937959 -145.612145 0.940335 -144.901893 0.16961 -177.663938
1250.0 0.085557 -30.671311 1.007574 162.565869 1.033477 163.463727 0.189399 169.744467
1300.0 0.112498 -85.712339 0.937179 111.983597 0.938237 112.803098 0.144911 -155.368737
1350.0 0.085115 160.165153 0.933974 60.542131 0.932787 61.314524 0.142291 -149.912322
1400.0 0.085155 55.007401 0.928985 10.095302 0.928139 11.107057 0.106097 -175.6791
1450.0 0.0612 -35.400068 0.937168 -40.36805 0.936227 -39.370179 0.081962 133.911714
1500.0 0.03398 -112.625042 0.942733 -91.622576 0.936427 -90.394254 0.089917 111.661445
1550.0 0.053204 147.011605 0.940921 -142.790649 0.939626 -141.510531 0.128536 112.438361
1600.0 0.116012 61.515362 0.935739 166.202725 0.935149 167.442394 0.165002 105.019395
1650.0 0.151037 -23.412115 0.932014 115.467569 0.931016 116.743495 0.148305 101.301596
1700.0 0.125677 -118.445066 0.926925 64.609426 0.925662 65.533818 0.112916 114.279356
1750.0 0.091509 133.025986 0.920279 12.973544 0.917916 14.454762 0.102284 116.191593
1800.0 0.060874 32.57453 0.919646 -37.730698 0.928352 -36.696091 0.076991 82.66464
1850.0 0.024233 -12.152597 0.92856 -89.178105 0.933313 -88.001674 0.047655 32.064244
1900.0 0.024049 -42.906231 0.930091 -140.243533 0.932016 -139.372476 0.011033 -5.59198
1950.0 0.024258 158.064747 0.929737 168.377949 0.933432 169.595038 0.019811 141.390898
2000.0 0.052036 50.630312 0.928968 117.398076 0.935372 118.624969 0.029459 170.090496
2050.0 0.029024 -35.714472 0.929775 66.279279 0.934222 67.443381 0.07777 -168.263293
2100.0 0.050545 73.974914 0.926761 15.043401 0.932426 16.162268 0.106039 -174.998331
2150.0 0.111789 -8.343873 0.923918 -36.115593 0.932836 -34.80122 0.07117 -170.630069
2200.0 0.107198 -99.739529 0.927283 -87.167972 0.93253 -85.740512 0.058693 -134.711825
2250.0 0.084566 153.203075 0.925998 -138.441469 0.926404 -137.119893 0.073268 -159.596971
2300.0 0.074805 60.621843 0.92096 170.57707 0.918613 171.586835 0.1057 142.620873
2350.0 0.067797 -8.087321 0.920615 119.453624 0.917445 120.456874 0.144837 113.056829
2400.0 0.055858 -100.774894 0.918113 68.294155 0.916642 69.435313 0.183993 111.343428
2450.0 0.113858 131.431198 0.910124 16.94779 0.907822 17.843507 0.238738 114.9375
2500.0 0.193954 47.220954 0.902986 -34.374107 0.905092 -33.482988 0.236005 117.829226
2550.0 0.241291 -41.151117 0.900642 -85.576162 0.909103 -84.586068 0.200579 125.023365
2600.0 0.194563 -126.934469 0.908491 -136.839314 0.914995 -135.544987 0.166347 137.688986
2650.0 0.131213 142.415005 0.906637 172.265661 0.910739 173.427804 0.137765 121.863093
2700.0 0.091998 61.384083 0.905062 121.31142 0.902712 122.621339 0.10292 76.34555
2750.0 0.087708 -5.289446 0.900617 70.067242 0.899966 71.301225 0.089623 38.732054
2800.0 0.075072 -100.41846 0.896246 18.788025 0.895478 20.293684 0.098386 53.168981
2850.0 0.104036 130.11537 0.88825 -32.304643 0.885928 -30.65017 0.160783 63.904519
2900.0 0.157402 26.760751 0.880923 -82.987915 0.882168 -81.587973 0.185005 59.459626
2950.0 0.125255 -63.891068 0.886161 -133.88605 0.88814 -132.603912 0.147255 59.972802
3000.0 0.044084 174.02537 0.89475 174.801048 0.900511 176.15758 0.105776 58.809826
3050.0 0.052459 2.851536 0.902848 123.383132 0.903359 124.86023 0.059983 28.651709
3100.0 0.034182 -109.378752 0.907364 72.004594 0.901981 73.619477 0.02746 -70.579046
3150.0 0.031202 66.28703 0.900956 20.764353 0.903166 22.354994 0.049145 168.606193
3200.0 0.020102 -1.844262 0.902431 -30.507962 0.902225 -28.959282 0.091773 104.976998
3250.0 0.048049 20.64683 0.899812 -82.194201 0.900141 -80.538996 0.094523 72.456695
3300.0 0.081485 -67.759792 0.893722 -133.691385 0.895865 -131.662908 0.030471 105.519866
3350.0 0.110727 158.650549 0.900801 174.527504 0.904801 177.18465 0.108979 178.543953
3400.0 0.196624 48.24104 0.893745 122.799286 0.915189 125.474736 0.168742 175.165057
3450.0 0.20882 -41.795943 0.886397 71.677395 0.901991 73.853562 0.158349 167.961604
3500.0 0.1204 -133.112472 0.879904 20.935871 0.886037 22.78111 0.118874 144.349804
3550.0 0.028284 94.100093 0.883061 -29.675736 0.883631 -28.402387 0.078645 74.08004
3600.0 0.022976 -79.134675 0.894914 -80.731584 0.888578 -79.585173 0.11377 9.032263
3650.0 0.020205 45.262751 0.890651 -132.749786 0.887081 -131.421899 0.080082 -8.323412
3700.0 0.045599 -97.404919 0.875118 175.564666 0.879695 176.696699 0.085616 92.422127
3750.0 0.13291 112.671938 0.887905 123.73298 0.891486 126.030756 0.235527 89.112336
3800.0 0.174964 15.218994 0.86324 71.851221 0.88665 73.012647 0.254449 77.490302
3850.0 0.129323 -74.182672 0.865211 21.52089 0.878592 22.196276 0.180195 59.374009
3900.0 0.017928 132.330831 0.875934 -29.316464 0.871703 -27.908589 0.094177 17.726615
3950.0 0.092584 -42.621745 0.89042 -81.023914 0.879512 -79.091898 0.090804 -69.201643
4000.0 0.096053 -139.798476 0.895713 -133.259377 0.888902 -131.45094 0.117599 -126.182654
4050.0 0.059934 105.590246 0.88491 174.658762 0.884811 176.540189 0.077462 -178.107846
4100.0 0.034458 49.152422 0.875754 123.550006 0.891658 124.62495 0.072149 45.704622
4150.0 0.079955 22.798133 0.868773 72.02282 0.873969 72.818401 0.155834 -8.473979
4200.0 0.096033 -56.31339 0.866264 20.882895 0.870631 21.605377 0.158889 -49.341745
4250.0 0.030414 169.150168 0.875012 -31.358758 0.868154 -30.529655 0.109393 -105.60202
4300.0 0.089949 -9.507564 0.869509 -83.815896 0.856361 -82.147683 0.084637 -173.088053
4350.0 0.112168 -107.600374 0.857377 -135.161866 0.850845 -132.797687 0.091744 130.73143
4400.0 0.091691 119.197006 0.85952 173.598449 0.851044 175.846654 0.120519 89.209829
4450.0 0.102315 -5.210942 0.863624 121.932831 0.870402 124.541542 0.130901 42.18309
4500.0 0.05097 -87.513682 0.871408 69.64766 0.882139 71.860114 0.092307 -15.831004
4550.0 0.03895 -85.961693 0.873498 17.050613 0.873497 19.708266 0.077854 -153.540993
4600.0 0.052045 176.672906 0.869003 -35.497295 0.874245 -32.160299 0.164854 133.76396
4650.0 0.130627 32.801578 0.852698 -87.873131 0.868262 -84.909211 0.179858 87.46407
4700.0 0.194892 -65.331435 0.832331 -138.842424 0.841207 -135.873694 0.154175 30.560997
4750.0 0.180821 -172.697287 0.843897 171.629326 0.849033 173.974924 0.16388 -27.387251
4800.0 0.15834 62.371978 0.878861 119.61637 0.879604 121.769372 0.170049 -70.290127
4850.0 0.126018 -41.435091 0.888716 65.672033 0.89221 68.131292 0.125656 -102.393138
4900.0 0.052721 -96.237211 0.874451 12.155356 0.874919 14.836465 0.020514 -132.924392
4950.0 0.070248 -121.352856 0.851626 -40.052449 0.860612 -37.658308 0.117659 17.223035
5000.0 0.100318 104.259292 0.838388 -91.802263 0.849585 -89.613287 0.192195 -16.043449
5050.0 0.177139 -9.2849 0.83434 -142.98256 0.849343 -141.317637 0.205219 -62.223837
5100.0 0.180829 -110.825752 0.853828 165.728432 0.856335 167.63815 0.20332 -123.641121
5150.0 0.093894 121.306749 0.88713 112.134419 0.880445 114.576768 0.200576 179.237924
5200.0 0.074585 -49.061192 0.875672 57.872985 0.867779 60.708566 0.138932 123.859923
5250.0 0.078203 135.954299 0.860459 4.610816 0.855772 8.201657 0.082405 48.26894
5300.0 0.14834 2.611291 0.848578 -47.896625 0.854112 -44.367847 0.096437 -39.039725
5350.0 0.142808 -97.801972 0.839023 -100.113066 0.84782 -97.384012 0.122983 -94.186592
5400.0 0.031378 168.508978 0.839546 -152.553661 0.844963 -150.102384 0.129684 -155.567817
5450.0 0.063631 -133.447158 0.847466 153.621647 0.845536 156.363554 0.15007 134.879974
5500.0 0.129686 84.97081 0.830923 99.354092 0.82493 102.495234 0.175661 66.035798
5550.0 0.245254 -29.142271 0.794328 46.693287 0.778646 50.542684 0.194403 -1.654556
5600.0 0.277984 -127.347659 0.781986 -3.381384 0.7813 0.663659 0.230611 -58.596946
5650.0 0.224907 126.353937 0.824274 -55.817251 0.827418 -52.083795 0.252862 -106.41924
5700.0 0.152788 18.467849 0.839798 -111.698604 0.839526 -108.276222 0.178559 -141.622527
5750.0 0.118701 -46.368867 0.817711 -167.0303 0.813822 -163.280933 0.046333 -149.170798
5800.0 0.184332 -108.592407 0.791467 138.915578 0.798364 143.334151 0.110281 -36.233569
5850.0 0.234595 147.321523 0.771525 85.350364 0.784707 89.834879 0.199192 -60.315332
5900.0 0.29255 37.604519 0.761223 32.69994 0.762292 37.211755 0.221158 -97.811325
5950.0 0.312611 -64.713462 0.774009 -20.144971 0.773577 -14.488043 0.176691 -146.563257
6000.0 0.202725 -161.860749 0.808392 -75.954651 0.814786 -69.6938 0.101746 116.365884
6050.0 0.079419 97.671248 0.790567 -133.351871 0.819629 -127.49585 0.186509 15.681815
6100.0 0.079735 8.631067 0.752917 170.991144 0.794597 175.371584 0.282316 -37.70531
6150.0 0.17492 -85.86973 0.723044 115.868868 0.766871 119.082441 0.309446 -73.242427
6200.0 0.257131 164.663062 0.707662 59.377526 0.757448 63.144076 0.295331 -88.454811
6250.0 0.316874 44.639226 0.677802 -0.095685 0.725616 5.60743 0.316089 -84.343586
6300.0 0.337058 -65.297119 0.600882 -60.030077 0.688463 -52.736832 0.44852 -87.703803
6350.0 0.304009 -164.956135 0.524508 -115.490733 0.626468 -109.649446 0.608831 -102.23113
6400.0 0.310274 95.849431 0.493308 -169.052135 0.576526 -166.847951 0.724818 -121.547695
6450.0 0.450672 0.425054 0.494762 135.647129 0.524768 135.212633 0.755365 -141.090448
6500.0 0.63984 -91.200536 0.477671 77.747235 0.444552 77.977456 0.72598 -156.191949
6550.0 0.73238 174.399265 0.425104 20.10907 0.388654 26.21358 0.724545 -164.403545
6600.0 0.69986 76.79719 0.353444 -35.96812 0.35956 -27.080471 0.779653 -172.202013
6650.0 0.626211 -17.492696 0.277056 -87.225424 0.313121 -82.640965 0.851865 176.583312
6700.0 0.582692 -104.30721 0.222928 -133.236967 0.270698 -135.53562 0.9007 162.885878
6750.0 0.585128 168.976471 0.204345 -178.81308 0.235242 172.359503 0.913372 148.312376
6800.0 0.66384 75.383173 0.195486 128.039227 0.204642 119.331988 0.871743 134.591191
6850.0 0.799482 -19.980525 0.181995 69.696338 0.167301 68.541192 0.81771 123.4998
6900.0 0.864603 -112.338726 0.156424 11.433341 0.141845 19.767678 0.814986 115.026823
6950.0 0.82239 158.657352 0.125244 -41.616966 0.133 -31.475147 0.840765 106.756504
7000.0 0.735629 68.441486 0.104867 -90.018366 0.122958 -83.635723 0.873136 97.469747
7050.0 0.694113 -20.069005 0.087155 -136.14751 0.110932 -137.354906 0.901454 85.88718
7100.0 0.714909 -103.224699 0.077648 -178.32506 0.089973 172.072718 0.884868 73.16635
7150.0 0.778696 173.517618 0.07253 138.549828 0.080046 123.002328 0.830805 62.025996
7200.0 0.890042 83.062673 0.07296 90.589222 0.073294 77.46989 0.7649 52.976455
7250.0 0.966604 -13.151624 0.065414 36.359783 0.067316 35.029795 0.738037 44.228421
7300.0 0.916741 -102.107777 0.055078 -14.459263 0.06868 -11.49057 0.777068 35.450143
7350.0 0.814256 176.452173 0.0418 -62.189649 0.065717 -66.485351 0.85503 24.272249
7400.0 0.749973 94.020495 0.041784 -103.452705 0.062634 -116.759623 0.911148 10.411561
7450.0 0.749215 8.226342 0.046799 -149.398375 0.065423 -164.474888 0.904719 -3.108735
7500.0 0.800581 -79.016048 0.044906 160.243268 0.053335 136.672433 0.845238 -12.982267
7550.0 0.90357 -164.413817 0.046133 108.946259 0.048307 88.991372 0.783461 -20.039142
7600.0 1.010249 103.898296 0.045173 56.173815 0.043793 28.817133 0.751446 -27.580648
7650.0 1.019095 7.611614 0.0418 0.809152 0.042385 -21.927791 0.776455 -38.905165
7700.0 0.929853 -82.152029 0.032186 -54.977188 0.042475 -70.698826 0.827892 -52.590002
7750.0 0.850375 -162.669176 0.028544 -100.165618 0.038807 -112.533108 0.872829 -66.193534
7800.0 0.808614 116.406487 0.026624 -142.179835 0.035972 -162.309332 0.879954 -75.662253
7850.0 0.832456 30.509709 0.02226 158.077954 0.0359 148.574831 0.86641 -81.662603
7900.0 0.901272 -61.513174 0.019425 95.969431 0.030848 103.816135 0.839931 -84.689574
7950.0 0.972665 -154.735305 0.023975 40.96527 0.025833 55.58093 0.797364 -87.724145
8000.0 0.968908 113.83994 0.021577 -10.063619 0.022989 14.419525 0.782781 -94.260454
8050.0 0.917626 22.090914 0.021384 -67.339577 0.021979 -40.360601 0.797182 -105.85353
8100.0 0.835364 -65.097493 0.019957 -125.769456 0.02184 -93.642427 0.833319 -118.961309
8150.0 0.807714 -145.801987 0.014659 162.150368 0.022029 -146.709816 0.862506 -129.432325
8200.0 0.842788 133.479698 0.010911 110.27743 0.021045 166.706501 0.873298 -135.424693
8250.0 0.881207 44.930326 0.006033 62.396519 0.024134 134.719098 0.869278 -137.754553
8300.0 0.923187 -49.173319 0.007106 -23.885031 0.018202 80.592626 0.85594 -139.428692
8350.0 0.916408 -141.45658 0.005829 -89.428763 0.014153 49.955936 0.839739 -143.754998
8400.0 0.858135 131.981438 0.001857 -144.226245 0.014397 -16.568459 0.839263 -153.439431
8450.0 0.797098 47.012426 0.003452 109.693184 0.013303 -69.25501 0.882455 -166.706243
8500.0 0.760028 -38.414618 0.00717 -1.954562 0.015176 -128.156273 0.946853 -177.721862
8550.0 0.760726 -122.25017 0.003422 -21.958185 0.010756 -144.082102 0.982676 176.165192
8600.0 0.818933 151.157183 0.007302 -133.481531 0.009426 162.832054 1.003869 175.63369
8650.0 0.872988 58.611076 0.004313 -129.399674 0.019466 122.976374 1.03997 177.439339
8700.0 0.875855 -39.880842 0.006222 52.388476 0.01675 69.5196 1.043906 175.631476
8750.0 0.814591 -134.303958 0.000235 -102.104324 0.010568 -7.64227 1.001515 170.500967
8800.0 0.750445 142.711786 0.0065 -57.290884 0.008546 -46.382615 0.988715 160.055633
8850.0 0.710594 64.056265 0.003256 -91.248047 0.014511 -113.747181 1.049424 143.937984
8900.0 0.685854 -18.014495 0.004893 -165.845894 0.008337 -171.905503 1.149215 130.577106
8950.0 0.646372 -103.612855 0.004328 55.661196 0.011525 125.278721 1.238031 123.708555
9000.0 0.643974 170.487461 0.004192 -14.836567 0.011783 86.629677 1.269503 121.774001
9050.0 0.633061 75.555076 0.002343 108.304846 0.007353 31.833272 1.24869 122.724577
9100.0 0.586269 -27.811081 0.007003 -163.455625 0.005356 -33.835534 1.209694 123.891467
9150.0 0.570113 -126.536719 0.009763 165.237159 0.005807 -128.679852 1.159662 119.279192
9200.0 0.576884 150.036803 0.0051 126.028704 0.00392 -88.61677 1.100022 106.781881
9250.0 0.61021 75.007328 0.00318 20.318207 0.010073 132.33861 1.09789 89.798309
9300.0 0.636123 -1.70941 0.007032 -22.521739 0.003409 22.009022 1.133664 76.045171
9350.0 0.699375 -84.245269 0.00781 -84.530873 0.003274 60.056912 1.19192 70.382324
9400.0 0.725494 -178.521085 0.008392 -124.683485 0.006829 -29.93817 1.229176 70.499041
9450.0 0.676639 79.67817 0.00815 178.410932 0.008535 -113.027851 1.254537 73.002526
9500.0 0.606902 -23.63009 0.015741 127.009296 0.007161 -148.915234 1.241845 72.217316
9550.0 0.608701 -118.820702 0.014361 73.354762 0.008594 101.946859 1.123005 67.163469
9600.0 0.671822 161.120733 0.010683 11.182179 0.005617 90.799061 0.968665 56.905299
9650.0 0.78858 86.287173 0.005848 -38.309959 0.011574 22.124878 0.860623 43.353607
9700.0 0.925588 10.349999 0.010658 -62.626311 0.006567 -3.794713 0.85216 31.746902
9750.0 1.05718 -79.136118 0.007381 -146.405238 0.000906 18.485448 0.901406 25.609323
9800.0 0.986868 -175.055025 0.004845 -161.958543 0.003026 -106.779837 0.975836 23.762617
9850.0 0.808288 91.807064 0.005649 132.205212 0.003751 142.166186 0.997471 23.26715
9900.0 0.658606 2.540947 0.001108 77.380624 0.003739 45.977303 0.963592 20.880991
9950.0 0.646699 -90.788321 0.004264 42.719191 0.005887 -22.972809 0.902078 17.809336
10000.0 0.717754 -179.869482 0.008258 -22.645487 0.001559 -68.599608 0.856131 11.087452
10050.0 0.821221 96.604266 0.007703 -80.961145 0.0042 -32.087671 0.853062 3.022914
10100.0 0.903196 14.976909 0.010839 -141.012812 0.005609 -175.60206 0.89196 -6.186625
10150.0 0.934076 -69.726723 0.012393 -167.959415 0.003063 163.077576 0.938606 -12.420784
10200.0 0.907284 -158.882375 0.006264 163.237028 0.001205 -136.791832 0.980485 -16.950165
10250.0 0.815414 110.548346 0.010792 130.654216 0.003321 97.787116 0.986427 -20.609756
10300.0 0.73134 21.546011 0.007172 32.861296 0.006453 44.893336 0.935051 -25.371335
10350.0 0.716346 -68.194477 0.013631 -31.336292 0.004126 34.841543 0.884102 -32.045976
10400.0 0.767305 -157.718335 0.019188 -56.507921 0.006485 -77.475445 0.863584 -40.130451
10450.0 0.841687 117.299386 0.013322 -110.36248 0.010394 -63.632668 0.884684 -47.252362
10500.0 0.879459 33.865835 0.014449 -138.108783 0.009157 -135.603685 0.94136 -53.118777
10550.0 0.849696 -51.389796 0.010371 163.828385 0.009619 174.915059 1.003959 -57.258985
10600.0 0.783272 -137.439933 0.01193 92.273392 0.009882 107.688702 1.033256 -62.052067
10650.0 0.745934 136.784533 0.011378 44.749765 0.011901 51.181908 1.009477 -67.229238
10700.0 0.723717 51.594751 0.012665 1.495117 0.00953 27.212518 0.897557 -72.755789
10750.0 0.751695 -35.986026 0.011307 -61.157024 0.006537 -32.305816 0.824713 -79.566647
10800.0 0.827941 -128.461959 0.013266 -104.786005 0.008217 -77.521779 0.782383 -87.700477
10850.0 0.915164 138.964022 0.01372 -161.487727 0.013751 -140.714896 0.815617 -94.696874
10900.0 0.924297 51.920975 0.016572 130.778589 0.011278 130.944867 0.882626 -100.00039
10950.0 0.867164 -30.335811 0.017426 79.562706 0.012035 110.215236 0.95123 -105.996372
11000.0 0.820609 -111.648341 0.014303 55.237107 0.012721 40.443728 0.982447 -113.182048
11050.0 0.82839 163.180441 0.015068 -31.246168 0.011296 19.605256 0.957536 -121.847909
11100.0 0.856861 77.576926 0.010742 -55.673839 0.016629 -66.268951 0.862037 -129.80778
11150.0 0.921315 -9.220335 0.01236 -177.030725 0.00425 -135.605432 0.801661 -136.988478
11200.0 1.029413 -103.188053 0.007667 175.920799 0.013881 148.600379 0.79167 -142.531734
11250.0 1.04172 158.46567 0.014522 74.908116 0.009149 80.559794 0.801937 -147.62381
11300.0 1.024958 68.401499 0.004809 11.257315 0.012399 62.452252 0.83186 -152.213177
11350.0 0.954303 -13.37635 0.006388 16.296056 0.00958 -15.078769 0.838778 -158.736038
11400.0 0.96108 -93.006478 0.009414 -109.702314 0.006417 -15.034443 0.809484 -165.017817
11450.0 0.983768 -175.911631 0.001928 -42.488951 0.004406 -68.817338 0.794204 -173.383668
11500.0 1.019751 97.250804 0.003383 -128.542366 0.01158 -136.188123 0.769253 178.111238
11550.0 1.008848 7.865069 0.009137 -167.840574 0.009242 140.270937 0.799277 169.654517
