! File created by SignalIntegrity v1.1.17: Signal and Power Integrity Tools
! https://github.com/TeledyneLeCroy/SignalIntegrity
# MHz S MA R 50.0
0.0 0.562271 0.0 0.0 0.0 0.0 0.0 0.0 0.0
0.562889 180.0 0.0 0.0 0.0 0.0 0.0 0.0
1.12516 0.0 0.0 0.0 0.0 0.0 0.0 0.0
0.000309 180.0 0.0 0.0 0.0 0.0 0.0 0.0
1000.0 0.558721 -49.589063 0.0 0.0 0.0 0.0 0.0 0.0
0.559357 130.761476 0.0 0.0 0.0 0.0 0.0 0.0
1.118072 -49.413694 0.0 0.0 0.0 0.0 0.0 0.0
0.001739 -149.945541 0.0 0.0 0.0 0.0 0.0 0.0
2000.0 0.555954 -98.742857 0.0 0.0 0.0 0.0 0.0 0.0
0.556652 81.958064 0.0 0.0 0.0 0.0 0.0 0.0
1.112585 -98.392177 0.0 0.0 0.0 0.0 0.0 0.0
0.003421 165.743733 0.0 0.0 0.0 0.0 0.0 0.0
3000.0 0.554344 -147.881239 0.0 0.0 0.0 0.0 0.0 0.0
0.555151 33.169749 0.0 0.0 0.0 0.0 0.0 0.0
1.109449 -147.355363 0.0 0.0 0.0 0.0 0.0 0.0
0.005104 118.109936 0.0 0.0 0.0 0.0 0.0 0.0
4000.0 0.552885 162.957687 0.0 0.0 0.0 0.0 0.0 0.0
0.553844 -15.64173 0.0 0.0 0.0 0.0 0.0 0.0
1.106646 163.658585 0.0 0.0 0.0 0.0 0.0 0.0
0.00678 69.604417 0.0 0.0 0.0 0.0 0.0 0.0
5000.0 0.551278 113.782512 0.0 0.0 0.0 0.0 0.0 0.0
0.552431 -64.467942 0.0 0.0 0.0 0.0 0.0 0.0
1.103579 114.658199 0.0 0.0 0.0 0.0 0.0 0.0
0.008445 20.743198 0.0 0.0 0.0 0.0 0.0 0.0
6000.0 0.549426 64.600356 0.0 0.0 0.0 0.0 0.0 0.0
0.550816 -113.301927 0.0 0.0 0.0 0.0 0.0 0.0
1.100058 65.650539 0.0 0.0 0.0 0.0 0.0 0.0
0.010094 -28.296722 0.0 0.0 0.0 0.0 0.0 0.0
7000.0 0.547297 15.415695 0.0 0.0 0.0 0.0 0.0 0.0
0.548964 -162.139372 0.0 0.0 0.0 0.0 0.0 0.0
1.096011 16.640021 0.0 0.0 0.0 0.0 0.0 0.0
0.011724 -77.438012 0.0 0.0 0.0 0.0 0.0 0.0
8000.0 0.544875 -33.768515 0.0 0.0 0.0 0.0 0.0 0.0
0.54686 149.022518 0.0 0.0 0.0 0.0 0.0 0.0
1.091411 -32.370461 0.0 0.0 0.0 0.0 0.0 0.0
0.013331 -126.641341 0.0 0.0 0.0 0.0 0.0 0.0
9000.0 0.542158 -82.950144 0.0 0.0 0.0 0.0 0.0 0.0
0.5445 100.185706 0.0 0.0 0.0 0.0 0.0 0.0
1.08625 -81.378838 0.0 0.0 0.0 0.0 0.0 0.0
0.014913 -175.884439 0.0 0.0 0.0 0.0 0.0 0.0
10000.0 0.539146 -132.127534 0.0 0.0 0.0 0.0 0.0 0.0
0.541883 51.351681 0.0 0.0 0.0 0.0 0.0 0.0
1.08053 -130.38352 0.0 0.0 0.0 0.0 0.0 0.0
0.016465 134.846369 0.0 0.0 0.0 0.0 0.0 0.0
11000.0 0.535843 178.70068 0.0 0.0 0.0 0.0 0.0 0.0
0.539012 2.521639 0.0 0.0 0.0 0.0 0.0 0.0
1.074258 -179.383206 0.0 0.0 0.0 0.0 0.0 0.0
0.017987 85.560042 0.0 0.0 0.0 0.0 0.0 0.0
12000.0 0.532256 129.535676 0.0 0.0 0.0 0.0 0.0 0.0
0.535892 -46.303416 0.0 0.0 0.0 0.0 0.0 0.0
1.067444 131.623215 0.0 0.0 0.0 0.0 0.0 0.0
0.019473 36.262768 0.0 0.0 0.0 0.0 0.0 0.0
13000.0 0.528392 80.378498 0.0 0.0 0.0 0.0 0.0 0.0
0.532528 -95.122612 0.0 0.0 0.0 0.0 0.0 0.0
1.060103 82.636719 0.0 0.0 0.0 0.0 0.0 0.0
0.020923 -13.040981 0.0 0.0 0.0 0.0 0.0 0.0
14000.0 0.524258 31.230099 0.0 0.0 0.0 0.0 0.0 0.0
0.528927 -143.935178 0.0 0.0 0.0 0.0 0.0 0.0
1.052248 33.658184 0.0 0.0 0.0 0.0 0.0 0.0
0.022333 -62.347841 0.0 0.0 0.0 0.0 0.0 0.0
15000.0 0.519864 -17.908646 0.0 0.0 0.0 0.0 0.0 0.0
0.525097 167.259585 0.0 0.0 0.0 0.0 0.0 0.0
1.043898 -15.311583 0.0 0.0 0.0 0.0 0.0 0.0
0.023701 -111.655194 0.0 0.0 0.0 0.0 0.0 0.0
16000.0 0.51522 -67.036919 0.0 0.0 0.0 0.0 0.0 0.0
0.521044 118.462311 0.0 0.0 0.0 0.0 0.0 0.0
1.035071 -64.271841 0.0 0.0 0.0 0.0 0.0 0.0
0.025025 -160.960938 0.0 0.0 0.0 0.0 0.0 0.0
17000.0 0.510336 -116.153952 0.0 0.0 0.0 0.0 0.0 0.0
0.516776 69.673586 0.0 0.0 0.0 0.0 0.0 0.0
1.025785 -113.221896 0.0 0.0 0.0 0.0 0.0 0.0
0.026303 149.736662 0.0 0.0 0.0 0.0 0.0 0.0
18000.0 0.505222 -165.259017 0.0 0.0 0.0 0.0 0.0 0.0
0.512304 20.893951 0.0 0.0 0.0 0.0 0.0 0.0
1.01606 -162.161101 0.0 0.0 0.0 0.0 0.0 0.0
0.027533 100.439073 0.0 0.0 0.0 0.0 0.0 0.0
19000.0 0.49989 145.64857 0.0 0.0 0.0 0.0 0.0 0.0
0.507635 -27.876094 0.0 0.0 0.0 0.0 0.0 0.0
1.005917 148.911153 0.0 0.0 0.0 0.0 0.0 0.0
0.028713 51.147564 0.0 0.0 0.0 0.0 0.0 0.0
20000.0 0.494351 96.569461 0.0 0.0 0.0 0.0 0.0 0.0
0.502779 -76.636084 0.0 0.0 0.0 0.0 0.0 0.0
0.995378 99.995436 0.0 0.0 0.0 0.0 0.0 0.0
0.029842 1.86325 0.0 0.0 0.0 0.0 0.0 0.0
21000.0 0.488617 47.504271 0.0 0.0 0.0 0.0 0.0 0.0
0.497745 -125.385591 0.0 0.0 0.0 0.0 0.0 0.0
0.984464 51.092282 0.0 0.0 0.0 0.0 0.0 0.0
0.030918 -47.412871 0.0 0.0 0.0 0.0 0.0 0.0
22000.0 0.482699 -1.546419 0.0 0.0 0.0 0.0 0.0 0.0
0.492542 -174.12422 0.0 0.0 0.0 0.0 0.0 0.0
0.973197 2.202188 0.0 0.0 0.0 0.0 0.0 0.0
0.031941 -96.679893 0.0 0.0 0.0 0.0 0.0 0.0
23000.0 0.476611 -50.582065 0.0 0.0 0.0 0.0 0.0 0.0
0.487181 137.148392 0.0 0.0 0.0 0.0 0.0 0.0
0.961599 -46.674381 0.0 0.0 0.0 0.0 0.0 0.0
0.03291 -145.936988 0.0 0.0 0.0 0.0 0.0 0.0
24000.0 0.470363 -99.602158 0.0 0.0 0.0 0.0 0.0 0.0
0.48167 88.432574 0.0 0.0 0.0 0.0 0.0 0.0
0.949694 -95.537 0.0 0.0 0.0 0.0 0.0 0.0
0.033823 164.816609 0.0 0.0 0.0 0.0 0.0 0.0
25000.0 0.463969 -148.606225 0.0 0.0 0.0 0.0 0.0 0.0
0.47602 39.72862 0.0 0.0 0.0 0.0 0.0 0.0
0.937504 -144.385277 0.0 0.0 0.0 0.0 0.0 0.0
0.03468 115.581611 0.0 0.0 0.0 0.0 0.0 0.0
26000.0 0.45744 162.406166 0.0 0.0 0.0 0.0 0.0 0.0
0.47024 -8.963207 0.0 0.0 0.0 0.0 0.0 0.0
0.925051 166.781138 0.0 0.0 0.0 0.0 0.0 0.0
0.035481 66.358681 0.0 0.0 0.0 0.0 0.0 0.0
27000.0 0.450789 113.43541 0.0 0.0 0.0 0.0 0.0 0.0
0.464341 -57.642678 0.0 0.0 0.0 0.0 0.0 0.0
0.912358 117.962561 0.0 0.0 0.0 0.0 0.0 0.0
0.036225 17.148442 0.0 0.0 0.0 0.0 0.0 0.0
28000.0 0.444027 64.481855 0.0 0.0 0.0 0.0 0.0 0.0
0.45833 -106.309599 0.0 0.0 0.0 0.0 0.0 0.0
0.899446 69.159266 0.0 0.0 0.0 0.0 0.0 0.0
0.036912 -32.048524 0.0 0.0 0.0 0.0 0.0 0.0
29000.0 0.437168 15.545811 0.0 0.0 0.0 0.0 0.0 0.0
0.452219 -154.963811 0.0 0.0 0.0 0.0 0.0 0.0
0.886339 20.371485 0.0 0.0 0.0 0.0 0.0 0.0
0.037544 -81.231672 0.0 0.0 0.0 0.0 0.0 0.0
30000.0 0.430222 -33.372461 0.0 0.0 0.0 0.0 0.0 0.0
0.446016 156.394812 0.0 0.0 0.0 0.0 0.0 0.0
0.873058 -28.400589 0.0 0.0 0.0 0.0 0.0 0.0
0.038119 -130.400494 0.0 0.0 0.0 0.0 0.0 0.0
31000.0 0.423202 -82.272747 0.0 0.0 0.0 0.0 0.0 0.0
0.43973 107.76636 0.0 0.0 0.0 0.0 0.0 0.0
0.859623 -77.156809 0.0 0.0 0.0 0.0 0.0 0.0
0.038639 -179.554516 0.0 0.0 0.0 0.0 0.0 0.0
32000.0 0.416118 -131.154881 0.0 0.0 0.0 0.0 0.0 0.0
0.43337 59.150888 0.0 0.0 0.0 0.0 0.0 0.0
0.846056 -125.897068 0.0 0.0 0.0 0.0 0.0 0.0
0.039103 131.306696 0.0 0.0 0.0 0.0 0.0 0.0
33000.0 0.408982 179.981255 0.0 0.0 0.0 0.0 0.0 0.0
0.426945 10.548418 0.0 0.0 0.0 0.0 0.0 0.0
0.832376 -174.621304 0.0 0.0 0.0 0.0 0.0 0.0
0.039514 82.183542 0.0 0.0 0.0 0.0 0.0 0.0
34000.0 0.401803 131.135725 0.0 0.0 0.0 0.0 0.0 0.0
0.420462 -38.041063 0.0 0.0 0.0 0.0 0.0 0.0
0.818603 136.6705 0.0 0.0 0.0 0.0 0.0 0.0
0.039871 33.076381 0.0 0.0 0.0 0.0 0.0 0.0
35000.0 0.394593 82.308543 0.0 0.0 0.0 0.0 0.0 0.0
0.413931 -86.617603 0.0 0.0 0.0 0.0 0.0 0.0
0.804754 87.978317 0.0 0.0 0.0 0.0 0.0 0.0
0.040176 -16.014466 0.0 0.0 0.0 0.0 0.0 0.0
36000.0 0.38736 33.499672 0.0 0.0 0.0 0.0 0.0 0.0
0.407359 -135.181279 0.0 0.0 0.0 0.0 0.0 0.0
0.790848 39.30208 0.0 0.0 0.0 0.0 0.0 0.0
0.04043 -65.088722 0.0 0.0 0.0 0.0 0.0 0.0
37000.0 0.380115 -15.290978 0.0 0.0 0.0 0.0 0.0 0.0
0.400753 176.267799 0.0 0.0 0.0 0.0 0.0 0.0
0.776901 -9.358325 0.0 0.0 0.0 0.0 0.0 0.0
0.040634 -114.146152 0.0 0.0 0.0 0.0 0.0 0.0
38000.0 0.372865 -64.063548 0.0 0.0 0.0 0.0 0.0 0.0
0.394119 127.729489 0.0 0.0 0.0 0.0 0.0 0.0
0.76293 -58.003051 0.0 0.0 0.0 0.0 0.0 0.0
0.04079 -163.186569 0.0 0.0 0.0 0.0 0.0 0.0
39000.0 0.36562 -112.818229 0.0 0.0 0.0 0.0 0.0 0.0
0.387466 79.203626 0.0 0.0 0.0 0.0 0.0 0.0
0.748949 -106.632291 0.0 0.0 0.0 0.0 0.0 0.0
0.0409 147.79017 0.0 0.0 0.0 0.0 0.0 0.0
40000.0 0.358386 -161.55526 0.0 0.0 0.0 0.0 0.0 0.0
0.380798 30.690015 0.0 0.0 0.0 0.0 0.0 0.0
0.734972 -155.246274 0.0 0.0 0.0 0.0 0.0 0.0
0.040964 98.784154 0.0 0.0 0.0 0.0 0.0 0.0
41000.0 0.351171 149.725072 0.0 0.0 0.0 0.0 0.0 0.0
0.374123 -17.811561 0.0 0.0 0.0 0.0 0.0 0.0
0.721013 156.154732 0.0 0.0 0.0 0.0 0.0 0.0
0.040985 49.795423 0.0 0.0 0.0 0.0 0.0 0.0
42000.0 0.343982 101.022438 0.0 0.0 0.0 0.0 0.0 0.0
0.367444 -66.301339 0.0 0.0 0.0 0.0 0.0 0.0
0.707083 107.570429 0.0 0.0 0.0 0.0 0.0 0.0
0.040963 0.823963 0.0 0.0 0.0 0.0 0.0 0.0
43000.0 0.336825 52.336468 0.0 0.0 0.0 0.0 0.0 0.0
0.360768 -114.779577 0.0 0.0 0.0 0.0 0.0 0.0
0.693194 59.000492 0.0 0.0 0.0 0.0 0.0 0.0
0.040902 -48.130294 0.0 0.0 0.0 0.0 0.0 0.0
44000.0 0.329704 3.666754 0.0 0.0 0.0 0.0 0.0 0.0
0.3541 -163.246545 0.0 0.0 0.0 0.0 0.0 0.0
0.679355 10.444568 0.0 0.0 0.0 0.0 0.0 0.0
0.040803 -97.067472 0.0 0.0 0.0 0.0 0.0 0.0
45000.0 0.322626 -44.987142 0.0 0.0 0.0 0.0 0.0 0.0
0.347443 148.297473 0.0 0.0 0.0 0.0 0.0 0.0
0.665577 -38.097718 0.0 0.0 0.0 0.0 0.0 0.0
0.040666 -145.987752 0.0 0.0 0.0 0.0 0.0 0.0
46000.0 0.315594 -93.625689 0.0 0.0 0.0 0.0 0.0 0.0
0.340802 99.852185 0.0 0.0 0.0 0.0 0.0 0.0
0.651867 -86.626753 0.0 0.0 0.0 0.0 0.0 0.0
0.040496 165.108628 0.0 0.0 0.0 0.0 0.0 0.0
47000.0 0.308612 -142.249374 0.0 0.0 0.0 0.0 0.0 0.0
0.33418 51.417294 0.0 0.0 0.0 0.0 0.0 0.0
0.638233 -135.142942 0.0 0.0 0.0 0.0 0.0 0.0
0.040292 116.221376 0.0 0.0 0.0 0.0 0.0 0.0
48000.0 0.301684 169.141295 0.0 0.0 0.0 0.0 0.0 0.0
0.327581 2.992502 0.0 0.0 0.0 0.0 0.0 0.0
0.624682 176.353307 0.0 0.0 0.0 0.0 0.0 0.0
0.040057 67.350142 0.0 0.0 0.0 0.0 0.0 0.0
49000.0 0.294813 120.545802 0.0 0.0 0.0 0.0 0.0 0.0
0.321008 -45.422488 0.0 0.0 0.0 0.0 0.0 0.0
0.611219 127.861582 0.0 0.0 0.0 0.0 0.0 0.0
0.039793 18.494526 0.0 0.0 0.0 0.0 0.0 0.0
50000.0 0.288002 71.963626 0.0 0.0 0.0 0.0 0.0 0.0
0.314464 -93.827967 0.0 0.0 0.0 0.0 0.0 0.0
0.59785 79.381474 0.0 0.0 0.0 0.0 0.0 0.0
0.039501 -30.345928 0.0 0.0 0.0 0.0 0.0 0.0
51000.0 0.281252 23.394248 0.0 0.0 0.0 0.0 0.0 0.0
0.307952 -142.224217 0.0 0.0 0.0 0.0 0.0 0.0
0.58458 30.912582 0.0 0.0 0.0 0.0 0.0 0.0
0.039183 -79.17172 0.0 0.0 0.0 0.0 0.0 0.0
52000.0 0.274566 -25.162843 0.0 0.0 0.0 0.0 0.0 0.0
0.301474 169.388494 0.0 0.0 0.0 0.0 0.0 0.0
0.571412 -17.545482 0.0 0.0 0.0 0.0 0.0 0.0
0.038841 -127.983398 0.0 0.0 0.0 0.0 0.0 0.0
53000.0 0.267945 -73.708142 0.0 0.0 0.0 0.0 0.0 0.0
0.295032 121.009912 0.0 0.0 0.0 0.0 0.0 0.0
0.558351 -65.993089 0.0 0.0 0.0 0.0 0.0 0.0
0.038476 -176.781549 0.0 0.0 0.0 0.0 0.0 0.0
54000.0 0.26139 -122.242125 0.0 0.0 0.0 0.0 0.0 0.0
0.288629 72.639803 0.0 0.0 0.0 0.0 0.0 0.0
0.545399 -114.430587 0.0 0.0 0.0 0.0 0.0 0.0
0.038089 134.433205 0.0 0.0 0.0 0.0 0.0 0.0
55000.0 0.254903 -170.765239 0.0 0.0 0.0 0.0 0.0 0.0
0.282265 24.277953 0.0 0.0 0.0 0.0 0.0 0.0
0.532558 -162.858296 0.0 0.0 0.0 0.0 0.0 0.0
0.037683 85.660215 0.0 0.0 0.0 0.0 0.0 0.0
56000.0 0.248484 140.722102 0.0 0.0 0.0 0.0 0.0 0.0
0.275944 -24.075827 0.0 0.0 0.0 0.0 0.0 0.0
0.519833 148.723493 0.0 0.0 0.0 0.0 0.0 0.0
0.037259 36.898805 0.0 0.0 0.0 0.0 0.0 0.0
57000.0 0.242134 92.219521 0.0 0.0 0.0 0.0 0.0 0.0
0.269667 -72.421699 0.0 0.0 0.0 0.0 0.0 0.0
0.507224 100.314524 0.0 0.0 0.0 0.0 0.0 0.0
0.036817 -11.851712 0.0 0.0 0.0 0.0 0.0 0.0
58000.0 0.235853 43.726685 0.0 0.0 0.0 0.0 0.0 0.0
0.263436 -120.759797 0.0 0.0 0.0 0.0 0.0 0.0
0.494735 51.914579 0.0 0.0 0.0 0.0 0.0 0.0
0.03636 -60.592035 0.0 0.0 0.0 0.0 0.0 0.0
59000.0 0.229643 -4.756694 0.0 0.0 0.0 0.0 0.0 0.0
0.257251 -169.090227 0.0 0.0 0.0 0.0 0.0 0.0
0.482366 3.52348 0.0 0.0 0.0 0.0 0.0 0.0
0.035887 -109.322859 0.0 0.0 0.0 0.0 0.0 0.0
60000.0 0.223504 -53.23085 0.0 0.0 0.0 0.0 0.0 0.0
0.251116 142.586937 0.0 0.0 0.0 0.0 0.0 0.0
0.47012 -44.858909 0.0 0.0 0.0 0.0 0.0 0.0
0.035401 -158.044873 0.0 0.0 0.0 0.0 0.0 0.0
61000.0 0.217436 -101.695966 0.0 0.0 0.0 0.0 0.0 0.0
0.245031 94.271653 0.0 0.0 0.0 0.0 0.0 0.0
0.458 -93.232679 0.0 0.0 0.0 0.0 0.0 0.0
0.034902 153.241251 0.0 0.0 0.0 0.0 0.0 0.0
62000.0 0.21144 -150.152168 0.0 0.0 0.0 0.0 0.0 0.0
0.238997 45.963908 0.0 0.0 0.0 0.0 0.0 0.0
0.446006 -141.59788 0.0 0.0 0.0 0.0 0.0 0.0
0.034392 104.534868 0.0 0.0 0.0 0.0 0.0 0.0
63000.0 0.205516 161.400474 0.0 0.0 0.0 0.0 0.0 0.0
0.233018 -2.336277 0.0 0.0 0.0 0.0 0.0 0.0
0.434142 170.045488 0.0 0.0 0.0 0.0 0.0 0.0
0.033871 55.835363 0.0 0.0 0.0 0.0 0.0 0.0
64000.0 0.199666 112.961949 0.0 0.0 0.0 0.0 0.0 0.0
0.227093 -50.62885 0.0 0.0 0.0 0.0 0.0 0.0
0.42241 121.697465 0.0 0.0 0.0 0.0 0.0 0.0
0.033339 7.142165 0.0 0.0 0.0 0.0 0.0 0.0
65000.0 0.19389 64.532301 0.0 0.0 0.0 0.0 0.0 0.0
0.221226 -98.91373 0.0 0.0 0.0 0.0 0.0 0.0
0.410811 73.358138 0.0 0.0 0.0 0.0 0.0 0.0
0.032798 -41.545246 0.0 0.0 0.0 0.0 0.0 0.0
66000.0 0.188189 16.111632 0.0 0.0 0.0 0.0 0.0 0.0
0.215417 -147.190806 0.0 0.0 0.0 0.0 0.0 0.0
0.399349 25.027634 0.0 0.0 0.0 0.0 0.0 0.0
0.032249 -90.227337 0.0 0.0 0.0 0.0 0.0 0.0
67000.0 0.182565 -32.299902 0.0 0.0 0.0 0.0 0.0 0.0
0.209669 164.540059 0.0 0.0 0.0 0.0 0.0 0.0
0.388026 -23.293881 0.0 0.0 0.0 0.0 0.0 0.0
0.031692 -138.904508 0.0 0.0 0.0 0.0 0.0 0.0
68000.0 0.177017 -80.702092 0.0 0.0 0.0 0.0 0.0 0.0
0.203982 116.279028 0.0 0.0 0.0 0.0 0.0 0.0
0.376845 -71.606201 0.0 0.0 0.0 0.0 0.0 0.0
0.031128 172.422906 0.0 0.0 0.0 0.0 0.0 0.0
69000.0 0.171548 -129.094684 0.0 0.0 0.0 0.0 0.0 0.0
0.19836 68.026289 0.0 0.0 0.0 0.0 0.0 0.0
0.365809 -119.909087 0.0 0.0 0.0 0.0 0.0 0.0
0.030556 123.754649 0.0 0.0 0.0 0.0 0.0 0.0
70000.0 0.16616 -177.477375 0.0 0.0 0.0 0.0 0.0 0.0
0.192803 19.78205 0.0 0.0 0.0 0.0 0.0 0.0
0.354922 -168.202269 0.0 0.0 0.0 0.0 0.0 0.0
0.029979 75.090541 0.0 0.0 0.0 0.0 0.0 0.0
71000.0 0.160853 134.150176 0.0 0.0 0.0 0.0 0.0 0.0
0.187315 -28.453462 0.0 0.0 0.0 0.0 0.0 0.0
0.344186 143.514549 0.0 0.0 0.0 0.0 0.0 0.0
0.029396 26.430484 0.0 0.0 0.0 0.0 0.0 0.0
72000.0 0.155628 85.788346 0.0 0.0 0.0 0.0 0.0 0.0
0.181895 -76.680005 0.0 0.0 0.0 0.0 0.0 0.0
0.333605 95.241686 0.0 0.0 0.0 0.0 0.0 0.0
0.028809 -22.225534 0.0 0.0 0.0 0.0 0.0 0.0
73000.0 0.150489 37.437542 0.0 0.0 0.0 0.0 0.0 0.0
0.176547 -124.897323 0.0 0.0 0.0 0.0 0.0 0.0
0.323183 46.979481 0.0 0.0 0.0 0.0 0.0 0.0
0.028216 -70.877439 0.0 0.0 0.0 0.0 0.0 0.0
74000.0 0.145436 -10.901806 0.0 0.0 0.0 0.0 0.0 0.0
0.171273 -173.105147 0.0 0.0 0.0 0.0 0.0 0.0
0.312923 -1.271715 0.0 0.0 0.0 0.0 0.0 0.0
0.02762 -119.52507 0.0 0.0 0.0 0.0 0.0 0.0
75000.0 0.140472 -59.22925 0.0 0.0 0.0 0.0 0.0 0.0
0.166073 138.696796 0.0 0.0 0.0 0.0 0.0 0.0
0.302828 -49.51154 0.0 0.0 0.0 0.0 0.0 0.0
0.027021 -168.168181 0.0 0.0 0.0 0.0 0.0 0.0
76000.0 0.135597 -107.544329 0.0 0.0 0.0 0.0 0.0 0.0
0.160951 90.508789 0.0 0.0 0.0 0.0 0.0 0.0
0.292902 -97.739629 0.0 0.0 0.0 0.0 0.0 0.0
0.026418 143.193561 0.0 0.0 0.0 0.0 0.0 0.0
77000.0 0.130814 -155.846577 0.0 0.0 0.0 0.0 0.0 0.0
0.155907 42.331113 0.0 0.0 0.0 0.0 0.0 0.0
0.283148 -145.955616 0.0 0.0 0.0 0.0 0.0 0.0
0.025813 94.560572 0.0 0.0 0.0 0.0 0.0 0.0
78000.0 0.126124 155.864468 0.0 0.0 0.0 0.0 0.0 0.0
0.150943 -5.835944 0.0 0.0 0.0 0.0 0.0 0.0
0.27357 165.840861 0.0 0.0 0.0 0.0 0.0 0.0
0.025207 45.933349 0.0 0.0 0.0 0.0 0.0 0.0
79000.0 0.121529 107.589265 0.0 0.0 0.0 0.0 0.0 0.0
0.146061 -53.992099 0.0 0.0 0.0 0.0 0.0 0.0
0.264171 117.650157 0.0 0.0 0.0 0.0 0.0 0.0
0.024599 -2.687536 0.0 0.0 0.0 0.0 0.0 0.0
80000.0 0.117031 59.328256 0.0 0.0 0.0 0.0 0.0 0.0
0.141263 -102.13707 0.0 0.0 0.0 0.0 0.0 0.0
0.254953 69.472613 0.0 0.0 0.0 0.0 0.0 0.0
0.023991 -51.301436 0.0 0.0 0.0 0.0 0.0 0.0
81000.0 0.11263 11.081866 0.0 0.0 0.0 0.0 0.0 0.0
0.13655 -150.270578 0.0 0.0 0.0 0.0 0.0 0.0
0.245919 21.308557 0.0 0.0 0.0 0.0 0.0 0.0
0.023382 -99.907637 0.0 0.0 0.0 0.0 0.0 0.0
82000.0 0.108329 -37.149506 0.0 0.0 0.0 0.0 0.0 0.0
0.131922 161.607651 0.0 0.0 0.0 0.0 0.0 0.0
0.237071 -26.841699 0.0 0.0 0.0 0.0 0.0 0.0
0.022774 -148.505364 0.0 0.0 0.0 0.0 0.0 0.0
83000.0 0.104128 -85.365489 0.0 0.0 0.0 0.0 0.0 0.0
0.127382 113.497887 0.0 0.0 0.0 0.0 0.0 0.0
0.228412 -74.977867 0.0 0.0 0.0 0.0 0.0 0.0
0.022167 162.906219 0.0 0.0 0.0 0.0 0.0 0.0
84000.0 0.100028 -133.565742 0.0 0.0 0.0 0.0 0.0 0.0
0.12293 65.400397 0.0 0.0 0.0 0.0 0.0 0.0
0.219944 -123.099674 0.0 0.0 0.0 0.0 0.0 0.0
0.021562 114.327996 0.0 0.0 0.0 0.0 0.0 0.0
85000.0 0.09603 178.250036 0.0 0.0 0.0 0.0 0.0 0.0
0.118568 17.315443 0.0 0.0 0.0 0.0 0.0 0.0
0.211668 -171.206871 0.0 0.0 0.0 0.0 0.0 0.0
0.020959 65.760896 0.0 0.0 0.0 0.0 0.0 0.0
86000.0 0.092135 130.082113 0.0 0.0 0.0 0.0 0.0 0.0
0.114295 -30.756713 0.0 0.0 0.0 0.0 0.0 0.0
0.203584 140.700771 0.0 0.0 0.0 0.0 0.0 0.0
0.020359 17.205888 0.0 0.0 0.0 0.0 0.0 0.0
87000.0 0.088342 81.930716 0.0 0.0 0.0 0.0 0.0 0.0
0.110113 -78.815809 0.0 0.0 0.0 0.0 0.0 0.0
0.195695 92.623464 0.0 0.0 0.0 0.0 0.0 0.0
0.019762 -31.336027 0.0 0.0 0.0 0.0 0.0 0.0
88000.0 0.084652 33.796038 0.0 0.0 0.0 0.0 0.0 0.0
0.106022 -126.86158 0.0 0.0 0.0 0.0 0.0 0.0
0.187999 44.561402 0.0 0.0 0.0 0.0 0.0 0.0
0.019169 -79.863821 0.0 0.0 0.0 0.0 0.0 0.0
89000.0 0.081066 -14.321767 0.0 0.0 0.0 0.0 0.0 0.0
0.102023 -174.893753 0.0 0.0 0.0 0.0 0.0 0.0
0.180498 -3.485234 0.0 0.0 0.0 0.0 0.0 0.0
0.018581 -128.376448 0.0 0.0 0.0 0.0 0.0 0.0
90000.0 0.077582 -62.422574 0.0 0.0 0.0 0.0 0.0 0.0
0.098114 137.087955 0.0 0.0 0.0 0.0 0.0 0.0
0.173191 -51.516269 0.0 0.0 0.0 0.0 0.0 0.0
0.017998 -176.872843 0.0 0.0 0.0 0.0 0.0 0.0
91000.0 0.0742 -110.506286 0.0 0.0 0.0 0.0 0.0 0.0
0.094298 89.083844 0.0 0.0 0.0 0.0 0.0 0.0
0.166076 -99.531532 0.0 0.0 0.0 0.0 0.0 0.0
0.017421 134.648066 0.0 0.0 0.0 0.0 0.0 0.0
92000.0 0.070919 -158.572827 0.0 0.0 0.0 0.0 0.0 0.0
0.090573 41.094233 0.0 0.0 0.0 0.0 0.0 0.0
0.159155 -147.530846 0.0 0.0 0.0 0.0 0.0 0.0
0.01685 86.187356 0.0 0.0 0.0 0.0 0.0 0.0
93000.0 0.067739 153.377867 0.0 0.0 0.0 0.0 0.0 0.0
0.086939 -6.880526 0.0 0.0 0.0 0.0 0.0 0.0
0.152424 164.485976 0.0 0.0 0.0 0.0 0.0 0.0
0.016286 37.746109 0.0 0.0 0.0 0.0 0.0 0.0
94000.0 0.064659 105.345857 0.0 0.0 0.0 0.0 0.0 0.0
0.083396 -54.840051 0.0 0.0 0.0 0.0 0.0 0.0
0.145882 116.519146 0.0 0.0 0.0 0.0 0.0 0.0
0.015729 -10.674598 0.0 0.0 0.0 0.0 0.0 0.0
95000.0 0.061676 57.331214 0.0 0.0 0.0 0.0 0.0 0.0
0.079943 -102.783915 0.0 0.0 0.0 0.0 0.0 0.0
0.139528 68.568906 0.0 0.0 0.0 0.0 0.0 0.0
0.015179 -59.073686 0.0 0.0 0.0 0.0 0.0 0.0
96000.0 0.058791 9.334031 0.0 0.0 0.0 0.0 0.0 0.0
0.076581 -150.711639 0.0 0.0 0.0 0.0 0.0 0.0
0.13336 20.635542 0.0 0.0 0.0 0.0 0.0 0.0
0.014638 -107.450083 0.0 0.0 0.0 0.0 0.0 0.0
97000.0 0.056 -38.645565 0.0 0.0 0.0 0.0 0.0 0.0
0.073307 161.377317 0.0 0.0 0.0 0.0 0.0 0.0
0.127374 -27.280606 0.0 0.0 0.0 0.0 0.0 0.0
0.014105 -155.802717 0.0 0.0 0.0 0.0 0.0 0.0
98000.0 0.053303 -86.607392 0.0 0.0 0.0 0.0 0.0 0.0
0.070122 113.483561 0.0 0.0 0.0 0.0 0.0 0.0
0.121569 -75.179129 0.0 0.0 0.0 0.0 0.0 0.0
0.013581 155.869486 0.0 0.0 0.0 0.0 0.0 0.0
99000.0 0.050699 -134.551199 0.0 0.0 0.0 0.0 0.0 0.0
0.067025 65.607788 0.0 0.0 0.0 0.0 0.0 0.0
0.115942 -123.059532 0.0 0.0 0.0 0.0 0.0 0.0
0.013066 107.567603 0.0 0.0 0.0 0.0 0.0 0.0
100000.0 0.048184 177.523357 0.0 0.0 0.0 0.0 0.0 0.0
0.064014 17.750783 0.0 0.0 0.0 0.0 0.0 0.0
0.110489 -170.921225 0.0 0.0 0.0 0.0 0.0 0.0
0.01256 59.292724 0.0 0.0 0.0 0.0 0.0 0.0
101000.0 0.0 0.0 0.0 0.0 0.0 0.0 0.0 0.0
0.0 0.0 0.0 0.0 0.0 0.0 0.0 0.0
0.0 0.0 0.0 0.0 0.0 0.0 0.0 0.0
0.0 0.0 0.0 0.0 0.0 0.0 0.0 0.0
102000.0 0.0 0.0 0.0 0.0 0.0 0.0 0.0 0.0
0.0 0.0 0.0 0.0 0.0 0.0 0.0 0.0
0.0 0.0 0.0 0.0 0.0 0.0 0.0 0.0
0.0 0.0 0.0 0.0 0.0 0.0 0.0 0.0
103000.0 0.0 0.0 0.0 0.0 0.0 0.0 0.0 0.0
0.0 0.0 0.0 0.0 0.0 0.0 0.0 0.0
0.0 0.0 0.0 0.0 0.0 0.0 0.0 0.0
0.0 0.0 0.0 0.0 0.0 0.0 0.0 0.0
104000.0 0.0 0.0 0.0 0.0 0.0 0.0 0.0 0.0
0.0 0.0 0.0 0.0 0.0 0.0 0.0 0.0
0.0 0.0 0.0 0.0 0.0 0.0 0.0 0.0
0.0 0.0 0.0 0.0 0.0 0.0 0.0 0.0
105000.0 0.0 0.0 0.0 0.0 0.0 0.0 0.0 0.0
0.0 0.0 0.0 0.0 0.0 0.0 0.0 0.0
0.0 0.0 0.0 0.0 0.0 0.0 0.0 0.0
0.0 0.0 0.0 0.0 0.0 0.0 0.0 0.0
106000.0 0.0 0.0 0.0 0.0 0.0 0.0 0.0 0.0
0.0 0.0 0.0 0.0 0.0 0.0 0.0 0.0
0.0 0.0 0.0 0.0 0.0 0.0 0.0 0.0
0.0 0.0 0.0 0.0 0.0 0.0 0.0 0.0
107000.0 0.0 0.0 0.0 0.0 0.0 0.0 0.0 0.0
0.0 0.0 0.0 0.0 0.0 0.0 0.0 0.0
0.0 0.0 0.0 0.0 0.0 0.0 0.0 0.0
0.0 0.0 0.0 0.0 0.0 0.0 0.0 0.0
108000.0 0.0 0.0 0.0 0.0 0.0 0.0 0.0 0.0
0.0 0.0 0.0 0.0 0.0 0.0 0.0 0.0
0.0 0.0 0.0 0.0 0.0 0.0 0.0 0.0
0.0 0.0 0.0 0.0 0.0 0.0 0.0 0.0
109000.0 0.0 0.0 0.0 0.0 0.0 0.0 0.0 0.0
0.0 0.0 0.0 0.0 0.0 0.0 0.0 0.0
0.0 0.0 0.0 0.0 0.0 0.0 0.0 0.0
0.0 0.0 0.0 0.0 0.0 0.0 0.0 0.0
110000.0 0.0 0.0 0.0 0.0 0.0 0.0 0.0 0.0
0.0 0.0 0.0 0.0 0.0 0.0 0.0 0.0
0.0 0.0 0.0 0.0 0.0 0.0 0.0 0.0
0.0 0.0 0.0 0.0 0.0 0.0 0.0 0.0
111000.0 0.0 0.0 0.0 0.0 0.0 0.0 0.0 0.0
