! File created by SignalIntegrity v1.1.17: Signal and Power Integrity Tools
! https://github.com/TeledyneLeCroy/SignalIntegrity
# MHz S MA R 50.0
0.0 0.0 0.0 1.0 0.0 0.0 0.0 0.0 0.0
1.0 0.0 0.0 0.0 0.0 0.0 0.0 0.0
0.0 0.0 0.0 0.0 0.0 0.0 1.0 0.0
0.0 0.0 0.0 0.0 1.0 0.0 0.0 0.0
1000.0 0.006435718 162.800315 0.993935544 -1.11235131 0.0 0.0 0.0 0.0
0.993935544 -1.11235131 0.0061570793 163.659648 0.0 0.0 0.0 0.0
0.0 0.0 0.0 0.0 0.006435718 162.800315 0.993935544 -1.11235131
0.0 0.0 0.0 0.0 0.993935544 -1.11235131 0.0061570793 163.659648
2000.0 0.0153721486 131.031173 0.989760034 -1.7903175 0.0 0.0 0.0 0.0
0.989760034 -1.7903175 0.0145892845 130.933141 0.0 0.0 0.0 0.0
0.0 0.0 0.0 0.0 0.0153721486 131.031173 0.989760034 -1.7903175
0.0 0.0 0.0 0.0 0.989760034 -1.7903175 0.0145892845 130.933141
3000.0 0.0242567631 117.419908 0.98813705 -2.4546384 0.0 0.0 0.0 0.0
0.98813705 -2.4546384 0.0229811968 116.654966 0.0 0.0 0.0 0.0
0.0 0.0 0.0 0.0 0.0242567631 117.419908 0.98813705 -2.4546384
0.0 0.0 0.0 0.0 0.98813705 -2.4546384 0.0229811968 116.654966
4000.0 0.0330080039 109.886393 0.987271285 -3.14429954 0.0 0.0 0.0 0.0
0.987271285 -3.14429954 0.0312544583 108.563564 0.0 0.0 0.0 0.0
0.0 0.0 0.0 0.0 0.0330080039 109.886393 0.987271285 -3.14429954
0.0 0.0 0.0 0.0 0.987271285 -3.14429954 0.0312544583 108.563564
5000.0 0.0416900437 105.019564 0.986627474 -3.85158887 0.0 0.0 0.0 0.0
0.986627474 -3.85158887 0.0394675421 103.186667 0.0 0.0 0.0 0.0
0.0 0.0 0.0 0.0 0.0416900437 105.019564 0.986627474 -3.85158887
0.0 0.0 0.0 0.0 0.986627474 -3.85158887 0.0394675421 103.186667
6000.0 0.0503408276 101.539166 0.98602947 -4.57026093 0.0 0.0 0.0 0.0
0.98602947 -4.57026093 0.0476553203 99.220808 0.0 0.0 0.0 0.0
0.0 0.0 0.0 0.0 0.0503408276 101.539166 0.98602947 -4.57026093
0.0 0.0 0.0 0.0 0.98602947 -4.57026093 0.0476553203 99.220808
7000.0 0.0589804921 98.8657699 0.985407053 -5.29671238 0.0 0.0 0.0 0.0
0.985407053 -5.29671238 0.0558363414 96.0761307 0.0 0.0 0.0 0.0
0.0 0.0 0.0 0.0 0.0589804921 98.8657699 0.985407053 -5.29671238
0.0 0.0 0.0 0.0 0.985407053 -5.29671238 0.0558363414 96.0761307
8000.0 0.0676200685 96.7011947 0.984727473 -6.02885075 0.0 0.0 0.0 0.0
0.984727473 -6.02885075 0.0640207601 93.4491868 0.0 0.0 0.0 0.0
0.0 0.0 0.0 0.0 0.0676200685 96.7011947 0.984727473 -6.02885075
0.0 0.0 0.0 0.0 0.984727473 -6.02885075 0.0640207601 93.4491868
9000.0 0.0762658947 94.8770983 0.983973544 -6.7654051 0.0 0.0 0.0 0.0
0.983973544 -6.7654051 0.0722143988 91.1687444 0.0 0.0 0.0 0.0
0.0 0.0 0.0 0.0 0.0762658947 94.8770983 0.983973544 -6.7654051
0.0 0.0 0.0 0.0 0.983973544 -6.7654051 0.0722143988 91.1687444
10000.0 0.0849218235 93.2915569 0.983135424 -7.50557089 0.0 0.0 0.0 0.0
0.983135424 -7.50557089 0.0804207972 89.1311997 0.0 0.0 0.0 0.0
0.0 0.0 0.0 0.0 0.0849218235 93.2915569 0.983135424 -7.50557089
0.0 0.0 0.0 0.0 0.983135424 -7.50557089 0.0804207972 89.1311997
11000.0 0.0935903731 91.8793814 0.982207089 -8.24882461 0.0 0.0 0.0 0.0
0.982207089 -8.24882461 0.0886422862 87.2703439 0.0 0.0 0.0 0.0
0.0 0.0 0.0 0.0 0.0935903731 91.8793814 0.982207089 -8.24882461
0.0 0.0 0.0 0.0 0.982207089 -8.24882461 0.0886422862 87.2703439
12000.0 0.102273345 90.5969851 0.98118463 -8.99482184 0.0 0.0 0.0 0.0
0.98118463 -8.99482184 0.0968805639 85.5419503 0.0 0.0 0.0 0.0
0.0 0.0 0.0 0.0 0.102273345 90.5969851 0.98118463 -8.99482184
0.0 0.0 0.0 0.0 0.98118463 -8.99482184 0.0968805639 85.5419503
13000.0 0.110972157 89.41413 0.980065361 -9.74333786 0.0 0.0 0.0 0.0
0.980065361 -9.74333786 0.105137007 83.9153687 0.0 0.0 0.0 0.0
0.0 0.0 0.0 0.0 0.110972157 89.41413 0.980065361 -9.74333786
0.0 0.0 0.0 0.0 0.980065361 -9.74333786 0.105137007 83.9153687
14000.0 0.119688029 88.3091729 0.978847304 -10.4942309 0.0 0.0 0.0 0.0
0.978847304 -10.4942309 0.113412833 82.3686858 0.0 0.0 0.0 0.0
0.0 0.0 0.0 0.0 0.119688029 88.3091729 0.978847304 -10.4942309
0.0 0.0 0.0 0.0 0.978847304 -10.4942309 0.113412833 82.3686858
15000.0 0.128422067 87.2662003 0.977528893 -11.2474181 0.0 0.0 0.0 0.0
0.977528893 -11.2474181 0.12170919 80.885809 0.0 0.0 0.0 0.0
0.0 0.0 0.0 0.0 0.128422067 87.2662003 0.977528893 -11.2474181
0.0 0.0 0.0 0.0 0.977528893 -11.2474181 0.12170919 80.885809
16000.0 0.13717532 86.2732351 0.976108781 -12.0028595 0.0 0.0 0.0 0.0
0.976108781 -12.0028595 0.130027186 79.4546421 0.0 0.0 0.0 0.0
0.0 0.0 0.0 0.0 0.13717532 86.2732351 0.976108781 -12.0028595
0.0 0.0 0.0 0.0 0.976108781 -12.0028595 0.130027186 79.4546421
17000.0 0.145948792 85.321076 0.974585733 -12.7605463 0.0 0.0 0.0 0.0
0.974585733 -12.7605463 0.138367909 78.065906 0.0 0.0 0.0 0.0
0.0 0.0 0.0 0.0 0.145948792 85.321076 0.974585733 -12.7605463
0.0 0.0 0.0 0.0 0.974585733 -12.7605463 0.138367909 78.065906
18000.0 0.15474345 84.4025251 0.972958544 -13.5204926 0.0 0.0 0.0 0.0
0.972958544 -13.5204926 0.146732428 76.7123531 0.0 0.0 0.0 0.0
0.0 0.0 0.0 0.0 0.15474345 84.4025251 0.972958544 -13.5204926
0.0 0.0 0.0 0.0 0.972958544 -13.5204926 0.146732428 76.7123531
19000.0 0.163560224 83.51186 0.971226005 -14.2827297 0.0 0.0 0.0 0.0
0.971226005 -14.2827297 0.155121783 75.388232 0.0 0.0 0.0 0.0
0.0 0.0 0.0 0.0 0.163560224 83.51186 0.971226005 -14.2827297
0.0 0.0 0.0 0.0 0.971226005 -14.2827297 0.155121783 75.388232
20000.0 0.172399997 82.6444658 0.969386866 -15.0473011 0.0 0.0 0.0 0.0
0.969386866 -15.0473011 0.163536984 74.0889135 0.0 0.0 0.0 0.0
0.0 0.0 0.0 0.0 0.172399997 82.6444658 0.969386866 -15.0473011
0.0 0.0 0.0 0.0 0.969386866 -15.0473011 0.163536984 74.0889135
21000.0 0.181263604 81.7965722 0.967439823 -15.8142594 0.0 0.0 0.0 0.0
0.967439823 -15.8142594 0.171978996 72.8106243 0.0 0.0 0.0 0.0
0.0 0.0 0.0 0.0 0.181263604 81.7965722 0.967439823 -15.8142594
0.0 0.0 0.0 0.0 0.967439823 -15.8142594 0.171978996 72.8106243
22000.0 0.19015182 80.9650625 0.965383512 -16.5836635 0.0 0.0 0.0 0.0
0.965383512 -16.5836635 0.180448735 71.5502531 0.0 0.0 0.0 0.0
0.0 0.0 0.0 0.0 0.19015182 80.9650625 0.965383512 -16.5836635
0.0 0.0 0.0 0.0 0.965383512 -16.5836635 0.180448735 71.5502531
23000.0 0.199065358 80.1473336 0.963216501 -17.3555765 0.0 0.0 0.0 0.0
0.963216501 -17.3555765 0.188947058 70.3052084 0.0 0.0 0.0 0.0
0.0 0.0 0.0 0.0 0.199065358 80.1473336 0.963216501 -17.3555765
0.0 0.0 0.0 0.0 0.963216501 -17.3555765 0.188947058 70.3052084
24000.0 0.208004856 79.3411895 0.96093729 -18.1300643 0.0 0.0 0.0 0.0
0.96093729 -18.1300643 0.197474754 69.0733114 0.0 0.0 0.0 0.0
0.0 0.0 0.0 0.0 0.208004856 79.3411895 0.96093729 -18.1300643
0.0 0.0 0.0 0.0 0.96093729 -18.1300643 0.197474754 69.0733114
25000.0 0.216970878 78.5447622 0.958544313 -18.907194 0.0 0.0 0.0 0.0
0.958544313 -18.907194 0.206032542 67.8527149 0.0 0.0 0.0 0.0
0.0 0.0 0.0 0.0 0.216970878 78.5447622 0.958544313 -18.907194
0.0 0.0 0.0 0.0 0.958544313 -18.907194 0.206032542 67.8527149
26000.0 0.225963901 77.7564494 0.956035939 -19.6870331 0.0 0.0 0.0 0.0
0.956035939 -19.6870331 0.214621059 66.6418406 0.0 0.0 0.0 0.0
0.0 0.0 0.0 0.0 0.225963901 77.7564494 0.956035939 -19.6870331
0.0 0.0 0.0 0.0 0.956035939 -19.6870331 0.214621059 66.6418406
27000.0 0.234984315 76.9748669 0.953410477 -20.4696484 0.0 0.0 0.0 0.0
0.953410477 -20.4696484 0.223240857 65.4393308 0.0 0.0 0.0 0.0
0.0 0.0 0.0 0.0 0.234984315 76.9748669 0.953410477 -20.4696484
0.0 0.0 0.0 0.0 0.953410477 -20.4696484 0.223240857 65.4393308
28000.0 0.244032417 76.1988108 0.95066618 -21.2551057 0.0 0.0 0.0 0.0
0.95066618 -21.2551057 0.231892398 64.24401 0.0 0.0 0.0 0.0
0.0 0.0 0.0 0.0 0.244032417 76.1988108 0.95066618 -21.2551057
0.0 0.0 0.0 0.0 0.95066618 -21.2551057 0.231892398 64.24401
29000.0 0.253108403 75.4272275 0.947801248 -22.0434685 0.0 0.0 0.0 0.0
0.947801248 -22.0434685 0.240576047 63.0548548 0.0 0.0 0.0 0.0
0.0 0.0 0.0 0.0 0.253108403 75.4272275 0.947801248 -22.0434685
0.0 0.0 0.0 0.0 0.947801248 -22.0434685 0.240576047 63.0548548
30000.0 0.262212366 74.6591902 0.944813834 -22.8347981 0.0 0.0 0.0 0.0
0.944813834 -22.8347981 0.24929207 61.8709695 0.0 0.0 0.0 0.0
0.0 0.0 0.0 0.0 0.262212366 74.6591902 0.944813834 -22.8347981
0.0 0.0 0.0 0.0 0.944813834 -22.8347981 0.24929207 61.8709695
31000.0 0.271344291 73.893879 0.941702049 -23.6291528 0.0 0.0 0.0 0.0
0.941702049 -23.6291528 0.258040623 60.6915663 0.0 0.0 0.0 0.0
0.0 0.0 0.0 0.0 0.271344291 73.893879 0.941702049 -23.6291528
0.0 0.0 0.0 0.0 0.941702049 -23.6291528 0.258040623 60.6915663
32000.0 0.28050405 73.1305659 0.938463969 -24.4265875 0.0 0.0 0.0 0.0
0.938463969 -24.4265875 0.266821756 59.5159499 0.0 0.0 0.0 0.0
0.0 0.0 0.0 0.0 0.28050405 73.1305659 0.938463969 -24.4265875
0.0 0.0 0.0 0.0 0.938463969 -24.4265875 0.266821756 59.5159499
33000.0 0.289691396 72.3686014 0.935097636 -25.2271532 0.0 0.0 0.0 0.0
0.935097636 -25.2271532 0.275635403 58.343504 0.0 0.0 0.0 0.0
0.0 0.0 0.0 0.0 0.289691396 72.3686014 0.935097636 -25.2271532
0.0 0.0 0.0 0.0 0.935097636 -25.2271532 0.275635403 58.343504
34000.0 0.298905964 71.6074043 0.931601071 -26.0308969 0.0 0.0 0.0 0.0
0.931601071 -26.0308969 0.284481376 57.1736809 0.0 0.0 0.0 0.0
0.0 0.0 0.0 0.0 0.298905964 71.6074043 0.931601071 -26.0308969
0.0 0.0 0.0 0.0 0.931601071 -26.0308969 0.284481376 57.1736809
35000.0 0.308147262 70.8464528 0.927972275 -26.8378609 0.0 0.0 0.0 0.0
0.927972275 -26.8378609 0.293359367 56.0059925 0.0 0.0 0.0 0.0
0.0 0.0 0.0 0.0 0.308147262 70.8464528 0.927972275 -26.8378609
0.0 0.0 0.0 0.0 0.927972275 -26.8378609 0.293359367 56.0059925
36000.0 0.317414668 70.0852773 0.924209236 -27.6480828 0.0 0.0 0.0 0.0
0.924209236 -27.6480828 0.30226894 54.8400027 0.0 0.0 0.0 0.0
0.0 0.0 0.0 0.0 0.317414668 70.0852773 0.924209236 -27.6480828
0.0 0.0 0.0 0.0 0.924209236 -27.6480828 0.30226894 54.8400027
37000.0 0.326707429 69.3234545 0.920309937 -28.4615949 0.0 0.0 0.0 0.0
0.920309937 -28.4615949 0.311209526 53.6753219 0.0 0.0 0.0 0.0
0.0 0.0 0.0 0.0 0.326707429 69.3234545 0.920309937 -28.4615949
0.0 0.0 0.0 0.0 0.920309937 -28.4615949 0.311209526 53.6753219
38000.0 0.336024653 68.5606023 0.916272366 -29.278424 0.0 0.0 0.0 0.0
0.916272366 -29.278424 0.320180424 52.5116011 0.0 0.0 0.0 0.0
0.0 0.0 0.0 0.0 0.336024653 68.5606023 0.916272366 -29.278424
0.0 0.0 0.0 0.0 0.916272366 -29.278424 0.320180424 52.5116011
39000.0 0.345365311 67.796375 0.912094516 -30.0985908 0.0 0.0 0.0 0.0
0.912094516 -30.0985908 0.329180791 51.3485278 0.0 0.0 0.0 0.0
0.0 0.0 0.0 0.0 0.345365311 67.796375 0.912094516 -30.0985908
0.0 0.0 0.0 0.0 0.912094516 -30.0985908 0.329180791 51.3485278
40000.0 0.354728227 67.0304607 0.907774399 -30.9221102 0.0 0.0 0.0 0.0
0.907774399 -30.9221102 0.338209644 50.1858227 0.0 0.0 0.0 0.0
0.0 0.0 0.0 0.0 0.354728227 67.0304607 0.907774399 -30.9221102
0.0 0.0 0.0 0.0 0.907774399 -30.9221102 0.338209644 50.1858227
41000.0 0.364112084 66.2625773 0.903310053 -31.7489904 0.0 0.0 0.0 0.0
0.903310053 -31.7489904 0.347265855 49.0232359 0.0 0.0 0.0 0.0
0.0 0.0 0.0 0.0 0.364112084 66.2625773 0.903310053 -31.7489904
0.0 0.0 0.0 0.0 0.903310053 -31.7489904 0.347265855 49.0232359
42000.0 0.373515411 65.4924705 0.898699547 -32.5792327 0.0 0.0 0.0 0.0
0.898699547 -32.5792327 0.356348148 47.8605449 0.0 0.0 0.0 0.0
0.0 0.0 0.0 0.0 0.373515411 65.4924705 0.898699547 -32.5792327
0.0 0.0 0.0 0.0 0.898699547 -32.5792327 0.356348148 47.8605449
43000.0 0.38293659 64.7199112 0.893940992 -33.4128314 0.0 0.0 0.0 0.0
0.893940992 -33.4128314 0.365455095 46.697552 0.0 0.0 0.0 0.0
0.0 0.0 0.0 0.0 0.38293659 64.7199112 0.893940992 -33.4128314
0.0 0.0 0.0 0.0 0.893940992 -33.4128314 0.365455095 46.697552
44000.0 0.392373848 63.9446939 0.88903255 -34.2497734 0.0 0.0 0.0 0.0
0.88903255 -34.2497734 0.374585118 45.5340823 0.0 0.0 0.0 0.0
0.0 0.0 0.0 0.0 0.392373848 63.9446939 0.88903255 -34.2497734
0.0 0.0 0.0 0.0 0.88903255 -34.2497734 0.374585118 45.5340823
45000.0 0.401825257 63.1666353 0.883972442 -35.0900377 0.0 0.0 0.0 0.0
0.883972442 -35.0900377 0.383736481 44.3699823 0.0 0.0 0.0 0.0
0.0 0.0 0.0 0.0 0.401825257 63.1666353 0.883972442 -35.0900377
0.0 0.0 0.0 0.0 0.883972442 -35.0900377 0.383736481 44.3699823
46000.0 0.411288734 62.3855722 0.878758958 -35.9335955 0.0 0.0 0.0 0.0
0.878758958 -35.9335955 0.392907295 43.2051186 0.0 0.0 0.0 0.0
0.0 0.0 0.0 0.0 0.411288734 62.3855722 0.878758958 -35.9335955
0.0 0.0 0.0 0.0 0.878758958 -35.9335955 0.392907295 43.2051186
47000.0 0.420762039 61.601361 0.873390467 -36.7804095 0.0 0.0 0.0 0.0
0.873390467 -36.7804095 0.40209551 42.0393762 0.0 0.0 0.0 0.0
0.0 0.0 0.0 0.0 0.420762039 61.601361 0.873390467 -36.7804095
0.0 0.0 0.0 0.0 0.873390467 -36.7804095 0.40209551 42.0393762
48000.0 0.430242774 60.8138766 0.867865425 -37.6304337 0.0 0.0 0.0 0.0
0.867865425 -37.6304337 0.411298921 40.8726579 0.0 0.0 0.0 0.0
0.0 0.0 0.0 0.0 0.430242774 60.8138766 0.867865425 -37.6304337
0.0 0.0 0.0 0.0 0.867865425 -37.6304337 0.411298921 40.8726579
49000.0 0.439728384 60.0230111 0.862182385 -38.4836132 0.0 0.0 0.0 0.0
0.862182385 -38.4836132 0.420515162 39.7048833 0.0 0.0 0.0 0.0
0.0 0.0 0.0 0.0 0.439728384 60.0230111 0.862182385 -38.4836132
0.0 0.0 0.0 0.0 0.862182385 -38.4836132 0.420515162 39.7048833
50000.0 0.449216158 59.2286735 0.856340011 -39.3398839 0.0 0.0 0.0 0.0
0.856340011 -39.3398839 0.429741711 38.5359879 0.0 0.0 0.0 0.0
0.0 0.0 0.0 0.0 0.449216158 59.2286735 0.856340011 -39.3398839
0.0 0.0 0.0 0.0 0.856340011 -39.3398839 0.429741711 38.5359879
51000.0 0.45870323 58.4307888 0.850337082 -40.1991723 0.0 0.0 0.0 0.0
0.850337082 -40.1991723 0.438975887 37.3659226 0.0 0.0 0.0 0.0
0.0 0.0 0.0 0.0 0.45870323 58.4307888 0.850337082 -40.1991723
0.0 0.0 0.0 0.0 0.850337082 -40.1991723 0.438975887 37.3659226
52000.0 0.46818658 57.6292976 0.844172509 -41.0613948 0.0 0.0 0.0 0.0
0.844172509 -41.0613948 0.448214855 36.194653 0.0 0.0 0.0 0.0
0.0 0.0 0.0 0.0 0.46818658 57.6292976 0.844172509 -41.0613948
0.0 0.0 0.0 0.0 0.844172509 -41.0613948 0.448214855 36.194653
53000.0 0.477663038 56.8241555 0.837845338 -41.9264581 0.0 0.0 0.0 0.0
0.837845338 -41.9264581 0.457455625 35.0221589 0.0 0.0 0.0 0.0
0.0 0.0 0.0 0.0 0.477663038 56.8241555 0.837845338 -41.9264581
0.0 0.0 0.0 0.0 0.837845338 -41.9264581 0.457455625 35.0221589
54000.0 0.487129286 56.0153326 0.831354768 -42.7942584 0.0 0.0 0.0 0.0
0.831354768 -42.7942584 0.466695056 33.8484339 0.0 0.0 0.0 0.0
0.0 0.0 0.0 0.0 0.487129286 56.0153326 0.831354768 -42.7942584
0.0 0.0 0.0 0.0 0.831354768 -42.7942584 0.466695056 33.8484339
55000.0 0.496581861 55.2028131 0.824700153 -43.6646811 0.0 0.0 0.0 0.0
0.824700153 -43.6646811 0.475929858 32.6734849 0.0 0.0 0.0 0.0
0.0 0.0 0.0 0.0 0.496581861 55.2028131 0.824700153 -43.6646811
0.0 0.0 0.0 0.0 0.824700153 -43.6646811 0.475929858 32.6734849
56000.0 0.506017162 54.3865953 0.81788102 -44.5376012 0.0 0.0 0.0 0.0
0.81788102 -44.5376012 0.4851566 31.4973319 0.0 0.0 0.0 0.0
0.0 0.0 0.0 0.0 0.506017162 54.3865953 0.81788102 -44.5376012
0.0 0.0 0.0 0.0 0.81788102 -44.5376012 0.4851566 31.4973319
57000.0 0.515431452 53.5666905 0.810897072 -45.4128825 0.0 0.0 0.0 0.0
0.810897072 -45.4128825 0.494371709 30.3200075 0.0 0.0 0.0 0.0
0.0 0.0 0.0 0.0 0.515431452 53.5666905 0.810897072 -45.4128825
0.0 0.0 0.0 0.0 0.810897072 -45.4128825 0.494371709 30.3200075
58000.0 0.524820869 52.7431235 0.803748205 -46.2903773 0.0 0.0 0.0 0.0
0.803748205 -46.2903773 0.503571481 29.1415565 0.0 0.0 0.0 0.0
0.0 0.0 0.0 0.0 0.524820869 52.7431235 0.803748205 -46.2903773
0.0 0.0 0.0 0.0 0.803748205 -46.2903773 0.503571481 29.1415565
59000.0 0.534181427 51.9159319 0.796434508 -47.1699267 0.0 0.0 0.0 0.0
0.796434508 -47.1699267 0.512752083 27.962036 0.0 0.0 0.0 0.0
0.0 0.0 0.0 0.0 0.534181427 51.9159319 0.796434508 -47.1699267
0.0 0.0 0.0 0.0 0.796434508 -47.1699267 0.512752083 27.962036
60000.0 0.543509026 51.0851657 0.78895628 -48.05136 0.0 0.0 0.0 0.0
0.78895628 -48.05136 0.521909561 26.7815145 0.0 0.0 0.0 0.0
0.0 0.0 0.0 0.0 0.543509026 51.0851657 0.78895628 -48.05136
0.0 0.0 0.0 0.0 0.78895628 -48.05136 0.521909561 26.7815145
61000.0 0.552799461 50.2508875 0.781314035 -48.9344947 0.0 0.0 0.0 0.0
0.781314035 -48.9344947 0.531039849 25.6000722 0.0 0.0 0.0 0.0
0.0 0.0 0.0 0.0 0.552799461 50.2508875 0.781314035 -48.9344947
0.0 0.0 0.0 0.0 0.781314035 -48.9344947 0.531039849 25.6000722
62000.0 0.56204843 49.4131715 0.77350851 -49.8191362 0.0 0.0 0.0 0.0
0.77350851 -49.8191362 0.540138777 24.4178005 0.0 0.0 0.0 0.0
0.0 0.0 0.0 0.0 0.56204843 49.4131715 0.77350851 -49.8191362
0.0 0.0 0.0 0.0 0.77350851 -49.8191362 0.540138777 24.4178005
63000.0 0.571251542 48.5721039 0.765540673 -50.7050778 0.0 0.0 0.0 0.0
0.765540673 -50.7050778 0.549202078 23.2348015 0.0 0.0 0.0 0.0
0.0 0.0 0.0 0.0 0.571251542 48.5721039 0.765540673 -50.7050778
0.0 0.0 0.0 0.0 0.765540673 -50.7050778 0.549202078 23.2348015
64000.0 0.580404331 47.7277823 0.757411727 -51.5921005 0.0 0.0 0.0 0.0
0.757411727 -51.5921005 0.5582254 22.051188 0.0 0.0 0.0 0.0
0.0 0.0 0.0 0.0 0.580404331 47.7277823 0.757411727 -51.5921005
0.0 0.0 0.0 0.0 0.757411727 -51.5921005 0.5582254 22.051188
65000.0 0.589502265 46.8803151 0.749123122 -52.4799726 0.0 0.0 0.0 0.0
0.749123122 -52.4799726 0.567204317 20.8670832 0.0 0.0 0.0 0.0
0.0 0.0 0.0 0.0 0.589502265 46.8803151 0.749123122 -52.4799726
0.0 0.0 0.0 0.0 0.749123122 -52.4799726 0.567204317 20.8670832
66000.0 0.598540754 46.0298219 0.740676553 -53.3684501 0.0 0.0 0.0 0.0
0.740676553 -53.3684501 0.576134336 19.68262 0.0 0.0 0.0 0.0
0.0 0.0 0.0 0.0 0.598540754 46.0298219 0.740676553 -53.3684501
0.0 0.0 0.0 0.0 0.740676553 -53.3684501 0.576134336 19.68262
67000.0 0.607515171 45.1764325 0.732073968 -54.2572761 0.0 0.0 0.0 0.0
0.732073968 -54.2572761 0.585010913 18.4979412 0.0 0.0 0.0 0.0
0.0 0.0 0.0 0.0 0.607515171 45.1764325 0.732073968 -54.2572761
0.0 0.0 0.0 0.0 0.732073968 -54.2572761 0.585010913 18.4979412
68000.0 0.616420855 44.3202867 0.723317572 -55.1461811 0.0 0.0 0.0 0.0
0.723317572 -55.1461811 0.593829466 17.3131986 0.0 0.0 0.0 0.0
0.0 0.0 0.0 0.0 0.616420855 44.3202867 0.723317572 -55.1461811
0.0 0.0 0.0 0.0 0.723317572 -55.1461811 0.593829466 17.3131986
69000.0 0.625253131 43.4615343 0.714409827 -56.0348824 0.0 0.0 0.0 0.0
0.714409827 -56.0348824 0.60258538 16.1285532 0.0 0.0 0.0 0.0
0.0 0.0 0.0 0.0 0.625253131 43.4615343 0.714409827 -56.0348824
0.0 0.0 0.0 0.0 0.714409827 -56.0348824 0.60258538 16.1285532
70000.0 0.634007318 42.600334 0.705353456 -56.9230844 0.0 0.0 0.0 0.0
0.705353456 -56.9230844 0.611274031 14.9441744 0.0 0.0 0.0 0.0
0.0 0.0 0.0 0.0 0.634007318 42.600334 0.705353456 -56.9230844
0.0 0.0 0.0 0.0 0.705353456 -56.9230844 0.611274031 14.9441744
71000.0 0.64267875 41.7368537 0.696151439 -57.8104785 0.0 0.0 0.0 0.0
0.696151439 -57.8104785 0.61989079 13.7602396 0.0 0.0 0.0 0.0
0.0 0.0 0.0 0.0 0.64267875 41.7368537 0.696151439 -57.8104785
0.0 0.0 0.0 0.0 0.696151439 -57.8104785 0.61989079 13.7602396
72000.0 0.651262784 40.8712698 0.686807017 -58.6967428 0.0 0.0 0.0 0.0
0.686807017 -58.6967428 0.628431043 12.5769341 0.0 0.0 0.0 0.0
0.0 0.0 0.0 0.0 0.651262784 40.8712698 0.686807017 -58.6967428
0.0 0.0 0.0 0.0 0.686807017 -58.6967428 0.628431043 12.5769341
73000.0 0.659754816 40.0037664 0.677323688 -59.5815419 0.0 0.0 0.0 0.0
0.677323688 -59.5815419 0.636890202 11.3944503 0.0 0.0 0.0 0.0
0.0 0.0 0.0 0.0 0.659754816 40.0037664 0.677323688 -59.5815419
0.0 0.0 0.0 0.0 0.677323688 -59.5815419 0.636890202 11.3944503
74000.0 0.668150297 39.1345352 0.667705203 -60.4645271 0.0 0.0 0.0 0.0
0.667705203 -60.4645271 0.645263721 10.2129874 0.0 0.0 0.0 0.0
0.0 0.0 0.0 0.0 0.668150297 39.1345352 0.667705203 -60.4645271
0.0 0.0 0.0 0.0 0.667705203 -60.4645271 0.645263721 10.2129874
75000.0 0.676444746 38.2637751 0.657955562 -61.3453359 0.0 0.0 0.0 0.0
0.657955562 -61.3453359 0.653547109 9.03275073 0.0 0.0 0.0 0.0
0.0 0.0 0.0 0.0 0.676444746 38.2637751 0.657955562 -61.3453359
0.0 0.0 0.0 0.0 0.657955562 -61.3453359 0.653547109 9.03275073
76000.0 0.684633766 37.3916913 0.648079011 -62.2235921 0.0 0.0 0.0 0.0
0.648079011 -62.2235921 0.661735945 7.85395156 0.0 0.0 0.0 0.0
0.0 0.0 0.0 0.0 0.684633766 37.3916913 0.648079011 -62.2235921
0.0 0.0 0.0 0.0 0.648079011 -62.2235921 0.661735945 7.85395156
77000.0 0.692713057 36.5184949 0.638080031 -63.0989054 0.0 0.0 0.0 0.0
