! File created by SignalIntegrity v1.1.17: Signal and Power Integrity Tools
! https://github.com/TeledyneLeCroy/SignalIntegrity
# MHz S MA R 50.0
0.0 1.0 0.0 2.0 0.0 0.0 0.0 1.0 180.0
3280.8398950131236 1.0 0.0 1.994917 -158.464563 0.0 0.0 1.0 180.0
6561.679790026247 1.0 0.0 1.979799 43.099958 0.0 0.0 1.0 180.0
9842.519685039371 1.0 0.0 1.955037 -115.277755 0.0 0.0 1.0 180.0
13123.359580052494 1.0 0.0 1.921263 86.430141 0.0 0.0 1.0 180.0
16404.199475065616 1.0 0.0 1.879321 -71.749848 0.0 0.0 1.0 180.0
19685.039370078743 1.0 0.0 1.830231 130.206867 0.0 0.0 1.0 180.0
22965.879265091866 1.0 0.0 1.775141 -27.677708 0.0 0.0 1.0 180.0
26246.71916010499 1.0 0.0 1.715275 174.615113 0.0 0.0 1.0 180.0
29527.559055118112 1.0 0.0 1.651876 17.099936 0.0 0.0 1.0 180.0
32808.39895013123 1.0 0.0 1.586148 -140.213412 0.0 0.0 1.0 180.0
36089.238845144355 1.0 0.0 1.519204 62.679585 0.0 0.0 1.0 180.0
39370.078740157485 1.0 0.0 1.452016 -94.222091 0.0 0.0 1.0 180.0
42650.91863517061 1.0 0.0 1.385386 109.075199 0.0 0.0 1.0 180.0
45931.75853018373 1.0 0.0 1.319921 -47.439548 0.0 0.0 1.0 180.0
49212.598425196855 1.0 0.0 1.256038 156.219228 0.0 0.0 1.0 180.0
52493.43832020998 1.0 0.0 1.193977 0.035229 0.0 0.0 1.0 180.0
55774.2782152231 1.0 0.0 1.133835 -156.007925 0.0 0.0 1.0 180.0
59055.118110236224 1.0 0.0 1.075607 48.074971 0.0 0.0 1.0 180.0
62335.95800524935 1.0 0.0 1.019235 -107.727993 0.0 0.0 1.0 180.0
65616.79790026246 1.0 0.0 0.964646 96.57486 0.0 0.0 1.0 180.0
68897.63779527559 1.0 0.0 0.911792 -59.021207 0.0 0.0 1.0 180.0
72178.47769028871 1.0 0.0 0.860667 145.481945 0.0 0.0 1.0 180.0
75459.31758530183 1.0 0.0 0.811317 -9.915954 0.0 0.0 1.0 180.0
78740.15748031497 1.0 0.0 0.763828 -165.21524 0.0 0.0 1.0 180.0
82020.9973753281 1.0 0.0 0.718311 39.581944 0.0 0.0 1.0 180.0
85301.83727034122 1.0 0.0 0.67488 -115.529867 0.0 0.0 1.0 180.0
88582.67716535434 1.0 0.0 0.633622 89.43959 0.0 0.0 1.0 180.0
91863.51706036746 1.0 0.0 0.59458 -65.52384 0.0 0.0 1.0 180.0
95144.35695538059 1.0 0.0 0.55774 139.562087 0.0 0.0 1.0 180.0
98425.19685039371 1.0 0.0 0.523029 -15.322276 0.0 0.0 1.0 180.0
101706.03674540683 1.0 0.0 0.490324 -170.196129 0.0 0.0 1.0 180.0
104986.87664041996 1.0 0.0 0.459473 34.924294 0.0 0.0 1.0 180.0
108267.71653543308 1.0 0.0 0.430311 -119.972083 0.0 0.0 1.0 180.0
111548.5564304462 1.0 0.0 0.402689 85.110225 0.0 0.0 1.0 180.0
114829.39632545933 1.0 0.0 0.376486 -69.826411 0.0 0.0 1.0 180.0
118110.23622047245 1.0 0.0 0.351622 135.226418 0.0 0.0 1.0 180.0
121391.07611548557 1.0 0.0 0.328056 -19.718741 0.0 0.0 1.0 180.0
124671.9160104987 1.0 0.0 0.305786 -174.647907 0.0 0.0 1.0 180.0
127952.7559055118 1.0 0.0 0.284829 30.451226 0.0 0.0 1.0 180.0
131233.59580052493 1.0 0.0 0.265209 -124.413729 0.0 0.0 1.0 180.0
134514.43569553806 1.0 0.0 0.246938 80.757781 0.0 0.0 1.0 180.0
137795.27559055117 1.0 0.0 0.230003 -74.041888 0.0 0.0 1.0 180.0
141076.1154855643 1.0 0.0 0.214357 131.171954 0.0 0.0 1.0 180.0
144356.95538057742 1.0 0.0 0.199916 -23.621346 0.0 0.0 1.0 180.0
147637.79527559056 1.0 0.0 0.186564 -178.444001 0.0 0.0 1.0 180.0
150918.63517060367 1.0 0.0 0.174167 26.684708 0.0 0.0 1.0 180.0
154199.4750656168 1.0 0.0 0.162586 -128.247387 0.0 0.0 1.0 180.0
157480.31496062994 1.0 0.0 0.151693 76.757609 0.0 0.0 1.0 180.0
160761.15485564308 1.0 0.0 0.141386 -78.291265 0.0 0.0 1.0 180.0
164041.9947506562 1.0 0.0 0.131593 126.625192 0.0 0.0 1.0 180.0
167322.83464566933 1.0 0.0 0.122279 -28.46655 0.0 0.0 1.0 180.0
170603.67454068243 1.0 0.0 0.113441 176.462778 0.0 0.0 1.0 180.0
173884.51443569554 1.0 0.0 0.1051 21.439718 0.0 0.0 1.0 180.0
177165.35433070868 1.0 0.0 0.097289 -133.517866 0.0 0.0 1.0 180.0
180446.1942257218 1.0 0.0 0.09004 71.593776 0.0 0.0 1.0 180.0
183727.03412073493 1.0 0.0 0.083374 -83.239388 0.0 0.0 1.0 180.0
187007.87401574804 1.0 0.0 0.07729 121.950268 0.0 0.0 1.0 180.0
190288.71391076117 1.0 0.0 0.071759 -32.884429 0.0 0.0 1.0 180.0
193569.55380577428 1.0 0.0 0.06673 172.202106 0.0 0.0 1.0 180.0
196850.39370078742 1.0 0.0 0.062132 17.158341 0.0 0.0 1.0 180.0
200131.23359580053 1.0 0.0 0.057886 -138.054179 0.0 0.0 1.0 180.0
203412.07349081367 1.0 0.0 0.053917 66.546935 0.0 0.0 1.0 180.0
206692.91338582677 1.0 0.0 0.050163 -89.03132 0.0 0.0 1.0 180.0
209973.7532808399 1.0 0.0 0.046583 115.242165 0.0 0.0 1.0 180.0
213254.59317585302 1.0 0.0 0.043158 -40.581561 0.0 0.0 1.0 180.0
216535.43307086616 1.0 0.0 0.03989 163.561489 0.0 0.0 1.0 180.0
219816.27296587927 1.0 0.0 0.0368 7.738954 0.0 0.0 1.0 180.0
223097.1128608924 1.0 0.0 0.033919 -147.989096 0.0 0.0 1.0 180.0
226377.9527559055 1.0 0.0 0.031279 56.417348 0.0 0.0 1.0 180.0
229658.79265091865 1.0 0.0 0.02891 -99.033705 0.0 0.0 1.0 180.0
232939.63254593176 1.0 0.0 0.026827 105.625894 0.0 0.0 1.0 180.0
236220.4724409449 1.0 0.0 0.025027 -49.674772 0.0 0.0 1.0 180.0
239501.312335958 1.0 0.0 0.02349 154.966816 0.0 0.0 1.0 180.0
242782.15223097114 1.0 0.0 0.022173 -0.550716 0.0 0.0 1.0 180.0
246062.99212598425 1.0 0.0 0.021026 -156.30669 0.0 0.0 1.0 180.0
249343.8320209974 1.0 0.0 0.019993 47.662114 0.0 0.0 1.0 180.0
252624.6719160105 1.0 0.0 0.019023 -108.628991 0.0 0.0 1.0 180.0
255905.5118110236 1.0 0.0 0.018075 94.886041 0.0 0.0 1.0 180.0
259186.35170603674 1.0 0.0 0.017121 -61.684684 0.0 0.0 1.0 180.0
262467.19160104985 1.0 0.0 0.01615 141.796891 0.0 0.0 1.0 180.0
265748.031496063 1.0 0.0 0.015167 -14.515046 0.0 0.0 1.0 180.0
269028.8713910761 1.0 0.0 0.014187 -170.466503 0.0 0.0 1.0 180.0
272309.71128608927 1.0 0.0 0.01324 34.075015 0.0 0.0 1.0 180.0
275590.55118110235 1.0 0.0 0.012356 -120.807612 0.0 0.0 1.0 180.0
278871.3910761155 1.0 0.0 0.011569 84.886766 0.0 0.0 1.0 180.0
282152.2309711286 1.0 0.0 0.0109 -68.946591 0.0 0.0 1.0 180.0
285433.0708661417 1.0 0.0 0.010354 137.485034 0.0 0.0 1.0 180.0
288713.91076115484 1.0 0.0 0.009916 -16.084255 0.0 0.0 1.0 180.0
291994.750656168 1.0 0.0 0.009552 -169.90647 0.0 0.0 1.0 180.0
295275.5905511811 1.0 0.0 0.009217 35.846747 0.0 0.0 1.0 180.0
298556.4304461942 1.0 0.0 0.008867 -118.884095 0.0 0.0 1.0 180.0
301837.27034120733 1.0 0.0 0.008465 85.949452 0.0 0.0 1.0 180.0
305118.11023622047 1.0 0.0 0.00799 -69.518168 0.0 0.0 1.0 180.0
308398.9501312336 1.0 0.0 0.007435 134.911949 0.0 0.0 1.0 180.0
311679.7900262467 1.0 0.0 0.006812 -20.510014 0.0 0.0 1.0 180.0
314960.6299212599 1.0 0.0 0.006147 -175.489928 0.0 0.0 1.0 180.0
318241.469816273 1.0 0.0 0.005476 30.296639 0.0 0.0 1.0 180.0
321522.30971128616 1.0 0.0 0.004842 -122.83984 0.0 0.0 1.0 180.0
324803.14960629924 1.0 0.0 0.004288 85.288291 0.0 0.0 1.0 180.0
328083.9895013124 1.0 0.0 0.00385 -65.434323 0.0 0.0 1.0 180.0
331364.8293963255 1.0 0.0 0.003542 144.432316 0.0 0.0 1.0 180.0
334645.66929133865 1.0 0.0 0.003347 -5.996642 0.0 0.0 1.0 180.0
337926.50918635173 1.0 0.0 0.003226 -157.524762 0.0 0.0 1.0 180.0
341207.34908136487 1.0 0.0 0.00313 49.467082 0.0 0.0 1.0 180.0
344488.188976378 1.0 0.0 0.003015 -104.957568 0.0 0.0 1.0 180.0
347769.0288713911 1.0 0.0 0.002851 99.546348 0.0 0.0 1.0 180.0
351049.8687664042 1.0 0.0 0.002627 -56.529586 0.0 0.0 1.0 180.0
354330.70866141736 1.0 0.0 0.00234 147.423497 0.0 0.0 1.0 180.0
357611.5485564305 1.0 0.0 0.002004 -7.782857 0.0 0.0 1.0 180.0
360892.3884514436 1.0 0.0 0.001641 -160.903843 0.0 0.0 1.0 180.0
364173.2283464567 1.0 0.0 0.001291 50.148377 0.0 0.0 1.0 180.0
367454.06824146985 1.0 0.0 0.001019 -91.680735 0.0 0.0 1.0 180.0
370734.908136483 1.0 0.0 0.000907 133.655019 0.0 0.0 1.0 180.0
374015.74803149607 1.0 0.0 0.000976 -2.353719 0.0 0.0 1.0 180.0
377296.5879265092 1.0 0.0 0.001138 -146.135604 0.0 0.0 1.0 180.0
380577.42782152235 1.0 0.0 0.001298 63.91307 0.0 0.0 1.0 180.0
383858.2677165355 1.0 0.0 0.001402 -89.321808 0.0 0.0 1.0 180.0
387139.10761154856 1.0 0.0 0.001428 116.112755 0.0 0.0 1.0 180.0
390419.9475065617 1.0 0.0 0.00137 -38.38316 0.0 0.0 1.0 180.0
393700.78740157484 1.0 0.0 0.001241 168.594721 0.0 0.0 1.0 180.0
396981.627296588 1.0 0.0 0.001068 18.979566 0.0 0.0 1.0 180.0
400262.46719160106 1.0 0.0 0.000906 -124.57519 0.0 0.0 1.0 180.0
403543.3070866142 1.0 0.0 0.000837 98.778485 0.0 0.0 1.0 180.0
406824.14698162733 1.0 0.0 0.000921 -37.47418 0.0 0.0 1.0 180.0
410104.98687664047 1.0 0.0 0.001122 179.373659 0.0 0.0 1.0 180.0
413385.82677165355 1.0 0.0 0.001364 29.517054 0.0 0.0 1.0 180.0
416666.6666666667 1.0 0.0 0.001592 -124.459009 0.0 0.0 1.0 180.0
419947.5065616798 1.0 0.0 0.001775 79.304559 0.0 0.0 1.0 180.0
423228.3464566929 1.0 0.0 0.001895 -78.073845 0.0 0.0 1.0 180.0
426509.18635170604 1.0 0.0 0.001948 124.140106 0.0 0.0 1.0 180.0
429790.0262467192 1.0 0.0 0.001935 -33.474355 0.0 0.0 1.0 180.0
433070.8661417323 1.0 0.0 0.001866 169.63515 0.0 0.0 1.0 180.0
436351.7060367454 1.0 0.0 0.00176 14.054014 0.0 0.0 1.0 180.0
439632.54593175853 1.0 0.0 0.001642 -139.636221 0.0 0.0 1.0 180.0
442913.3858267717 1.0 0.0 0.001544 68.909811 0.0 0.0 1.0 180.0
446194.2257217848 1.0 0.0 0.001498 -80.666524 0.0 0.0 1.0 180.0
449475.0656167979 1.0 0.0 0.001525 130.297362 0.0 0.0 1.0 180.0
452755.905511811 1.0 0.0 0.001621 -19.877009 0.0 0.0 1.0 180.0
456036.74540682416 1.0 0.0 0.001762 -172.160011 0.0 0.0 1.0 180.0
459317.5853018373 1.0 0.0 0.001916 33.412639 0.0 0.0 1.0 180.0
462598.4251968504 1.0 0.0 0.002052 -122.708471 0.0 0.0 1.0 180.0
465879.2650918635 1.0 0.0 0.002148 80.023387 0.0 0.0 1.0 180.0
469160.10498687666 1.0 0.0 0.002189 -77.896337 0.0 0.0 1.0 180.0
472440.9448818898 1.0 0.0 0.002166 123.966632 0.0 0.0 1.0 180.0
475721.7847769029 1.0 0.0 0.002078 -33.973831 0.0 0.0 1.0 180.0
479002.624671916 1.0 0.0 0.001932 168.735389 0.0 0.0 1.0 180.0
482283.46456692915 1.0 0.0 0.001744 12.657258 0.0 0.0 1.0 180.0
485564.3044619423 1.0 0.0 0.001534 -141.473211 0.0 0.0 1.0 180.0
488845.14435695537 1.0 0.0 0.001333 67.203328 0.0 0.0 1.0 180.0
492125.9842519685 1.0 0.0 0.001179 -80.788038 0.0 0.0 1.0 180.0
495406.82414698164 1.0 0.0 0.001103 133.652653 0.0 0.0 1.0 180.0
498687.6640419948 1.0 0.0 0.001112 -12.203076 0.0 0.0 1.0 180.0
501968.50393700786 1.0 0.0 0.001182 -160.887226 0.0 0.0 1.0 180.0
505249.343832021 1.0 0.0 0.001271 47.002591 0.0 0.0 1.0 180.0
508530.18372703413 1.0 0.0 0.001348 -107.847391 0.0 0.0 1.0 180.0
511811.0236220472 1.0 0.0 0.001392 95.512546 0.0 0.0 1.0 180.0
515091.86351706035 1.0 0.0 0.001396 -62.066944 0.0 0.0 1.0 180.0
518372.7034120735 1.0 0.0 0.001356 140.167791 0.0 0.0 1.0 180.0
521653.5433070866 1.0 0.0 0.001278 -17.026475 0.0 0.0 1.0 180.0
524934.3832020997 1.0 0.0 0.001173 -172.780842 0.0 0.0 1.0 180.0
528215.223097113 1.0 0.0 0.001059 33.929918 0.0 0.0 1.0 180.0
531496.062992126 1.0 0.0 0.000965 -115.973586 0.0 0.0 1.0 180.0
534776.9028871391 1.0 0.0 0.000922 97.337109 0.0 0.0 1.0 180.0
538057.7427821523 1.0 0.0 0.000957 -48.469362 0.0 0.0 1.0 180.0
541338.5826771654 1.0 0.0 0.001064 163.496979 0.0 0.0 1.0 180.0
544619.4225721785 1.0 0.0 0.001216 11.929088 0.0 0.0 1.0 180.0
547900.2624671917 1.0 0.0 0.00138 -142.731726 0.0 0.0 1.0 180.0
551181.1023622047 1.0 0.0 0.001529 60.428624 0.0 0.0 1.0 180.0
554461.942257218 1.0 0.0 0.001645 -97.810176 0.0 0.0 1.0 180.0
557742.782152231 1.0 0.0 0.001715 103.114747 0.0 0.0 1.0 180.0
561023.6220472441 1.0 0.0 0.001734 -56.389046 0.0 0.0 1.0 180.0
564304.4619422572 1.0 0.0 0.0017 144.002217 0.0 0.0 1.0 180.0
567585.3018372704 1.0 0.0 0.001618 -15.412981 0.0 0.0 1.0 180.0
570866.1417322834 1.0 0.0 0.001498 -174.313813 0.0 0.0 1.0 180.0
574146.9816272967 1.0 0.0 0.001353 27.679111 0.0 0.0 1.0 180.0
577427.8215223097 1.0 0.0 0.001201 -128.991418 0.0 0.0 1.0 180.0
580708.6614173229 1.0 0.0 0.00106 76.090891 0.0 0.0 1.0 180.0
583989.501312336 1.0 0.0 0.00095 -76.973498 0.0 0.0 1.0 180.0
587270.3412073491 1.0 0.0 0.000883 131.151775 0.0 0.0 1.0 180.0
590551.1811023622 1.0 0.0 0.000863 -21.029508 0.0 0.0 1.0 180.0
593832.0209973754 1.0 0.0 0.000879 -175.043339 0.0 0.0 1.0 180.0
597112.8608923884 1.0 0.0 0.000914 28.415464 0.0 0.0 1.0 180.0
600393.7007874016 1.0 0.0 0.000951 -130.521458 0.0 0.0 1.0 180.0
603674.5406824147 1.0 0.0 0.000977 68.63914 0.0 0.0 1.0 180.0
606955.3805774278 1.0 0.0 0.000983 -93.586241 0.0 0.0 1.0 180.0
610236.2204724409 1.0 0.0 0.000963 103.207561 0.0 0.0 1.0 180.0
613517.0603674541 1.0 0.0 0.000912 -60.722026 0.0 0.0 1.0 180.0
616797.9002624672 1.0 0.0 0.000828 134.716885 0.0 0.0 1.0 180.0
620078.7401574804 1.0 0.0 0.000712 -30.604464 0.0 0.0 1.0 180.0
623359.5800524934 1.0 0.0 0.000569 162.767167 0.0 0.0 1.0 180.0
626640.4199475066 1.0 0.0 0.000406 -6.886814 0.0 0.0 1.0 180.0
629921.2598425198 1.0 0.0 0.000243 173.865312 0.0 0.0 1.0 180.0
633202.0997375328 1.0 0.0 0.000146 -40.58005 0.0 0.0 1.0 180.0
636482.939632546 1.0 0.0 0.00023 104.247892 0.0 0.0 1.0 180.0
639763.7795275591 1.0 0.0 0.000372 -74.646906 0.0 0.0 1.0 180.0
643044.6194225723 1.0 0.0 0.0005 116.852594 0.0 0.0 1.0 180.0
646325.4593175853 1.0 0.0 0.000598 -47.962279 0.0 0.0 1.0 180.0
649606.2992125985 1.0 0.0 0.000659 149.257317 0.0 0.0 1.0 180.0
652887.1391076116 1.0 0.0 0.000683 -11.876603 0.0 0.0 1.0 180.0
656167.9790026248 1.0 0.0 0.000676 -171.245032 0.0 0.0 1.0 180.0
659448.8188976378 1.0 0.0 0.000646 31.567609 0.0 0.0 1.0 180.0
662729.658792651 1.0 0.0 0.000609 -122.930468 0.0 0.0 1.0 180.0
666010.498687664 1.0 0.0 0.000584 85.336094 0.0 0.0 1.0 180.0
669291.3385826773 1.0 0.0 0.000589 -64.810892 0.0 0.0 1.0 180.0
672572.1784776903 1.0 0.0 0.000633 144.261774 0.0 0.0 1.0 180.0
675853.0183727035 1.0 0.0 0.00071 -9.364216 0.0 0.0 1.0 180.0
679133.8582677166 1.0 0.0 0.000808 -166.116025 0.0 0.0 1.0 180.0
682414.6981627297 1.0 0.0 0.000914 34.530027 0.0 0.0 1.0 180.0
685695.5380577428 1.0 0.0 0.001017 -126.694486 0.0 0.0 1.0 180.0
688976.377952756 1.0 0.0 0.001109 70.840334 0.0 0.0 1.0 180.0
692257.217847769 1.0 0.0 0.001185 -92.388473 0.0 0.0 1.0 180.0
695538.0577427822 1.0 0.0 0.001238 103.968087 0.0 0.0 1.0 180.0
698818.8976377953 1.0 0.0 0.001265 -59.833686 0.0 0.0 1.0 180.0
702099.7375328084 1.0 0.0 0.001262 136.401964 0.0 0.0 1.0 180.0
705380.5774278216 1.0 0.0 0.001228 -27.160489 0.0 0.0 1.0 180.0
708661.4173228347 1.0 0.0 0.001165 169.641748 0.0 0.0 1.0 180.0
711942.2572178477 1.0 0.0 0.001075 7.004121 0.0 0.0 1.0 180.0
715223.097112861 1.0 0.0 0.000963 -154.800388 0.0 0.0 1.0 180.0
718503.937007874 1.0 0.0 0.000839 44.639984 0.0 0.0 1.0 180.0
721784.7769028872 1.0 0.0 0.000712 -114.052828 0.0 0.0 1.0 180.0
725065.6167979003 1.0 0.0 0.000596 89.963141 0.0 0.0 1.0 180.0
728346.4566929134 1.0 0.0 0.000504 -62.582212 0.0 0.0 1.0 180.0
731627.2965879266 1.0 0.0 0.000451 147.816314 0.0 0.0 1.0 180.0
734908.1364829397 1.0 0.0 0.000438 -1.55377 0.0 0.0 1.0 180.0
738188.9763779527 1.0 0.0 0.000456 -153.865668 0.0 0.0 1.0 180.0
741469.816272966 1.0 0.0 0.000485 49.751971 0.0 0.0 1.0 180.0
744750.656167979 1.0 0.0 0.000511 -110.180719 0.0 0.0 1.0 180.0
748031.4960629921 1.0 0.0 0.000524 87.177632 0.0 0.0 1.0 180.0
751312.3359580053 1.0 0.0 0.000518 -77.589212 0.0 0.0 1.0 180.0
754593.1758530184 1.0 0.0 0.000491 115.716172 0.0 0.0 1.0 180.0
757874.0157480314 1.0 0.0 0.000444 -53.180515 0.0 0.0 1.0 180.0
761154.8556430447 1.0 0.0 0.000382 134.733725 0.0 0.0 1.0 180.0
764435.6955380577 1.0 0.0 0.000315 -42.726852 0.0 0.0 1.0 180.0
767716.535433071 1.0 0.0 0.000263 131.259781 0.0 0.0 1.0 180.0
770997.375328084 1.0 0.0 0.00026 -61.651841 0.0 0.0 1.0 180.0
774278.2152230971 1.0 0.0 0.000313 109.678719 0.0 0.0 1.0 180.0
777559.0551181103 1.0 0.0 0.000396 -69.965105 0.0 0.0 1.0 180.0
780839.8950131234 1.0 0.0 0.000485 116.548485 0.0 0.0 1.0 180.0
784120.7349081364 1.0 0.0 0.000562 -53.530424 0.0 0.0 1.0 180.0
787401.5748031497 1.0 0.0 0.000619 138.299748 0.0 0.0 1.0 180.0
790682.4146981627 1.0 0.0 0.000651 -28.733612 0.0 0.0 1.0 180.0
793963.254593176 1.0 0.0 0.000657 164.972117 0.0 0.0 1.0 180.0
797244.094488189 1.0 0.0 0.000638 -0.757809 0.0 0.0 1.0 180.0
800524.9343832021 1.0 0.0 0.000597 -165.921 0.0 0.0 1.0 180.0
803805.7742782152 1.0 0.0 0.000542 29.682898 0.0 0.0 1.0 180.0
807086.6141732284 1.0 0.0 0.000477 -133.472685 0.0 0.0 1.0 180.0
810367.4540682414 1.0 0.0 0.000412 65.469086 0.0 0.0 1.0 180.0
813648.2939632547 1.0 0.0 0.000354 -92.238011 0.0 0.0 1.0 180.0
816929.1338582677 1.0 0.0 0.000316 114.440155 0.0 0.0 1.0 180.0
820209.9737532809 1.0 0.0 0.00031 -35.595786 0.0 0.0 1.0 180.0
823490.813648294 1.0 0.0 0.000341 173.673097 0.0 0.0 1.0 180.0
826771.6535433071 1.0 0.0 0.000402 19.154282 0.0 0.0 1.0 180.0
830052.4934383202 1.0 0.0 0.000481 -139.233098 0.0 0.0 1.0 180.0
833333.3333333334 1.0 0.0 0.000564 59.631943 0.0 0.0 1.0 180.0
836614.1732283464 1.0 0.0 0.000643 -103.284716 0.0 0.0 1.0 180.0
839895.0131233596 1.0 0.0 0.00071 92.590413 0.0 0.0 1.0 180.0
843175.8530183728 1.0 0.0 0.000758 -72.472573 0.0 0.0 1.0 180.0
846456.6929133858 1.0 0.0 0.000785 121.594202 0.0 0.0 1.0 180.0
849737.5328083991 1.0 0.0 0.000789 -45.276853 0.0 0.0 1.0 180.0
853018.3727034121 1.0 0.0 0.000772 146.758743 0.0 0.0 1.0 180.0
856299.2125984253 1.0 0.0 0.000741 -22.485368 0.0 0.0 1.0 180.0
859580.0524934384 1.0 0.0 0.000704 166.875782 0.0 0.0 1.0 180.0
862860.8923884515 1.0 0.0 0.000669 -5.034643 0.0 0.0 1.0 180.0
866141.7322834646 1.0 0.0 0.000644 -177.689758 0.0 0.0 1.0 180.0
869422.5721784778 1.0 0.0 0.000632 9.818019 0.0 0.0 1.0 180.0
872703.4120734908 1.0 0.0 0.000629 -161.532444 0.0 0.0 1.0 180.0
875984.251968504 1.0 0.0 0.00063 28.959528 0.0 0.0 1.0 180.0
879265.0918635171 1.0 0.0 0.000628 -138.369015 0.0 0.0 1.0 180.0
882545.9317585303 1.0 0.0 0.000619 56.598388 0.0 0.0 1.0 180.0
885826.7716535433 1.0 0.0 0.000604 -106.085117 0.0 0.0 1.0 180.0
889107.6115485565 1.0 0.0 0.000587 93.604931 0.0 0.0 1.0 180.0
892388.4514435696 1.0 0.0 0.000575 -64.474255 0.0 0.0 1.0 180.0
895669.2913385828 1.0 0.0 0.000579 139.103047 0.0 0.0 1.0 180.0
898950.1312335958 1.0 0.0 0.000606 -16.779159 0.0 0.0 1.0 180.0
902230.971128609 1.0 0.0 0.00066 -173.399072 0.0 0.0 1.0 180.0
905511.811023622 1.0 0.0 0.00074 28.415139 0.0 0.0 1.0 180.0
908792.6509186353 1.0 0.0 0.000841 -131.499655 0.0 0.0 1.0 180.0
912073.4908136483 1.0 0.0 0.000958 67.134208 0.0 0.0 1.0 180.0
915354.3307086615 1.0 0.0 0.001086 -95.255553 0.0 0.0 1.0 180.0
918635.1706036746 1.0 0.0 0.001219 101.739121 0.0 0.0 1.0 180.0
921916.0104986877 1.0 0.0 0.001352 -61.555703 0.0 0.0 1.0 180.0
925196.8503937008 1.0 0.0 0.001479 135.097093 0.0 0.0 1.0 180.0
928477.690288714 1.0 0.0 0.001592 -28.139371 0.0 0.0 1.0 180.0
931758.530183727 1.0 0.0 0.001687 168.844738 0.0 0.0 1.0 180.0
935039.3700787403 1.0 0.0 0.00176 6.125462 0.0 0.0 1.0 180.0
938320.2099737533 1.0 0.0 0.001806 -156.23923 0.0 0.0 1.0 180.0
941601.0498687665 1.0 0.0 0.001827 41.801788 0.0 0.0 1.0 180.0
944881.8897637796 1.0 0.0 0.001823 -119.700649 0.0 0.0 1.0 180.0
948162.7296587927 1.0 0.0 0.001798 79.305329 0.0 0.0 1.0 180.0
951443.5695538057 1.0 0.0 0.001759 -81.132417 0.0 0.0 1.0 180.0
954724.409448819 1.0 0.0 0.001712 119.017247 0.0 0.0 1.0 180.0
958005.249343832 1.0 0.0 0.001664 -40.251411 0.0 0.0 1.0 180.0
961286.0892388452 1.0 0.0 0.001624 160.996155 0.0 0.0 1.0 180.0
964566.9291338583 1.0 0.0 0.001597 2.620417 0.0 0.0 1.0 180.0
967847.7690288714 1.0 0.0 0.001586 -155.583885 0.0 0.0 1.0 180.0
971128.6089238846 1.0 0.0 0.001592 46.148891 0.0 0.0 1.0 180.0
974409.4488188977 1.0 0.0 0.001613 -112.392877 0.0 0.0 1.0 180.0
977690.2887139107 1.0 0.0 0.001643 88.643658 0.0 0.0 1.0 180.0
980971.128608924 1.0 0.0 0.001678 -70.80998 0.0 0.0 1.0 180.0
984251.968503937 1.0 0.0 0.001709 129.244828 0.0 0.0 1.0 180.0
987532.8083989501 1.0 0.0 0.001732 -31.149938 0.0 0.0 1.0 180.0
990813.6482939633 1.0 0.0 0.00174 168.068025 0.0 0.0 1.0 180.0
994094.4881889764 1.0 0.0 0.00173 6.965195 0.0 0.0 1.0 180.0
997375.3280839896 1.0 0.0 0.0017 -154.396282 0.0 0.0 1.0 180.0
1000656.1679790027 1.0 0.0 0.001649 44.038897 0.0 0.0 1.0 180.0
1003937.0078740157 1.0 0.0 0.001579 -117.679308 0.0 0.0 1.0 180.0
1007217.847769029 1.0 0.0 0.001491 80.497756 0.0 0.0 1.0 180.0
1010498.687664042 1.0 0.0 0.00139 -81.376944 0.0 0.0 1.0 180.0
1013779.5275590551 1.0 0.0 0.001279 116.760438 0.0 0.0 1.0 180.0
1017060.3674540683 1.0 0.0 0.001163 -45.008544 0.0 0.0 1.0 180.0
