! File created by SignalIntegrity v1.1.17: Signal and Power Integrity Tools
! https://github.com/TeledyneLeCroy/SignalIntegrity
# MHz S MA R 50.0
0.0 1.0 0.0 2.25032 0.0 0.0 0.0 1.0 180.0
2000.0 1.0 0.0 2.248192 -96.601859 0.0 -0.0 1.0 -180.0
4000.0 1.0 0.0 2.241827 166.802885 0.0 0.0 1.0 -180.0
6000.0 1.0 -0.0 2.231288 70.2208 0.0 180.0 1.0 180.0
8000.0 1.0 0.0 2.216676 -26.34161 0.0 0.0 1.0 -180.0
10000.0 1.0 -0.0 2.198131 -122.877949 0.0 180.0 1.0 180.0
12000.0 1.0 -0.0 2.175827 140.618037 0.0 0.0 1.0 180.0
14000.0 1.0 -0.0 2.149974 44.152415 0.0 180.0 1.0 180.0
16000.0 1.0 0.0 2.12081 -52.268982 0.0 0.0 1.0 -180.0
18000.0 1.0 0.0 2.088599 -148.640608 0.0 -0.0 1.0 -180.0
20000.0 1.0 -0.0 2.053624 115.042737 0.0 0.0 1.0 180.0
22000.0 1.0 0.0 2.016187 18.785852 0.0 -0.0 1.0 -180.0
24000.0 1.0 -0.0 1.9766 -77.406935 0.0 0.0 1.0 180.0
26000.0 1.0 0.0 1.93518 -173.531829 0.0 -0.0 1.0 -180.0
28000.0 1.0 -0.0 1.892245 90.414372 0.0 0.0 1.0 180.0
30000.0 1.0 -0.0 1.848106 -5.565791 0.0 180.0 1.0 180.0
32000.0 1.0 0.0 1.803066 -101.47048 0.0 0.0 1.0 -180.0
34000.0 1.0 0.0 1.75741 162.701396 0.0 -0.0 1.0 -180.0
36000.0 1.0 0.0 1.711404 66.950162 0.0 0.0 1.0 -180.0
38000.0 1.0 0.0 1.665291 -28.724627 0.0 -0.0 1.0 -180.0
40000.0 1.0 -0.0 1.619284 -124.324164 0.0 0.0 1.0 180.0
42000.0 1.0 0.0 1.573569 140.149662 0.0 -0.0 1.0 -180.0
44000.0 1.0 0.0 1.528302 44.694341 0.0 0.0 1.0 -180.0
46000.0 1.0 0.0 1.483608 -50.693158 0.0 -0.0 1.0 -180.0
48000.0 1.0 -0.0 1.439582 -146.016259 0.0 0.0 1.0 180.0
50000.0 1.0 0.0 1.396291 118.721358 0.0 -0.0 1.0 -180.0
52000.0 1.0 0.0 1.353781 23.515913 0.0 0.0 1.0 -180.0
54000.0 1.0 -0.0 1.312072 -71.636328 0.0 180.0 1.0 180.0
56000.0 1.0 -0.0 1.27117 -166.738906 0.0 0.0 1.0 180.0
58000.0 1.0 0.0 1.231069 98.204956 0.0 -0.0 1.0 -180.0
60000.0 1.0 -0.0 1.191753 3.192451 0.0 0.0 1.0 180.0
62000.0 1.0 0.0 1.153204 -91.778743 0.0 -0.0 1.0 -180.0
64000.0 1.0 0.0 1.115403 173.289566 0.0 0.0 1.0 -180.0
66000.0 1.0 -0.0 1.078335 78.396084 0.0 180.0 1.0 180.0
68000.0 1.0 0.0 1.04199 -16.46002 0.0 0.0 1.0 -180.0
70000.0 1.0 0.0 1.006366 -111.279185 0.0 -0.0 1.0 -180.0
72000.0 1.0 0.0 0.971467 153.938429 0.0 0.0 1.0 -180.0
74000.0 1.0 -0.0 0.937308 59.192812 0.0 180.0 1.0 180.0
76000.0 1.0 0.0 0.903908 -35.516037 0.0 0.0 1.0 -180.0
78000.0 1.0 0.0 0.871294 -130.188268 0.0 -0.0 1.0 -180.0
80000.0 1.0 -0.0 0.839493 135.175681 0.0 0.0 1.0 180.0
82000.0 1.0 0.0 0.808536 40.574944 0.0 -0.0 1.0 -180.0
84000.0 1.0 0.0 0.778451 -53.99187 0.0 0.0 1.0 -180.0
86000.0 1.0 -0.0 0.749262 -148.526759 0.0 180.0 1.0 180.0
88000.0 1.0 0.0 0.72099 116.967653 0.0 0.0 1.0 -180.0
90000.0 1.0 -0.0 0.693643 22.488126 0.0 180.0 1.0 180.0
92000.0 1.0 0.0 0.667225 -71.969117 0.0 0.0 1.0 -180.0
94000.0 1.0 0.0 0.641727 -166.408277 0.0 -0.0 1.0 -180.0
96000.0 1.0 -0.0 0.617135 99.166188 0.0 0.0 1.0 180.0
98000.0 1.0 0.0 0.593422 4.749756 0.0 -0.0 1.0 -180.0
100000.0 1.0 0.0 0.570556 -89.66194 0.0 0.0 1.0 -180.0
