! File created by SignalIntegrity v1.2.1: Signal and Power Integrity Tools
! https://github.com/TeledyneLeCroy/SignalIntegrity
# MHz S MA R 50.0
0.0 516.26409 -0.359209 2693.474893 -0.359209 2.7e-05 179.640791 0.0 0.0
0.0 0.0 0.212969 0.0 0.0 0.0 0.0 0.0
0.0 0.0 0.0 0.0 0.191672 180.0 0.999998 180.0
0.0 -0.0 0.0 0.0 0.0 0.0 791.055595 0.09826
4127.12878 0.09826 4.1e-05 -179.90174 0.0 0.0 0.0 0.0
729.24241 -0.359209 3804.634412 -0.359209 3.8e-05 179.640791 0.0 0.0
0.0 0.0
500.0 547.870197 -10.867497 2858.470863 -10.390043 0.614703 -104.529645 0.0 0.0
0.0 0.0 0.212969 0.0 0.0 0.0 0.0 0.0
0.0 0.0 0.0 0.0 0.190052 177.622025 0.991582 178.099479
0.000213 83.959878 0.0 0.0 0.0 0.0 775.630775 -7.858456
4046.794263 -7.381002 0.870248 -101.520604 0.0 0.0 0.0 0.0
707.136001 -15.82303 3689.428014 -15.345576 0.793398 -109.485178 0.0 0.0
0.0 0.0
1000.0 579.214016 -27.268896 3022.319595 -26.314055 1.269485 -124.26862 0.0 0.0
0.0 0.0 0.212969 0.0 0.0 0.0 0.0 0.0
0.0 0.0 0.0 0.0 0.188027 175.700883 0.981119 176.655724
0.000412 78.70116 0.0 0.0 0.0 0.0 760.799474 -14.634892
3969.826511 -13.68005 1.667472 -111.634615 0.0 0.0 0.0 0.0
693.199826 -30.245657 3617.093782 -29.290816 1.519312 -127.245381 0.0 0.0
0.0 0.0
1500.0 583.27453 -44.24812 3044.035415 -42.816024 1.851112 -144.030381 0.0 0.0
0.0 0.0 0.212969 0.0 0.0 0.0 0.0 0.0
0.0 0.0 0.0 0.0 0.185161 173.960413 0.966331 175.392509
0.000588 74.178153 0.0 0.0 0.0 0.0 739.672988 -21.23585
3860.259031 -19.803753 2.347467 -121.01811 0.0 0.0 0.0 0.0
676.906412 -44.514841 3532.688271 -43.082744 2.148268 -144.297101 0.0 0.0
0.0 0.0
2000.0 578.095255 -60.266419 3017.738192 -58.357267 2.344229 -162.164313 0.0 0.0
0.0 0.0 0.212969 0.0 0.0 0.0 0.0 0.0
0.0 0.0 0.0 0.0 0.182229 172.590131 0.951263 174.499284
0.000739 70.692237 0.0 0.0 0.0 0.0 717.593633 -26.9897
3745.93926 -25.080548 2.909908 -128.887594 0.0 0.0 0.0 0.0
661.644402 -58.135919 3453.876441 -56.226767 2.683029 -160.033813 0.0 0.0
0.0 0.0
2500.0 570.309626 -75.794936 2978.025283 -73.408992 2.761363 -179.140605 0.0 0.0
0.0 0.0 0.212969 0.0 0.0 0.0 0.0 0.0
0.0 0.0 0.0 0.0 0.179384 171.427532 0.936703 173.813476
0.000869 68.081863 0.0 0.0 0.0 0.0 696.781306 -32.262039
3638.431215 -29.876095 3.373722 -135.607708 0.0 0.0 0.0 0.0
647.96028 -71.5395 3383.499084 -69.153556 3.137337 -174.885169 0.0 0.0
0.0 0.0
3000.0 563.112136 -90.804081 2941.562575 -87.941676 3.125056 165.000791 0.0 0.0
0.0 0.0 0.212969 0.0 0.0 0.0 0.0 0.0
0.0 0.0 0.0 0.0 0.176895 170.457733 0.924057 173.320138
0.000982 66.262605 0.0 0.0 0.0 0.0 679.911312 -36.913029
3551.693423 -34.050624 3.773246 -141.108157 0.0 0.0 0.0 0.0
636.947364 -84.602219 3327.26008 -81.739813 3.534813 171.202653 0.0 0.0
0.0 0.0
3500.0 557.115147 -105.630868 2911.545821 -102.292398 3.452197 149.822319 0.0 0.0
0.0 0.0 0.212969 0.0 0.0 0.0 0.0 0.0
0.0 0.0 0.0 0.0 0.174648 169.578413 0.912728 172.916884
0.001082 65.0316 0.0 0.0 0.0 0.0 667.925194 -41.250138
3490.651477 -37.911668 4.138838 -145.796951 0.0 0.0 0.0 0.0
628.269714 -97.598246 3283.40752 -94.259776 3.893111 157.85494 0.0 0.0
0.0 0.0
4000.0 552.796368 -120.251955 2890.474588 -116.43788 3.758693 135.242775 0.0 0.0
0.0 0.0 0.212969 0.0 0.0 0.0 0.0 0.0
0.0 0.0 0.0 0.0 0.172695 168.779531 0.902991 172.593606
0.001174 64.274261 0.0 0.0 0.0 0.0 661.928168 -45.291836
3461.105497 -41.477761 4.500726 -149.797105 0.0 0.0 0.0 0.0
622.000987 -110.465421 3252.333316 -106.651346 4.229245 145.029309 0.0 0.0
0.0 0.0
4500.0 549.843525 -134.869822 2876.723758 -130.580668 4.053362 120.965344 0.0 0.0
0.0 0.0 0.212969 0.0 0.0 0.0 0.0 0.0
0.0 0.0 0.0 0.0 0.170905 168.015947 0.894156 172.305101
0.00126 63.851113 0.0 0.0 0.0 0.0 661.990204 -49.335267
3463.46344 -45.046114 4.88009 -153.500102 0.0 0.0 0.0 0.0
617.557371 -123.381835 3230.995511 -119.092682 4.552538 132.453331 0.0 0.0
0.0 0.0
5000.0 548.326328 -149.420597 2870.667337 -144.656955 4.345099 106.975151 0.0 0.0
0.0 0.0 0.212969 0.0 0.0 0.0 0.0 0.0
0.0 0.0 0.0 0.0 0.169298 167.291807 0.886328 172.055449
0.001342 63.687555 0.0 0.0 0.0 0.0 668.02641 -53.437676
3497.336346 -48.674034 5.293638 -157.041927 0.0 0.0 0.0 0.0
614.892631 -136.267756 3219.163665 -131.504114 4.87259 120.127993 0.0 0.0
0.0 0.0
5500.0 547.733529 -164.057764 2869.639604 -158.820288 4.636257 93.05604 0.0 0.0
0.0 0.0 0.212969 0.0 0.0 0.0 0.0 0.0
0.0 0.0 0.0 0.0 0.167783 166.58821 0.879035 171.825686
0.00142 63.702014 0.0 0.0 0.0 0.0 679.209373 -57.869973
3558.456826 -52.632497 5.749126 -160.756169 0.0 0.0 0.0 0.0
613.362032 -149.265969 3213.474955 -144.028493 5.191766 107.847835 0.0 0.0
0.0 0.0
6000.0 547.877954 -178.713327 2872.668592 -173.002733 4.929689 79.227655 0.0 0.0
0.0 0.0 0.212969 0.0 0.0 0.0 0.0 0.0
0.0 0.0 0.0 0.0 0.166385 165.912832 0.872399 171.623426
0.001497 63.853814 0.0 0.0 0.0 0.0 694.331247 -62.662117
3640.56183 -56.951524 6.247444 -164.721136 0.0 0.0 0.0 0.0
612.714119 -162.301024 3212.6217 -156.590431 5.513071 95.639957 0.0 0.0
0.0 0.0
6500.0 548.462164 166.52212 2878.202279 172.70505 5.225864 65.362901 0.0 0.0
0.0 0.0 0.212969 0.0 0.0 0.0 0.0 0.0
0.0 0.0 0.0 0.0 0.165046 165.256535 0.866125 171.439465
0.001573 64.097316 0.0 0.0 0.0 0.0 711.743396 -67.95593
3735.064323 -61.773 6.781642 -169.115149 0.0 0.0 0.0 0.0
612.590687 -175.458167 3214.733896 -169.275237 5.836894 83.382614 0.0 0.0
0.0 0.0
7000.0 549.202391 151.709972 2884.756192 158.364397 5.524104 51.496068 0.0 0.0
0.0 0.0 0.212969 0.0 0.0 0.0 0.0 0.0
0.0 0.0 0.0 0.0 0.163794 164.625821 0.860351 171.280246
0.001648 64.411917 0.0 0.0 0.0 0.0 729.612761 -73.703435
3832.384864 -67.04901 7.338746 -173.91734 0.0 0.0 0.0 0.0
612.659377 171.327937 3218.072175 177.982362 6.16238 71.114032 0.0 0.0
0.0 0.0
7500.0 549.885131 136.805302 2891.210297 143.930319 5.823414 37.562363 0.0 0.0
0.0 0.0 0.212969 0.0 0.0 0.0 0.0 0.0
0.0 0.0 0.0 0.0 0.162593 164.014936 0.85489 171.139953
0.001722 64.771997 0.0 0.0 0.0 0.0 746.090769 -79.922818
3922.828952 -72.797802 7.901278 -179.165757 0.0 0.0 0.0 0.0
612.673078 158.01532 3221.339529 165.140336 6.488353 58.77238 0.0 0.0
0.0 0.0
8000.0 550.302147 121.862793 2896.46779 129.457436 6.122082 23.602096 0.0 0.0
0.0 0.0 0.212969 0.0 0.0 0.0 0.0 0.0
0.0 0.0 0.0 0.0 0.161468 163.428154 0.849875 171.022797
0.001796 65.167457 0.0 0.0 0.0 0.0 759.397093 -86.503266
3997.020965 -78.908623 8.448252 175.236037 0.0 0.0 0.0 0.0
612.395061 144.660931 3223.288477 152.255575 6.812862 46.400234 0.0 0.0
0.0 0.0
8500.0 550.369955 106.859618 2900.084158 114.922864 6.419176 9.582178 0.0 0.0
0.0 0.0 0.212969 0.0 0.0 0.0 0.0 0.0
0.0 0.0 0.0 0.0 0.160396 162.860852 0.845178 170.924098
0.001871 65.583412 0.0 0.0 0.0 0.0 768.104884 -93.389901
4047.402635 -85.326655 8.958702 169.332659 0.0 0.0 0.0 0.0
611.730548 131.243713 3223.413731 139.306959 7.134848 33.966273 0.0 0.0
0.0 0.0
9000.0 549.994266 91.848331 2901.555177 100.379096 6.713288 -4.452053 0.0 0.0
0.0 0.0 0.212969 0.0 0.0 0.0 0.0 0.0
0.0 0.0 0.0 0.0 0.159397 162.315275 0.840918 170.846041
0.001946 66.014892 0.0 0.0 0.0 0.0 771.058744 -100.436732
4067.805123 -91.905966 9.411624 163.262885 0.0 0.0 0.0 0.0
610.574606 117.817611 3221.153418 126.348376 7.452738 21.517228 0.0 0.0
0.0 0.0
9500.0 549.246715 76.814946 2901.24982 85.81209 7.0048 -18.519544 0.0 0.0
0.0 0.0 0.212969 0.0 0.0 0.0 0.0 0.0
0.0 0.0 0.0 0.0 0.158456 161.787215 0.837 170.784359
0.002021 66.452725 0.0 0.0 0.0 0.0 767.70085 -107.551602
4055.175733 -98.554459 9.790848 157.113907 0.0 0.0 0.0 0.0
609.007694 104.369756 3216.921306 113.366899 7.76696 9.035266 0.0 0.0
0.0 0.0
10000.0 548.152119 61.801994 2899.290437 71.264316 7.293544 -32.581084 0.0 0.0
0.0 0.0 0.212969 0.0 0.0 0.0 0.0 0.0
0.0 0.0 0.0 0.0 0.157589 161.277418 0.833521 170.73974
0.002097 66.89434 0.0 0.0 0.0 0.0 757.834031 -114.573925
4008.341631 -105.111603 10.083508 151.042996 0.0 0.0 0.0 0.0
607.058598 90.94358 3210.859043 100.405902 8.077336 -3.439499 0.0 0.0
0.0 0.0
10500.0 546.899541 46.793868 2896.669252 56.720113 7.581623 -46.654398 0.0 0.0
0.0 0.0 0.212969 0.0 0.0 0.0 0.0 0.0
0.0 0.0 0.0 0.0 0.156783 160.781927 0.830407 170.708172
0.002173 67.333661 0.0 0.0 0.0 0.0 741.960573 -121.388622
3929.815654 -111.462376 10.285737 145.163113 0.0 0.0 0.0 0.0
604.937991 77.524215 3204.071584 87.450461 8.386205 -15.92405 0.0 0.0
0.0 0.0
11000.0 545.580615 31.817092 2893.866749 42.20595 7.870112 -60.714209 0.0 0.0
0.0 0.0 0.212969 0.0 0.0 0.0 0.0 0.0
0.0 0.0 0.0 0.0 0.156052 160.300517 0.827733 170.689375
0.002251 67.769216 0.0 0.0 0.0 0.0 720.95806 -127.825346
3824.103166 -117.436488 10.399968 139.643353 0.0 0.0 0.0 0.0
602.748067 64.138801 3197.094145 74.527658 8.694765 -28.392501 0.0 0.0
0.0 0.0
11500.0 544.422964 16.848237 2892.088395 27.698341 8.162312 -74.784574 0.0 0.0
0.0 0.0 0.212969 0.0 0.0 0.0 0.0 0.0
0.0 0.0 0.0 0.0 0.155385 159.829491 0.825435 170.679595
0.00233 68.196679 0.0 0.0 0.0 0.0 696.43699 -133.752614
3699.618618 -122.902509 10.441397 134.614575 0.0 0.0 0.0 0.0
600.74065 50.76442 3191.259695 61.614525 9.006661 -40.868391 0.0 0.0
0.0 0.0
12000.0 543.506018 1.896301 2891.758631 13.206233 8.45972 -88.856678 0.0 0.0
0.0 0.0 0.212969 0.0 0.0 0.0 0.0 0.0
0.0 0.0 0.0 0.0 0.15479 159.368069 0.823571 170.678001
0.002409 68.61509 0.0 0.0 0.0 0.0 670.40364 -139.004519
3566.925572 -127.694587 10.434893 130.242502 0.0 0.0 0.0 0.0
599.003013 37.410514 3187.033954 48.720447 9.323536 -53.342465 0.0 0.0
0.0 0.0
12500.0 543.011772 -13.071101 2893.85158 -1.302812 8.76567 -102.962777 0.0 0.0
0.0 0.0 0.212969 0.0 0.0 0.0 0.0 0.0
0.0 0.0 0.0 0.0 0.154259 158.912854 0.822085 170.681142
0.00249 69.021177 0.0 0.0 0.0 0.0 645.611514 -143.476873
3440.632402 -131.708584 10.421905 126.63145 0.0 0.0 0.0 0.0
597.734853 24.045081 3185.48517 35.81337 9.649047 -65.846596 0.0 0.0
0.0 0.0
13000.0 542.928135 -28.060954 2898.312303 -15.835832 9.080677 -117.10952 0.0 0.0
0.0 0.0 0.212969 0.0 0.0 0.0 0.0 0.0
0.0 0.0 0.0 0.0 0.153798 158.462816 0.821019 170.687939
0.002572 69.41425 0.0 0.0 0.0 0.0 625.157268 -147.10234
3337.275933 -134.877218 10.45599 123.849094 0.0 0.0 0.0 0.0
596.921424 10.661476 3186.54458 22.886598 9.983735 -78.38709 0.0 0.0
0.0 0.0
13500.0 543.250935 -43.118036 2905.128601 -30.437652 9.405379 -131.341199 0.0 0.0
0.0 0.0 0.212969 0.0 0.0 0.0 0.0 0.0
0.0 0.0 0.0 0.0 0.153398 158.014909 0.82032 170.695293
0.002656 69.791746 0.0 0.0 0.0 0.0 612.657462 -149.974151
3276.29204 -137.293767 10.607024 121.802686 0.0 0.0 0.0 0.0
596.556646 -2.784767 3190.190135 9.895617 10.328269 -91.00793 0.0 0.0
0.0 0.0
14000.0 542.950418 -58.16238 2908.794478 -45.028357 9.722052 -145.577278 0.0 0.0
0.0 0.0 0.212969 0.0 0.0 0.0 0.0 0.0
0.0 0.0 0.0 0.0 0.153063 157.567241 0.82002 170.701263
0.002741 70.152342 0.0 0.0 0.0 0.0 610.533843 -152.475894
3270.864913 -139.341872 10.932198 120.109207 0.0 0.0 0.0 0.0
595.509496 -16.213391 3190.373698 -3.079368 10.663173 -103.62829 0.0 0.0
0.0 0.0
14500.0 544.97016 -73.368108 2925.089929 -59.782117 10.084043 -159.991257 0.0 0.0
0.0 0.0 0.212969 0.0 0.0 0.0 0.0 0.0
0.0 0.0 0.0 0.0 0.152783 157.119052 0.820051 170.705044
0.002827 70.495904 0.0 0.0 0.0 0.0 621.073249 -154.641142
3333.568035 -141.055151 11.492242 118.735709 0.0 0.0 0.0 0.0
597.006997 -29.79824 3204.394076 -16.212249 11.046924 -116.421389 0.0 0.0
0.0 0.0
15000.0 546.399788 -88.60894 2938.434437 -74.572696 10.439934 -174.456203 0.0 0.0
0.0 0.0 0.212969 0.0 0.0 0.0 0.0 0.0
0.0 0.0 0.0 0.0 0.152561 156.668413 0.820445 170.704656
0.002915 70.82115 0.0 0.0 0.0 0.0 644.683829 -157.249406
3466.987373 -143.213162 12.317824 116.903332 0.0 0.0 0.0 0.0
597.855356 -43.41276 3215.152724 -29.376516 11.423083 -129.260023 0.0 0.0
0.0 0.0
15500.0 547.644275 -104.067443 2950.992219 -89.582709 10.796662 170.84597 0.0 0.0
0.0 0.0 0.212969 0.0 0.0 0.0 0.0 0.0
0.0 0.0 0.0 0.0 0.152391 156.213515 0.821164 170.698248
0.003004 71.126928 0.0 0.0 0.0 0.0 681.757347 -160.694778
3673.663212 -146.210044 13.440666 114.218635 0.0 0.0 0.0 0.0
598.499202 -57.239245 3225.025016 -42.754511 11.799254 -142.325832 0.0 0.0
0.0 0.0
16000.0 548.166348 -119.643704 2959.856439 -104.712286 11.142991 156.015825 0.0 0.0
0.0 0.0 0.212969 0.0 0.0 0.0 0.0 0.0
0.0 0.0 0.0 0.0 0.152273 155.753731 0.822208 170.685148
0.003095 71.413259 0.0 0.0 0.0 0.0 728.078172 -165.225501
3931.300909 -150.294084 14.800194 110.434027 0.0 0.0 0.0 0.0
598.352435 -71.177501 3230.839163 -56.246084 12.163161 -155.517973 0.0 0.0
0.0 0.0
16500.0 547.910217 -135.356768 2964.700707 -119.980517 11.476434 141.034946 0.0 0.0
0.0 0.0 0.212969 0.0 0.0 0.0 0.0 0.0
0.0 0.0 0.0 0.0 0.152199 155.287728 0.82354 170.66398
0.003188 71.679442 0.0 0.0 0.0 0.0 780.18069 -170.911242
4221.498652 -155.53499 16.341532 105.480472 0.0 0.0 0.0 0.0
597.356632 -85.246283 3232.251513 -69.870032 12.51213 -168.85457 0.0 0.0
0.0 0.0
17000.0 546.268496 -151.169283 2962.203496 -135.350089 11.782453 125.941297 0.0 0.0
0.0 0.0 0.212969 0.0 0.0 0.0 0.0 0.0
0.0 0.0 0.0 0.0 0.152171 154.815395 0.825165 170.634589
0.003282 71.925975 0.0 0.0 0.0 0.0 833.429022 -177.662792
4519.364343 -161.843598 17.976212 99.447787 0.0 0.0 0.0 0.0
594.852961 -99.407935 3225.658324 -83.588741 12.83037 177.702645 0.0 0.0
0.0 0.0
17500.0 543.107529 -167.058379 2951.587103 -150.798175 12.055476 110.75833 0.0 0.0
0.0 0.0 0.212969 0.0 0.0 0.0 0.0 0.0
0.0 0.0 0.0 0.0 0.152182 154.335695 0.827051 170.595899
0.003378 72.152403 0.0 0.0 0.0 0.0 883.909515 174.673302
4803.718942 -169.066493 19.620331 92.490011 0.0 0.0 0.0 0.0
590.700992 -113.639262 3210.239848 -97.379057 13.111918 164.177447 0.0 0.0
0.0 0.0
18000.0 538.199765 177.020816 2931.553111 -166.27994 12.287409 95.531473 0.0 0.0
0.0 0.0 0.212969 0.0 0.0 0.0 0.0 0.0
0.0 0.0 0.0 0.0 0.152233 153.848772 0.829208 170.548016
0.003476 72.359428 0.0 0.0 0.0 0.0 927.873571 166.287401
5054.09112 -177.013355 21.183885 84.798057 0.0 0.0 0.0 0.0
584.659014 -127.89505 3184.614826 -111.195806 13.3481 150.615606 0.0 0.0
0.0 0.0
18500.0 531.57227 161.113769 2902.178778 178.250043 12.475508 80.306716 0.0 0.0
0.0 0.0 0.212969 0.0 0.0 0.0 0.0 0.0
0.0 0.0 0.0 0.0 0.15232 153.353651 0.831607 170.489925
0.003575 72.546598 0.0 0.0 0.0 0.0 962.457123 157.367529
5254.643243 174.503803 22.587975 76.560476 0.0 0.0 0.0 0.0
576.762829 -142.129468 3148.901731 -124.993193 13.536088 137.06348 0.0 0.0
0.0 0.0
19000.0 523.320147 145.274011 2863.911806 162.84527 12.618686 65.138089 0.0 0.0
0.0 0.0 0.212969 0.0 0.0 0.0 0.0 0.0
0.0 0.0 0.0 0.0 0.152443 152.850462 0.834259 170.421721
0.003676 72.71454 0.0 0.0 0.0 0.0 985.526299 148.098055
5393.37233 165.669314 23.763746 67.962133 0.0 0.0 0.0 0.0
567.121932 -156.28859 3103.620614 -138.717332 13.674867 123.575488 0.0 0.0
0.0 0.0
19500.0 513.782503 129.545342 2818.540305 147.549503 12.722093 50.069857 0.0 0.0
0.0 0.0 0.212969 0.0 0.0 0.0 0.0 0.0
0.0 0.0 0.0 0.0 0.152599 152.338233 0.837139 170.342395
0.003779 72.862748 0.0 0.0 0.0 0.0 996.079751 138.64052
5464.356816 156.644682 24.664561 59.165035 0.0 0.0 0.0 0.0
556.109562 -170.328202 3050.740741 -152.324041 13.770181 110.196313 0.0 0.0
0.0 0.0
20000.0 503.322309 113.967009 2767.99907 132.401958 12.792323 35.141706 0.0 0.0
0.0 0.0 0.212969 0.0 0.0 0.0 0.0 0.0
0.0 0.0 0.0 0.0 0.152789 151.817052 0.840256 170.252001
0.003883 72.991749 0.0 0.0 0.0 0.0 993.865446 129.141407
5465.719636 147.576356 25.259854 50.316104 0.0 0.0 0.0 0.0
544.123131 175.791392 2992.381407 -165.773659 13.829308 96.966089 0.0 0.0
0.0 0.0
20500.0 492.441119 98.561826 2715.004807 117.425414 12.840499 20.376861 0.0 0.0
0.0 0.0 0.212969 0.0 0.0 0.0 0.0 0.0
0.0 0.0 0.0 0.0 0.153008 151.285971 0.843587 170.149558
0.00399 73.101006 0.0 0.0 0.0 0.0 979.548688 119.724625
5400.603841 138.588213 25.541925 41.539661 0.0 0.0 0.0 0.0
531.707943 162.09348 2931.496918 -179.042933 13.864389 83.908515 0.0 0.0
0.0 0.0
21000.0 481.571934 83.340776 2661.922193 102.630822 12.877215 5.786691 0.0 0.0
0.0 0.0 0.212969 0.0 0.0 0.0 0.0 0.0
0.0 0.0 0.0 0.0 0.153257 150.745132 0.847136 170.035178
0.004098 73.191048 0.0 0.0 0.0 0.0 954.212221 110.501564
5274.474091 129.79161 25.515599 32.947479 0.0 0.0 0.0 0.0
519.332904 148.589551 2870.648565 167.879597 13.886942 71.035467 0.0 0.0
0.0 0.0
21500.0 471.171125 68.297789 2611.269853 88.012083 12.914852 -8.634511 0.0 0.0
0.0 0.0 0.212969 0.0 0.0 0.0 0.0 0.0
0.0 0.0 0.0 0.0 0.153531 150.193798 0.850882 169.908092
0.004208 73.261498 0.0 0.0 0.0 0.0 919.429818 101.572354
5095.557087 121.286649 25.201672 24.640054 0.0 0.0 0.0 0.0
507.48997 135.274074 2812.551931 154.988369 13.910356 58.341774 0.0 0.0
0.0 0.0
22000.0 461.548922 53.41548 2564.781495 73.551784 12.96292 -22.903794 0.0 0.0
0.0 0.0 0.212969 0.0 0.0 0.0 0.0 0.0
0.0 0.0 0.0 0.0 0.153831 149.632554 0.854826 169.768857
0.00432 73.313279 0.0 0.0 0.0 0.0 876.869786 93.038338
4872.678258 113.174641 24.627493 16.719063 0.0 0.0 0.0 0.0
496.511647 122.130233 2759.065879 142.266536 13.944872 45.810958 0.0 0.0
0.0 0.0
22500.0 452.971851 38.670413 2523.966992 59.226458 13.030529 -37.044277 0.0 0.0
0.0 0.0 0.212969 0.0 0.0 0.0 0.0 0.0
0.0 0.0 0.0 0.0 0.154155 149.061168 0.858955 169.617213
0.004435 73.346478 0.0 0.0 0.0 0.0 828.490106 85.008323
4616.361209 105.564368 23.832969 9.293633 0.0 0.0 0.0 0.0
486.682025 109.13519 2711.800669 129.691235 14.000261 33.4205 0.0 0.0
0.0 0.0
23000.0 445.658014 24.0354 2490.083587 45.008893 13.12612 -51.082851 0.0 0.0
0.0 0.0 0.212969 0.0 0.0 0.0 0.0 0.0
0.0 0.0 0.0 0.0 0.154505 148.479772 0.863284 169.453265
0.004551 73.361521 0.0 0.0 0.0 0.0 776.262665 77.602033
4337.314398 98.575526 22.863534 2.483782 0.0 0.0 0.0 0.0
478.232032 96.262391 2672.08868 117.235885 14.085534 21.144141 0.0 0.0
0.0 0.0
23500.0 439.812018 9.470246 2464.328515 30.858869 13.258367 -65.059432 0.0 0.0
0.0 0.0 0.212969 0.0 0.0 0.0 0.0 0.0
0.0 0.0 0.0 0.0 0.154877 147.887003 0.867797 169.275626
0.004669 73.357325 0.0 0.0 0.0 0.0 722.361437 70.961799
4047.4926 92.350421 21.775969 -3.56788 0.0 0.0 0.0 0.0
471.377218 83.472307 2641.192767 104.86093 14.209916 8.942628 0.0 0.0
0.0 0.0
24000.0 435.51764 -5.07579 2447.235468 16.725619 13.432826 -79.024503 0.0 0.0
0.0 0.0 0.212969 0.0 0.0 0.0 0.0 0.0
0.0 0.0 0.0 0.0 0.155271 147.283105 0.872488 169.084514
0.004789 73.334392 0.0 0.0 0.0 0.0 669.10956 65.257542
3759.821641 87.058951 20.637584 -8.691171 0.0 0.0 0.0 0.0
466.203016 70.714887 2619.660955 92.516297 14.379266 -3.233826 0.0 0.0
0.0 0.0
24500.0 432.801598 -19.656045 2439.024647 2.555786 13.65354 -93.031156 0.0 0.0
0.0 0.0 0.212969 0.0 0.0 0.0 0.0 0.0
0.0 0.0 0.0 0.0 0.155682 146.667835 0.877338 168.879666
0.004911 73.292725 0.0 0.0 0.0 0.0 619.358854 60.675649
3490.35567 82.887479 19.538839 -12.699462 0.0 0.0 0.0 0.0
462.733794 57.937521 2607.705549 80.149352 14.597807 -15.437589 0.0 0.0
0.0 0.0
25000.0 431.580939 -34.326614 2439.300896 -11.706749 13.921142 -107.135257 0.0 0.0
0.0 0.0 0.212969 0.0 0.0 0.0 0.0 0.0
0.0 0.0 0.0 0.0 0.156112 146.042188 0.882345 168.662053
0.005036 73.233545 0.0 0.0 0.0 0.0 576.514848 57.36637
3258.469173 79.986235 18.596153 -15.442272 0.0 0.0 0.0 0.0
460.877138 45.084865 2604.883384 67.70473 14.866125 -27.723778 0.0 0.0
0.0 0.0
25500.0 431.72151 -49.141728 2447.375954 -26.116236 14.234395 -121.390822 0.0 0.0
0.0 0.0 0.212969 0.0 0.0 0.0 0.0 0.0
0.0 0.0 0.0 0.0 0.156557 145.406282 0.887503 168.431774
0.005162 73.157188 0.0 0.0 0.0 0.0 544.571319 55.337688
3087.107595 78.36318 17.955193 -16.911406 0.0 0.0 0.0 0.0
460.487029 32.103467 2610.444134 55.128959 15.182829 -40.145627 0.0 0.0
0.0 0.0
26000.0 432.972318 -64.155052 2461.890557 -40.726359 14.587789 -135.851316 0.0 0.0
0.0 0.0 0.212969 0.0 0.0 0.0 0.0 0.0
0.0 0.0 0.0 0.0 0.15702 144.761108 0.89282 168.189801
0.00529 73.064844 0.0 0.0 0.0 0.0 527.487205 54.302681
2999.304377 77.731374 17.772203 -17.393583 0.0 0.0 0.0 0.0
461.294326 18.940464 2622.930147 42.369157 15.542019 -52.755801 0.0 0.0
0.0 0.0
26500.0 435.009636 -79.411193 2481.0554 -55.581744 14.97263 -150.561156 0.0 0.0
0.0 0.0 0.212969 0.0 0.0 0.0 0.0 0.0
0.0 0.0 0.0 0.0 0.157501 144.106623 0.8983 167.936072
0.005421 72.956659 0.0 0.0 0.0 0.0 528.053523 53.602146
3011.726496 77.431596 18.175115 -17.547817 0.0 0.0 0.0 0.0
