! File created by SignalIntegrity v1.2.1: Signal and Power Integrity Tools
! https://github.com/TeledyneLeCroy/SignalIntegrity
# MHz S MA R 50.0
0.0 0.0 0.0 0.286111 0.0 0.286111 0.0 0.0 0.0
1.0 0.0 0.578825 180.0 0.286111 180.0 0.0 180.0
0.0 180.0 0.286111 180.0 0.592825 180.0 1.0 0.0
0.0 0.0 0.0 0.0 0.0 0.0 0.0 0.0
25.0 0.008997 90.060672 0.286374 0.240671 0.286366 0.270713 0.008097 90.108714
1.000331 -1.042551 0.579383 -179.290379 0.286447 179.743613 0.008099 -90.418386
0.008999 -90.436386 0.286447 179.743613 0.593363 -179.275008 1.000303 -0.960951
0.0 0.0 0.0 0.0 0.0 0.0 0.0 0.0
50.0 0.018043 90.112251 0.287161 0.472247 0.287131 0.532532 0.016237 90.208536
1.001324 -2.089094 0.581054 -178.590369 0.287455 179.477048 0.016255 -90.846949
0.018061 -90.882947 0.287455 179.477048 0.594975 -178.558922 1.001212 -1.925347
0.0 0.0 0.0 0.0 0.0 0.0 0.0 0.0
75.0 0.027187 90.145652 0.288475 0.685636 0.288406 0.776569 0.024463 90.290581
1.002976 -3.143642 0.583837 -177.909538 0.289138 179.190124 0.024525 -91.295865
0.027249 -91.34986 0.289138 179.190124 0.597659 -177.860606 1.002724 -2.896646
0.0 0.0 0.0 0.0 0.0 0.0 0.0 0.0
100.0 0.036479 90.151796 0.290313 0.871758 0.290192 0.993948 0.032818 90.345975
1.00528 -4.210243 0.587731 -177.257372 0.291502 178.872661 0.032966 -91.775311
0.036628 -91.847301 0.291502 178.872661 0.601413 -177.188852 1.004833 -3.878337
0.0 0.0 0.0 0.0 0.0 0.0 0.0 0.0
125.0 0.045968 90.121618 0.292678 1.021544 0.292486 1.175811 0.041345 90.365865
1.008228 -5.292996 0.592731 -176.643235 0.294553 178.514479 0.041637 -92.295467
0.046263 -92.385447 0.294553 178.514479 0.606231 -176.552343 1.007531 -4.873947
0.0 0.0 0.0 0.0 0.0 0.0 0.0 0.0
150.0 0.055703 90.046071 0.295569 1.125943 0.295289 1.313323 0.050087 90.341416
1.011808 -6.396067 0.59883 -176.076336 0.298301 178.105391 0.050598 -92.866516
0.056218 -92.974481 0.298301 178.105391 0.612107 -175.959616 1.010809 -5.887051
0.0 0.0 0.0 0.0 0.0 0.0 0.0 0.0
175.0 0.065734 89.916128 0.298984 1.175925 0.298599 1.397677 0.059087 90.263825
1.016005 -7.523699 0.606022 -175.5657 0.302754 177.63521 0.059909 -93.498642
0.066563 -93.624587 0.302754 177.63521 0.619031 -175.41904 1.014651 -6.921282
0.0 0.0 0.0 0.0 0.0 0.0 0.0 0.0
200.0 0.076109 89.722789 0.302922 1.162486 0.302413 1.420105 0.068387 90.124326
1.020796 -8.680214 0.614293 -175.120139 0.307924 177.093743 0.069633 -94.202036
0.077365 -94.345954 0.307924 177.093743 0.62699 -174.938786 1.019038 -7.980329
0.0 0.0 0.0 0.0 0.0 0.0 0.0 0.0
225.0 0.086875 89.45709 0.307379 1.076658 0.306724 1.371879 0.078027 89.914194
1.026154 -9.870013 0.623629 -174.74823 0.313822 176.470793 0.079832 -94.986892
0.088696 -95.148775 0.313822 176.470793 0.635966 -174.526799 1.023946 -9.067933
0.0 0.0 0.0 0.0 0.0 0.0 0.0 0.0
250.0 0.098079 89.110111 0.312348 0.909519 0.311527 1.244337 0.088047 89.624769
1.032046 -11.097563 0.634006 -174.458289 0.320459 175.756172 0.090571 -95.863396
0.100625 -96.043236 0.320459 175.756172 0.645936 -174.190774 1.029345 -10.187872
0.0 0.0 0.0 0.0 0.0 0.0 0.0 0.0
275.0 0.109765 88.673005 0.317821 0.652218 0.316809 1.028898 0.098486 89.247472
1.038426 -12.367375 0.645396 -174.258342 0.327843 174.939711 0.101916 -96.841715
0.113227 -97.039502 0.327843 174.939711 0.656868 -173.938121 1.035196 -11.343934
0.0 0.0 0.0 0.0 0.0 0.0 0.0 0.0
300.0 0.121977 88.137026 0.323783 0.296003 0.322555 0.717101 0.109378 88.773847
1.04524 -13.683963 0.657761 -174.156091 0.335983 174.011286 0.113931 -97.931968
0.126573 -98.147691 0.335983 174.011286 0.668725 -173.775924 1.041451 -12.539883
0.0 0.0 0.0 0.0 0.0 0.0 0.0 0.0
325.0 0.134749 87.49358 0.330214 -0.167719 0.328744 0.300659 0.120754 88.195606
1.052419 -15.051784 0.67105 -174.158862 0.34488 172.960869 0.126681 -99.144184
0.140734 -99.377832 0.34488 172.960869 0.681453 -173.710885 1.048051 -13.779394
0.0 0.0 0.0 0.0 0.0 0.0 0.0 0.0
350.0 0.148116 86.734302 0.337088 -0.747321 0.335348 -0.228471 0.13264 87.504713
1.059882 -16.475158 0.685199 -174.273533 0.354533 171.778584 0.140229 -100.488232
0.155781 -100.739793 0.354533 171.778584 0.694988 -173.749248 1.054925 -15.065978
0.0 0.0 0.0 0.0 0.0 0.0 0.0 0.0
375.0 0.1621 85.851155 0.344369 -1.450841 0.342328 -0.877974 0.145056 86.693482
1.067527 -17.958153 0.700126 -174.506439 0.36493 170.454812 0.154633 -101.973733
0.171778 -102.243192 0.36493 170.454812 0.709249 -173.896696 1.061986 -16.402875
0.0 0.0 0.0 0.0 0.0 0.0 0.0 0.0
400.0 0.176717 84.836568 0.35201 -2.285854 0.349637 -1.655044 0.15801 85.754722
1.075236 -19.50444 0.715728 -174.863237 0.376051 168.980312 0.169947 -103.609922
0.188785 -103.897266 0.376051 168.980312 0.724135 -174.158211 1.069134 -17.792918
0.0 0.0 0.0 0.0 0.0 0.0 0.0 0.0
425.0 0.191967 83.68362 0.359953 -3.259284 0.357214 -2.566197 0.171502 84.681921
1.082866 -21.117105 0.731879 -175.348734 0.387861 167.346399 0.186216 -105.405483
0.206851 -105.710696 0.387861 167.346399 0.739522 -174.537903 1.07625 -19.238364
0.0 0.0 0.0 0.0 0.0 0.0 0.0 0.0
450.0 0.207837 82.386267 0.368124 -4.37718 0.364986 -3.61704 0.185515 83.469473
1.090257 -22.798426 0.748426 -175.96667 0.400312 165.545163 0.203471 -107.368324
0.22601 -107.69139 0.400312 165.545163 0.755262 -175.03878 1.083198 -20.740688
0.0 0.0 0.0 0.0 0.0 0.0 0.0 0.0
475.0 0.224295 80.939618 0.376433 -5.644435 0.372861 -4.811991 0.200017 82.112965
1.097222 -24.549604 0.765184 -176.719442 0.413335 163.569733 0.221729 -109.505311
0.246282 -109.846214 0.413335 163.569733 0.77118 -175.662486 1.089826 -22.30035
0.0 0.0 0.0 0.0 0.0 0.0 0.0 0.0
500.0 0.241284 79.340268 0.384772 -7.064459 0.380732 -6.153944 0.214956 80.609503
1.103557 -26.370458 0.78194 -177.607795 0.426838 161.4146 0.240986 -111.821953
0.267662 -112.180674 0.426838 161.4146 0.787073 -176.408989 1.095967 -23.916527
0.0 0.0 0.0 0.0 0.0 0.0 0.0 0.0
525.0 0.258724 77.586656 0.393016 -8.638814 0.388476 -7.643908 0.230257 78.958082
1.109041 -28.259105 0.798447 -178.630468 0.440707 159.075969 0.261214 -114.322041
0.290119 -114.698561 0.440707 159.075969 0.802711 -177.276236 1.101442 -25.586851
0.0 0.0 0.0 0.0 0.0 0.0 0.0 0.0
550.0 0.276507 75.679461 0.401022 -10.366826 0.395952 -9.280609 0.245821 77.159977
1.113442 -30.211631 0.814432 -179.783822 0.454802 156.552138 0.282357 -117.007276
0.313588 -117.401574 0.454802 156.552138 0.81784 -178.259799 1.106071 -27.307136
0.0 0.0 0.0 0.0 0.0 0.0 0.0 0.0
575.0 0.294495 73.621984 0.408631 -12.245199 0.403004 -11.060107 0.261525 75.219133
1.11653 -32.221798 0.829598 178.938516 0.468957 153.843869 0.304325 -119.876892
0.337972 -120.288948 0.468957 153.843869 0.83219 -179.352538 1.109678 -29.071178
0.0 0.0 0.0 0.0 0.0 0.0 0.0 0.0
600.0 0.312524 71.42048 0.415674 -14.267679 0.40947 -12.975457 0.277222 73.142495
1.118086 -34.28083 0.843635 177.545963 0.482985 150.954715 0.326994 -122.927333
0.363132 -123.357126 0.482985 150.954715 0.845483 179.455672 1.112103 -30.870627
0.0 0.0 0.0 0.0 0.0 0.0 0.0 0.0
625.0 0.330402 69.08441 0.421976 -16.424809 0.415181 -15.016462 0.292744 70.940263
1.117923 -36.377326 0.856235 176.051176 0.49668 147.891253 0.350209 -126.152022
0.388894 -126.599528 0.49668 147.891253 0.857449 178.178097 1.113218 -32.695011
0.0 0.0 0.0 0.0 0.0 0.0 0.0 0.0
650.0 0.347919 66.626536 0.427365 -18.70383 0.419974 -17.169576 0.307905 68.625987
1.115897 -38.497359 0.867105 174.470096 0.509823 144.663174 0.373779 -129.541263
0.415049 -130.00646 0.509823 144.663174 0.867839 176.831129 1.112943 -34.531953
0.0 0.0 0.0 0.0 0.0 0.0 0.0 0.0
675.0 0.364855 64.062833 0.431681 -21.088773 0.423699 -19.417996 0.322516 66.216471
1.11193 -40.624819 0.875991 172.821781 0.522197 141.283178 0.397492 -133.082354
0.441358 -133.565216 0.522197 141.283178 0.876448 175.434041 1.111254 -36.36762
0.0 0.0 0.0 0.0 0.0 0.0 0.0 0.0
700.0 0.380987 61.412165 0.434787 -23.560775 0.42623 -21.741986 0.336386 63.731456
1.106024 -42.74201 0.882695 171.127981 0.533593 137.766652 0.421118 -136.759907
0.467567 -137.260409 0.533593 137.766652 0.883133 174.008481 1.108203 -38.187436
0.0 0.0 0.0 0.0 0.0 0.0 0.0 0.0
725.0 0.396106 58.695736 0.436575 -26.098635 0.427473 -24.119436 0.349337 61.19305
1.098268 -44.830534 0.887093 169.412461 0.543823 134.131105 0.444419 -140.556408
0.493413 -141.074524 0.543823 134.131105 0.887827 172.577675 1.103919 -39.977022
0.0 0.0 0.0 0.0 0.0 0.0 0.0 0.0
750.0 0.410025 55.936336 0.436978 -28.679568 0.427376 -26.526635 0.361216 58.624971
1.088847 -46.872388 0.889151 167.70008 0.552733 130.395416 0.467167 -144.452978
0.518641 -144.98868 0.552733 130.395416 0.890555 171.165389 1.09861 -41.723321
0.0 0.0 0.0 0.0 0.0 0.0 0.0 0.0
775.0 0.422591 53.157429 0.435972 -31.280113 0.425929 -28.939189 0.371903 56.051613
1.078033 -48.851224 0.888933 166.015684 0.56021 126.578923 0.489151 -148.430275
0.543016 -148.983535 0.56021 126.578923 0.891437 169.794683 1.092551 -43.415794
0.0 0.0 0.0 0.0 0.0 0.0 0.0 0.0
800.0 0.433696 50.382195 0.43358 -33.877093 0.423168 -31.333014 0.381315 53.497063
1.066173 -50.753634 0.886598 164.3829 0.566184 122.700471 0.510187 -152.469453
0.566335 -153.040242 0.566184 122.700471 0.890688 168.486572 1.086075 -45.047553
0.0 0.0 0.0 0.0 0.0 0.0 0.0 0.0
825.0 0.443275 47.632597 0.429863 -36.448548 0.419169 -33.685297 0.389416 50.984137
1.053666 -52.570337 0.882393 162.822926 0.570632 118.777496 0.530128 -156.553071
0.588435 -157.14136 0.570632 118.777496 0.888601 167.258691 1.079541 -46.61628
0.0 0.0 0.0 0.0 0.0 0.0 0.0 0.0
850.0 0.45131 44.928584 0.424922 -38.974532 0.414047 -35.975338 0.396209 48.533536
1.040935 -54.297118 0.876639 161.353424 0.573574 114.825255 0.548862 -160.665871
0.609192 -161.271628 0.573574 114.825255 0.885538 166.124096 1.073314 -48.124795
0.0 0.0 0.0 0.0 0.0 0.0 0.0 0.0
875.0 0.457827 42.287497 0.418883 -41.43771 0.407942 -38.185207 0.401738 46.163194
1.028402 -55.935409 0.869709 159.987582 0.575061 110.85627 0.566315 -164.795329
0.628524 -165.418523 0.575061 110.85627 0.881897 165.090304 1.067734 -49.581188
0.0 0.0 0.0 0.0 0.0 0.0 0.0 0.0
900.0 0.462886 39.723699 0.411891 -43.823719 0.401011 -40.300173 0.406081 43.887844
1.016452 -57.492441 0.862001 158.733428 0.57517 106.880016 0.582443 -168.931967
0.646382 -169.572565 0.57517 106.880016 0.878094 164.158652 1.063091 -50.998474
0.0 0.0 0.0 0.0 0.0 0.0 0.0 0.0
925.0 0.466577 37.248464 0.404098 -46.121291 0.39342 -42.308917 0.409342 41.718807
1.005416 -58.980928 0.853922 157.593405 0.573993 102.902885 0.597224 -173.069391
0.662741 -173.727361 0.573993 102.902885 0.874534 163.324061 1.059607 -52.393817
0.0 0.0 0.0 0.0 0.0 0.0 0.0 0.0
950.0 0.469007 34.870064 0.395657 -48.322155 0.385332 -44.203532 0.411641 39.663994
0.995547 -60.41832 0.845859 156.564253 0.571623 98.928374 0.610652 -177.204101
0.677596 -177.879408 0.571623 98.928374 0.871585 162.575205 1.057417 -53.787402
0.0 0.0 0.0 0.0 0.0 0.0 0.0 0.0
975.0 0.470293 32.594039 0.386714 -50.420775 0.376904 -45.979379 0.413107 37.728044
0.987008 -61.825684 0.838162 155.637179 0.568149 94.957484 0.622723 178.664907
0.690942 177.972299 0.568149 94.957484 0.869558 161.895118 1.056563 -55.201105
0.0 0.0 0.0 0.0 0.0 0.0 0.0 0.0
1000.0 0.470557 30.423579 0.377402 -52.413965 0.36828 -47.634828 0.413876 35.91259
0.979864 -63.226344 0.831128 154.798324 0.563646 90.989265 0.633431 174.536683
0.702772 173.826809 0.563646 90.989265 0.868694 161.262196 1.056993 -56.65709
0.0 0.0 0.0 0.0 0.0 0.0 0.0 0.0
1025.0 0.469916 28.35997 0.367841 -54.300442 0.359586 -49.170937 0.414076 34.216578
0.974085 -64.644381 0.824989 154.029527 0.558174 87.021448 0.642757 170.408964
0.713066 169.68186 0.558174 87.021448 0.869147 160.651531 1.05856 -58.176462
0.0 0.0 0.0 0.0 0.0 0.0 0.0 0.0
1050.0 0.468484 26.40306 0.358132 -56.08036 0.350932 -50.591101 0.413832 32.636615
0.969547 -66.103141 0.8199 153.309345 0.551772 83.051149 0.650669 166.278865
0.721789 165.53457 0.551772 83.051149 0.870978 160.036494 1.061038 -59.778092
0.0 0.0 0.0 0.0 0.0 0.0 0.0 0.0
1075.0 0.466363 24.551704 0.348363 -57.754869 0.342408 -51.900696 0.413255 31.167325
0.966041 -67.623856 0.815938 152.614312 0.544461 79.075565 0.657115 162.143586
0.728884 161.382138 0.544461 79.075565 0.874152 159.390437 1.064123 -61.477643
0.0 0.0 0.0 0.0 0.0 0.0 0.0 0.0
1100.0 0.463647 22.804162 0.338606 -59.325711 0.334084 -53.106723 0.412445 29.801713
0.963288 -69.224464 0.813098 151.920357 0.536249 75.092652 0.662029 158.001088
0.734276 157.222526 0.536249 75.092652 0.878546 158.688375 1.067453 -63.286859
0.0 0.0 0.0 0.0 0.0 0.0 0.0 0.0
1125.0 0.460423 21.158421 0.328921 -60.794903 0.326015 -54.217447 0.411486 28.531513
0.960956 -70.9187 0.811298 151.204294 0.52713 71.101748 0.665327 153.850709
0.737875 153.055072 0.52713 71.101748 0.883946 157.908515 1.070624 -65.213079
0.0 0.0 0.0 0.0 0.0 0.0 0.0 0.0
1150.0 0.456766 19.612432 0.319355 -62.164496 0.318237 -55.242035 0.410448 27.347563
0.958674 -72.715473 0.810383 150.445258 0.517092 67.104086 0.666922 149.693684
0.739583 148.881014 0.517092 67.104086 0.89007 157.033512 1.073206 -67.258992
0.0 0.0 0.0 0.0 0.0 0.0 0.0 0.0
1175.0 0.452747 18.164259 0.30995 -63.436431 0.310771 -56.190171 0.409383 26.24018
0.956052 -74.618546 0.810137 149.625975 0.506126 63.103194 0.666726 145.533545
0.739304 144.703883 0.506126 63.103194 0.896577 156.051363 1.074764 -69.4226
0.0 0.0 0.0 0.0 0.0 0.0 0.0 0.0
1200.0 0.448433 16.81212 0.300738 -64.612491 0.303626 -57.071666 0.408329 25.199555
0.952707 -76.626515 0.8103 148.733741 0.494232 59.105121 0.664662 141.376342
0.736952 140.529732 0.494232 59.105121 0.903087 154.955889 1.07488 -71.697382
0.0 0.0 0.0 0.0 0.0 0.0 0.0 0.0
1225.0 0.443884 15.554344 0.291749 -65.69435 0.296799 -57.896054 0.407307 24.216157
0.94828 -78.733064 0.810582 147.761027 0.481423 55.118486 0.660674 137.230698
0.732466 136.367181 0.481423 55.118486 0.909208 153.746792 1.073175 -74.072646
0.0 0.0 0.0 0.0 0.0 0.0 0.0 0.0
1250.0 0.439162 14.389256 0.283008 -66.683689 0.290276 -58.672211 0.406328 23.281113
0.942458 -80.92747 0.810684 146.705659 0.467737 51.154314 0.654737 133.107638
0.725819 132.227259 0.467737 51.154314 0.914556 152.429326 1.069329 -76.534064
0.0 0.0 0.0 0.0 0.0 0.0 0.0 0.0
1275.0 0.434325 13.314999 0.274535 -67.582366 0.284038 -59.408011 0.405387 22.38655
0.934989 -83.195331 0.810322 145.570589 0.453233 47.225678 0.646867 129.020239
0.71703 128.123043 0.453233 47.225678 0.918778 151.013625 1.063097 -79.064363
0.0 0.0 0.0 0.0 0.0 0.0 0.0 0.0
1300.0 0.429428 12.329352 0.266352 -68.392604 0.27806 -60.110073 0.404474 21.525851
0.925698 -85.519443 0.809236 144.363285 0.437998 43.347164 0.637124 124.983089
0.706165 124.069121 0.437998 43.347164 0.921572 149.513769 1.054327 -81.644145
0.0 0.0 0.0 0.0 0.0 0.0 0.0 0.0
1325.0 0.424527 11.429557 0.258474 -69.117166 0.272317 -60.783602 0.403571 20.693815
0.914493 -87.880786 0.807214 143.094858 0.422144 39.534206 0.625614 121.011623
0.693343 120.080929 0.422144 39.534206 0.922704 147.946696 1.042961 -84.252789
0.0 0.0 0.0 0.0 0.0 0.0 0.0 0.0
1350.0 0.419671 10.612197 0.250915 -69.759472 0.26678 -61.432354 0.402657 19.886687
0.901365 -90.259537 0.804098 141.779007 0.405803 35.802352 0.612488 117.121394
0.678731 116.174021 0.405803 35.802352 0.922016 146.331047 1.029038 -86.869371
0.0 0.0 0.0 0.0 0.0 0.0 0.0 0.0
1375.0 0.414905 9.873146 0.243683 -70.323649 0.261426 -62.058722 0.401712 19.102077
0.886386 -92.636031 0.799792 140.430919 0.389122 32.166544 0.597933 113.327343
0.662538 112.363339 0.389122 32.166544 0.91943 144.686046 1.012689 -89.473534
0.0 0.0 0.0 0.0 0.0 0.0 0.0 0.0
1400.0 0.41027 9.207605 0.236783 -70.814501 0.256233 -62.663913 0.400717 18.338779
0.869692 -94.991604 0.794256 139.066234 0.372258 28.640457 0.582166 109.64315
0.645004 108.662563 0.372258 28.640457 0.914946 143.030502 0.994117 -92.046258
0.0 0.0 0.0 0.0 0.0 0.0 0.0 0.0
1425.0 0.405796 8.610207 0.230217 -71.237397 0.251182 -63.248194 0.399658 17.59653
0.851477 -97.309273 0.787508 137.700138 0.355363 25.235978 0.565421 106.080702
0.626388 105.083582 0.355363 25.235978 0.90863 141.38199 0.973586 -94.570462
0.0 0.0 0.0 0.0 0.0 0.0 0.0 0.0
1450.0 0.40151 8.075183 0.223981 -71.59811 0.246261 -63.811161 0.398523 16.875734
0.831969 -99.574221 0.77961 136.34666 0.338588 21.96284 0.547935 102.649736
0.606955 101.636133 0.338588 21.96284 0.900606 139.756249 0.951398 -97.031423
0.0 0.0 0.0 0.0 0.0 0.0 0.0 0.0
1475.0 0.397427 7.596559 0.218068 -71.902615 0.241458 -64.352012 0.397307 16.177197
0.811418 -101.774074 0.770662 135.018178 0.322066 18.82843 0.529943 99.357639
0.586965 98.327603 0.322066 18.82843 0.891038 138.166798 0.927873 -99.417009
0.0 0.0 0.0 0.0 0.0 0.0 0.0 0.0
1500.0 0.393559 7.168357 0.212467 -72.156894 0.236769 -64.869774 0.39601 15.501895
0.790079 -103.898998 0.760788 133.72514 0.305917 15.837752 0.511666 96.209421
0.566661 95.163003 0.305917 15.837752 0.880118 136.624759 0.903337 -101.717728
0.0 0.0 0.0 0.0 0.0 0.0 0.0 0.0
1525.0 0.389909 6.784775 0.207165 -72.366751 0.232188 -65.363488 0.394635 14.850786
0.768201 -105.94164 0.750125 132.47596 0.29024 12.993537 0.493303 93.207811
0.546266 92.145064 0.29024 12.993537 0.86805 135.138853 0.8781 -103.926642
0.0 0.0 0.0 0.0 0.0 0.0 0.0 0.0
1550.0 0.386476 6.440338 0.202147 -72.537666 0.227714 -65.832348 0.393188 14.224681
0.746015 -107.896954 0.738817 131.277061 0.275112 10.296439 0.475029 90.353468
0.525974 89.274443 0.275112 10.296439 0.855043 133.715525 0.852449 -106.03916
0.0 0.0 0.0 0.0 0.0 0.0 0.0 0.0
1575.0 0.383254 6.13 0.197397 -72.674687 0.223346 -66.275773 0.391678 13.624162
0.72373 -109.761947 0.727005 130.133017 0.260592 7.745303 0.456994 87.645238
0.50595 86.549989 0.260592 7.745303 0.841295 132.359162 0.826645 -108.052767
0.0 0.0 0.0 0.0 0.0 0.0 0.0 0.0
1600.0 0.380234 5.849207 0.192897 -72.782369 0.219086 -66.693453 0.390114 13.049541
0.701528 -111.53539 0.714823 129.046764 0.246721 5.337466 0.439321 85.08046
0.486329 83.969042 0.246721 5.337466 0.826994 131.072355 0.800909 -109.966722
0.0 0.0 0.0 0.0 0.0 0.0 0.0 0.0
1625.0 0.377406 5.593926 0.188633 -72.864749 0.214934 -67.085349 0.388507 12.500859
0.679564 -113.217513 0.702391 128.019835 0.233522 3.069056 0.422104 82.655265
0.467218 81.527731 0.233522 3.069056 0.812308 129.856187 0.775433 -111.781738
0.0 0.0 0.0 0.0 0.0 0.0 0.0 0.0
1650.0 0.374759 5.360638 0.184586 -72.92535 0.210891 -67.451681 0.386867 11.9779
0.657965 -114.809712 0.68982 127.052604 0.221004 0.935282 0.405418 80.364862
0.448697 79.221269 0.221004 0.935282 0.797389 128.710515 0.75037 -113.499686
0.0 0.0 0.0 0.0 0.0 0.0 0.0 0.0
1675.0 0.372278 5.14631 0.180741 -72.967205 0.206958 -67.792889 0.385206 11.480223
0.636831 -116.314285 0.677203 126.144525 0.209166 -1.06931 0.389316 78.203802
0.430827 77.044205 0.209166 -1.06931 0.782364 127.634231 0.725845 -115.123318
0.0 0.0 0.0 0.0 0.0 0.0 0.0 0.0
1700.0 0.369953 4.948358 0.177084 -72.992903 0.203134 -68.109606 0.383532 11.0072
0.616242 -117.734187 0.664621 125.294332 0.197997 -2.950607 0.373832 76.166198
0.413644 74.990654 0.197997 -2.950607 0.767343 126.625493 0.701951 -116.656028
0.0 0.0 0.0 0.0 0.0 0.0 0.0 0.0
1725.0 0.367771 4.764595 0.1736 -73.004633 0.19942 -68.402608 0.381855 10.558055
0.596255 -119.07284 0.652142 124.500235 0.187477 -4.714745 0.358987 74.245918
0.39717 73.054484 0.187477 -4.714745 0.752418 125.681928 0.67876 -118.101649
0.0 0.0 0.0 0.0 0.0 0.0 0.0 0.0
1750.0 0.36572 4.593185 0.170277 -73.004234 0.195814 -68.672784 0.380181 10.131902
0.576909 -120.333958 0.63982 123.760067 0.177585 -6.367951 0.344788 72.436736
0.381415 71.229468 0.177585 -6.367951 0.737662 124.800797 0.65632 -119.464287
0.0 0.0 0.0 0.0 0.0 0.0 0.0 0.0
1775.0 0.363789 4.432588 0.167103 -72.993248 0.192316 -68.921096 0.378518 9.727782
0.558231 -121.521419 0.627699 123.071414 0.168292 -7.916428 0.331234 70.732449
0.366377 69.509408 0.168292 -7.916428 0.723135 123.979134 0.634661 -120.748186
0.0 0.0 0.0 0.0 0.0 0.0 0.0 0.0
1800.0 0.361968 4.281521 0.164068 -72.972961 0.188923 -69.148553 0.376871 9.344685
0.540233 -122.639158 0.615813 122.43172 0.159569 -9.366262 0.318314 69.126977
0.352043 67.88822 0.159569 -9.366262 0.708883 123.213849 0.613801 -121.957625
0.0 0.0 0.0 0.0 0.0 0.0 0.0 0.0
