! File created by SignalIntegrity v1.4.1: Signal and Power Integrity Tools
! https://github.com/Nubis-Communications/SignalIntegrity
# MHz S MA R 50.0
0.0 0.9999 0.0 0.0 0.0 0.0 0.0 0.9999 0.0
0.0 0.0 0.0 0.0 0.9999 0.0 0.0 0.0
0.0 0.0
500.0 1.000023 -0.046799 0.0 0.0 0.0 0.0 1.000023 -0.046799
0.0 0.0 0.0 0.0 1.000023 -0.046799 0.0 0.0
0.0 0.0
1000.0 1.000392 -0.093621 0.0 0.0 0.0 0.0 1.000392 -0.093621
0.0 0.0 0.0 0.0 1.000392 -0.093621 0.0 0.0
0.0 0.0
1500.0 1.001008 -0.14049 0.0 0.0 0.0 0.0 1.001008 -0.140489
0.0 0.0 0.0 0.0 1.001008 -0.140489 0.0 0.0
0.0 0.0
2000.0 1.001872 -0.187427 0.0 0.0 0.0 0.0 1.001872 -0.187427
0.0 0.0 0.0 0.0 1.001872 -0.187427 0.0 0.0
0.0 0.0
2500.0 1.002984 -0.234458 0.0 0.0 0.0 0.0 1.002984 -0.234457
0.0 0.0 0.0 0.0 1.002984 -0.234457 0.0 0.0
0.0 0.0
3000.0 1.004345 -0.281604 0.0 0.0 0.0 0.0 1.004345 -0.281602
0.0 0.0 0.0 0.0 1.004345 -0.281602 0.0 0.0
0.0 0.0
3500.0 1.005959 -0.32889 0.0 0.0 0.0 0.0 1.005959 -0.328887
0.0 0.0 0.0 0.0 1.005959 -0.328887 0.0 0.0
0.0 0.0
4000.0 1.007825 -0.37634 0.0 0.0 0.0 0.0 1.007826 -0.376336
0.0 0.0 0.0 0.0 1.007826 -0.376336 0.0 0.0
0.0 0.0
4500.0 1.009948 -0.423979 0.0 0.0 0.0 0.0 1.009948 -0.423972
0.0 0.0 0.0 0.0 1.009948 -0.423972 0.0 0.0
0.0 0.0
5000.0 1.01233 -0.47183 0.0 0.0 0.0 0.0 1.01233 -0.471821
0.0 0.0 0.0 0.0 1.01233 -0.471821 0.0 0.0
0.0 0.0
5500.0 1.014972 -0.519919 0.0 0.0 0.0 0.0 1.014973 -0.519908
0.0 0.0 0.0 0.0 1.014973 -0.519908 0.0 0.0
0.0 0.0
6000.0 1.01788 -0.568272 0.0 0.0 0.0 0.0 1.017881 -0.568257
0.0 0.0 0.0 0.0 1.017881 -0.568257 0.0 0.0
0.0 0.0
6500.0 1.021057 -0.616915 0.0 0.0 0.0 0.0 1.021057 -0.616896
0.0 0.0 0.0 0.0 1.021057 -0.616896 0.0 0.0
0.0 0.0
7000.0 1.024506 -0.665874 0.0 0.0 0.0 0.0 1.024507 -0.665851
0.0 0.0 0.0 0.0 1.024507 -0.665851 0.0 0.0
0.0 0.0
7500.0 1.028232 -0.715177 0.0 0.0 0.0 0.0 1.028234 -0.715149
0.0 0.0 0.0 0.0 1.028234 -0.715149 0.0 0.0
0.0 0.0
8000.0 1.032241 -0.764853 0.0 0.0 0.0 0.0 1.032242 -0.764818
0.0 0.0 0.0 0.0 1.032242 -0.764818 0.0 0.0
0.0 0.0
8500.0 1.036536 -0.81493 0.0 0.0 0.0 0.0 1.036539 -0.814888
0.0 0.0 0.0 0.0 1.036539 -0.814888 0.0 0.0
0.0 0.0
9000.0 1.041125 -0.865438 0.0 0.0 0.0 0.0 1.041128 -0.865388
0.0 0.0 0.0 0.0 1.041128 -0.865388 0.0 0.0
0.0 0.0
9500.0 1.046013 -0.916407 0.0 0.0 0.0 0.0 1.046017 -0.916349
0.0 0.0 0.0 0.0 1.046017 -0.916349 0.0 0.0
0.0 0.0
10000.0 1.051207 -0.967871 0.0 0.0 0.0 0.0 1.051212 -0.967803
0.0 0.0 0.0 0.0 1.051212 -0.967803 0.0 0.0
0.0 0.0
10500.0 1.056714 -1.01986 0.0 0.0 0.0 0.0 1.056719 -1.019782
0.0 0.0 0.0 0.0 1.056719 -1.019782 0.0 0.0
0.0 0.0
11000.0 1.062542 -1.07241 0.0 0.0 0.0 0.0 1.062548 -1.072321
0.0 0.0 0.0 0.0 1.062548 -1.072321 0.0 0.0
0.0 0.0
11500.0 1.068698 -1.125557 0.0 0.0 0.0 0.0 1.068706 -1.125454
0.0 0.0 0.0 0.0 1.068706 -1.125454 0.0 0.0
0.0 0.0
12000.0 1.075192 -1.179336 0.0 0.0 0.0 0.0 1.075202 -1.179219
0.0 0.0 0.0 0.0 1.075202 -1.179219 0.0 0.0
0.0 0.0
12500.0 1.082033 -1.233786 0.0 0.0 0.0 0.0 1.082044 -1.233654
0.0 0.0 0.0 0.0 1.082044 -1.233654 0.0 0.0
0.0 0.0
13000.0 1.089231 -1.288947 0.0 0.0 0.0 0.0 1.089245 -1.288799
0.0 0.0 0.0 0.0 1.089245 -1.288799 0.0 0.0
0.0 0.0
13500.0 1.096797 -1.34486 0.0 0.0 0.0 0.0 1.096813 -1.344695
0.0 0.0 0.0 0.0 1.096813 -1.344695 0.0 0.0
0.0 0.0
14000.0 1.104742 -1.40157 0.0 0.0 0.0 0.0 1.104761 -1.401386
0.0 0.0 0.0 0.0 1.104761 -1.401386 0.0 0.0
0.0 0.0
14500.0 1.113079 -1.459122 0.0 0.0 0.0 0.0 1.113101 -1.458918
0.0 0.0 0.0 0.0 1.113101 -1.458918 0.0 0.0
0.0 0.0
15000.0 1.12182 -1.517563 0.0 0.0 0.0 0.0 1.121845 -1.517338
0.0 0.0 0.0 0.0 1.121845 -1.517338 0.0 0.0
0.0 0.0
15500.0 1.13098 -1.576945 0.0 0.0 0.0 0.0 1.131009 -1.576697
0.0 0.0 0.0 0.0 1.131009 -1.576697 0.0 0.0
0.0 0.0
16000.0 1.140573 -1.637319 0.0 0.0 0.0 0.0 1.140606 -1.637047
0.0 0.0 0.0 0.0 1.140606 -1.637047 0.0 0.0
0.0 0.0
16500.0 1.150615 -1.698741 0.0 0.0 0.0 0.0 1.150653 -1.698443
0.0 0.0 0.0 0.0 1.150653 -1.698443 0.0 0.0
0.0 0.0
17000.0 1.161123 -1.76127 0.0 0.0 0.0 0.0 1.161167 -1.760945
0.0 0.0 0.0 0.0 1.161167 -1.760945 0.0 0.0
0.0 0.0
17500.0 1.172116 -1.824967 0.0 0.0 0.0 0.0 1.172166 -1.824614
0.0 0.0 0.0 0.0 1.172166 -1.824614 0.0 0.0
0.0 0.0
18000.0 1.183611 -1.889898 0.0 0.0 0.0 0.0 1.183668 -1.889515
0.0 0.0 0.0 0.0 1.183668 -1.889515 0.0 0.0
0.0 0.0
18500.0 1.195631 -1.956131 0.0 0.0 0.0 0.0 1.195696 -1.955718
0.0 0.0 0.0 0.0 1.195696 -1.955718 0.0 0.0
0.0 0.0
19000.0 1.208197 -2.02374 0.0 0.0 0.0 0.0 1.20827 -2.023294
0.0 0.0 0.0 0.0 1.20827 -2.023294 0.0 0.0
0.0 0.0
19500.0 1.221333 -2.092803 0.0 0.0 0.0 0.0 1.221415 -2.092323
0.0 0.0 0.0 0.0 1.221415 -2.092323 0.0 0.0
0.0 0.0
20000.0 1.235063 -2.163402 0.0 0.0 0.0 0.0 1.235157 -2.162887
0.0 0.0 0.0 0.0 1.235157 -2.162887 0.0 0.0
0.0 0.0
20500.0 1.249416 -2.235623 0.0 0.0 0.0 0.0 1.249521 -2.235072
0.0 0.0 0.0 0.0 1.249521 -2.235072 0.0 0.0
0.0 0.0
21000.0 1.26442 -2.309562 0.0 0.0 0.0 0.0 1.264538 -2.308973
0.0 0.0 0.0 0.0 1.264538 -2.308973 0.0 0.0
0.0 0.0
21500.0 1.280106 -2.385316 0.0 0.0 0.0 0.0 1.280238 -2.384689
0.0 0.0 0.0 0.0 1.280238 -2.384689 0.0 0.0
0.0 0.0
22000.0 1.296508 -2.462993 0.0 0.0 0.0 0.0 1.296656 -2.462326
0.0 0.0 0.0 0.0 1.296656 -2.462326 0.0 0.0
0.0 0.0
22500.0 1.313661 -2.542706 0.0 0.0 0.0 0.0 1.313827 -2.541999
0.0 0.0 0.0 0.0 1.313827 -2.541999 0.0 0.0
0.0 0.0
23000.0 1.331604 -2.624577 0.0 0.0 0.0 0.0 1.33179 -2.623829
0.0 0.0 0.0 0.0 1.33179 -2.623829 0.0 0.0
0.0 0.0
23500.0 1.35038 -2.708737 0.0 0.0 0.0 0.0 1.350587 -2.707946
0.0 0.0 0.0 0.0 1.350587 -2.707946 0.0 0.0
0.0 0.0
24000.0 1.370032 -2.795325 0.0 0.0 0.0 0.0 1.370263 -2.794493
0.0 0.0 0.0 0.0 1.370263 -2.794493 0.0 0.0
0.0 0.0
24500.0 1.390609 -2.884493 0.0 0.0 0.0 0.0 1.390867 -2.883618
0.0 0.0 0.0 0.0 1.390867 -2.883618 0.0 0.0
0.0 0.0
25000.0 1.412165 -2.976402 0.0 0.0 0.0 0.0 1.412451 -2.975487
0.0 0.0 0.0 0.0 1.412451 -2.975487 0.0 0.0
0.0 0.0
25500.0 1.434754 -3.07123 0.0 0.0 0.0 0.0 1.435073 -3.070273
0.0 0.0 0.0 0.0 1.435073 -3.070273 0.0 0.0
0.0 0.0
26000.0 1.45844 -3.169165 0.0 0.0 0.0 0.0 1.458794 -3.168169
0.0 0.0 0.0 0.0 1.458794 -3.168169 0.0 0.0
0.0 0.0
26500.0 1.483288 -3.270413 0.0 0.0 0.0 0.0 1.483682 -3.269378
0.0 0.0 0.0 0.0 1.483682 -3.269378 0.0 0.0
0.0 0.0
27000.0 1.509372 -3.375196 0.0 0.0 0.0 0.0 1.50981 -3.374126
0.0 0.0 0.0 0.0 1.50981 -3.374126 0.0 0.0
0.0 0.0
27500.0 1.53677 -3.483758 0.0 0.0 0.0 0.0 1.537256 -3.482655
0.0 0.0 0.0 0.0 1.537256 -3.482655 0.0 0.0
0.0 0.0
28000.0 1.565569 -3.596362 0.0 0.0 0.0 0.0 1.566108 -3.59523
0.0 0.0 0.0 0.0 1.566108 -3.59523 0.0 0.0
0.0 0.0
28500.0 1.595862 -3.713295 0.0 0.0 0.0 0.0 1.59646 -3.712139
0.0 0.0 0.0 0.0 1.59646 -3.712139 0.0 0.0
0.0 0.0
29000.0 1.627753 -3.834873 0.0 0.0 0.0 0.0 1.628417 -3.833698
0.0 0.0 0.0 0.0 1.628417 -3.833698 0.0 0.0
0.0 0.0
29500.0 1.661355 -3.961441 0.0 0.0 0.0 0.0 1.662092 -3.960255
0.0 0.0 0.0 0.0 1.662092 -3.960255 0.0 0.0
0.0 0.0
30000.0 1.696792 -4.093377 0.0 0.0 0.0 0.0 1.69761 -4.092187
0.0 0.0 0.0 0.0 1.69761 -4.092187 0.0 0.0
0.0 0.0
30500.0 1.734201 -4.231098 0.0 0.0 0.0 0.0 1.73511 -4.229916
0.0 0.0 0.0 0.0 1.73511 -4.229916 0.0 0.0
0.0 0.0
31000.0 1.773734 -4.375064 0.0 0.0 0.0 0.0 1.774743 -4.373902
0.0 0.0 0.0 0.0 1.774743 -4.373902 0.0 0.0
0.0 0.0
31500.0 1.815557 -4.525784 0.0 0.0 0.0 0.0 1.816678 -4.524656
0.0 0.0 0.0 0.0 1.816678 -4.524656 0.0 0.0
0.0 0.0
32000.0 1.859856 -4.683822 0.0 0.0 0.0 0.0 1.861102 -4.682747
0.0 0.0 0.0 0.0 1.861102 -4.682747 0.0 0.0
0.0 0.0
32500.0 1.906838 -4.849805 0.0 0.0 0.0 0.0 1.908224 -4.848804
0.0 0.0 0.0 0.0 1.908224 -4.848804 0.0 0.0
0.0 0.0
33000.0 1.956732 -5.024434 0.0 0.0 0.0 0.0 1.958275 -5.023532
0.0 0.0 0.0 0.0 1.958275 -5.023532 0.0 0.0
0.0 0.0
33500.0 2.009797 -5.208493 0.0 0.0 0.0 0.0 2.011515 -5.207719
0.0 0.0 0.0 0.0 2.011515 -5.207719 0.0 0.0
0.0 0.0
34000.0 2.066321 -5.40286 0.0 0.0 0.0 0.0 2.068236 -5.402251
0.0 0.0 0.0 0.0 2.068236 -5.402251 0.0 0.0
0.0 0.0
34500.0 2.12663 -5.608526 0.0 0.0 0.0 0.0 2.128767 -5.608123
0.0 0.0 0.0 0.0 2.128767 -5.608123 0.0 0.0
0.0 0.0
35000.0 2.19109 -5.82661 0.0 0.0 0.0 0.0 2.193479 -5.826464
0.0 0.0 0.0 0.0 2.193479 -5.826464 0.0 0.0
0.0 0.0
35500.0 2.26012 -6.058384 0.0 0.0 0.0 0.0 2.262793 -6.058555
0.0 0.0 0.0 0.0 2.262793 -6.058555 0.0 0.0
0.0 0.0
36000.0 2.334194 -6.305295 0.0 0.0 0.0 0.0 2.33719 -6.305855
0.0 0.0 0.0 0.0 2.33719 -6.305855 0.0 0.0
0.0 0.0
36500.0 2.413854 -6.569002 0.0 0.0 0.0 0.0 2.417217 -6.570037
0.0 0.0 0.0 0.0 2.417217 -6.570037 0.0 0.0
0.0 0.0
37000.0 2.499723 -6.851409 0.0 0.0 0.0 0.0 2.503506 -6.853023
0.0 0.0 0.0 0.0 2.503506 -6.853023 0.0 0.0
0.0 0.0
37500.0 2.592519 -7.15472 0.0 0.0 0.0 0.0 2.596785 -7.157037
0.0 0.0 0.0 0.0 2.596785 -7.157037 0.0 0.0
0.0 0.0
38000.0 2.693077 -7.481491 0.0 0.0 0.0 0.0 2.697897 -7.484665
0.0 0.0 0.0 0.0 2.697897 -7.484665 0.0 0.0
0.0 0.0
38500.0 2.802367 -7.834714 0.0 0.0 0.0 0.0 2.807827 -7.838927
0.0 0.0 0.0 0.0 2.807827 -7.838927 0.0 0.0
0.0 0.0
39000.0 2.921529 -8.2179 0.0 0.0 0.0 0.0 2.927732 -8.223379
0.0 0.0 0.0 0.0 2.927732 -8.223379 0.0 0.0
0.0 0.0
39500.0 3.051906 -8.635208 0.0 0.0 0.0 0.0 3.058976 -8.64223
0.0 0.0 0.0 0.0 3.058976 -8.64223 0.0 0.0
0.0 0.0
40000.0 3.195094 -9.091592 0.0 0.0 0.0 0.0 3.203181 -9.100502
0.0 0.0 0.0 0.0 3.203181 -9.100502 0.0 0.0
0.0 0.0
40500.0 3.353002 -9.593004 0.0 0.0 0.0 0.0 3.362289 -9.60423
0.0 0.0 0.0 0.0 3.362289 -9.60423 0.0 0.0
0.0 0.0
41000.0 3.527932 -10.14665 0.0 0.0 0.0 0.0 3.538644 -10.160732
0.0 0.0 0.0 0.0 3.538644 -10.160732 0.0 0.0
0.0 0.0
41500.0 3.722681 -10.761339 0.0 0.0 0.0 0.0 3.735096 -10.778962
0.0 0.0 0.0 0.0 3.735096 -10.778962 0.0 0.0
0.0 0.0
42000.0 3.940681 -11.447947 0.0 0.0 0.0 0.0 3.955149 -11.469986
0.0 0.0 0.0 0.0 3.955149 -11.469986 0.0 0.0
0.0 0.0
42500.0 4.186179 -12.220047 0.0 0.0 0.0 0.0 4.203142 -12.247637
0.0 0.0 0.0 0.0 4.203142 -12.247637 0.0 0.0
0.0 0.0
43000.0 4.464494 -13.094786 0.0 0.0 0.0 0.0 4.484518 -13.129414
0.0 0.0 0.0 0.0 4.484518 -13.129414 0.0 0.0
0.0 0.0
43500.0 4.782351 -14.094112 0.0 0.0 0.0 0.0 4.80617 -14.137753
0.0 0.0 0.0 0.0 4.80617 -14.137753 0.0 0.0
0.0 0.0
44000.0 5.148362 -15.246533 0.0 0.0 0.0 0.0 5.176938 -15.301851
0.0 0.0 0.0 0.0 5.176938 -15.301851 0.0 0.0
0.0 0.0
44500.0 5.573682 -16.589677 0.0 0.0 0.0 0.0 5.608298 -16.660327
0.0 0.0 0.0 0.0 5.608298 -16.660327 0.0 0.0
0.0 0.0
45000.0 6.072947 -18.17409 0.0 0.0 0.0 0.0 6.115332 -18.265179
0.0 0.0 0.0 0.0 6.115332 -18.265179 0.0 0.0
0.0 0.0
45500.0 6.665564 -20.068993 0.0 0.0 0.0 0.0 6.718082 -20.187804
0.0 0.0 0.0 0.0 6.718082 -20.187804 0.0 0.0
0.0 0.0
46000.0 7.377495 -22.371146 0.0 0.0 0.0 0.0 7.443413 -22.528297
0.0 0.0 0.0 0.0 7.443413 -22.528297 0.0 0.0
0.0 0.0
46500.0 8.243525 -25.218701 0.0 0.0 0.0 0.0 8.327371 -25.430028
0.0 0.0 0.0 0.0 8.327371 -25.430028 0.0 0.0
0.0 0.0
47000.0 9.3096 -28.812885 0.0 0.0 0.0 0.0 9.417566 -29.102497
0.0 0.0 0.0 0.0 9.417566 -29.102497 0.0 0.0
0.0 0.0
47500.0 10.633235 -33.451008 0.0 0.0 0.0 0.0 10.77332 -33.856115
0.0 0.0 0.0 0.0 10.77332 -33.856115 0.0 0.0
0.0 0.0
48000.0 12.274997 -39.571474 0.0 0.0 0.0 0.0 12.455715 -40.149053
0.0 0.0 0.0 0.0 12.455715 -40.149053 0.0 0.0
0.0 0.0
48500.0 14.260328 -47.792262 0.0 0.0 0.0 0.0 14.48446 -48.624103
0.0 0.0 0.0 0.0 14.48446 -48.624103 0.0 0.0
0.0 0.0
49000.0 16.466254 -58.850743 0.0 0.0 0.0 0.0 16.712572 -60.030004
0.0 0.0 0.0 0.0 16.712572 -60.030004 0.0 0.0
0.0 0.0
49500.0 18.411174 -73.188791 0.0 0.0 0.0 0.0 18.607279 -74.748066
0.0 0.0 0.0 0.0 18.607279 -74.748066 0.0 0.0
0.0 0.0
50000.0 19.230769 -90.0 0.0 0.0 0.0 0.0 19.276378 -91.789034
0.0 0.0 0.0 0.0 19.276378 -91.789034 0.0 0.0
0.0 0.0
50500.0 18.411174 -106.811209 0.0 0.0 0.0 0.0 18.289586 -108.531468
0.0 0.0 0.0 0.0 18.289586 -108.531468 0.0 0.0
0.0 0.0
51000.0 16.466254 -121.149257 0.0 0.0 0.0 0.0 16.259079 -122.59479
0.0 0.0 0.0 0.0 16.259079 -122.59479 0.0 0.0
0.0 0.0
51500.0 14.260328 -132.207738 0.0 0.0 0.0 0.0 14.043587 -133.348875
0.0 0.0 0.0 0.0 14.043587 -133.348875 0.0 0.0
0.0 0.0
52000.0 12.274997 -140.428526 0.0 0.0 0.0 0.0 12.081324 -141.319073
0.0 0.0 0.0 0.0 12.081324 -141.319073 0.0 0.0
0.0 0.0
52500.0 10.633235 -146.548992 0.0 0.0 0.0 0.0 10.469266 -147.252575
0.0 0.0 0.0 0.0 10.469266 -147.252575 0.0 0.0
0.0 0.0
53000.0 9.3096 -151.187115 0.0 0.0 0.0 0.0 9.172639 -151.75442
0.0 0.0 0.0 0.0 9.172639 -151.75442 0.0 0.0
0.0 0.0
53500.0 8.243525 -154.781299 0.0 0.0 0.0 0.0 8.128806 -155.248661
0.0 0.0 0.0 0.0 8.128806 -155.248661 0.0 0.0
0.0 0.0
54000.0 7.377495 -157.628854 0.0 0.0 0.0 0.0 7.280533 -158.021676
0.0 0.0 0.0 0.0 7.280533 -158.021676 0.0 0.0
0.0 0.0
54500.0 6.665564 -159.931007 0.0 0.0 0.0 0.0 6.582698 -160.267114
0.0 0.0 0.0 0.0 6.582698 -160.267114 0.0 0.0
0.0 0.0
55000.0 6.072947 -161.82591 0.0 0.0 0.0 0.0 6.001326 -162.118002
0.0 0.0 0.0 0.0 6.001326 -162.118002 0.0 0.0
0.0 0.0
55500.0 5.573682 -163.410323 0.0 0.0 0.0 0.0 5.511115 -163.667617
0.0 0.0 0.0 0.0 5.511115 -163.667617 0.0 0.0
0.0 0.0
56000.0 5.148362 -164.753467 0.0 0.0 0.0 0.0 5.093162 -164.982782
0.0 0.0 0.0 0.0 5.093162 -164.982782 0.0 0.0
0.0 0.0
56500.0 4.782351 -165.905888 0.0 0.0 0.0 0.0 4.733213 -166.112365
0.0 0.0 0.0 0.0 4.733213 -166.112365 0.0 0.0
0.0 0.0
57000.0 4.464494 -166.905214 0.0 0.0 0.0 0.0 4.420397 -167.092794
0.0 0.0 0.0 0.0 4.420397 -167.092794 0.0 0.0
0.0 0.0
57500.0 4.186179 -167.779953 0.0 0.0 0.0 0.0 4.146316 -167.951706
0.0 0.0 0.0 0.0 4.146316 -167.951706 0.0 0.0
0.0 0.0
58000.0 3.940681 -168.552053 0.0 0.0 0.0 0.0 3.904408 -168.710408
0.0 0.0 0.0 0.0 3.904408 -168.710408 0.0 0.0
0.0 0.0
58500.0 3.722681 -169.238661 0.0 0.0 0.0 0.0 3.68948 -169.385561
0.0 0.0 0.0 0.0 3.68948 -169.385561 0.0 0.0
0.0 0.0
59000.0 3.527932 -169.85335 0.0 0.0 0.0 0.0 3.497379 -169.990372
0.0 0.0 0.0 0.0 3.497379 -169.990372 0.0 0.0
0.0 0.0
59500.0 3.353002 -170.406996 0.0 0.0 0.0 0.0 3.324749 -170.535431
0.0 0.0 0.0 0.0 3.324749 -170.535431 0.0 0.0
0.0 0.0
60000.0 3.195094 -170.908408 0.0 0.0 0.0 0.0 3.168853 -171.029324
0.0 0.0 0.0 0.0 3.168853 -171.029324 0.0 0.0
0.0 0.0
60500.0 3.051906 -171.364792 0.0 0.0 0.0 0.0 3.027436 -171.479082
0.0 0.0 0.0 0.0 3.027436 -171.479082 0.0 0.0
0.0 0.0
61000.0 2.921529 -171.7821 0.0 0.0 0.0 0.0 2.898627 -171.890516
0.0 0.0 0.0 0.0 2.898627 -171.890516 0.0 0.0
0.0 0.0
61500.0 2.802367 -172.165286 0.0 0.0 0.0 0.0 2.780861 -172.268466
0.0 0.0 0.0 0.0 2.780861 -172.268466 0.0 0.0
0.0 0.0
62000.0 2.693077 -172.518509 0.0 0.0 0.0 0.0 2.672819 -172.616998
0.0 0.0 0.0 0.0 2.672819 -172.616998 0.0 0.0
0.0 0.0
62500.0 2.592519 -172.84528 0.0 0.0 0.0 0.0 2.573383 -172.939548
0.0 0.0 0.0 0.0 2.573383 -172.939548 0.0 0.0
0.0 0.0
63000.0 2.499723 -173.148591 0.0 0.0 0.0 0.0 2.481599 -173.239043
0.0 0.0 0.0 0.0 2.481599 -173.239043 0.0 0.0
0.0 0.0
63500.0 2.413854 -173.430998 0.0 0.0 0.0 0.0 2.396649 -173.517988
0.0 0.0 0.0 0.0 2.396649 -173.517988 0.0 0.0
0.0 0.0
64000.0 2.334194 -173.694705 0.0 0.0 0.0 0.0 2.317824 -173.778541
0.0 0.0 0.0 0.0 2.317824 -173.778541 0.0 0.0
0.0 0.0
64500.0 2.26012 -173.941616 0.0 0.0 0.0 0.0 2.244514 -174.022572
0.0 0.0 0.0 0.0 2.244514 -174.022572 0.0 0.0
0.0 0.0
65000.0 2.19109 -174.17339 0.0 0.0 0.0 0.0 2.176183 -174.251704
0.0 0.0 0.0 0.0 2.176183 -174.251704 0.0 0.0
0.0 0.0
65500.0 2.12663 -174.391474 0.0 0.0 0.0 0.0 2.112365 -174.46736
0.0 0.0 0.0 0.0 2.112365 -174.46736 0.0 0.0
0.0 0.0
66000.0 2.066321 -174.59714 0.0 0.0 0.0 0.0 2.052649 -174.670787
0.0 0.0 0.0 0.0 2.052649 -174.670787 0.0 0.0
0.0 0.0
66500.0 2.009797 -174.791507 0.0 0.0 0.0 0.0 1.996674 -174.863084
0.0 0.0 0.0 0.0 1.996674 -174.863084 0.0 0.0
0.0 0.0
67000.0 1.956732 -174.975566 0.0 0.0 0.0 0.0 1.944118 -175.045225
0.0 0.0 0.0 0.0 1.944118 -175.045225 0.0 0.0
0.0 0.0
67500.0 1.906838 -175.150195 0.0 0.0 0.0 0.0 1.894696 -175.218074
0.0 0.0 0.0 0.0 1.894696 -175.218074 0.0 0.0
0.0 0.0
68000.0 1.859856 -175.316178 0.0 0.0 0.0 0.0 1.848155 -175.3824
0.0 0.0 0.0 0.0 1.848155 -175.3824 0.0 0.0
0.0 0.0
68500.0 1.815557 -175.474216 0.0 0.0 0.0 0.0 1.804268 -175.538892
0.0 0.0 0.0 0.0 1.804268 -175.538892 0.0 0.0
0.0 0.0
69000.0 1.773734 -175.624936 0.0 0.0 0.0 0.0 1.762831 -175.688167
0.0 0.0 0.0 0.0 1.762831 -175.688167 0.0 0.0
0.0 0.0
69500.0 1.734201 -175.768902 0.0 0.0 0.0 0.0 1.723661 -175.83078
0.0 0.0 0.0 0.0 1.723661 -175.83078 0.0 0.0
0.0 0.0
70000.0 1.696792 -175.906623 0.0 0.0 0.0 0.0 1.686593 -175.967233
0.0 0.0 0.0 0.0 1.686593 -175.967233 0.0 0.0
0.0 0.0
70500.0 1.661355 -176.038559 0.0 0.0 0.0 0.0 1.651478 -176.097978
0.0 0.0 0.0 0.0 1.651478 -176.097978 0.0 0.0
0.0 0.0
71000.0 1.627753 -176.165127 0.0 0.0 0.0 0.0 1.61818 -176.223425
0.0 0.0 0.0 0.0 1.61818 -176.223425 0.0 0.0
0.0 0.0
71500.0 1.595862 -176.286705 0.0 0.0 0.0 0.0 1.586577 -176.343948
0.0 0.0 0.0 0.0 1.586577 -176.343948 0.0 0.0
0.0 0.0
72000.0 1.565569 -176.403638 0.0 0.0 0.0 0.0 1.556557 -176.459886
0.0 0.0 0.0 0.0 1.556557 -176.459886 0.0 0.0
0.0 0.0
72500.0 1.53677 -176.516242 0.0 0.0 0.0 0.0 1.528018 -176.571549
0.0 0.0 0.0 0.0 1.528018 -176.571549 0.0 0.0
0.0 0.0
73000.0 1.509372 -176.624804 0.0 0.0 0.0 0.0 1.500868 -176.679221
0.0 0.0 0.0 0.0 1.500868 -176.679221 0.0 0.0
0.0 0.0
73500.0 1.483288 -176.729587 0.0 0.0 0.0 0.0 1.475021 -176.783163
0.0 0.0 0.0 0.0 1.475021 -176.783163 0.0 0.0
0.0 0.0
74000.0 1.45844 -176.830835 0.0 0.0 0.0 0.0 1.450398 -176.883612
0.0 0.0 0.0 0.0 1.450398 -176.883612 0.0 0.0
0.0 0.0
74500.0 1.434754 -176.92877 0.0 0.0 0.0 0.0 1.426929 -176.98079
0.0 0.0 0.0 0.0 1.426929 -176.98079 0.0 0.0
0.0 0.0
75000.0 1.412165 -177.023598 0.0 0.0 0.0 0.0 1.404547 -177.074897
0.0 0.0 0.0 0.0 1.404547 -177.074897 0.0 0.0
0.0 0.0
75500.0 1.390609 -177.115507 0.0 0.0 0.0 0.0 1.383192 -177.166123
0.0 0.0 0.0 0.0 1.383192 -177.166123 0.0 0.0
0.0 0.0
76000.0 1.370032 -177.204675 0.0 0.0 0.0 0.0 1.362807 -177.254639
0.0 0.0 0.0 0.0 1.362807 -177.254639 0.0 0.0
0.0 0.0
76500.0 1.35038 -177.291263 0.0 0.0 0.0 0.0 1.343341 -177.340607
0.0 0.0 0.0 0.0 1.343341 -177.340607 0.0 0.0
0.0 0.0
77000.0 1.331604 -177.375423 0.0 0.0 0.0 0.0 1.324745 -177.424175
0.0 0.0 0.0 0.0 1.324745 -177.424175 0.0 0.0
0.0 0.0
77500.0 1.313661 -177.457294 0.0 0.0 0.0 0.0 1.306975 -177.505482
0.0 0.0 0.0 0.0 1.306975 -177.505482 0.0 0.0
0.0 0.0
78000.0 1.296508 -177.537007 0.0 0.0 0.0 0.0 1.289991 -177.584657
0.0 0.0 0.0 0.0 1.289991 -177.584657 0.0 0.0
0.0 0.0
78500.0 1.280106 -177.614684 0.0 0.0 0.0 0.0 1.273753 -177.66182
0.0 0.0 0.0 0.0 1.273753 -177.66182 0.0 0.0
0.0 0.0
79000.0 1.26442 -177.690438 0.0 0.0 0.0 0.0 1.258227 -177.737083
0.0 0.0 0.0 0.0 1.258227 -177.737083 0.0 0.0
0.0 0.0
79500.0 1.249416 -177.764377 0.0 0.0 0.0 0.0 1.243379 -177.810552
0.0 0.0 0.0 0.0 1.243379 -177.810552 0.0 0.0
0.0 0.0
80000.0 1.235063 -177.836598 0.0 0.0 0.0 0.0 1.229178 -177.882324
0.0 0.0 0.0 0.0 1.229178 -177.882324 0.0 0.0
0.0 0.0
80500.0 1.221333 -177.907197 0.0 0.0 0.0 0.0 1.215596 -177.952493
0.0 0.0 0.0 0.0 1.215596 -177.952493 0.0 0.0
0.0 0.0
81000.0 1.208197 -177.97626 0.0 0.0 0.0 0.0 1.202606 -178.021144
0.0 0.0 0.0 0.0 1.202606 -178.021144 0.0 0.0
0.0 0.0
81500.0 1.195631 -178.043869 0.0 0.0 0.0 0.0 1.190184 -178.088359
0.0 0.0 0.0 0.0 1.190184 -178.088359 0.0 0.0
0.0 0.0
82000.0 1.183611 -178.110102 0.0 0.0 0.0 0.0 1.178305 -178.154215
0.0 0.0 0.0 0.0 1.178305 -178.154215 0.0 0.0
0.0 0.0
82500.0 1.172116 -178.175033 0.0 0.0 0.0 0.0 1.166948 -178.218784
0.0 0.0 0.0 0.0 1.166948 -178.218784 0.0 0.0
0.0 0.0
83000.0 1.161123 -178.23873 0.0 0.0 0.0 0.0 1.156092 -178.282134
0.0 0.0 0.0 0.0 1.156092 -178.282134 0.0 0.0
0.0 0.0
83500.0 1.150615 -178.301259 0.0 0.0 0.0 0.0 1.14572 -178.344331
0.0 0.0 0.0 0.0 1.14572 -178.344331 0.0 0.0
0.0 0.0
84000.0 1.140573 -178.362681 0.0 0.0 0.0 0.0 1.135812 -178.405435
0.0 0.0 0.0 0.0 1.135812 -178.405435 0.0 0.0
0.0 0.0
84500.0 1.13098 -178.423055 0.0 0.0 0.0 0.0 1.126352 -178.465505
0.0 0.0 0.0 0.0 1.126352 -178.465505 0.0 0.0
0.0 0.0
85000.0 1.12182 -178.482437 0.0 0.0 0.0 0.0 1.117324 -178.524594
0.0 0.0 0.0 0.0 1.117324 -178.524594 0.0 0.0
0.0 0.0
85500.0 1.113079 -178.540878 0.0 0.0 0.0 0.0 1.108714 -178.582757
0.0 0.0 0.0 0.0 1.108714 -178.582757 0.0 0.0
0.0 0.0
