! File created by SignalIntegrity v1.1.10: Signal and Power Integrity Tools
! https://github.com/TeledyneLeCroy/SignalIntegrity
# MHz S MA R 50.0
0.0 0.004126 0.0 0.001011 0.0 0.0 0.0 0.0 0.0
0.992704 0.0 0.000819 180.0 0.0 0.0 0.0 180.0
0.001011 0.0 0.002919 0.0 0.0 0.0 0.0 0.0
0.000891 180.0 0.991292 0.0 0.0 0.0 0.0 180.0
0.0 180.0 0.0 180.0 0.004126 0.0 0.001011 0.0
0.0 180.0 0.0 0.0 0.992704 0.0 0.000819 180.0
0.0 0.0 0.0 180.0 0.001011 0.0 0.002919 0.0
0.0 0.0 0.0 180.0 0.000891 180.0 0.991292 0.0
0.992704 0.0 0.000891 180.0 0.0 180.0 0.0 0.0
0.008314 0.0 0.001149 0.0 0.0 180.0 0.0 180.0
0.000819 180.0 0.991292 0.0 0.0 0.0 0.0 0.0
0.001149 0.0 0.006266 0.0 0.0 0.0 0.0 180.0
0.0 0.0 0.0 0.0 0.992704 0.0 0.000891 180.0
0.0 0.0 0.0 180.0 0.008314 0.0 0.001149 0.0
0.0 180.0 0.0 0.0 0.000819 180.0 0.991292 0.0
0.0 0.0 0.0 0.0 0.001149 0.0 0.006266 0.0
20.0 0.060228 66.653325 0.042895 75.164433 0.0 -15.790526 0.0 163.395155
0.986579 -12.312014 0.019687 -111.185653 0.0 -161.093605 0.0 -23.661656
0.042895 75.164433 0.061097 68.124358 0.0 -87.629492 0.0 -57.370339
0.019874 -111.92669 0.986889 -12.255227 0.0 -42.791272 0.0 120.350201
0.0 68.07617 0.0 165.40476 0.060228 66.653325 0.042895 75.164433
0.0 25.85532 0.0 -151.61275 0.986579 -12.312014 0.019687 -111.185653
0.0 9.671181 0.0 -66.736148 0.042895 75.164433 0.061097 68.124358
0.0 -16.66999 0.0 166.836524 0.019874 -111.92669 0.986889 -12.255227
0.986579 -12.312014 0.019874 -111.92669 0.0 141.2521 0.0 -151.047768
0.058778 65.256276 0.042872 74.863091 0.0 -171.213926 0.0 -130.010029
0.019687 -111.185653 0.986889 -12.255227 0.0 -101.883375 0.0 -50.692341
0.042872 74.863091 0.058826 66.395656 0.0 -44.989996 0.0 156.722854
0.0 -66.506435 0.0 30.352452 0.986579 -12.312014 0.019874 -111.92669
0.0 -1.8231 0.0 168.13556 0.058778 65.256276 0.042872 74.863091
0.0 -45.703991 0.0 -160.306893 0.019687 -111.185653 0.986889 -12.255227
0.0 -125.934602 0.0 -166.265662 0.042872 74.863091 0.058826 66.395656
40.0 0.106892 56.715721 0.083489 62.733285 0.0 112.958658 0.0 -14.382064
0.976134 -24.237893 0.03804 -128.095768 0.0 -150.419686 0.0 -177.035033
0.083489 62.733285 0.108838 56.601559 0.0 -97.032413 0.0 20.650437
0.038132 -128.457398 0.976398 -24.266109 0.0 116.11141 0.0 56.854331
0.0 -121.271689 0.0 151.138364 0.106892 56.715721 0.083489 62.733285
0.0 -76.40289 0.0 -18.763249 0.976134 -24.237893 0.03804 -128.095768
0.0 6.336434 0.0 169.203054 0.083489 62.733285 0.108838 56.601559
0.0 70.566092 0.0 -167.566572 0.038132 -128.457398 0.976398 -24.266109
0.976134 -24.237893 0.038132 -128.457398 0.0 -162.362366 0.0 36.748969
0.107962 56.375892 0.083309 62.585364 0.0 -164.625408 0.0 179.505343
0.03804 -128.095768 0.976398 -24.266109 0.0 4.221997 0.0 -169.755544
0.083309 62.585364 0.107109 56.791953 0.0 -179.330754 0.0 140.450488
0.0 25.916184 0.0 -43.444417 0.976134 -24.237893 0.038132 -128.457398
0.0 -69.869044 0.0 155.104259 0.107962 56.375892 0.083309 62.585364
0.0 -174.529218 0.0 71.67578 0.03804 -128.095768 0.976398 -24.266109
0.0 -108.807819 0.0 97.457693 0.083309 62.585364 0.107109 56.791953
60.0 0.152917 46.283366 0.119813 50.004434 0.0 7.468903 0.0 150.756758
0.962636 -35.977901 0.054208 -145.640886 0.0 167.117694 0.0 -34.536297
0.119813 50.004434 0.15343 46.040195 0.0 -111.539158 0.0 -29.027405
0.054426 -145.873181 0.962405 -35.968985 0.0 45.333833 0.0 16.384834
0.0 -177.901069 0.0 74.081514 0.152917 46.283366 0.119813 50.004434
0.0 -149.362129 0.0 -110.016349 0.962636 -35.977901 0.054208 -145.640886
0.0 -49.372996 0.0 65.082236 0.119813 50.004434 0.15343 46.040195
0.0 -28.220444 0.0 173.78718 0.054426 -145.873181 0.962405 -35.968985
0.962636 -35.977901 0.054426 -145.873181 0.0 -152.796113 0.0 -124.753571
0.153349 45.79696 0.11967 49.935452 0.0 -168.617069 0.0 81.788576
0.054208 -145.640886 0.962405 -35.968985 0.0 -91.843375 0.0 78.256166
0.11967 49.935452 0.152314 46.07536 0.0 -22.678406 0.0 150.907813
0.0 -25.267861 0.0 -146.711814 0.962636 -35.977901 0.054426 -145.873181
0.0 -3.421459 0.0 179.29867 0.153349 45.79696 0.11967 49.935452
0.0 -11.652807 0.0 -5.078271 0.054208 -145.640886 0.962405 -35.968985
0.0 174.136752 0.0 149.839109 0.11967 49.935452 0.152314 46.07536
80.0 0.190372 34.518925 0.150385 37.923341 0.0 -0.840436 0.0 0.515596
0.947874 -47.369702 0.067206 -162.405787 0.0 -136.654524 0.0 173.606735
0.150385 37.923341 0.191461 34.497556 0.0 -98.136379 0.0 7.824109
0.067389 -162.634293 0.948229 -47.361309 0.0 50.701916 0.0 -9.852953
0.0 131.9419 0.0 31.133041 0.190372 34.518925 0.150385 37.923341
0.0 165.021202 0.0 -139.72542 0.947874 -47.369702 0.067206 -162.405787
0.0 7.728134 0.0 -29.383102 0.150385 37.923341 0.191461 34.497556
0.0 -135.595522 0.0 153.902378 0.067389 -162.634293 0.948229 -47.361309
0.947874 -47.369702 0.067389 -162.634293 0.0 -155.870674 0.0 36.320686
0.191424 34.48499 0.150315 37.829956 0.0 176.85052 0.0 -177.948374
0.067206 -162.405787 0.948229 -47.361309 0.0 -109.063894 0.0 51.824315
0.150315 37.829956 0.189502 34.661469 0.0 -115.773403 0.0 -161.128906
0.0 -5.86996 0.0 5.841002 0.947874 -47.369702 0.067389 -162.634293
0.0 76.307709 0.0 141.211351 0.191424 34.48499 0.150315 37.829956
0.0 -167.683103 0.0 -66.809111 0.067206 -162.405787 0.948229 -47.361309
0.0 118.581269 0.0 71.784874 0.150315 37.829956 0.189502 34.661469
100.0 0.221091 23.827888 0.175899 26.364147 0.0 -12.574464 0.0 134.654358
0.933585 -58.565008 0.077831 -178.338948 0.0 153.497863 0.0 -39.214392
0.175899 26.364147 0.222247 23.598858 0.0 -154.57792 0.0 -10.73569
0.078009 -178.507157 0.934301 -58.568237 0.0 15.436501 0.0 -52.664465
0.0 -43.897829 0.0 -2.053112 0.221091 23.827888 0.175899 26.364147
0.0 124.599485 0.0 171.833 0.933585 -58.565008 0.077831 -178.338948
0.0 -34.008801 0.0 31.966738 0.175899 26.364147 0.222247 23.598858
0.0 -114.649928 0.0 120.721536 0.078009 -178.507157 0.934301 -58.568237
0.933585 -58.565008 0.078009 -178.507157 0.0 170.658851 0.0 172.844879
0.222508 23.673912 0.175892 26.252239 0.0 168.860944 0.0 68.047377
0.077831 -178.338948 0.934301 -58.568237 0.0 -162.535091 0.0 -21.163955
0.175892 26.252239 0.220687 24.090198 0.0 -32.377541 0.0 169.034564
0.0 -62.745311 0.0 -157.731967 0.933585 -58.565008 0.078009 -178.507157
0.0 -19.300567 0.0 2.746374 0.222508 23.673912 0.175892 26.252239
0.0 49.647899 0.0 -132.478882 0.077831 -178.338948 0.934301 -58.568237
0.0 120.465859 0.0 25.840528 0.175892 26.252239 0.220687 24.090198
120.0 0.246317 13.216814 0.195793 15.202658 0.0 8.196354 0.0 -4.270806
0.920063 -69.487275 0.085657 165.995538 0.0 -158.988257 0.0 176.765176
0.195793 15.202658 0.247098 12.979655 0.0 174.536303 0.0 5.707974
0.085797 165.894206 0.920849 -69.541828 0.0 9.085191 0.0 19.963157
0.0 -166.154265 0.0 -121.999581 0.246317 13.216814 0.195793 15.202658
0.0 -89.974891 0.0 -122.150975 0.920063 -69.487275 0.085657 165.995538
0.0 9.96137 0.0 -49.112529 0.195793 15.202658 0.247098 12.979655
0.0 139.311406 0.0 115.987887 0.085797 165.894206 0.920849 -69.541828
0.920063 -69.487275 0.085797 165.894206 0.0 -146.908976 0.0 25.305016
0.247414 13.184216 0.195899 15.015981 0.0 163.346674 0.0 -168.593354
0.085657 165.995538 0.920849 -69.541828 0.0 -125.101799 0.0 16.788065
0.195899 15.015981 0.246573 13.444878 0.0 -83.62151 0.0 129.728538
0.0 -170.517576 0.0 16.347532 0.920063 -69.487275 0.085797 165.894206
0.0 -163.001034 0.0 160.335431 0.247414 13.184216 0.195899 15.015981
0.0 -166.30248 0.0 -41.310508 0.085657 165.995538 0.920849 -69.541828
0.0 -46.842252 0.0 42.064013 0.195899 15.015981 0.246573 13.444878
140.0 0.265808 2.922311 0.210797 4.502276 0.0 -52.046448 0.0 109.106185
0.90886 -80.264877 0.090516 151.152852 0.0 102.053937 0.0 -42.045502
0.210797 4.502276 0.266224 2.704022 0.0 146.420039 0.0 -6.123322
0.090794 151.102333 0.90896 -80.322098 0.0 -4.888846 0.0 -100.429154
0.0 -112.955211 0.0 127.742454 0.265808 2.922311 0.210797 4.502276
0.0 -145.734157 0.0 158.853355 0.90886 -80.264877 0.090516 151.152852
0.0 60.072765 0.0 -85.399518 0.210797 4.502276 0.266224 2.704022
0.0 -86.921226 0.0 -86.394831 0.090794 151.102333 0.90896 -80.322098
0.90886 -80.264877 0.090794 151.102333 0.0 156.603365 0.0 -164.673056
0.266872 2.939341 0.210646 4.243591 0.0 161.347007 0.0 44.26144
0.090516 151.152852 0.90896 -80.322098 0.0 163.154919 0.0 -56.452916
0.210646 4.243591 0.265832 3.037517 0.0 -51.035357 0.0 166.668079
0.0 73.154885 0.0 -59.707313 0.90886 -80.264877 0.090794 151.102333
0.0 84.88065 0.0 35.953634 0.266872 2.939341 0.210646 4.243591
0.0 -64.501674 0.0 -105.105877 0.090516 151.152852 0.90896 -80.322098
0.0 172.034323 0.0 -135.906326 0.210646 4.243591 0.265832 3.037517
160.0 0.279844 -7.265059 0.221154 -5.941032 0.0 161.367382 0.0 -7.061092
0.899591 -90.85417 0.093175 137.097096 0.0 -27.557617 0.0 -172.286822
0.221154 -5.941032 0.280084 -7.411454 0.0 47.318176 0.0 -67.014376
0.093453 136.979735 0.899669 -90.901155 0.0 -79.804212 0.0 89.821804
0.0 172.178151 0.0 8.558673 0.279844 -7.265059 0.221154 -5.941032
0.0 -172.658412 0.0 53.623297 0.899591 -90.85417 0.093175 137.097096
0.0 9.146622 0.0 -24.721532 0.221154 -5.941032 0.280084 -7.411454
0.0 142.533008 0.0 160.973622 0.093453 136.979735 0.899669 -90.901155
0.899591 -90.85417 0.093453 136.979735 0.0 146.734892 0.0 73.764705
0.280344 -7.134047 0.220857 -6.148036 0.0 73.132305 0.0 -125.764167
0.093175 137.097096 0.899669 -90.901155 0.0 44.902636 0.0 -158.171443
0.220857 -6.148036 0.279164 -7.080442 0.0 -156.551441 0.0 85.582406
0.0 6.539031 0.0 -90.407775 0.899591 -90.85417 0.093453 136.979735
0.0 43.472756 0.0 -136.038213 0.280344 -7.134047 0.220857 -6.148036
0.0 -165.845059 0.0 -62.27261 0.093175 137.097096 0.899669 -90.901155
0.0 101.846106 0.0 54.803514 0.220857 -6.148036 0.279164 -7.080442
180.0 0.288858 -17.341781 0.22709 -16.142292 0.0 -8.261942 0.0 122.762069
0.894211 -101.406299 0.093727 123.693801 0.0 148.053879 0.0 -38.230273
0.22709 -16.142292 0.288935 -17.386416 0.0 -126.970851 0.0 13.688297
0.09397 123.582697 0.894046 -101.440992 0.0 14.588513 0.0 -156.660888
0.0 73.204544 0.0 131.430983 0.288858 -17.341781 0.22709 -16.142292
0.0 118.706292 0.0 -107.853285 0.894211 -101.406299 0.093727 123.693801
0.0 -33.651435 0.0 -70.237729 0.22709 -16.142292 0.288935 -17.386416
0.0 95.14076 0.0 -52.852695 0.09397 123.582697 0.894046 -101.440992
0.894211 -101.406299 0.09397 123.582697 0.0 62.502134 0.0 -153.40636
0.289229 -16.966894 0.227093 -16.368022 0.0 -158.228078 0.0 58.225639
0.093727 123.693801 0.894046 -101.440992 0.0 -179.970837 0.0 -37.217701
0.227093 -16.368022 0.287834 -16.850077 0.0 -22.118029 0.0 164.308009
0.0 -50.630522 0.0 -164.653152 0.894211 -101.406299 0.09397 123.582697
0.0 64.315469 0.0 121.152902 0.289229 -16.966894 0.227093 -16.368022
0.0 114.796404 0.0 -169.02945 0.093727 123.693801 0.894046 -101.440992
0.0 95.612168 0.0 -76.315781 0.227093 -16.368022 0.287834 -16.850077
200.0 0.29182 -27.443332 0.228944 -26.173671 0.0 -157.739711 0.0 4.540408
0.890012 -111.967063 0.092225 111.082794 0.0 6.545382 0.0 -162.116817
0.228944 -26.173671 0.292447 -27.367182 0.0 91.663118 0.0 -67.307122
0.092326 110.960058 0.890052 -111.97759 0.0 -73.534069 0.0 106.133248
0.0 -165.895453 0.0 47.402439 0.29182 -27.443332 0.228944 -26.173671
0.0 -107.205035 0.0 32.586048 0.890012 -111.967063 0.092225 111.082794
0.0 3.744453 0.0 -99.817576 0.228944 -26.173671 0.292447 -27.367182
0.0 97.182115 0.0 179.42699 0.092326 110.960058 0.890052 -111.97759
0.890012 -111.967063 0.092326 110.960058 0.0 -97.474849 0.0 86.986696
0.293062 -26.918607 0.22896 -26.503646 0.0 88.868485 0.0 -96.512511
0.092225 111.082794 0.890052 -111.97759 0.0 53.239314 0.0 -149.872243
0.22896 -26.503646 0.292674 -26.71661 0.0 -140.499773 0.0 66.564479
0.0 -0.455053 0.0 -84.583989 0.890012 -111.967063 0.092326 110.960058
0.0 37.761722 0.0 172.699634 0.293062 -26.918607 0.22896 -26.503646
0.0 -168.977946 0.0 99.754779 0.092225 111.082794 0.890052 -111.97759
0.0 -67.536059 0.0 38.911028 0.22896 -26.503646 0.292674 -26.71661
220.0 0.28966 -37.306141 0.227078 -36.167332 0.0 75.68862 0.0 -99.526278
0.888177 -122.458159 0.088811 99.530344 0.0 -97.330085 0.0 86.954884
0.227078 -36.167332 0.29079 -37.208361 0.0 7.258551 0.0 -158.860443
0.088956 99.598036 0.888348 -122.473145 0.0 -164.180651 0.0 25.150486
0.0 102.803971 0.0 46.938677 0.28966 -37.306141 0.227078 -36.167332
0.0 165.258059 0.0 -100.915952 0.888177 -122.458159 0.088811 99.530344
0.0 -84.129054 0.0 -134.616181 0.227078 -36.167332 0.29079 -37.208361
0.0 11.502242 0.0 76.8758 0.088956 99.598036 0.888348 -122.473145
0.888177 -122.458159 0.088956 99.598036 0.0 154.815942 0.0 -14.409123
0.291184 -36.805456 0.22689 -36.552196 0.0 -15.72133 0.0 163.984613
0.088811 99.530344 0.888348 -122.473145 0.0 -80.371571 0.0 106.838572
0.22689 -36.552196 0.291521 -36.781033 0.0 101.738396 0.0 -46.059988
0.0 -80.894863 0.0 176.253612 0.888177 -122.458159 0.088956 99.598036
0.0 -14.530658 0.0 95.915374 0.291184 -36.805456 0.22689 -36.552196
0.0 104.125078 0.0 69.130526 0.088811 99.530344 0.888348 -122.473145
0.0 -179.647261 0.0 -79.315593 0.22689 -36.552196 0.291521 -36.781033
240.0 0.282824 -47.131057 0.221316 -46.206828 0.0 -36.3417 0.0 153.70647
0.889956 -133.006248 0.084055 89.878344 0.0 168.69407 0.0 -39.445399
0.221316 -46.206828 0.284512 -47.094645 0.0 -34.479106 0.0 111.89331
0.084482 89.813237 0.889425 -132.98486 0.0 140.948851 0.0 -57.09579
0.0 18.066424 0.0 13.015659 0.282824 -47.131057 0.221316 -46.206828
0.0 77.869295 0.0 138.304973 0.889956 -133.006248 0.084055 89.878344
0.0 -175.77637 0.0 -177.236642 0.221316 -46.206828 0.284512 -47.094645
0.0 -86.059936 0.0 -60.118695 0.084482 89.813237 0.889425 -132.98486
0.889956 -133.006248 0.084482 89.813237 0.0 61.919193 0.0 -120.910681
0.284586 -46.561343 0.221067 -46.605154 0.0 -114.530109 0.0 61.930141
0.084055 89.878344 0.889425 -132.98486 0.0 83.720617 0.0 -80.707101
0.221067 -46.605154 0.284306 -46.632107 0.0 -90.762191 0.0 -178.525908
0.0 -166.493008 0.0 88.638065 0.889956 -133.006248 0.084482 89.813237
0.0 -74.514874 0.0 -2.261119 0.284586 -46.561343 0.221067 -46.605154
0.0 19.33814 0.0 8.502278 0.084055 89.878344 0.889425 -132.98486
0.0 88.656727 0.0 109.740436 0.221067 -46.605154 0.284306 -46.632107
260.0 0.273172 -57.207585 0.212105 -56.639668 0.0 165.617758 0.0 71.747113
0.892121 -143.808515 0.080623 81.93788 0.0 -111.224953 0.0 -129.866632
0.212105 -56.639668 0.27321 -57.088212 0.0 -108.545597 0.0 37.049577
0.080769 81.806099 0.893017 -143.619502 0.0 74.298082 0.0 -159.510403
0.0 -57.580789 0.0 -72.39199 0.273172 -57.207585 0.212105 -56.639668
0.0 -19.093394 0.0 -30.263531 0.892121 -143.808515 0.080623 81.93788
0.0 91.99933 0.0 134.841772 0.212105 -56.639668 0.27321 -57.088212
0.0 139.376668 0.0 146.299751 0.080769 81.806099 0.893017 -143.619502
0.892121 -143.808515 0.080769 81.806099 0.0 -13.504378 0.0 114.531782
0.275088 -56.748368 0.212021 -57.103222 0.0 -158.96142 0.0 -62.48602
0.080623 81.93788 0.893017 -143.619502 0.0 -96.461803 0.0 73.975392
0.212021 -57.103222 0.273607 -56.450966 0.0 101.122143 0.0 -114.30266
0.0 165.279714 0.0 134.971703 0.892121 -143.808515 0.080769 81.806099
0.0 -95.540806 0.0 177.846599 0.275088 -56.748368 0.212021 -57.103222
0.0 -54.554356 0.0 -46.552042 0.080623 81.93788 0.893017 -143.619502
0.0 0.203822 0.0 -21.233926 0.212021 -57.103222 0.273607 -56.450966
280.0 0.254176 -68.487683 0.195731 -67.696794 0.0 -76.640704 0.0 41.014554
0.89168 -154.389699 0.076129 73.819334 0.0 165.0205 0.0 -162.01582
0.195731 -67.696794 0.255963 -67.292089 0.0 144.297586 0.0 -48.008752
0.076375 73.83435 0.897247 -154.33267 0.0 -10.107068 0.0 106.791527
0.0 7.75752 0.0 -158.540075 0.254176 -68.487683 0.195731 -67.696794
0.0 88.513843 0.0 153.198089 0.89168 -154.389699 0.076129 73.819334
0.0 175.22026 0.0 128.093482 0.195731 -67.696794 0.255963 -67.292089
0.0 -68.726076 0.0 78.181573 0.076375 73.83435 0.897247 -154.33267
0.89168 -154.389699 0.076375 73.83435 0.0 -39.360353 0.0 7.465713
0.255141 -68.053907 0.195569 -68.305041 0.0 167.998836 0.0 -174.492607
0.076129 73.819334 0.897247 -154.33267 0.0 139.564452 0.0 -54.849562
0.195569 -68.305041 0.256764 -66.739905 0.0 -36.48773 0.0 126.560862
0.0 -159.702175 0.0 43.620508 0.89168 -154.389699 0.076375 73.83435
0.0 -121.103777 0.0 -1.711013 0.255141 -68.053907 0.195569 -68.305041
0.0 5.729275 0.0 -52.230538 0.076129 73.819334 0.897247 -154.33267
0.0 148.472209 0.0 -95.155471 0.195569 -68.305041 0.256764 -66.739905
300.0 0.224251 -78.141534 0.173381 -77.678426 0.0 126.19525 0.0 17.641158
0.901665 -164.841162 0.069305 70.739978 0.0 -117.128567 0.0 -139.066874
0.173381 -77.678426 0.232834 -77.254619 0.0 -87.141058 0.0 -149.916611
0.069636 70.670725 0.904899 -165.117371 0.0 34.396145 0.0 32.941932
0.0 116.782568 0.0 -98.086262 0.224251 -78.141534 0.173381 -77.678426
0.0 -10.187195 0.0 17.167438 0.901665 -164.841162 0.069305 70.739978
0.0 109.424854 0.0 109.699866 0.173381 -77.678426 0.232834 -77.254619
0.0 129.201325 0.0 102.749223 0.069636 70.670725 0.904899 -165.117371
0.901665 -164.841162 0.069636 70.670725 0.0 -139.266511 0.0 -39.141972
0.224307 -77.516732 0.173025 -78.381464 0.0 -51.231928 0.0 114.663126
0.069305 70.739978 0.904899 -165.117371 0.0 43.478022 0.0 -175.124302
0.173025 -78.381464 0.233447 -76.654654 0.0 -71.043063 0.0 12.767104
0.0 -87.113049 0.0 110.666019 0.901665 -164.841162 0.069636 70.670725
0.0 158.913846 0.0 153.667136 0.224307 -77.516732 0.173025 -78.381464
0.0 -44.509501 0.0 -83.681746 0.069305 70.739978 0.904899 -165.117371
0.0 39.752988 0.0 -72.545129 0.173025 -78.381464 0.233447 -76.654654
320.0 0.198083 -86.775342 0.151076 -87.538051 0.0 -12.202999 0.0 -27.965094
0.914799 -176.129681 0.071041 72.506841 0.0 153.363246 0.0 164.06376
0.151076 -87.538051 0.20591 -87.270108 0.0 129.938343 0.0 114.624891
0.071474 72.385705 0.913956 -176.261939 0.0 -39.692426 0.0 -44.546602
0.0 41.261864 0.0 -179.000159 0.198083 -86.775342 0.151076 -87.538051
0.0 124.221948 0.0 137.102311 0.914799 -176.129681 0.071041 72.506841
0.0 70.782598 0.0 149.247296 0.151076 -87.538051 0.20591 -87.270108
0.0 29.917196 0.0 33.728323 0.071474 72.385705 0.913956 -176.261939
0.914799 -176.129681 0.071474 72.385705 0.0 104.013844 0.0 -162.139148
0.1986 -85.721018 0.150718 -88.388828 0.0 -152.279089 0.0 19.216101
0.071041 72.506841 0.913956 -176.261939 0.0 80.336075 0.0 82.526156
0.150718 -88.388828 0.206812 -86.655679 0.0 -99.869936 0.0 -96.382026
0.0 -153.093063 0.0 20.71626 0.914799 -176.129681 0.071474 72.385705
0.0 -8.368007 0.0 35.313658 0.1986 -85.721018 0.150718 -88.388828
0.0 -125.248077 0.0 -30.680829 0.071041 72.506841 0.913956 -176.261939
0.0 -61.239816 0.0 -134.048776 0.150718 -88.388828 0.206812 -86.655679
340.0 0.166609 -97.119531 0.123305 -98.817959 0.0 -118.90294 0.0 -108.504934
0.919688 172.373026 0.079492 70.669825 0.0 62.177631 0.0 80.368472
0.123305 -98.817959 0.172835 -97.510597 0.0 45.691446 0.0 48.973543
0.079954 70.336938 0.920589 172.388087 0.0 -126.07835 0.0 -119.615526
0.0 -33.548127 0.0 98.133837 0.166609 -97.119531 0.123305 -98.817959
0.0 83.47169 0.0 10.471951 0.919688 172.373026 0.079492 70.669825
0.0 -28.22058 0.0 121.752674 0.123305 -98.817959 0.172835 -97.510597
0.0 0.915457 0.0 111.038181 0.079954 70.336938 0.920589 172.388087
0.919688 172.373026 0.079954 70.336938 0.0 -18.062489 0.0 14.242295
0.168325 -96.263462 0.122796 -99.929984 0.0 -128.918457 0.0 -158.208838
0.079492 70.669825 0.920589 172.388087 0.0 -12.954963 0.0 101.026239
0.122796 -99.929984 0.173284 -96.941612 0.0 -163.285806 0.0 -175.525648
0.0 141.846926 0.0 -64.520527 0.919688 172.373026 0.079954 70.336938
0.0 -127.701593 0.0 -35.93611 0.168325 -96.263462 0.122796 -99.929984
0.0 148.510242 0.0 -95.90269 0.079492 70.669825 0.920589 172.388087
0.0 112.072421 0.0 -123.618298 0.122796 -99.929984 0.173284 -96.941612
360.0 0.126706 -106.449193 0.088997 -109.424468 0.0 -99.201721 0.0 -168.940543
0.92407 160.946541 0.091219 66.558858 0.0 106.667529 0.0 -10.179702
0.088997 -109.424468 0.134011 -107.124503 0.0 10.332097 0.0 29.212719
0.091396 66.193395 0.925862 160.890836 0.0 167.696784 0.0 -157.339219
