! File created by SignalIntegrity v1.1.10: Signal and Power Integrity Tools
! https://github.com/TeledyneLeCroy/SignalIntegrity
# MHz S MA R 50.0
0.0 0.033559 0.0 0.00437 0.0 0.962704 -0.0 0.004096 180.0
0.00437 0.0 0.032291 0.0 0.004154 180.0 0.961252 -0.0
0.962704 -0.0 0.004154 180.0 0.037674 0.0 0.004495 0.0
0.004096 180.0 0.961252 -0.0 0.004495 0.0 0.035774 0.0
10.0 0.081759 28.489097 0.043984 63.869203 0.93623 -24.666673 0.010232 -150.125862
0.043984 63.869203 0.080693 29.366218 0.010396 -150.229079 0.934095 -24.608702
0.93623 -24.666673 0.010396 -150.229079 0.091035 22.878786 0.043914 54.399276
0.010232 -150.125862 0.934095 -24.608702 0.043914 54.399276 0.090579 23.865617
20.0 0.110851 20.378775 0.078075 48.8649 0.921761 -48.265755 0.01587 -172.167051
0.078075 48.8649 0.110334 21.359244 0.016117 -172.569556 0.920714 -48.205492
0.921761 -48.265755 0.016117 -172.569556 0.13222 5.772102 0.07731 29.529276
0.01587 -172.167051 0.920714 -48.205492 0.07731 29.529276 0.132214 6.221708
30.0 0.119294 9.427435 0.09822 33.73053 0.911414 -71.53028 0.01853 166.658562
0.09822 33.73053 0.119662 10.419725 0.018714 166.036974 0.910782 -71.519603
0.911414 -71.53028 0.018714 166.036974 0.153843 -17.746977 0.096034 2.258313
0.01853 166.658562 0.910782 -71.519603 0.096034 2.258313 0.153512 -17.433035
40.0 0.108413 1.336548 0.102527 20.955855 0.905323 -94.740217 0.020256 152.8342
0.102527 20.955855 0.109609 2.171798 0.020344 152.383709 0.904224 -94.762373
0.905323 -94.740217 0.020344 152.383709 0.154645 -44.846554 0.097504 -27.548997
0.020256 152.8342 0.904224 -94.762373 0.097504 -27.548997 0.154141 -44.422669
50.0 0.086587 2.644042 0.093015 13.688475 0.90119 -118.103887 0.024972 142.978748
0.093015 13.688475 0.088089 3.02494 0.025108 142.698807 0.899593 -118.110347
0.90119 -118.103887 0.025108 142.698807 0.136033 -77.209068 0.081944 -62.94306
0.024972 142.978748 0.899593 -118.110347 0.081944 -62.94306 0.135637 -76.652167
60.0 0.075526 21.624672 0.079852 17.853827 0.895383 -141.662327 0.034628 126.39089
0.079852 17.853827 0.076554 21.420404 0.034809 126.048244 0.893849 -141.638399
0.895383 -141.662327 0.034809 126.048244 0.104486 -120.152763 0.056833 -114.028517
0.034628 126.39089 0.893849 -141.638399 0.056833 -114.028517 0.103928 -119.49573
70.0 0.098602 40.460863 0.083576 32.463538 0.885153 -165.271693 0.046706 101.193174
0.083576 32.463538 0.099415 40.299279 0.046868 100.88112 0.883981 -165.237046
0.885153 -165.271693 0.046868 100.88112 0.083401 176.82762 0.05204 165.140301
0.046706 101.193174 0.883981 -165.237046 0.05204 165.140301 0.08217 177.38667
80.0 0.140833 42.027359 0.110145 39.095469 0.870459 171.298092 0.05753 71.5235
0.110145 39.095469 0.142015 41.846416 0.0577 71.285496 0.869554 171.329299
0.870459 171.298092 0.0577 71.285496 0.103027 110.396145 0.08429 103.183347
0.05753 71.5235 0.869554 171.329299 0.08429 103.183347 0.101207 110.596552
90.0 0.181291 34.881076 0.142976 34.708847 0.853776 148.219652 0.064714 40.668622
0.142976 34.708847 0.182609 34.600505 0.064911 40.461855 0.853074 148.24785
0.853776 148.219652 0.064911 40.461855 0.144401 63.771641 0.1222 63.799918
0.064714 40.668622 0.853074 148.24785 0.1222 63.799918 0.142358 64.056568
100.0 0.210098 25.078547 0.1694 25.471755 0.838596 125.527905 0.067446 10.557977
0.1694 25.471755 0.211239 24.757341 0.067629 10.355845 0.838159 125.548635
0.838596 125.527905 0.067629 10.355845 0.181536 27.825455 0.150455 31.795367
0.067446 10.557977 0.838159 125.548635 0.150455 31.795367 0.179794 28.276284
110.0 0.224177 15.355983 0.184203 14.953468 0.8279 103.097582 0.066172 -17.38315
0.184203 14.953468 0.225095 15.037719 0.066299 -17.558906 0.827658 103.096633
0.8279 103.097582 0.066299 -17.558906 0.204601 -4.425156 0.16421 2.079804
0.066172 -17.38315 0.827658 103.096633 0.16421 2.079804 0.203448 -3.935565
120.0 0.225065 7.293411 0.186127 4.996377 0.822719 80.680921 0.062567 -41.699385
0.186127 4.996377 0.225783 6.972824 0.062654 -41.803707 0.822381 80.653388
0.822719 80.680921 0.062654 -41.803707 0.210866 -36.379422 0.16209 -28.037351
0.062567 -41.699385 0.822381 80.653388 0.16209 -28.037351 0.209991 -35.939595
130.0 0.218019 2.124375 0.176614 -2.779489 0.821362 58.026602 0.059795 -61.373893
0.176614 -2.779489 0.218458 1.792215 0.059918 -61.397567 0.820702 57.989104
0.821362 58.026602 0.059918 -61.397567 0.201067 -70.637318 0.144581 -61.312946
0.059795 -61.373893 0.820702 57.989104 0.144581 -61.312946 0.199986 -70.225086
140.0 0.21206 0.517198 0.161374 -6.290886 0.820023 35.025335 0.06173 -78.235672
0.161374 -6.290886 0.212137 0.205521 0.061941 -78.250259 0.819143 34.998218
0.820023 35.025335 0.061941 -78.250259 0.179894 -109.968488 0.11615 -102.206753
0.06173 -78.235672 0.819143 34.998218 0.11615 -102.206753 0.1784 -109.547389
150.0 0.217451 1.090426 0.151831 -4.387893 0.814824 11.7918 0.069371 -97.338832
0.151831 -4.387893 0.217239 0.857745 0.069633 -97.392943 0.81397 11.775807
0.814824 11.7918 0.069633 -97.392943 0.159196 -156.762113 0.092339 -157.908525
0.069371 -97.338832 0.81397 11.775807 0.092339 -157.908525 0.157305 -156.433907
160.0 0.237181 0.334324 0.158293 -0.575703 0.804377 -11.395406 0.079162 -121.194292
0.158293 -0.575703 0.236851 0.197968 0.07944 -121.251759 0.803588 -11.411583
0.804377 -11.395406 0.07944 -121.251759 0.15553 151.268178 0.09847 137.601635
0.079162 -121.194292 0.803588 -11.411583 0.09847 137.601635 0.153445 151.321638
170.0 0.263259 -3.83723 0.178229 -0.356284 0.790594 -34.278497 0.086744 -148.376309
0.178229 -0.356284 0.262901 -3.886146 0.08707 -148.415646 0.789747 -34.295379
0.790594 -34.278497 0.08707 -148.415646 0.172679 102.839535 0.12949 86.993871
0.086744 -148.376309 0.789747 -34.295379 0.12949 86.993871 0.170673 102.703362
180.0 0.284785 -10.802341 0.200978 -4.663 0.776987 -56.760316 0.089851 -176.714804
0.200978 -4.663 0.284515 -10.755384 0.090241 -176.767197 0.776074 -56.768765
0.776987 -56.760316 0.090241 -176.767197 0.197319 62.065911 0.161215 49.036579
0.089851 -176.714804 0.776074 -56.768765 0.161215 49.036579 0.195564 61.958387
190.0 0.295083 -19.020023 0.218503 -11.745747 0.766717 -78.913281 0.088253 155.394444
0.218503 -11.745747 0.295158 -18.880827 0.088638 155.298564 0.765837 -78.909917
0.766717 -78.913281 0.088638 155.298564 0.216332 26.785322 0.182139 16.932083
0.088253 155.394444 0.765837 -78.909917 0.182139 16.932083 0.215119 26.7943
200.0 0.292772 -27.137379 0.22707 -20.000732 0.761572 -100.930242 0.082919 129.175874
0.22707 -20.000732 0.293377 -26.944979 0.083214 129.068105 0.760782 -100.918758
0.761572 -100.930242 0.083214 129.068105 0.223073 -6.010301 0.189165 -13.097231
0.082919 129.175874 0.760782 -100.918758 0.189165 -13.097231 0.222652 -5.932928
210.0 0.28015 -34.113634 0.225497 -28.258117 0.76149 -123.052832 0.075666 105.873605
0.225497 -28.258117 0.281217 -33.909207 0.075909 105.826785 0.76078 -123.038205
0.76149 -123.052832 0.075909 105.826785 0.215376 -38.880546 0.182086 -43.673559
0.075666 105.873605 0.76078 -123.038205 0.182086 -43.673559 0.215601 -38.819427
220.0 0.261882 -39.033069 0.214744 -35.326354 0.764548 -145.480926 0.069407 86.571546
0.214744 -35.326354 0.263315 -38.825677 0.069741 86.575162 0.763825 -145.467495
0.764548 -145.480926 0.069741 86.575162 0.194323 -74.365489 0.162157 -77.444984
0.069407 86.571546 0.763825 -145.467495 0.162157 -77.444984 0.19475 -74.344089
230.0 0.245235 -41.19697 0.199288 -39.820368 0.767514 -168.289528 0.067737 70.389542
0.199288 -39.820368 0.247139 -41.03043 0.068192 70.285718 0.766556 -168.270993
0.767514 -168.289528 0.068192 70.285718 0.165887 -115.426709 0.134468 -117.897564
0.067737 70.389542 0.766556 -168.270993 0.134468 -117.897564 0.166114 -115.398366
240.0 0.239254 -41.210283 0.187573 -41.084017 0.767047 168.617585 0.071999 53.235448
0.187573 -41.084017 0.241352 -41.22602 0.072383 52.976129 0.765724 168.674703
0.767047 168.617585 0.072383 52.976129 0.143798 -164.431337 0.112503 -168.815952
0.071999 53.235448 0.765724 168.674703 0.112503 -168.815952 0.14351 -164.356955
250.0 0.247975 -41.890108 0.186945 -40.983031 0.761279 145.484948 0.079181 31.919159
0.186945 -40.983031 0.249141 -42.03641 0.079387 31.685404 0.760065 145.629333
0.761279 145.484948 0.079387 31.685404 0.143267 142.608812 0.113405 134.489096
0.079181 31.919159 0.760065 145.629333 0.113405 134.489096 0.142201 142.710412
260.0 0.263952 -45.841041 0.195852 -42.821294 0.750983 122.614704 0.084722 6.932287
0.195852 -42.821294 0.263776 -45.713249 0.084929 6.831418 0.751068 122.849213
0.750983 122.614704 0.084929 6.831418 0.161724 95.287815 0.134146 85.719955
0.084722 6.932287 0.751068 122.849213 0.134146 85.719955 0.159875 95.53904
270.0 0.274496 -52.952385 0.20601 -47.708963 0.739767 100.224431 0.085645 -19.613982
0.20601 -47.708963 0.274582 -52.239307 0.08604 -19.683899 0.742099 100.453514
0.739767 100.224431 0.08604 -19.683899 0.18221 55.914866 0.156653 46.864626
0.085645 -19.613982 0.742099 100.453514 0.156653 46.864626 0.180297 56.582983
280.0 0.271985 -61.551149 0.211103 -54.667356 0.732546 78.281054 0.081421 -45.526698
0.211103 -54.667356 0.274706 -60.337864 0.081889 -45.717016 0.736584 78.361687
0.732546 78.281054 0.081889 -45.717016 0.191785 21.803348 0.169746 13.834383
0.081421 -45.526698 0.736584 78.361687 0.169746 13.834383 0.191578 22.968107
290.0 0.256141 -70.041455 0.209119 -62.617055 0.732489 56.46335 0.073655 -68.708872
0.209119 -62.617055 0.262602 -68.733658 0.073949 -68.997571 0.736299 56.338229
0.732489 56.46335 0.073949 -68.997571 0.185712 -9.499194 0.17024 -16.460977
0.073655 -68.708872 0.736299 56.338229 0.17024 -16.460977 0.18895 -8.191324
300.0 0.230483 -77.240679 0.199699 -70.888412 0.738825 34.358902 0.065672 -87.206815
0.199699 -70.888412 0.239786 -76.339144 0.065826 -87.409967 0.740682 34.116134
0.738825 34.358902 0.065826 -87.409967 0.165265 -40.10377 0.158811 -46.344719
0.065672 -87.206815 0.740682 34.116134 0.158811 -46.344719 0.171741 -39.365137
310.0 0.19988 -81.871807 0.183076 -78.670174 0.747492 11.734991 0.06191 -100.852976
0.183076 -78.670174 0.2099 -81.769684 0.062176 -100.990384 0.74721 11.521177
0.747492 11.734991 0.062176 -100.990384 0.134476 -73.114686 0.137482 -78.249984
0.06191 -100.852976 0.74721 11.521177 0.137482 -78.249984 0.141889 -73.492754
320.0 0.171831 -82.316204 0.161885 -84.668617 0.753773 -11.354528 0.065105 -113.902874
0.161885 -84.668617 0.180522 -83.154511 0.065455 -114.176177 0.75249 -11.451406
0.753773 -11.354528 0.065455 -114.176177 0.099452 -114.491282 0.109787 -115.352678
0.065105 -113.902874 0.75249 -11.451406 0.109787 -115.352678 0.105891 -115.644812
330.0 0.156407 -78.618238 0.141853 -87.847191 0.75484 -34.643856 0.073011 -131.074211
0.141853 -87.847191 0.162988 -80.080593 0.073288 -131.436513 0.753935 -34.631535
0.75484 -34.643856 0.073288 -131.436513 0.075889 -173.504639 0.083677 -161.846587
0.073011 -131.074211 0.753935 -34.631535 0.083677 -161.846587 0.081016 -173.56153
340.0 0.157696 -75.220053 0.128089 -89.027711 0.751156 -57.823304 0.081067 -152.241447
0.128089 -89.027711 0.163146 -76.780431 0.081254 -152.615098 0.751316 -57.774057
0.751156 -57.823304 0.081254 -152.615098 0.084642 121.612832 0.071404 142.251881
0.081067 -152.241447 0.751316 -57.774057 0.071404 142.251881 0.087752 123.263141
350.0 0.167585 -76.619854 0.120337 -90.927179 0.745709 -80.733689 0.086714 -175.020079
0.120337 -90.927179 0.173066 -78.180844 0.086784 -175.382645 0.746618 -80.719647
0.745709 -80.733689 0.086784 -175.382645 0.110246 74.976366 0.074782 90.511969
0.086714 -175.020079 0.746618 -80.719647 0.074782 90.511969 0.112256 76.83469
360.0 0.174289 -83.04937 0.113603 -95.676368 0.741391 -103.425149 0.089979 162.398908
0.113603 -95.676368 0.179926 -84.668614 0.08992 162.108414 0.742244 -103.463217
0.741391 -103.425149 0.08992 162.108414 0.129825 41.002903 0.080766 50.627601
0.089979 162.398908 0.742244 -103.463217 0.080766 50.627601 0.132326 42.62821
370.0 0.169903 -92.838392 0.102467 -103.54014 0.739415 -126.048815 0.092206 140.828379
0.102467 -103.54014 0.17548 -94.430319 0.09213 140.661736 0.7397 -126.103862
0.739415 -126.048815 0.09213 140.661736 0.135786 13.200989 0.07982 18.970906
0.092206 140.828379 0.7397 -126.103862 0.07982 18.970906 0.13932 14.331853
380.0 0.151323 -104.279679 0.083847 -113.610126 0.739513 -148.750308 0.095107 120.266199
0.083847 -113.610126 0.157002 -105.67798 0.095165 120.190654 0.739282 -148.777474
0.739513 -148.750308 0.095165 120.190654 0.127177 -11.089492 0.069088 -7.654555
0.095107 120.266199 0.739282 -148.777474 0.069088 -7.654555 0.131369 -10.623327
390.0 0.119542 -115.574022 0.057629 -124.131214 0.740438 -171.623404 0.100029 99.983066
0.057629 -124.131214 0.125891 -116.654459 0.100279 99.910573 0.740109 -171.599745
0.740438 -171.623404 0.100279 99.910573 0.105541 -32.389459 0.049568 -29.138241
0.100029 99.983066 0.740109 -171.599745 0.049568 -29.138241 0.109894 -32.807507
400.0 0.079254 -123.276942 0.026743 -128.783988 0.74048 165.326259 0.107104 78.960006
0.026743 -128.783988 0.086911 -124.302823 0.107484 78.829627 0.740511 165.391481
0.74048 165.326259 0.107484 78.829627 0.075144 -48.594371 0.026226 -36.035969
0.107104 78.960006 0.740511 165.391481 0.026226 -36.035969 0.079033 -50.723487
410.0 0.04055 -114.189957 0.010464 -31.788308 0.738445 142.187408 0.115086 56.694881
0.010464 -31.788308 0.049218 -119.104016 0.115498 56.510101 0.738985 142.262726
0.738445 142.187408 0.115498 56.510101 0.04519 -50.830569 0.017966 10.780484
0.115086 56.694881 0.738985 142.262726 0.017966 10.780484 0.046788 -57.194743
420.0 0.032036 -60.315151 0.034775 -7.911152 0.734433 119.075358 0.122412 33.498895
0.034775 -7.911152 0.033595 -79.393313 0.122811 33.295519 0.73522 119.138872
0.734433 119.075358 0.122811 33.295519 0.033788 -25.87424 0.033278 22.212054
0.122412 33.498895 0.73522 119.138872 0.033278 22.212054 0.029681 -33.270001
430.0 0.053071 -41.06321 0.052735 -14.3501 0.729471 96.044624 0.12844 10.04608
0.052735 -14.3501 0.047498 -52.930939 0.128842 9.846099 0.730189 96.10722
0.729471 96.044624 0.128842 9.846099 0.042886 -14.192111 0.044009 3.794245
0.12844 10.04608 0.730189 96.10722 0.044009 3.794245 0.036769 -13.124248
440.0 0.067831 -42.938042 0.06106 -19.652683 0.724461 73.070456 0.13371 -13.20006
0.06106 -19.652683 0.060216 -50.934905 0.134133 -13.392747 0.725162 73.158766
0.724461 73.070456 0.134133 -13.392747 0.048042 -24.030434 0.043312 -23.45391
0.13371 -13.20006 0.725162 73.158766 0.043312 -23.45391 0.042748 -19.308083
450.0 0.070203 -45.717844 0.063424 -18.559951 0.719578 50.093413 0.139251 -36.237876
0.063424 -18.559951 0.061966 -52.345988 0.139709 -36.414891 0.720619 50.21431
0.719578 50.093413 0.139709 -36.414891 0.03948 -40.651494 0.031762 -63.033253
0.139251 -36.237876 0.720619 50.21431 0.031762 -63.033253 0.036121 -32.035914
460.0 0.064898 -41.200943 0.069635 -10.415721 0.714277 27.069758 0.145682 -59.427567
0.069635 -10.415721 0.055565 -46.777224 0.146229 -59.578605 0.715913 27.200672
0.714277 27.069758 0.146229 -59.578605 0.01618 -53.383354 0.022804 -143.59454
0.145682 -59.427567 0.715913 27.200672 0.022804 -143.59454 0.016763 -31.22636
470.0 0.065537 -25.977336 0.088722 -3.842203 0.707642 4.011071 0.152638 -83.175959
0.088722 -3.842203 0.054446 -27.666042 0.153363 -83.313762 0.709772 4.123229
0.707642 4.011071 0.153363 -83.313762 0.020511 78.361566 0.044075 141.150388
0.152638 -83.175959 0.709772 4.123229 0.044075 141.150388 0.022361 63.452076
480.0 0.083929 -12.687772 0.118002 -5.32942 0.699096 -18.998056 0.158861 -107.598713
0.118002 -5.32942 0.072854 -10.76325 0.159806 -107.761937 0.701407 -18.914286
0.699096 -18.998056 0.159806 -107.761937 0.062634 61.86696 0.076727 101.570185
0.158861 -107.598713 0.701407 -18.914286 0.076727 101.570185 0.061347 57.017094
490.0 0.113961 -10.269813 0.148424 -12.813796 0.689172 -41.842397 0.163007 -132.395789
0.148424 -12.813796 0.103612 -7.991403 0.164107 -132.624925 0.691438 -41.776782
0.689172 -41.842397 0.164107 -132.624925 0.10454 38.681451 0.10588 70.752736
0.163007 -132.395789 0.691438 -41.776782 0.10588 70.752736 0.101594 36.24278
500.0 0.145203 -14.343337 0.172485 -22.980959 0.679438 -64.467998 0.164636 -157.029597
0.172485 -22.980959 0.135003 -12.593631 0.165725 -157.337659 0.681605 -64.405495
0.679438 -64.467998 0.165725 -157.337659 0.13958 14.039876 0.124757 42.645651
0.164636 -157.029597 0.681605 -64.405495 0.124757 42.645651 0.135303 12.522336
510.0 0.17209 -20.780043 0.186118 -33.658847 0.671428 -86.935849 0.164514 178.966628
0.186118 -33.658847 0.161358 -19.489375 0.165425 178.613368 0.673545 -86.862968
0.671428 -86.935849 0.165425 178.613368 0.163062 -11.698979 0.129808 15.219441
0.164514 178.966628 0.673545 -86.862968 0.129808 15.219441 0.157475 -12.757369
520.0 0.192837 -27.540043 0.188398 -43.39772 0.665602 -109.380186 0.164151 155.758397
0.188398 -43.39772 0.181225 -26.450387 0.164838 155.432349 0.667827 -109.285848
0.665602 -109.380186 0.164838 155.432349 0.172498 -39.010161 0.119756 -13.247956
0.164151 155.758397 0.667827 -109.285848 0.119756 -13.247956 0.165644 -39.769539
530.0 0.208178 -33.605356 0.181278 -50.878394 0.661243 -131.920452 0.165032 133.133489
0.181278 -50.878394 0.195818 -32.485248 0.165633 132.903336 0.663826 -131.807483
0.661243 -131.920452 0.165633 132.903336 0.167595 -68.992011 0.095492 -45.781491
0.165032 133.133489 0.663826 -131.807483 0.095492 -45.781491 0.159749 -69.546663
540.0 0.22091 -38.577314 0.170083 -54.740787 0.657022 -154.608215 0.167967 110.579601
0.170083 -54.740787 0.208197 -37.318095 0.168732 110.459568 0.660067 -154.499137
0.657022 -154.608215 0.168732 110.459568 0.150959 -103.517455 0.06325 -91.4689
0.167967 110.579601 0.660067 -154.499137 0.06325 -91.4689 0.142635 -104.093805
550.0 0.234832 -42.770627 0.163487 -54.546239 0.651526 -177.419459 0.172649 87.500505
0.163487 -54.546239 0.221952 -41.397667 0.173776 87.446899 0.65479 -177.33007
0.651526 -177.419459 0.173776 87.446899 0.130341 -145.26779 0.050523 -170.549691
0.172649 87.500505 0.65479 -177.33007 0.050523 -170.549691 0.122181 -146.439927
560.0 0.252191 -47.151191 0.169296 -52.752486 0.643641 159.748735 0.177564 63.515866
0.169296 -52.752486 0.238805 -45.717139 0.179117 63.480774 0.646856 159.84346
0.643641 159.748735 0.179117 63.480774 0.119831 164.884511 0.083231 123.545141
0.177564 63.515866 0.646856 159.84346 0.083231 123.545141 0.112701 162.519169
570.0 0.27119 -52.638849 0.186779 -53.427088 0.633194 137.076031 0.180533 38.693374
0.186779 -53.427088 0.256809 -51.075638 0.182542 38.647446 0.636699 137.221164
0.633194 137.076031 0.182542 38.647446 0.12984 114.203963 0.126688 84.318671
0.180533 38.693374 0.636699 137.221164 0.126688 84.318671 0.124072 111.297243
580.0 0.286759 -59.301812 0.207242 -57.903201 0.621701 114.753002 0.179838 13.553495
0.207242 -57.903201 0.271683 -57.436694 0.182312 13.449237 0.626411 114.93565
0.621701 114.753002 0.182312 13.449237 0.153353 70.776449 0.161343 53.397994
0.179838 13.553495 0.626411 114.93565 0.161343 53.397994 0.147952 68.34243
590.0 0.294731 -66.359356 0.222408 -64.873408 0.612149 92.836119 0.175249 -11.142811
0.222408 -64.873408 0.280395 -64.097485 0.17804 -11.373982 0.618557 92.947891
0.612149 92.836119 0.17804 -11.373982 0.176596 34.145964 0.180181 25.493261
0.175249 -11.142811 0.618557 92.947891 0.180181 25.493261 0.170933 32.520291
600.0 0.295101 -72.831713 0.228665 -72.682696 0.607244 71.143688 0.168249 -34.686064
0.228665 -72.682696 0.283184 -70.310957 0.171063 -35.080159 0.614574 71.06055
0.607244 71.143688 0.171063 -35.080159 0.190874 1.322816 0.181045 -1.30532
0.168249 -34.686064 0.614574 71.06055 0.181045 -1.30532 0.185469 0.405848
610.0 0.291518 -78.128829 0.226078 -80.151684 0.607433 49.336455 0.16145 -56.717408
0.226078 -80.151684 0.282506 -75.693813 0.164047 -57.247458 0.614069 49.041376
0.607433 49.336455 0.164047 -57.247458 0.193144 -30.034343 0.164877 -28.472878
0.16145 -56.717408 0.614069 49.041376 0.164877 -28.472878 0.188634 -30.638356
620.0 0.288519 -82.277566 0.216608 -86.387367 0.610468 27.138423 0.157512 -77.529487
