! File created by SignalIntegrity v1.1.10: Signal and Power Integrity Tools
! https://github.com/TeledyneLeCroy/SignalIntegrity
# MHz S MA R 42.5
0.0 0.039853 0.0 0.00504 -0.0 0.956674 -0.0 0.00481 180.0
0.00504 -0.0 0.038799 0.0 0.004867 180.0 0.95546 -0.0
0.956674 -0.0 0.004867 180.0 0.043943 0.0 0.005161 -0.0
0.00481 180.0 0.95546 -0.0 0.005161 -0.0 0.042261 0.0
10.0 0.141284 40.37484 0.044461 61.04167 0.921776 -25.253374 0.01666 -149.382886
0.044461 61.04167 0.140383 40.830236 0.016822 -149.451942 0.919857 -25.202375
0.921776 -25.253374 0.016822 -149.451942 0.148207 36.341883 0.044566 51.866595
0.01666 -149.382886 0.919857 -25.202375 0.044566 51.866595 0.148025 36.841308
20.0 0.217961 28.273022 0.076064 45.864564 0.897883 -48.79779 0.026203 179.735829
0.076064 45.864564 0.217541 28.762245 0.02646 179.568951 0.896965 -48.748975
0.897883 -48.79779 0.02646 179.568951 0.231996 19.756713 0.076003 26.841425
0.026203 179.735829 0.896965 -48.748975 0.076003 26.841425 0.232063 19.980816
30.0 0.254796 12.956271 0.093205 31.727675 0.882747 -71.56673 0.029176 149.430536
0.093205 31.727675 0.255195 13.395565 0.029406 149.166609 0.882144 -71.569699
0.882747 -71.56673 0.029406 149.166609 0.275845 -1.370646 0.092367 0.40034
0.029176 149.430536 0.882144 -71.569699 0.092367 0.40034 0.275688 -1.200094
40.0 0.25054 -1.819238 0.096517 20.241191 0.879303 -94.186824 0.026723 126.615583
0.096517 20.241191 0.25144 -1.461351 0.026872 126.414253 0.878137 -94.221721
0.879303 -94.186824 0.026872 126.414253 0.277826 -24.487328 0.093588 -28.401104
0.026723 126.615583 0.878137 -94.221721 0.093588 -28.401104 0.277591 -24.260032
50.0 0.208185 -13.653351 0.087376 13.884361 0.884351 -117.246321 0.024125 120.98222
0.087376 13.884361 0.209236 -13.349859 0.024308 120.847172 0.882606 -117.259977
0.884351 -117.246321 0.024308 120.847172 0.236754 -50.727481 0.079999 -63.894764
0.024125 120.98222 0.882606 -117.259977 0.079999 -63.894764 0.236706 -50.403525
60.0 0.140418 -14.6284 0.074642 20.07344 0.889348 -141.06639 0.032777 120.810187
0.074642 20.07344 0.141439 -14.378596 0.032988 120.461479 0.887647 -141.043735
0.889348 -141.06639 0.032988 120.461479 0.154795 -84.153541 0.057672 -117.742183
0.032777 120.810187 0.887647 -141.043735 0.057672 -117.742183 0.154813 -83.625742
70.0 0.10524 17.579369 0.083556 36.779559 0.883677 -165.438111 0.051298 100.016768
0.083556 36.779559 0.106277 17.582713 0.051465 99.715633 0.882348 -165.40103
0.883677 -165.438111 0.051465 99.715633 0.063638 -155.529286 0.057428 159.810055
0.051298 100.016768 0.882348 -165.40103 0.057428 159.810055 0.062734 -154.288388
80.0 0.168729 40.829599 0.116313 39.757814 0.863225 170.36137 0.068938 68.062198
0.116313 39.757814 0.169893 40.630882 0.069108 67.854497 0.862215 170.39959
0.863225 170.36137 0.069108 67.854497 0.116696 95.384875 0.091412 98.440863
0.068938 68.062198 0.862215 170.39959 0.091412 98.440863 0.114718 95.289084
90.0 0.252835 36.518648 0.147506 31.647958 0.834708 147.002926 0.079609 33.712751
0.147506 31.647958 0.253987 36.290983 0.079803 33.553136 0.83402 147.038693
0.834708 147.002926 0.079803 33.553136 0.215955 55.580972 0.125799 58.546937
0.079609 33.712751 0.83402 147.038693 0.125799 58.546937 0.213772 55.689612
100.0 0.31497 25.360886 0.165806 21.13957 0.80885 124.631419 0.082319 0.443099
0.165806 21.13957 0.315972 25.148758 0.082508 0.307232 0.808476 124.653074
0.80885 124.631419 0.082508 0.307232 0.288171 27.122855 0.147297 26.98435
0.082319 0.443099 0.808476 124.653074 0.147297 26.98435 0.286427 27.396326
110.0 0.3461 13.172974 0.172165 11.528056 0.793161 102.911401 0.078499 -30.303164
0.172165 11.528056 0.346979 12.977998 0.078646 -30.411411 0.792919 102.906628
0.793161 102.911401 0.078646 -30.411411 0.325284 1.431564 0.15536 -1.237741
0.078499 -30.303164 0.792919 102.906628 0.15536 -1.237741 0.324326 1.740579
120.0 0.345899 1.857068 0.170119 3.572063 0.790054 81.270798 0.070142 -57.123112
0.170119 3.572063 0.34663 1.663564 0.070248 -57.174708 0.789664 81.240405
0.790054 81.270798 0.070248 -57.174708 0.326234 -24.34762 0.151745 -29.560414
0.070142 -57.123112 0.789664 81.240405 0.151745 -29.560414 0.325656 -24.061825
130.0 0.3178 -6.919342 0.161505 -2.236109 0.797048 59.118696 0.060578 -77.104447
0.161505 -2.236109 0.318301 -7.116298 0.060708 -77.074164 0.796322 59.079643
0.797048 59.118696 0.060708 -77.074164 0.290557 -52.800067 0.136817 -61.82468
0.060578 -77.104447 0.796322 59.079643 0.136817 -61.82468 0.289822 -52.485354
140.0 0.273638 -10.024815 0.1495 -4.112112 0.806782 36.060734 0.057493 -88.263479
0.1495 -4.112112 0.273888 -10.223314 0.057723 -88.229852 0.805798 36.033453
0.806782 36.060734 0.057723 -88.229852 0.221326 -88.302322 0.11217 -103.633042
0.057493 -88.263479 0.805798 36.033453 0.11217 -103.633042 0.220231 -87.849135
150.0 0.244572 -4.057446 0.14541 -0.844415 0.808563 12.187923 0.06793 -100.877864
0.14541 -0.844415 0.24454 -4.242052 0.068218 -100.924821 0.807581 12.175652
0.808563 12.187923 0.068218 -100.924821 0.144093 -143.012269 0.091637 -162.611284
0.06793 -100.877864 0.807581 12.175652 0.091637 -162.611284 0.1423 -142.476218
160.0 0.264494 4.519394 0.15939 2.037421 0.795664 -11.795084 0.084828 -124.222946
0.15939 2.037421 0.264242 4.400096 0.085126 -124.280653 0.794777 -11.803423
0.795664 -11.795084 0.085126 -124.280653 0.141846 136.74158 0.100677 130.670455
0.084828 -124.222946 0.794777 -11.803423 0.100677 130.670455 0.139654 136.567794
170.0 0.31776 5.061584 0.181422 -0.755803 0.772313 -35.069287 0.097345 -153.910607
0.181422 -0.755803 0.317434 5.014931 0.097676 -153.945477 0.771448 -35.076043
0.772313 -35.069287 0.097676 -153.945477 0.216051 82.227618 0.129703 80.044287
0.097345 -153.910607 0.771448 -35.076043 0.129703 80.044287 0.214202 81.932294
180.0 0.367959 -1.225017 0.197755 -7.088236 0.748755 -57.339637 0.101701 174.989065
0.197755 -7.088236 0.367703 -1.200046 0.10208 174.95792 0.747918 -57.340682
0.748755 -57.339637 0.10208 174.95792 0.286438 47.466867 0.154632 43.057547
0.101701 174.989065 0.747918 -57.340682 0.154632 43.057547 0.284749 47.310916
190.0 0.396913 -10.458889 0.205669 -14.031653 0.732833 -78.843159 0.098852 144.672976
0.205669 -14.031653 0.396987 -10.369574 0.099226 144.622965 0.732044 -78.839975
0.732833 -78.843159 0.099226 144.622965 0.328797 19.535223 0.168561 12.87745
0.098852 144.672976 0.732044 -78.839975 0.168561 12.87745 0.327535 19.517731
200.0 0.399702 -20.441015 0.208005 -20.571417 0.727909 -100.06023 0.09064 116.089127
0.208005 -20.571417 0.400271 -20.31287 0.09094 116.036825 0.727127 -100.053212
0.727909 -100.06023 0.09094 116.036825 0.338781 -6.163601 0.172417 -14.749541
0.09064 116.089127 0.727127 -100.053212 0.172417 -14.749541 0.338288 -6.109683
210.0 0.37676 -29.778743 0.206371 -26.778723 0.733696 -121.522106 0.07863 90.45754
0.206371 -26.778723 0.377763 -29.630337 0.078867 90.462333 0.732912 -121.509349
0.733696 -121.522106 0.078867 90.462333 0.315394 -32.248532 0.167116 -43.245843
0.07863 90.45754 0.732912 -121.509349 0.167116 -43.245843 0.315564 -32.20052
220.0 0.332507 -36.700923 0.199845 -32.426339 0.746577 -143.688443 0.065599 70.70828
0.199845 -32.426339 0.333891 -36.529488 0.065907 70.791161 0.745754 -143.673285
0.746577 -143.688443 0.065907 70.791161 0.258563 -61.516465 0.15186 -76.077461
0.065599 70.70828 0.745754 -143.673285 0.15186 -76.077461 0.25894 -61.50042
230.0 0.280942 -38.067432 0.189447 -36.18404 0.759342 -166.786795 0.058756 59.745871
0.189447 -36.18404 0.282891 -37.917711 0.059219 59.707614 0.758267 -166.764569
0.759342 -166.786795 0.059219 59.707614 0.175092 -99.88852 0.128014 -117.306653
0.058756 59.745871 0.758267 -166.764569 0.128014 -117.306653 0.175284 -99.841295
240.0 0.252835 -31.693855 0.183172 -37.137164 0.763048 169.42082 0.065124 49.116503
0.183172 -37.137164 0.255022 -31.789123 0.065513 48.838924 0.761599 169.48551
0.763048 169.42082 0.065513 48.838924 0.105727 -167.914324 0.107275 -170.756194
0.065124 49.116503 0.761599 169.48551 0.107275 -170.756194 0.10533 -167.725472
250.0 0.271452 -25.020709 0.188268 -37.965362 0.75345 145.64836 0.078138 28.498428
0.188268 -37.965362 0.272317 -25.267569 0.078309 28.263547 0.752183 145.803894
0.75345 145.64836 0.078309 28.263547 0.141335 110.367238 0.107851 130.014724
0.078138 28.498428 0.752183 145.803894 0.107851 130.014724 0.140122 110.325621
260.0 0.31343 -26.380665 0.198601 -41.868399 0.735268 122.611239 0.087362 1.094104
0.198601 -41.868399 0.313075 -26.273389 0.087513 1.027301 0.735386 122.851387
0.735268 122.611239 0.087513 1.027301 0.219006 66.195375 0.125818 80.887047
0.087362 1.094104 0.735386 122.851387 0.125818 80.887047 0.217074 66.232234
270.0 0.34483 -33.893229 0.20427 -48.191324 0.717946 100.553696 0.08886 -28.25889
0.20427 -48.191324 0.345748 -33.306839 0.089207 -28.249391 0.720202 100.772848
0.717946 100.553696 0.089207 -28.249391 0.275039 35.766829 0.143845 43.35192
0.08886 -28.25889 0.720202 100.772848 0.143845 43.35192 0.27296 36.099521
280.0 0.351447 -43.971184 0.20322 -55.06144 0.709381 79.188315 0.083062 -56.934143
0.20322 -55.06144 0.355823 -43.161637 0.083549 -57.001142 0.712983 79.250689
0.709381 79.188315 0.083549 -57.001142 0.296996 10.132339 0.15419 12.407139
0.083062 -56.934143 0.712983 79.250689 0.15419 12.407139 0.296485 10.804025
290.0 0.331958 -54.626147 0.198166 -61.853298 0.712756 57.8971 0.071776 -83.033137
0.198166 -61.853298 0.339749 -53.942422 0.072164 -83.215681 0.715781 57.775198
0.712756 57.8971 0.072164 -83.215681 0.284153 -13.470312 0.155598 -15.875815
0.071776 -83.033137 0.715781 57.775198 0.155598 -15.875815 0.287017 -12.680902
300.0 0.288622 -64.492358 0.189684 -68.962171 0.725812 36.048964 0.057763 -103.363692
0.189684 -68.962171 0.298186 -64.177195 0.05799 -103.519618 0.726938 35.855689
0.725812 36.048964 0.05799 -103.519618 0.239477 -36.503081 0.147722 -44.492244
0.057763 -103.363692 0.726938 35.855689 0.147722 -44.492244 0.245597 -36.124124
310.0 0.2268 -70.846565 0.175246 -76.125406 0.742058 13.30435 0.047197 -112.480744
0.175246 -76.125406 0.236398 -71.133581 0.047488 -112.576821 0.741586 13.169243
0.742058 13.30435 0.047488 -112.576821 0.167444 -60.615242 0.129848 -76.149522
0.047197 -112.480744 0.741586 13.169243 0.129848 -76.149522 0.174204 -61.361593
320.0 0.165325 -66.709288 0.155546 -81.424672 0.753496 -10.250396 0.049532 -114.901516
0.155546 -81.424672 0.173121 -68.188615 0.049879 -115.234729 0.752563 -10.282559
0.753496 -10.250396 0.049879 -115.234729 0.074725 -91.263445 0.103285 -113.865413
0.049532 -114.901516 0.752563 -10.282559 0.103285 -113.865413 0.079921 -94.328768
330.0 0.146505 -48.025193 0.13875 -83.26119 0.754414 -34.125714 0.062499 -127.942995
0.13875 -83.26119 0.150336 -50.630806 0.062734 -128.343772 0.753984 -34.076822
0.754414 -34.125714 0.062734 -128.343772 0.035869 108.672232 0.075958 -161.723453
0.062499 -127.942995 0.753984 -34.076822 0.075958 -161.723453 0.037311 116.481628
340.0 0.180048 -37.502724 0.131298 -84.230403 0.745738 -57.669001 0.074967 -150.348276
0.131298 -84.230403 0.181729 -39.602602 0.075133 -150.706472 0.746296 -57.596262
0.745738 -57.669001 0.075133 -150.706472 0.126544 63.340376 0.061977 139.997254
0.074967 -150.348276 0.746296 -57.596262 0.061977 139.997254 0.12618 65.175194
350.0 0.219743 -41.71845 0.128211 -88.333193 0.73452 -80.540148 0.082107 -175.102868
0.128211 -88.333193 0.221763 -43.442835 0.082197 -175.431817 0.735778 -80.509405
0.73452 -80.540148 0.082197 -175.431817 0.193231 38.027652 0.063945 87.22107
0.082107 -175.102868 0.735778 -80.509405 0.063945 87.22107 0.192859 39.220878
360.0 0.238568 -52.757362 0.1215 -96.155799 0.727483 -102.907866 0.08487 161.27078
0.1215 -96.155799 0.241222 -54.424955 0.084863 161.01178 0.728605 -102.936757
0.727483 -102.907866 0.084863 161.01178 0.225724 16.393397 0.068516 48.679167
0.08487 161.27078 0.728605 -102.936757 0.068516 48.679167 0.226508 17.453607
370.0 0.228287 -66.705135 0.107098 -106.800269 0.726929 -125.190379 0.086191 139.854669
0.107098 -106.800269 0.231416 -68.375826 0.086179 139.714246 0.72735 -125.236102
0.726929 -125.190379 0.086179 139.714246 0.224647 -2.639932 0.067068 19.544078
0.086191 139.854669 0.72735 -125.236102 0.067068 19.544078 0.227168 -1.775449
380.0 0.187951 -81.691438 0.083659 -119.578438 0.731202 -147.759948 0.089157 120.22519
0.083659 -119.578438 0.191886 -83.366613 0.089283 120.169977 0.731022 -147.766987
0.731202 -147.759948 0.089283 120.169977 0.194742 -18.577014 0.057303 -3.408432
0.089157 120.22519 0.731022 -147.766987 0.057303 -3.408432 0.198624 -18.109988
390.0 0.122234 -95.098496 0.05165 -133.489702 0.736285 -170.793112 0.095737 100.624119
0.05165 -133.489702 0.127561 -97.030985 0.096052 100.559481 0.736052 -170.73324
0.736285 -170.793112 0.096052 100.559481 0.1452 -28.110816 0.040801 -17.506845
0.095737 100.624119 0.736052 -170.73324 0.040801 -17.506845 0.149482 -28.525905
400.0 0.045407 -90.126692 0.014685 -139.69305 0.737719 165.805415 0.105158 79.180718
0.014685 -139.69305 0.051446 -96.299127 0.105592 79.053118 0.738062 165.919477
0.737719 165.805415 0.105592 79.053118 0.098885 -20.556184 0.026711 -7.729011
0.105158 79.180718 0.738062 165.919477 0.026711 -7.729011 0.100951 -23.086808
410.0 0.054091 4.996145 0.021944 -2.838625 0.733472 142.356399 0.114326 55.671841
0.021944 -2.838625 0.046439 -1.556015 0.114783 55.499817 0.734644 142.479481
0.733472 142.356399 0.114783 55.499817 0.098938 3.895915 0.031409 14.261004
0.114326 55.671841 0.734644 142.479481 0.031409 14.261004 0.095423 1.523046
420.0 0.119156 3.910429 0.048186 -13.828856 0.72551 119.1662 0.120783 31.361753
0.048186 -13.828856 0.109316 1.652618 0.121235 31.183511 0.727187 119.26013
0.72551 119.1662 0.121235 31.183511 0.134883 8.935262 0.043435 7.344721
0.120783 31.361753 0.727187 119.26013 0.043435 7.344721 0.129217 8.735627
430.0 0.162692 -9.009675 0.060565 -26.411487 0.717753 96.294911 0.124711 7.614778
0.060565 -26.411487 0.152269 -10.748288 0.125183 7.446249 0.71945 96.361008
0.717753 96.294911 0.125183 7.446249 0.162174 -0.585627 0.048415 -13.65919
0.124711 7.614778 0.71945 96.361008 0.048415 -13.65919 0.156618 0.214822
440.0 0.177239 -22.372128 0.058949 -33.802866 0.712802 73.556344 0.128352 -15.028985
0.058949 -33.802866 0.16705 -24.047344 0.128869 -15.189381 0.714362 73.621952
0.712802 73.556344 0.128869 -15.189381 0.163465 -14.666285 0.043333 -43.613786
0.128352 -15.028985 0.714362 73.621952 0.043333 -43.613786 0.158955 -13.108971
450.0 0.163103 -32.83174 0.049779 -27.581935 0.710409 50.682943 0.134213 -37.099665
0.049779 -27.581935 0.153567 -34.725833 0.134798 -37.248443 0.71203 50.768311
0.710409 50.682943 0.134798 -37.248443 0.134736 -28.617743 0.031668 -91.769299
0.134213 -37.099665 0.71203 50.768311 0.031668 -91.769299 0.132518 -26.044842
460.0 0.129671 -34.766502 0.053786 -3.140293 0.707736 27.511517 0.143188 -59.841043
0.053786 -3.140293 0.119946 -36.928981 0.143905 -59.974863 0.709703 27.612939
0.707736 27.511517 0.143905 -59.974863 0.081262 -33.491381 0.032608 -171.886449
0.143188 -59.841043 0.709703 27.612939 0.032608 -171.886449 0.083123 -29.417585
470.0 0.106465 -18.415475 0.085121 7.921877 0.70109 4.124706 0.153393 -84.234377
0.085121 7.921877 0.095231 -18.670543 0.154317 -84.370673 0.703484 4.221736
0.70109 4.124706 0.154317 -84.370673 0.04958 17.527908 0.058298 129.663082
0.153393 -84.234377 0.703484 4.221736 0.058298 129.663082 0.054843 15.495379
480.0 0.131885 2.026798 0.126677 1.575401 0.688903 -19.154992 0.16111 -110.149835
0.126677 1.575401 0.121757 4.458413 0.16225 -110.321462 0.69155 -19.077243
0.688903 -19.154992 0.16225 -110.321462 0.113105 43.347623 0.088855 92.120548
0.16111 -110.149835 0.69155 -19.077243 0.088855 92.120548 0.113236 40.786558
490.0 0.186393 4.889471 0.162307 -11.028676 0.673488 -41.992162 0.163661 -136.510746
0.162307 -11.028676 0.177632 7.0804 0.164927 -136.747406 0.676198 -41.931556
0.673488 -41.992162 0.164927 -136.747406 0.186782 31.774076 0.11216 61.523569
0.163661 -136.510746 0.676198 -41.931556 0.11216 61.523569 0.184399 30.458209
500.0 0.238524 -1.534148 0.183857 -24.788376 0.659284 -64.290423 0.161243 -162.095596
0.183857 -24.788376 0.229834 0.044852 0.162472 -162.407922 0.662017 -64.238844
0.659284 -64.290423 0.162472 -162.407922 0.241978 13.934903 0.123422 34.065739
0.161243 -162.095596 0.662017 -64.238844 0.123422 34.065739 0.23799 13.153502
510.0 0.275752 -10.840288 0.189658 -37.474518 0.649825 -86.231342 0.156266 173.907418
0.189658 -37.474518 0.266314 -9.689928 0.157298 173.546247 0.652625 -86.184336
0.649825 -86.231342 0.157298 173.546247 0.27065 -5.93494 0.121934 7.785654
0.156266 173.907418 0.652625 -86.184336 0.121934 7.785654 0.265255 -6.405085
520.0 0.293965 -20.429384 0.181933 -47.780393 0.646238 -108.147245 0.15191 151.72929
0.181933 -47.780393 0.283475 -19.50739 0.152696 151.389886 0.649177 -108.103192
0.646238 -108.147245 0.152696 151.389886 0.269475 -27.436592 0.108212 -19.64689
0.15191 151.72929 0.649177 -108.103192 0.108212 -19.64689 0.262824 -27.626733
530.0 0.293646 -28.664878 0.165227 -54.209911 0.647137 -130.370172 0.151191 130.878191
0.165227 -54.209911 0.282234 -27.788579 0.151876 130.639889 0.650301 -130.333485
0.647137 -130.370172 0.151876 130.639889 0.237083 -51.442975 0.083114 -52.518174
0.151191 130.878191 0.650301 -130.333485 0.083114 -52.518174 0.229548 -51.30129
540.0 0.281293 -33.925237 0.147983 -54.613913 0.649005 -153.101579 0.155896 110.020098
0.147983 -54.613913 0.26933 -32.899946 0.156769 109.900739 0.652355 -153.083815
0.649005 -153.101579 0.156769 109.900739 0.175328 -80.583509 0.053064 -103.821759
0.155896 110.020098 0.652355 -153.083815 0.053064 -103.821759 0.167347 -80.069788
550.0 0.270939 -35.284932 0.144427 -49.067863 0.647215 -176.286965 0.164881 87.543077
0.144427 -49.067863 0.2589 -33.913495 0.166175 87.483985 0.650486 -176.287901
0.647215 -176.286965 0.166175 87.483985 0.098162 -126.163421 0.051498 169.909727
0.164881 87.543077 0.650486 -176.287901 0.051498 169.909727 0.089784 -126.183633
560.0 0.277215 -34.680881 0.163276 -44.871369 0.638597 160.434968 0.173746 62.814949
0.163276 -44.871369 0.265359 -32.932168 0.175513 62.757219 0.641593 160.451599
0.638597 160.434968 0.175513 62.757219 0.078246 138.683746 0.089464 111.357825
0.173746 62.814949 0.641593 160.451599 0.089464 111.357825 0.074441 132.999222
570.0 0.300275 -36.036674 0.193451 -47.696111 0.624116 137.553709 0.177779 36.60119
0.193451 -47.696111 0.288354 -33.999409 0.179987 36.518356 0.627289 137.637406
0.624116 137.553709 0.179987 36.518356 0.150205 79.508343 0.128645 74.830845
0.177779 36.60119 0.627289 137.637406 0.128645 74.830845 0.14932 76.310623
580.0 0.326742 -40.735683 0.218328 -55.525248 0.608373 115.377576 0.175135 10.251181
0.218328 -55.525248 0.315076 -38.411293 0.177732 10.106493 0.612737 115.510788
0.608373 115.377576 0.177732 10.106493 0.221706 47.269881 0.154822 45.6376
0.175135 10.251181 0.612737 115.510788 0.154822 45.6376 0.219628 45.280164
590.0 0.344953 -47.610721 0.229863 -64.976389 0.596657 93.869862 0.167019 -15.052769
0.229863 -64.976389 0.334938 -45.070547 0.169842 -15.317886 0.602712 93.933049
0.596657 93.869862 0.169842 -15.317886 0.269347 21.514658 0.165466 19.828378
0.167019 -15.052769 0.602712 93.933049 0.165466 19.828378 0.265578 20.248119
600.0 0.350696 -55.263841 0.228254 -73.913848 0.592445 72.678444 0.156258 -38.460693
0.228254 -73.913848 0.343296 -52.758229 0.159047 -38.884842 0.599373 72.543895
0.592445 72.678444 0.159047 -38.884842 0.288205 -2.066213 0.161785 -4.571233
0.156258 -38.460693 0.599373 72.543895 0.161785 -4.571233 0.283687 -2.817637
610.0 0.344124 -62.780379 0.217401 -81.208303 0.596096 51.297636 0.146401 -59.495159
0.217401 -81.208303 0.338585 -60.566863 0.148945 -60.066058 0.602337 50.954423
0.596096 51.297636 0.148945 -60.066058 0.277685 -25.270923 0.145394 -29.469194
0.146401 -59.495159 0.602337 50.954423 0.145394 -29.469194 0.273272 -25.772242
620.0 0.326979 -69.371348 0.201776 -86.069716 0.604703 29.304365 0.141204 -78.471755
0.201776 -86.069716 0.321497 -67.493085 0.143433 -79.123473 0.609249 28.860969
