! File created by SignalIntegrity v1.4.3: Signal and Power Integrity Tools
! https://github.com/Nubis-Communications/SignalIntegrity
# MHz S MA R 50.0
0.0 1.0 0.0 0.0 0.0 0.0 0.0 0.516134 0.0
0.0 0.0 0.0 0.0 0.529833 0.0 0.0 0.0
0.0 0.0
10.0 1.0 0.0 0.0 0.0 0.0 0.0 0.504973 -33.291323
0.0 0.0 0.0 0.0 0.518386 -33.884975 0.0 0.0
0.0 0.0
20.0 1.0 0.0 0.0 0.0 0.0 0.0 0.492993 -64.39896
0.0 0.0 0.0 0.0 0.506116 -65.586299 0.0 0.0
0.0 0.0
30.0 1.0 0.0 0.0 0.0 0.0 0.0 0.492873 -95.608384
0.0 0.0 0.0 0.0 0.506041 -97.389477 0.0 0.0
0.0 0.0
40.0 1.0 0.0 0.0 0.0 0.0 0.0 0.488078 -127.354312
0.0 0.0 0.0 0.0 0.501186 -129.72926 0.0 0.0
0.0 0.0
50.0 1.0 -0.0 0.0 0.0 0.0 0.0 0.482432 -158.281474
0.0 0.0 0.0 0.0 0.495474 -161.250414 0.0 0.0
0.0 0.0
60.0 1.0 -0.0 0.0 0.0 0.0 0.0 0.48299 170.744875
0.0 0.0 0.0 0.0 0.496152 167.181774 0.0 0.0
0.0 0.0
70.0 1.0 0.0 0.0 0.0 0.0 0.0 0.482772 139.25333
0.0 0.0 0.0 0.0 0.496051 135.095867 0.0 0.0
0.0 0.0
80.0 1.0 -0.0 0.0 0.0 0.0 0.0 0.479018 107.775561
0.0 0.0 0.0 0.0 0.492335 103.023499 0.0 0.0
0.0 0.0
90.0 1.0 0.0 0.0 0.0 0.0 0.0 0.474215 76.730428
0.0 0.0 0.0 0.0 0.487557 71.383498 0.0 0.0
0.0 0.0
100.0 1.0 0.0 0.0 0.0 0.0 0.0 0.473388 45.868999
0.0 0.0 0.0 0.0 0.486884 39.926898 0.0 0.0
0.0 0.0
110.0 1.0 0.0 0.0 0.0 0.0 0.0 0.473302 14.530676
0.0 0.0 0.0 0.0 0.486991 7.993067 0.0 0.0
0.0 0.0
120.0 1.0 -0.0 0.0 0.0 0.0 0.0 0.470243 -16.703402
0.0 0.0 0.0 0.0 0.484055 -23.836885 0.0 0.0
0.0 0.0
130.0 1.0 -0.0 0.0 0.0 0.0 0.0 0.469609 -47.792228
0.0 0.0 0.0 0.0 0.483633 -55.521988 0.0 0.0
0.0 0.0
140.0 1.0 -0.0 0.0 0.0 0.0 0.0 0.468082 -79.247657
0.0 0.0 0.0 0.0 0.482308 -87.574126 0.0 0.0
0.0 0.0
150.0 1.0 0.0 0.0 0.0 0.0 0.0 0.46398 -110.398405
0.0 0.0 0.0 0.0 0.478344 -119.322048 0.0 0.0
0.0 0.0
160.0 1.0 -0.0 0.0 0.0 0.0 0.0 0.462595 -141.348716
0.0 0.0 0.0 0.0 0.477196 -150.870032 0.0 0.0
0.0 0.0
170.0 1.0 -0.0 0.0 0.0 0.0 0.0 0.461804 -172.500073
0.0 0.0 0.0 0.0 0.476678 177.380411 0.0 0.0
0.0 0.0
180.0 1.0 0.0 0.0 0.0 0.0 0.0 0.46093 156.304916
0.0 0.0 0.0 0.0 0.47609 145.58664 0.0 0.0
0.0 0.0
190.0 1.0 0.0 0.0 0.0 0.0 0.0 0.458964 124.932121
0.0 0.0 0.0 0.0 0.47439 113.614494 0.0 0.0
0.0 0.0
200.0 1.0 -0.0 0.0 0.0 0.0 0.0 0.45465 93.799716
0.0 0.0 0.0 0.0 0.470275 81.882117 0.0 0.0
0.0 0.0
210.0 1.0 0.0 0.0 0.0 0.0 0.0 0.452536 62.942608
0.0 0.0 0.0 0.0 0.468448 50.424387 0.0 0.0
0.0 0.0
220.0 1.0 -0.0 0.0 0.0 0.0 0.0 0.451581 31.872935
0.0 0.0 0.0 0.0 0.467836 18.75341 0.0 0.0
0.0 0.0
230.0 1.0 -0.0 0.0 0.0 0.0 0.0 0.450121 0.831386
0.0 0.0 0.0 0.0 0.466714 -12.890154 0.0 0.0
0.0 0.0
240.0 1.0 0.0 0.0 0.0 0.0 0.0 0.450177 -30.284818
0.0 0.0 0.0 0.0 0.46718 -44.609112 0.0 0.0
0.0 0.0
250.0 1.0 -0.0 0.0 0.0 0.0 0.0 0.449237 -61.6674
0.0 0.0 0.0 0.0 0.466628 -76.595215 0.0 0.0
0.0 0.0
260.0 1.0 0.0 0.0 0.0 0.0 0.0 0.446352 -92.946924
0.0 0.0 0.0 0.0 0.464069 -108.479056 0.0 0.0
0.0 0.0
270.0 1.0 0.0 0.0 0.0 0.0 0.0 0.443486 -124.02522
0.0 0.0 0.0 0.0 0.46154 -140.162494 0.0 0.0
0.0 0.0
280.0 1.0 -0.0 0.0 0.0 0.0 0.0 0.441573 -154.956533
0.0 0.0 0.0 0.0 0.460014 -171.699798 0.0 0.0
0.0 0.0
290.0 1.0 0.0 0.0 0.0 0.0 0.0 0.441362 174.059153
0.0 0.0 0.0 0.0 0.460274 156.709018 0.0 0.0
0.0 0.0
300.0 1.0 0.0 0.0 0.0 0.0 0.0 0.440544 142.870805
0.0 0.0 0.0 0.0 0.459916 124.912897 0.0 0.0
0.0 0.0
310.0 1.0 -0.0 0.0 0.0 0.0 0.0 0.438457 111.83135
0.0 0.0 0.0 0.0 0.458245 93.264739 0.0 0.0
0.0 0.0
320.0 1.0 0.0 0.0 0.0 0.0 0.0 0.437727 80.899903
0.0 0.0 0.0 0.0 0.458005 61.723634 0.0 0.0
0.0 0.0
330.0 1.0 0.0 0.0 0.0 0.0 0.0 0.437494 49.813266
0.0 0.0 0.0 0.0 0.458298 30.026361 0.0 0.0
0.0 0.0
340.0 1.0 -0.0 0.0 0.0 0.0 0.0 0.436745 18.620503
0.0 0.0 0.0 0.0 0.458065 -1.778043 0.0 0.0
0.0 0.0
350.0 1.0 0.0 0.0 0.0 0.0 0.0 0.434455 -12.644604
0.0 0.0 0.0 0.0 0.456226 -33.655819 0.0 0.0
0.0 0.0
360.0 1.0 -0.0 0.0 0.0 0.0 0.0 0.430873 -43.606097
0.0 0.0 0.0 0.0 0.453038 -65.231031 0.0 0.0
0.0 0.0
370.0 1.0 0.0 0.0 0.0 0.0 0.0 0.430076 -74.368979
0.0 0.0 0.0 0.0 0.452788 -96.608706 0.0 0.0
0.0 0.0
380.0 1.0 0.0 0.0 0.0 0.0 0.0 0.430533 -105.440655
0.0 0.0 0.0 0.0 0.45387 -128.296269 0.0 0.0
0.0 0.0
390.0 1.0 -0.0 0.0 0.0 0.0 0.0 0.430151 -136.598168
0.0 0.0 0.0 0.0 0.454083 -160.070786 0.0 0.0
0.0 0.0
400.0 1.0 -0.0 0.0 0.0 0.0 0.0 0.42968 -167.887027
0.0 0.0 0.0 0.0 0.454215 168.022212 0.0 0.0
0.0 0.0
410.0 1.0 0.0 0.0 0.0 0.0 0.0 0.426598 160.804337
0.0 0.0 0.0 0.0 0.451594 136.094276 0.0 0.0
0.0 0.0
420.0 1.0 -0.0 0.0 0.0 0.0 0.0 0.423046 129.962735
0.0 0.0 0.0 0.0 0.448481 104.632197 0.0 0.0
0.0 0.0
430.0 1.0 -0.0 0.0 0.0 0.0 0.0 0.422622 99.273832
0.0 0.0 0.0 0.0 0.44869 73.321618 0.0 0.0
0.0 0.0
440.0 1.0 0.0 0.0 0.0 0.0 0.0 0.424256 68.298018
0.0 0.0 0.0 0.0 0.451099 41.722912 0.0 0.0
0.0 0.0
450.0 1.0 -0.0 0.0 0.0 0.0 0.0 0.424735 36.84656
0.0 0.0 0.0 0.0 0.452297 9.64733 0.0 0.0
0.0 0.0
460.0 1.0 0.0 0.0 0.0 0.0 0.0 0.420126 5.427844
0.0 0.0 0.0 0.0 0.448083 -22.396762 0.0 0.0
0.0 0.0
470.0 1.0 0.0 0.0 0.0 0.0 0.0 0.415098 -25.183758
0.0 0.0 0.0 0.0 0.443419 -53.635009 0.0 0.0
0.0 0.0
480.0 1.0 0.0 0.0 0.0 0.0 0.0 0.415817 -55.670762
0.0 0.0 0.0 0.0 0.444898 -84.749943 0.0 0.0
0.0 0.0
490.0 1.0 0.0 0.0 0.0 0.0 0.0 0.418043 -86.79862
0.0 0.0 0.0 0.0 0.448008 -116.50703 0.0 0.0
0.0 0.0
500.0 1.0 0.0 0.0 0.0 0.0 0.0 0.417336 -118.247884
0.0 0.0 0.0 0.0 0.447989 -148.586839 0.0 0.0
0.0 0.0
510.0 1.0 0.0 0.0 0.0 0.0 0.0 0.413515 -149.529823
0.0 0.0 0.0 0.0 0.444631 179.499347 0.0 0.0
0.0 0.0
520.0 1.0 -0.0 0.0 0.0 0.0 0.0 0.409553 179.703631
0.0 0.0 0.0 0.0 0.441119 148.099581 0.0 0.0
0.0 0.0
530.0 1.0 0.0 0.0 0.0 0.0 0.0 0.409291 149.122061
0.0 0.0 0.0 0.0 0.441596 116.883435 0.0 0.0
0.0 0.0
540.0 1.0 0.0 0.0 0.0 0.0 0.0 0.410991 118.170147
0.0 0.0 0.0 0.0 0.444204 85.295573 0.0 0.0
0.0 0.0
550.0 1.0 0.0 0.0 0.0 0.0 0.0 0.411725 86.969449
0.0 0.0 0.0 0.0 0.445784 53.457546 0.0 0.0
0.0 0.0
560.0 1.0 0.0 0.0 0.0 0.0 0.0 0.41158 55.668107
0.0 0.0 0.0 0.0 0.446424 21.51748 0.0 0.0
0.0 0.0
570.0 1.0 0.0 0.0 0.0 0.0 0.0 0.409488 24.286132
0.0 0.0 0.0 0.0 0.444959 -10.504625 0.0 0.0
0.0 0.0
580.0 1.0 0.0 0.0 0.0 0.0 0.0 0.405163 -6.77672
0.0 0.0 0.0 0.0 0.441064 -42.209022 0.0 0.0
0.0 0.0
590.0 1.0 -0.0 0.0 0.0 0.0 0.0 0.402548 -37.328417
0.0 0.0 0.0 0.0 0.439029 -73.403691 0.0 0.0
0.0 0.0
600.0 1.0 0.0 0.0 0.0 0.0 0.0 0.40429 -67.961198
0.0 0.0 0.0 0.0 0.441753 -104.680879 0.0 0.0
0.0 0.0
610.0 1.0 -0.0 0.0 0.0 0.0 0.0 0.40665 -99.227305
0.0 0.0 0.0 0.0 0.44517 -136.592837 0.0 0.0
0.0 0.0
620.0 1.0 -0.0 0.0 0.0 0.0 0.0 0.404918 -130.697384
0.0 0.0 0.0 0.0 0.44412 -168.71022 0.0 0.0
0.0 0.0
630.0 1.0 -0.0 0.0 0.0 0.0 0.0 0.401504 -161.684479
0.0 0.0 0.0 0.0 0.441223 159.65392 0.0 0.0
0.0 0.0
640.0 1.0 0.0 0.0 0.0 0.0 0.0 0.400578 167.52982
0.0 0.0 0.0 0.0 0.441061 128.217986 0.0 0.0
0.0 0.0
650.0 1.0 0.0 0.0 0.0 0.0 0.0 0.40046 136.553632
0.0 0.0 0.0 0.0 0.441794 96.590092 0.0 0.0
0.0 0.0
660.0 1.0 -0.0 0.0 0.0 0.0 0.0 0.400165 105.545886
0.0 0.0 0.0 0.0 0.442341 64.929159 0.0 0.0
0.0 0.0
670.0 1.0 -0.0 0.0 0.0 0.0 0.0 0.400094 74.420967
0.0 0.0 0.0 0.0 0.443144 33.149565 0.0 0.0
0.0 0.0
680.0 1.0 0.0 0.0 0.0 0.0 0.0 0.398745 43.172611
0.0 0.0 0.0 0.0 0.442537 1.245043 0.0 0.0
0.0 0.0
690.0 1.0 -0.0 0.0 0.0 0.0 0.0 0.395599 12.011681
0.0 0.0 0.0 0.0 0.439934 -30.573549 0.0 0.0
0.0 0.0
700.0 1.0 0.0 0.0 0.0 0.0 0.0 0.391264 -18.780532
0.0 0.0 0.0 0.0 0.435999 -62.024925 0.0 0.0
0.0 0.0
710.0 1.0 0.0 0.0 0.0 0.0 0.0 0.389407 -49.078742
0.0 0.0 0.0 0.0 0.43482 -92.983802 0.0 0.0
0.0 0.0
720.0 1.0 -0.0 0.0 0.0 0.0 0.0 0.392308 -79.566374
0.0 0.0 0.0 0.0 0.438964 -124.133609 0.0 0.0
0.0 0.0
730.0 1.0 0.0 0.0 0.0 0.0 0.0 0.395957 -110.735054
0.0 0.0 0.0 0.0 0.443968 -155.965974 0.0 0.0
0.0 0.0
740.0 1.0 0.0 0.0 0.0 0.0 0.0 0.396466 -142.323636
0.0 0.0 0.0 0.0 0.445467 171.780246 0.0 0.0
0.0 0.0
750.0 1.0 0.0 0.0 0.0 0.0 0.0 0.39255 -173.794105
0.0 0.0 0.0 0.0 0.441996 139.643065 0.0 0.0
0.0 0.0
760.0 1.0 -0.0 0.0 0.0 0.0 0.0 0.387024 155.422823
0.0 0.0 0.0 0.0 0.436695 108.191764 0.0 0.0
0.0 0.0
770.0 1.0 -0.0 0.0 0.0 0.0 0.0 0.384977 125.188928
0.0 0.0 0.0 0.0 0.435309 77.288124 0.0 0.0
0.0 0.0
780.0 1.0 -0.0 0.0 0.0 0.0 0.0 0.387906 94.825338
0.0 0.0 0.0 0.0 0.439557 46.253271 0.0 0.0
0.0 0.0
790.0 1.0 0.0 0.0 0.0 0.0 0.0 0.393255 63.697016
0.0 0.0 0.0 0.0 0.446575 14.452168 0.0 0.0
0.0 0.0
800.0 1.0 -0.0 0.0 0.0 0.0 0.0 0.394604 31.793561
0.0 0.0 0.0 0.0 0.449074 -18.125584 0.0 0.0
0.0 0.0
810.0 1.0 -0.0 0.0 0.0 0.0 0.0 0.389164 0.142188
0.0 0.0 0.0 0.0 0.443842 -50.452771 0.0 0.0
0.0 0.0
820.0 1.0 0.0 0.0 0.0 0.0 0.0 0.38297 -30.542076
0.0 0.0 0.0 0.0 0.437726 -81.814366 0.0 0.0
0.0 0.0
830.0 1.0 0.0 0.0 0.0 0.0 0.0 0.381864 -60.755182
0.0 0.0 0.0 0.0 0.437416 -112.706316 0.0 0.0
0.0 0.0
840.0 1.0 0.0 0.0 0.0 0.0 0.0 0.385701 -91.354103
0.0 0.0 0.0 0.0 0.442778 -143.985593 0.0 0.0
0.0 0.0
850.0 1.0 0.0 0.0 0.0 0.0 0.0 0.390033 -122.788669
0.0 0.0 0.0 0.0 0.448736 -176.102027 0.0 0.0
0.0 0.0
860.0 1.0 0.0 0.0 0.0 0.0 0.0 0.389392 -154.727797
0.0 0.0 0.0 0.0 0.448985 151.275472 0.0 0.0
0.0 0.0
870.0 1.0 0.0 0.0 0.0 0.0 0.0 0.382925 173.781159
0.0 0.0 0.0 0.0 0.442504 119.09955 0.0 0.0
0.0 0.0
880.0 1.0 -0.0 0.0 0.0 0.0 0.0 0.37661 143.337682
0.0 0.0 0.0 0.0 0.436172 87.969692 0.0 0.0
0.0 0.0
890.0 1.0 0.0 0.0 0.0 0.0 0.0 0.37663 113.338197
0.0 0.0 0.0 0.0 0.437164 57.28233 0.0 0.0
0.0 0.0
900.0 1.0 0.0 0.0 0.0 0.0 0.0 0.381723 82.691262
0.0 0.0 0.0 0.0 0.444064 25.946023 0.0 0.0
0.0 0.0
910.0 1.0 -0.0 0.0 0.0 0.0 0.0 0.385533 51.097591
0.0 0.0 0.0 0.0 0.449497 -6.33851 0.0 0.0
0.0 0.0
920.0 1.0 -0.0 0.0 0.0 0.0 0.0 0.383151 19.165106
0.0 0.0 0.0 0.0 0.447719 -38.963342 0.0 0.0
0.0 0.0
930.0 1.0 -0.0 0.0 0.0 0.0 0.0 0.375429 -12.119189
0.0 0.0 0.0 0.0 0.439679 -70.941463 0.0 0.0
0.0 0.0
940.0 1.0 0.0 0.0 0.0 0.0 0.0 0.369381 -42.324301
0.0 0.0 0.0 0.0 0.433567 -101.841877 0.0 0.0
0.0 0.0
950.0 1.0 -0.0 0.0 0.0 0.0 0.0 0.370581 -72.332612
0.0 0.0 0.0 0.0 0.435952 -132.54696 0.0 0.0
0.0 0.0
960.0 1.0 0.0 0.0 0.0 0.0 0.0 0.375365 -103.202563
0.0 0.0 0.0 0.0 0.442573 -164.115146 0.0 0.0
0.0 0.0
970.0 1.0 0.0 0.0 0.0 0.0 0.0 0.377728 -134.706908
0.0 0.0 0.0 0.0 0.446363 163.680815 0.0 0.0
0.0 0.0
980.0 1.0 -0.0 0.0 0.0 0.0 0.0 0.377214 -166.319547
0.0 0.0 0.0 0.0 0.44676 131.36703 0.0 0.0
0.0 0.0
990.0 1.0 0.0 0.0 0.0 0.0 0.0 0.373339 162.183924
0.0 0.0 0.0 0.0 0.443168 99.16791 0.0 0.0
0.0 0.0
1000.0 1.0 0.0 0.0 0.0 0.0 0.0 0.367601 131.530407
0.0 0.0 0.0 0.0 0.437341 67.810363 0.0 0.0
0.0 0.0
1010.0 1.0 0.0 0.0 0.0 0.0 0.0 0.368158 101.605305
0.0 0.0 0.0 0.0 0.438992 37.179798 0.0 0.0
0.0 0.0
1020.0 1.0 -0.0 0.0 0.0 0.0 0.0 0.375396 70.793657
0.0 0.0 0.0 0.0 0.448633 5.661264 0.0 0.0
0.0 0.0
1030.0 1.0 0.0 0.0 0.0 0.0 0.0 0.378656 38.73241
0.0 0.0 0.0 0.0 0.453549 -27.108288 0.0 0.0
0.0 0.0
1040.0 1.0 0.0 0.0 0.0 0.0 0.0 0.372691 6.784907
0.0 0.0 0.0 0.0 0.447412 -59.765506 0.0 0.0
0.0 0.0
1050.0 1.0 -0.0 0.0 0.0 0.0 0.0 0.363571 -23.851865
0.0 0.0 0.0 0.0 0.437448 -91.113395 0.0 0.0
0.0 0.0
1060.0 1.0 0.0 0.0 0.0 0.0 0.0 0.360708 -53.518632
0.0 0.0 0.0 0.0 0.434981 -121.492672 0.0 0.0
0.0 0.0
1070.0 1.0 0.0 0.0 0.0 0.0 0.0 0.365376 -83.677869
0.0 0.0 0.0 0.0 0.441603 -152.365807 0.0 0.0
0.0 0.0
1080.0 1.0 0.0 0.0 0.0 0.0 0.0 0.370579 -114.981193
0.0 0.0 0.0 0.0 0.448899 175.615594 0.0 0.0
0.0 0.0
1090.0 1.0 0.0 0.0 0.0 0.0 0.0 0.370679 -146.828781
0.0 0.0 0.0 0.0 0.450029 143.051362 0.0 0.0
0.0 0.0
1100.0 1.0 -0.0 0.0 0.0 0.0 0.0 0.366045 -178.353824
0.0 0.0 0.0 0.0 0.445402 110.808313 0.0 0.0
0.0 0.0
1110.0 1.0 -0.0 0.0 0.0 0.0 0.0 0.360663 150.845569
0.0 0.0 0.0 0.0 0.439836 79.28835 0.0 0.0
0.0 0.0
1120.0 1.0 0.0 0.0 0.0 0.0 0.0 0.358738 120.616949
0.0 0.0 0.0 0.0 0.438467 48.33903 0.0 0.0
0.0 0.0
1130.0 1.0 -0.0 0.0 0.0 0.0 0.0 0.362275 90.192768
0.0 0.0 0.0 0.0 0.44378 17.192815 0.0 0.0
0.0 0.0
1140.0 1.0 0.0 0.0 0.0 0.0 0.0 0.36655 58.844348
0.0 0.0 0.0 0.0 0.450019 -14.878963 0.0 0.0
0.0 0.0
1150.0 1.0 0.0 0.0 0.0 0.0 0.0 0.365267 27.185853
0.0 0.0 0.0 0.0 0.449442 -47.262133 0.0 0.0
0.0 0.0
1160.0 1.0 0.0 0.0 0.0 0.0 0.0 0.360822 -3.748104
0.0 0.0 0.0 0.0 0.444958 -78.922069 0.0 0.0
0.0 0.0
1170.0 1.0 -0.0 0.0 0.0 0.0 0.0 0.359237 -34.078112
0.0 0.0 0.0 0.0 0.443985 -109.979353 0.0 0.0
0.0 0.0
1180.0 1.0 -0.0 0.0 0.0 0.0 0.0 0.361401 -64.609012
0.0 0.0 0.0 0.0 0.447647 -141.238816 0.0 0.0
0.0 0.0
1190.0 1.0 0.0 0.0 0.0 0.0 0.0 0.363454 -95.725377
0.0 0.0 0.0 0.0 0.451183 -173.08502 0.0 0.0
0.0 0.0
1200.0 1.0 0.0 0.0 0.0 0.0 0.0 0.362195 -126.9678
0.0 0.0 0.0 0.0 0.450608 154.941451 0.0 0.0
0.0 0.0
1210.0 1.0 0.0 0.0 0.0 0.0 0.0 0.360018 -157.802362
0.0 0.0 0.0 0.0 0.448881 123.374527 0.0 0.0
0.0 0.0
1220.0 1.0 0.0 0.0 0.0 0.0 0.0 0.360057 171.481052
0.0 0.0 0.0 0.0 0.449911 91.924331 0.0 0.0
0.0 0.0
1230.0 1.0 -0.0 0.0 0.0 0.0 0.0 0.36122 140.507363
0.0 0.0 0.0 0.0 0.452348 60.215797 0.0 0.0
0.0 0.0
1240.0 1.0 0.0 0.0 0.0 0.0 0.0 0.362105 109.327203
0.0 0.0 0.0 0.0 0.45444 28.299565 0.0 0.0
0.0 0.0
1250.0 1.0 0.0 0.0 0.0 0.0 0.0 0.36214 78.006783
0.0 0.0 0.0 0.0 0.455468 -3.758143 0.0 0.0
0.0 0.0
1260.0 1.0 -0.0 0.0 0.0 0.0 0.0 0.360439 46.73208
0.0 0.0 0.0 0.0 0.454305 -35.771339 0.0 0.0
0.0 0.0
1270.0 1.0 -0.0 0.0 0.0 0.0 0.0 0.358087 15.85187
0.0 0.0 0.0 0.0 0.452311 -67.391237 0.0 0.0
0.0 0.0
1280.0 1.0 0.0 0.0 0.0 0.0 0.0 0.358251 -14.739014
0.0 0.0 0.0 0.0 0.453486 -98.722993 0.0 0.0
0.0 0.0
1290.0 1.0 -0.0 0.0 0.0 0.0 0.0 0.360788 -45.672172
0.0 0.0 0.0 0.0 0.457672 -130.398197 0.0 0.0
0.0 0.0
1300.0 1.0 0.0 0.0 0.0 0.0 0.0 0.361476 -77.04998
0.0 0.0 0.0 0.0 0.459517 -162.519215 0.0 0.0
0.0 0.0
1310.0 1.0 -0.0 0.0 0.0 0.0 0.0 0.358891 -108.274383
0.0 0.0 0.0 0.0 0.457194 165.512022 0.0 0.0
0.0 0.0
1320.0 1.0 0.0 0.0 0.0 0.0 0.0 0.356016 -139.015481
0.0 0.0 0.0 0.0 0.454486 134.02542 0.0 0.0
0.0 0.0
1330.0 1.0 0.0 0.0 0.0 0.0 0.0 0.35565 -169.57598
0.0 0.0 0.0 0.0 0.454969 102.718288 0.0 0.0
0.0 0.0
1340.0 1.0 -0.0 0.0 0.0 0.0 0.0 0.357245 159.501174
0.0 0.0 0.0 0.0 0.457962 71.047688 0.0 0.0
0.0 0.0
1350.0 1.0 0.0 0.0 0.0 0.0 0.0 0.357241 128.114686
0.0 0.0 0.0 0.0 0.458907 38.912337 0.0 0.0
0.0 0.0
1360.0 1.0 -0.0 0.0 0.0 0.0 0.0 0.354216 96.838746
0.0 0.0 0.0 0.0 0.45596 6.886435 0.0 0.0
0.0 0.0
1370.0 1.0 0.0 0.0 0.0 0.0 0.0 0.351454 65.970591
0.0 0.0 0.0 0.0 0.453334 -24.732768 0.0 0.0
0.0 0.0
1380.0 1.0 0.0 0.0 0.0 0.0 0.0 0.350364 35.097071
0.0 0.0 0.0 0.0 0.45285 -56.358413 0.0 0.0
0.0 0.0
1390.0 1.0 -0.0 0.0 0.0 0.0 0.0 0.349066 4.17933
0.0 0.0 0.0 0.0 0.452088 -88.029344 0.0 0.0
0.0 0.0
1400.0 1.0 -0.0 0.0 0.0 0.0 0.0 0.348598 -26.560658
0.0 0.0 0.0 0.0 0.452394 -119.523577 0.0 0.0
0.0 0.0
1410.0 1.0 -0.0 0.0 0.0 0.0 0.0 0.349905 -57.456353
0.0 0.0 0.0 0.0 0.455002 -151.17456 0.0 0.0
0.0 0.0
1420.0 1.0 0.0 0.0 0.0 0.0 0.0 0.350545 -88.649811
0.0 0.0 0.0 0.0 0.456743 176.875662 0.0 0.0
0.0 0.0
1430.0 1.0 0.0 0.0 0.0 0.0 0.0 0.349457 -119.791049
0.0 0.0 0.0 0.0 0.456229 144.977081 0.0 0.0
0.0 0.0
1440.0 1.0 0.0 0.0 0.0 0.0 0.0 0.348332 -150.664083
0.0 0.0 0.0 0.0 0.455658 113.345695 0.0 0.0
0.0 0.0
1450.0 1.0 0.0 0.0 0.0 0.0 0.0 0.348993 178.464103
0.0 0.0 0.0 0.0 0.457416 81.714529 0.0 0.0
0.0 0.0
1460.0 1.0 -0.0 0.0 0.0 0.0 0.0 0.34962 147.180548
0.0 0.0 0.0 0.0 0.45913 49.670634 0.0 0.0
0.0 0.0
1470.0 1.0 -0.0 0.0 0.0 0.0 0.0 0.347174 115.807757
0.0 0.0 0.0 0.0 0.456801 17.536524 0.0 0.0
0.0 0.0
1480.0 1.0 0.0 0.0 0.0 0.0 0.0 0.3434 84.886545
0.0 0.0 0.0 0.0 0.452702 -14.146972 0.0 0.0
0.0 0.0
1490.0 1.0 0.0 0.0 0.0 0.0 0.0 0.341321 54.294128
0.0 0.0 0.0 0.0 0.45082 -45.502629 0.0 0.0
0.0 0.0
1500.0 1.0 -0.0 0.0 0.0 0.0 0.0 0.341499 23.678646
0.0 0.0 0.0 0.0 0.451909 -76.882295 0.0 0.0
0.0 0.0
1510.0 1.0 -0.0 0.0 0.0 0.0 0.0 0.343085 -7.230699
0.0 0.0 0.0 0.0 0.454862 -108.556757 0.0 0.0
0.0 0.0
1520.0 1.0 -0.0 0.0 0.0 0.0 0.0 0.344172 -38.494861
0.0 0.0 0.0 0.0 0.457155 -140.586959 0.0 0.0
0.0 0.0
1530.0 1.0 0.0 0.0 0.0 0.0 0.0 0.343434 -69.902166
0.0 0.0 0.0 0.0 0.45702 -172.761216 0.0 0.0
0.0 0.0
1540.0 1.0 -0.0 0.0 0.0 0.0 0.0 0.340756 -101.176279
0.0 0.0 0.0 0.0 0.45429 155.196818 0.0 0.0
0.0 0.0
1550.0 1.0 0.0 0.0 0.0 0.0 0.0 0.337366 -132.050594
0.0 0.0 0.0 0.0 0.450591 123.553761 0.0 0.0
0.0 0.0
1560.0 1.0 0.0 0.0 0.0 0.0 0.0 0.335856 -162.55647
0.0 0.0 0.0 0.0 0.449386 92.278263 0.0 0.0
0.0 0.0
1570.0 1.0 -0.0 0.0 0.0 0.0 0.0 0.33727 166.786286
0.0 0.0 0.0 0.0 0.452089 60.850531 0.0 0.0
0.0 0.0
1580.0 1.0 0.0 0.0 0.0 0.0 0.0 0.33866 135.619731
0.0 0.0 0.0 0.0 0.45476 28.912629 0.0 0.0
0.0 0.0
1590.0 1.0 0.0 0.0 0.0 0.0 0.0 0.337651 104.37555
0.0 0.0 0.0 0.0 0.454205 -3.103745 0.0 0.0
0.0 0.0
1600.0 1.0 0.0 0.0 0.0 0.0 0.0 0.336412 73.338092
0.0 0.0 0.0 0.0 0.45333 -34.91423 0.0 0.0
0.0 0.0
1610.0 1.0 0.0 0.0 0.0 0.0 0.0 0.335197 42.184988
0.0 0.0 0.0 0.0 0.452476 -66.841188 0.0 0.0
0.0 0.0
1620.0 1.0 -0.0 0.0 0.0 0.0 0.0 0.332289 11.160249
0.0 0.0 0.0 0.0 0.449322 -98.640595 0.0 0.0
0.0 0.0
1630.0 1.0 -0.0 0.0 0.0 0.0 0.0 0.330384 -19.446137
0.0 0.0 0.0 0.0 0.447508 -130.022451 0.0 0.0
0.0 0.0
1640.0 1.0 0.0 0.0 0.0 0.0 0.0 0.331106 -50.16634
0.0 0.0 0.0 0.0 0.449244 -161.518918 0.0 0.0
0.0 0.0
1650.0 1.0 -0.0 0.0 0.0 0.0 0.0 0.331849 -81.273647
0.0 0.0 0.0 0.0 0.451004 166.596729 0.0 0.0
0.0 0.0
1660.0 1.0 -0.0 0.0 0.0 0.0 0.0 0.33106 -112.518473
0.0 0.0 0.0 0.0 0.450677 134.574087 0.0 0.0
0.0 0.0
1670.0 1.0 0.0 0.0 0.0 0.0 0.0 0.328573 -143.660493
0.0 0.0 0.0 0.0 0.448025 102.653488 0.0 0.0
0.0 0.0
1680.0 1.0 0.0 0.0 0.0 0.0 0.0 0.32533 -174.360158
0.0 0.0 0.0 0.0 0.444323 71.174495 0.0 0.0
0.0 0.0
1690.0 1.0 -0.0 0.0 0.0 0.0 0.0 0.324948 155.347277
0.0 0.0 0.0 0.0 0.444514 40.10186 0.0 0.0
0.0 0.0
1700.0 1.0 -0.0 0.0 0.0 0.0 0.0 0.328006 124.596288
0.0 0.0 0.0 0.0 0.449412 8.570074 0.0 0.0
0.0 0.0
1710.0 1.0 0.0 0.0 0.0 0.0 0.0 0.329211 93.171564
0.0 0.0 0.0 0.0 0.451772 -23.636168 0.0 0.0
0.0 0.0
1720.0 1.0 0.0 0.0 0.0 0.0 0.0 0.327029 61.869763
0.0 0.0 0.0 0.0 0.449477 -55.720196 0.0 0.0
0.0 0.0
1730.0 1.0 0.0 0.0 0.0 0.0 0.0 0.324354 30.93201
0.0 0.0 0.0 0.0 0.446487 -87.440872 0.0 0.0
0.0 0.0
1740.0 1.0 -0.0 0.0 0.0 0.0 0.0 0.322077 0.263699
0.0 0.0 0.0 0.0 0.444027 -118.892796 0.0 0.0
0.0 0.0
1750.0 1.0 -0.0 0.0 0.0 0.0 0.0 0.322123 -30.14698
0.0 0.0 0.0 0.0 0.44476 -150.087766 0.0 0.0
0.0 0.0
1760.0 1.0 -0.0 0.0 0.0 0.0 0.0 0.325635 -61.003026
0.0 0.0 0.0 0.0 0.450279 178.27123 0.0 0.0
0.0 0.0
1770.0 1.0 0.0 0.0 0.0 0.0 0.0 0.327699 -92.804965
0.0 0.0 0.0 0.0 0.453798 145.683675 0.0 0.0
0.0 0.0
1780.0 1.0 0.0 0.0 0.0 0.0 0.0 0.323237 -124.77486
0.0 0.0 0.0 0.0 0.44827 112.927517 0.0 0.0
0.0 0.0
1790.0 1.0 0.0 0.0 0.0 0.0 0.0 0.314709 -155.639589
0.0 0.0 0.0 0.0 0.43707 81.275888 0.0 0.0
0.0 0.0
1800.0 1.0 0.0 0.0 0.0 0.0 0.0 0.310441 174.775274
0.0 0.0 0.0 0.0 0.431754 50.903224 0.0 0.0
0.0 0.0
1810.0 1.0 0.0 0.0 0.0 0.0 0.0 0.314554 145.036889
0.0 0.0 0.0 0.0 0.438087 20.376693 0.0 0.0
0.0 0.0
1820.0 1.0 -0.0 0.0 0.0 0.0 0.0 0.321409 113.867454
0.0 0.0 0.0 0.0 0.448253 -11.581493 0.0 0.0
0.0 0.0
1830.0 1.0 0.0 0.0 0.0 0.0 0.0 0.322449 81.719966
0.0 0.0 0.0 0.0 0.450317 -44.51833 0.0 0.0
0.0 0.0
1840.0 1.0 0.0 0.0 0.0 0.0 0.0 0.316522 50.09655
0.0 0.0 0.0 0.0 0.442634 -76.931683 0.0 0.0
0.0 0.0
1850.0 1.0 0.0 0.0 0.0 0.0 0.0 0.310582 19.741025
0.0 0.0 0.0 0.0 0.434904 -108.077721 0.0 0.0
0.0 0.0
1860.0 1.0 -0.0 0.0 0.0 0.0 0.0 0.310645 -10.114529
0.0 0.0 0.0 0.0 0.435561 -138.724357 0.0 0.0
0.0 0.0
1870.0 1.0 -0.0 0.0 0.0 0.0 0.0 0.315593 -40.782614
0.0 0.0 0.0 0.0 0.44307 -170.184082 0.0 0.0
0.0 0.0
1880.0 1.0 0.0 0.0 0.0 0.0 0.0 0.318283 -72.638938
0.0 0.0 0.0 0.0 0.447415 157.167406 0.0 0.0
0.0 0.0
1890.0 1.0 0.0 0.0 0.0 0.0 0.0 0.313742 -104.588772
0.0 0.0 0.0 0.0 0.441584 124.424846 0.0 0.0
0.0 0.0
1900.0 1.0 -0.0 0.0 0.0 0.0 0.0 0.305623 -135.356929
0.0 0.0 0.0 0.0 0.430688 92.863433 0.0 0.0
0.0 0.0
1910.0 1.0 0.0 0.0 0.0 0.0 0.0 0.301702 -164.892725
0.0 0.0 0.0 0.0 0.425679 62.533862 0.0 0.0
0.0 0.0
1920.0 1.0 0.0 0.0 0.0 0.0 0.0 0.306178 165.465041
0.0 0.0 0.0 0.0 0.432512 32.097344 0.0 0.0
0.0 0.0
1930.0 1.0 0.0 0.0 0.0 0.0 0.0 0.313944 134.226431
0.0 0.0 0.0 0.0 0.444005 0.063949 0.0 0.0
0.0 0.0
1940.0 1.0 -0.0 0.0 0.0 0.0 0.0 0.314617 101.841262
