! File created by SignalIntegrity v1.1.18: Signal and Power Integrity Tools
! https://github.com/TeledyneLeCroy/SignalIntegrity
# MHz S MA R 50.0
0.0 1.0 0.0 0.0 0.0 0.0 0.0 0.503179 0.0
0.0 0.0 0.0 0.0 0.516534 0.0 0.0 0.0
0.0 0.0
10.0 1.0 0.0 0.0 0.0 0.0 0.0 0.492293 -33.297897
0.0 0.0 0.0 0.0 0.505369 -33.89155 0.0 0.0
0.0 0.0
20.0 1.0 0.0 0.0 0.0 0.0 0.0 0.48061 -64.411125
0.0 0.0 0.0 0.0 0.493404 -65.598464 0.0 0.0
0.0 0.0
30.0 1.0 -0.0 0.0 0.0 0.0 0.0 0.480497 -95.62754
0.0 0.0 0.0 0.0 0.493335 -97.408633 0.0 0.0
0.0 0.0
40.0 1.0 -0.0 0.0 0.0 0.0 0.0 0.475807 -127.382495
0.0 0.0 0.0 0.0 0.488585 -129.757444 0.0 0.0
0.0 0.0
50.0 1.0 -0.0 0.0 0.0 0.0 0.0 0.470259 -158.316732
0.0 0.0 0.0 0.0 0.482972 -161.285672 0.0 0.0
0.0 0.0
60.0 1.0 0.0 0.0 0.0 0.0 0.0 0.470766 170.705349
0.0 0.0 0.0 0.0 0.483594 167.142249 0.0 0.0
0.0 0.0
70.0 1.0 -0.0 0.0 0.0 0.0 0.0 0.470523 139.209526
0.0 0.0 0.0 0.0 0.483465 135.052063 0.0 0.0
0.0 0.0
80.0 1.0 -0.0 0.0 0.0 0.0 0.0 0.466832 107.727849
0.0 0.0 0.0 0.0 0.47981 102.975787 0.0 0.0
0.0 0.0
90.0 1.0 0.0 0.0 0.0 0.0 0.0 0.462121 76.678817
0.0 0.0 0.0 0.0 0.475123 71.331886 0.0 0.0
0.0 0.0
100.0 1.0 -0.0 0.0 0.0 0.0 0.0 0.461274 45.813443
0.0 0.0 0.0 0.0 0.474424 39.871341 0.0 0.0
0.0 0.0
110.0 1.0 0.0 0.0 0.0 0.0 0.0 0.461143 14.47344
0.0 0.0 0.0 0.0 0.47448 7.935831 0.0 0.0
0.0 0.0
120.0 1.0 0.0 0.0 0.0 0.0 0.0 0.458125 -16.760513
0.0 0.0 0.0 0.0 0.471581 -23.893997 0.0 0.0
0.0 0.0
130.0 1.0 0.0 0.0 0.0 0.0 0.0 0.457482 -47.84855
0.0 0.0 0.0 0.0 0.471144 -55.57831 0.0 0.0
0.0 0.0
140.0 1.0 -0.0 0.0 0.0 0.0 0.0 0.455983 -79.303529
0.0 0.0 0.0 0.0 0.469841 -87.629998 0.0 0.0
0.0 0.0
150.0 1.0 0.0 0.0 0.0 0.0 0.0 0.45198 -110.455429
0.0 0.0 0.0 0.0 0.465972 -119.379073 0.0 0.0
0.0 0.0
160.0 1.0 -0.0 0.0 0.0 0.0 0.0 0.450613 -141.407476
0.0 0.0 0.0 0.0 0.464836 -150.928792 0.0 0.0
0.0 0.0
170.0 1.0 0.0 0.0 0.0 0.0 0.0 0.449819 -172.559618
0.0 0.0 0.0 0.0 0.464307 177.320866 0.0 0.0
0.0 0.0
180.0 1.0 0.0 0.0 0.0 0.0 0.0 0.448946 156.246144
0.0 0.0 0.0 0.0 0.463712 145.527868 0.0 0.0
0.0 0.0
190.0 1.0 -0.0 0.0 0.0 0.0 0.0 0.447023 124.87513
0.0 0.0 0.0 0.0 0.462047 113.557504 0.0 0.0
0.0 0.0
200.0 1.0 0.0 0.0 0.0 0.0 0.0 0.442831 93.743608
0.0 0.0 0.0 0.0 0.45805 81.826009 0.0 0.0
0.0 0.0
210.0 1.0 -0.0 0.0 0.0 0.0 0.0 0.440785 62.884782
0.0 0.0 0.0 0.0 0.456284 50.36656 0.0 0.0
0.0 0.0
220.0 1.0 0.0 0.0 0.0 0.0 0.0 0.43985 31.811644
0.0 0.0 0.0 0.0 0.455682 18.692119 0.0 0.0
0.0 0.0
230.0 1.0 0.0 0.0 0.0 0.0 0.0 0.438404 0.768694
0.0 0.0 0.0 0.0 0.454565 -12.952846 0.0 0.0
0.0 0.0
240.0 1.0 -0.0 0.0 0.0 0.0 0.0 0.438448 -30.345978
0.0 0.0 0.0 0.0 0.455008 -44.670271 0.0 0.0
0.0 0.0
250.0 1.0 -0.0 0.0 0.0 0.0 0.0 0.437545 -61.727898
0.0 0.0 0.0 0.0 0.454483 -76.655713 0.0 0.0
0.0 0.0
260.0 1.0 0.0 0.0 0.0 0.0 0.0 0.43475 -93.009478
0.0 0.0 0.0 0.0 0.452007 -108.54161 0.0 0.0
0.0 0.0
270.0 1.0 0.0 0.0 0.0 0.0 0.0 0.431962 -124.091367
0.0 0.0 0.0 0.0 0.449547 -140.22864 0.0 0.0
0.0 0.0
280.0 1.0 0.0 0.0 0.0 0.0 0.0 0.430087 -155.026405
0.0 0.0 0.0 0.0 0.448047 -171.76967 0.0 0.0
0.0 0.0
290.0 1.0 -0.0 0.0 0.0 0.0 0.0 0.429853 173.987342
0.0 0.0 0.0 0.0 0.448272 156.637207 0.0 0.0
0.0 0.0
300.0 1.0 0.0 0.0 0.0 0.0 0.0 0.429035 142.800568
0.0 0.0 0.0 0.0 0.447901 124.84266 0.0 0.0
0.0 0.0
310.0 1.0 0.0 0.0 0.0 0.0 0.0 0.427014 111.763192
0.0 0.0 0.0 0.0 0.446286 93.196582 0.0 0.0
0.0 0.0
320.0 1.0 -0.0 0.0 0.0 0.0 0.0 0.426329 80.829206
0.0 0.0 0.0 0.0 0.446078 61.652938 0.0 0.0
0.0 0.0
330.0 1.0 0.0 0.0 0.0 0.0 0.0 0.426097 49.736809
0.0 0.0 0.0 0.0 0.446359 29.949903 0.0 0.0
0.0 0.0
340.0 1.0 0.0 0.0 0.0 0.0 0.0 0.425329 18.540737
0.0 0.0 0.0 0.0 0.446092 -1.857809 0.0 0.0
0.0 0.0
350.0 1.0 0.0 0.0 0.0 0.0 0.0 0.423061 -12.722556
0.0 0.0 0.0 0.0 0.444261 -33.733771 0.0 0.0
0.0 0.0
360.0 1.0 0.0 0.0 0.0 0.0 0.0 0.419569 -43.679827
0.0 0.0 0.0 0.0 0.441153 -65.304761 0.0 0.0
0.0 0.0
370.0 1.0 0.0 0.0 0.0 0.0 0.0 0.41882 -74.44147
0.0 0.0 0.0 0.0 0.440937 -96.681197 0.0 0.0
0.0 0.0
380.0 1.0 0.0 0.0 0.0 0.0 0.0 0.419282 -105.516966
0.0 0.0 0.0 0.0 0.442009 -128.37258 0.0 0.0
0.0 0.0
390.0 1.0 -0.0 0.0 0.0 0.0 0.0 0.418887 -136.678742
0.0 0.0 0.0 0.0 0.442193 -160.15136 0.0 0.0
0.0 0.0
400.0 1.0 0.0 0.0 0.0 0.0 0.0 0.418393 -167.966187
0.0 0.0 0.0 0.0 0.442283 167.943053 0.0 0.0
0.0 0.0
410.0 1.0 0.0 0.0 0.0 0.0 0.0 0.41539 160.729734
0.0 0.0 0.0 0.0 0.43973 136.019674 0.0 0.0
0.0 0.0
420.0 1.0 -0.0 0.0 0.0 0.0 0.0 0.411959 129.889938
0.0 0.0 0.0 0.0 0.436727 104.559399 0.0 0.0
0.0 0.0
430.0 1.0 0.0 0.0 0.0 0.0 0.0 0.411574 99.199241
0.0 0.0 0.0 0.0 0.436961 73.247027 0.0 0.0
0.0 0.0
440.0 1.0 -0.0 0.0 0.0 0.0 0.0 0.413176 68.21847
0.0 0.0 0.0 0.0 0.439318 41.643365 0.0 0.0
0.0 0.0
450.0 1.0 0.0 0.0 0.0 0.0 0.0 0.413616 36.763179
0.0 0.0 0.0 0.0 0.440457 9.563949 0.0 0.0
0.0 0.0
460.0 1.0 0.0 0.0 0.0 0.0 0.0 0.409098 5.346153
0.0 0.0 0.0 0.0 0.436322 -22.478453 0.0 0.0
0.0 0.0
470.0 1.0 0.0 0.0 0.0 0.0 0.0 0.404204 -25.261277
0.0 0.0 0.0 0.0 0.431781 -53.712528 0.0 0.0
0.0 0.0
480.0 1.0 0.0 0.0 0.0 0.0 0.0 0.404937 -55.746083
0.0 0.0 0.0 0.0 0.433257 -84.825263 0.0 0.0
0.0 0.0
490.0 1.0 -0.0 0.0 0.0 0.0 0.0 0.407147 -86.877276
0.0 0.0 0.0 0.0 0.436331 -116.585686 0.0 0.0
0.0 0.0
500.0 1.0 0.0 0.0 0.0 0.0 0.0 0.406462 -118.334569
0.0 0.0 0.0 0.0 0.436316 -148.673524 0.0 0.0
0.0 0.0
510.0 1.0 -0.0 0.0 0.0 0.0 0.0 0.402695 -149.620479
0.0 0.0 0.0 0.0 0.432997 179.408691 0.0 0.0
0.0 0.0
520.0 1.0 0.0 0.0 0.0 0.0 0.0 0.398803 179.616797
0.0 0.0 0.0 0.0 0.42954 148.012748 0.0 0.0
0.0 0.0
530.0 1.0 -0.0 0.0 0.0 0.0 0.0 0.398563 149.040268
0.0 0.0 0.0 0.0 0.430022 116.801642 0.0 0.0
0.0 0.0
540.0 1.0 0.0 0.0 0.0 0.0 0.0 0.400262 118.088239
0.0 0.0 0.0 0.0 0.432608 85.213665 0.0 0.0
0.0 0.0
550.0 1.0 0.0 0.0 0.0 0.0 0.0 0.401004 86.881467
0.0 0.0 0.0 0.0 0.434176 53.369564 0.0 0.0
0.0 0.0
560.0 1.0 0.0 0.0 0.0 0.0 0.0 0.400842 55.573025
0.0 0.0 0.0 0.0 0.434776 21.422397 0.0 0.0
0.0 0.0
570.0 1.0 0.0 0.0 0.0 0.0 0.0 0.398756 24.189946
0.0 0.0 0.0 0.0 0.433297 -10.600811 0.0 0.0
0.0 0.0
580.0 1.0 0.0 0.0 0.0 0.0 0.0 0.394522 -6.868112
0.0 0.0 0.0 0.0 0.42948 -42.300414 0.0 0.0
0.0 0.0
590.0 1.0 0.0 0.0 0.0 0.0 0.0 0.391997 -37.415908
0.0 0.0 0.0 0.0 0.427521 -73.491182 0.0 0.0
0.0 0.0
600.0 1.0 0.0 0.0 0.0 0.0 0.0 0.393726 -68.050454
0.0 0.0 0.0 0.0 0.43021 -104.770134 0.0 0.0
0.0 0.0
610.0 1.0 -0.0 0.0 0.0 0.0 0.0 0.396025 -99.322162
0.0 0.0 0.0 0.0 0.433539 -136.687694 0.0 0.0
0.0 0.0
620.0 1.0 -0.0 0.0 0.0 0.0 0.0 0.394301 -130.79438
0.0 0.0 0.0 0.0 0.432474 -168.807216 0.0 0.0
0.0 0.0
630.0 1.0 0.0 0.0 0.0 0.0 0.0 0.39095 -161.776695
0.0 0.0 0.0 0.0 0.429625 159.561705 0.0 0.0
0.0 0.0
640.0 1.0 -0.0 0.0 0.0 0.0 0.0 0.390069 167.443117
0.0 0.0 0.0 0.0 0.42949 128.131284 0.0 0.0
0.0 0.0
650.0 1.0 -0.0 0.0 0.0 0.0 0.0 0.389997 136.467514
0.0 0.0 0.0 0.0 0.430252 96.503974 0.0 0.0
0.0 0.0
660.0 1.0 0.0 0.0 0.0 0.0 0.0 0.389742 105.455136
0.0 0.0 0.0 0.0 0.43082 64.838408 0.0 0.0
0.0 0.0
670.0 1.0 -0.0 0.0 0.0 0.0 0.0 0.389667 74.324028
0.0 0.0 0.0 0.0 0.431595 33.052626 0.0 0.0
0.0 0.0
680.0 1.0 0.0 0.0 0.0 0.0 0.0 0.388319 43.073772
0.0 0.0 0.0 0.0 0.430965 1.146204 0.0 0.0
0.0 0.0
690.0 1.0 0.0 0.0 0.0 0.0 0.0 0.385235 11.916566
0.0 0.0 0.0 0.0 0.428408 -30.668664 0.0 0.0
0.0 0.0
700.0 1.0 -0.0 0.0 0.0 0.0 0.0 0.381031 -18.870967
0.0 0.0 0.0 0.0 0.424597 -62.11536 0.0 0.0
0.0 0.0
710.0 1.0 -0.0 0.0 0.0 0.0 0.0 0.379266 -49.169061
0.0 0.0 0.0 0.0 0.423496 -93.074121 0.0 0.0
0.0 0.0
720.0 1.0 0.0 0.0 0.0 0.0 0.0 0.382123 -79.661857
0.0 0.0 0.0 0.0 0.427567 -124.229093 0.0 0.0
0.0 0.0
730.0 1.0 0.0 0.0 0.0 0.0 0.0 0.385673 -110.837913
0.0 0.0 0.0 0.0 0.432437 -156.068834 0.0 0.0
0.0 0.0
740.0 1.0 -0.0 0.0 0.0 0.0 0.0 0.386126 -142.430088
0.0 0.0 0.0 0.0 0.43385 171.673794 0.0 0.0
0.0 0.0
750.0 1.0 -0.0 0.0 0.0 0.0 0.0 0.38228 -173.896305
0.0 0.0 0.0 0.0 0.430432 139.540864 0.0 0.0
0.0 0.0
760.0 1.0 0.0 0.0 0.0 0.0 0.0 0.376918 155.325859
0.0 0.0 0.0 0.0 0.425292 108.0948 0.0 0.0
0.0 0.0
770.0 1.0 0.0 0.0 0.0 0.0 0.0 0.374965 125.091205
0.0 0.0 0.0 0.0 0.423988 77.1904 0.0 0.0
0.0 0.0
780.0 1.0 -0.0 0.0 0.0 0.0 0.0 0.37784 94.721318
0.0 0.0 0.0 0.0 0.428151 46.149251 0.0 0.0
0.0 0.0
790.0 1.0 0.0 0.0 0.0 0.0 0.0 0.383023 63.586239
0.0 0.0 0.0 0.0 0.434956 14.341391 0.0 0.0
0.0 0.0
800.0 1.0 -0.0 0.0 0.0 0.0 0.0 0.384287 31.68385
0.0 0.0 0.0 0.0 0.437333 -18.235295 0.0 0.0
0.0 0.0
810.0 1.0 -0.0 0.0 0.0 0.0 0.0 0.378982 0.038724
0.0 0.0 0.0 0.0 0.432229 -50.556236 0.0 0.0
0.0 0.0
820.0 1.0 -0.0 0.0 0.0 0.0 0.0 0.372978 -30.642577
0.0 0.0 0.0 0.0 0.426306 -81.914867 0.0 0.0
0.0 0.0
830.0 1.0 0.0 0.0 0.0 0.0 0.0 0.371933 -60.857066
0.0 0.0 0.0 0.0 0.42604 -112.8082 0.0 0.0
0.0 0.0
840.0 1.0 -0.0 0.0 0.0 0.0 0.0 0.375684 -91.46136
0.0 0.0 0.0 0.0 0.431279 -144.092851 0.0 0.0
0.0 0.0
850.0 1.0 -0.0 0.0 0.0 0.0 0.0 0.379877 -122.900149
0.0 0.0 0.0 0.0 0.437051 -176.213506 0.0 0.0
0.0 0.0
860.0 1.0 0.0 0.0 0.0 0.0 0.0 0.379223 -154.836764
0.0 0.0 0.0 0.0 0.43726 151.166505 0.0 0.0
0.0 0.0
870.0 1.0 0.0 0.0 0.0 0.0 0.0 0.372934 173.676545
0.0 0.0 0.0 0.0 0.430959 118.994935 0.0 0.0
0.0 0.0
880.0 1.0 -0.0 0.0 0.0 0.0 0.0 0.366811 143.233597
0.0 0.0 0.0 0.0 0.424824 87.865607 0.0 0.0
0.0 0.0
890.0 1.0 -0.0 0.0 0.0 0.0 0.0 0.36685 113.231777
0.0 0.0 0.0 0.0 0.425813 57.175909 0.0 0.0
0.0 0.0
900.0 1.0 -0.0 0.0 0.0 0.0 0.0 0.37182 82.580879
0.0 0.0 0.0 0.0 0.432544 25.83564 0.0 0.0
0.0 0.0
910.0 1.0 0.0 0.0 0.0 0.0 0.0 0.375515 50.98331
0.0 0.0 0.0 0.0 0.437817 -6.452791 0.0 0.0
0.0 0.0
920.0 1.0 -0.0 0.0 0.0 0.0 0.0 0.373168 19.051551
0.0 0.0 0.0 0.0 0.436054 -39.076896 0.0 0.0
0.0 0.0
930.0 1.0 0.0 0.0 0.0 0.0 0.0 0.365648 -12.229342
0.0 0.0 0.0 0.0 0.428224 -71.051616 0.0 0.0
0.0 0.0
940.0 1.0 -0.0 0.0 0.0 0.0 0.0 0.359776 -42.434209
0.0 0.0 0.0 0.0 0.422292 -101.951785 0.0 0.0
0.0 0.0
950.0 1.0 -0.0 0.0 0.0 0.0 0.0 0.360953 -72.444246
0.0 0.0 0.0 0.0 0.424626 -132.658593 0.0 0.0
0.0 0.0
960.0 1.0 0.0 0.0 0.0 0.0 0.0 0.365613 -103.31654
0.0 0.0 0.0 0.0 0.431076 -164.229123 0.0 0.0
0.0 0.0
970.0 1.0 -0.0 0.0 0.0 0.0 0.0 0.367901 -134.822391
0.0 0.0 0.0 0.0 0.434751 163.565332 0.0 0.0
0.0 0.0
980.0 1.0 0.0 0.0 0.0 0.0 0.0 0.367388 -166.43365
0.0 0.0 0.0 0.0 0.435122 131.252927 0.0 0.0
0.0 0.0
990.0 1.0 0.0 0.0 0.0 0.0 0.0 0.363614 162.072153
0.0 0.0 0.0 0.0 0.431624 99.056139 0.0 0.0
0.0 0.0
1000.0 1.0 0.0 0.0 0.0 0.0 0.0 0.358038 131.421059
0.0 0.0 0.0 0.0 0.425964 67.701015 0.0 0.0
0.0 0.0
1010.0 1.0 -0.0 0.0 0.0 0.0 0.0 0.35861 101.495454
0.0 0.0 0.0 0.0 0.427607 37.069948 0.0 0.0
0.0 0.0
1020.0 1.0 0.0 0.0 0.0 0.0 0.0 0.365672 70.679015
0.0 0.0 0.0 0.0 0.437011 5.546622 0.0 0.0
0.0 0.0
1030.0 1.0 0.0 0.0 0.0 0.0 0.0 0.368827 38.614649
0.0 0.0 0.0 0.0 0.441777 -27.22605 0.0 0.0
0.0 0.0
1040.0 1.0 -0.0 0.0 0.0 0.0 0.0 0.362996 6.66817
0.0 0.0 0.0 0.0 0.435773 -59.882243 0.0 0.0
0.0 0.0
1050.0 1.0 -0.0 0.0 0.0 0.0 0.0 0.354107 -23.965073
0.0 0.0 0.0 0.0 0.426061 -91.226602 0.0 0.0
0.0 0.0
1060.0 1.0 0.0 0.0 0.0 0.0 0.0 0.351335 -53.628171
0.0 0.0 0.0 0.0 0.423679 -121.602212 0.0 0.0
0.0 0.0
1070.0 1.0 0.0 0.0 0.0 0.0 0.0 0.355916 -83.787674
0.0 0.0 0.0 0.0 0.43017 -152.475612 0.0 0.0
0.0 0.0
1080.0 1.0 0.0 0.0 0.0 0.0 0.0 0.361002 -115.09606
0.0 0.0 0.0 0.0 0.437298 175.500727 0.0 0.0
0.0 0.0
1090.0 1.0 0.0 0.0 0.0 0.0 0.0 0.361079 -146.947837
0.0 0.0 0.0 0.0 0.438375 142.932305 0.0 0.0
0.0 0.0
1100.0 1.0 0.0 0.0 0.0 0.0 0.0 0.356538 -178.471565
0.0 0.0 0.0 0.0 0.433832 110.690572 0.0 0.0
0.0 0.0
1110.0 1.0 0.0 0.0 0.0 0.0 0.0 0.35129 150.733248
0.0 0.0 0.0 0.0 0.428405 79.176029 0.0 0.0
0.0 0.0
1120.0 1.0 0.0 0.0 0.0 0.0 0.0 0.349447 120.509379
0.0 0.0 0.0 0.0 0.427112 48.23146 0.0 0.0
0.0 0.0
1130.0 1.0 0.0 0.0 0.0 0.0 0.0 0.352944 90.082455
0.0 0.0 0.0 0.0 0.43235 17.082502 0.0 0.0
0.0 0.0
1140.0 1.0 -0.0 0.0 0.0 0.0 0.0 0.357118 58.725355
0.0 0.0 0.0 0.0 0.438439 -14.997957 0.0 0.0
0.0 0.0
1150.0 1.0 0.0 0.0 0.0 0.0 0.0 0.355829 27.062502
0.0 0.0 0.0 0.0 0.437828 -47.385484 0.0 0.0
0.0 0.0
1160.0 1.0 0.0 0.0 0.0 0.0 0.0 0.351462 -3.867515
0.0 0.0 0.0 0.0 0.433415 -79.041481 0.0 0.0
0.0 0.0
1170.0 1.0 0.0 0.0 0.0 0.0 0.0 0.349927 -34.190387
0.0 0.0 0.0 0.0 0.432478 -110.091628 0.0 0.0
0.0 0.0
1180.0 1.0 0.0 0.0 0.0 0.0 0.0 0.352078 -64.718943
0.0 0.0 0.0 0.0 0.436099 -141.348747 0.0 0.0
0.0 0.0
1190.0 1.0 -0.0 0.0 0.0 0.0 0.0 0.354111 -95.839569
0.0 0.0 0.0 0.0 0.439585 -173.199212 0.0 0.0
0.0 0.0
1200.0 1.0 0.0 0.0 0.0 0.0 0.0 0.352883 -127.087576
0.0 0.0 0.0 0.0 0.439023 154.821675 0.0 0.0
0.0 0.0
1210.0 1.0 -0.0 0.0 0.0 0.0 0.0 0.350736 -157.924132
0.0 0.0 0.0 0.0 0.437308 123.252757 0.0 0.0
0.0 0.0
1220.0 1.0 -0.0 0.0 0.0 0.0 0.0 0.350754 171.36281
0.0 0.0 0.0 0.0 0.438287 91.80609 0.0 0.0
0.0 0.0
1230.0 1.0 0.0 0.0 0.0 0.0 0.0 0.351903 140.394426
0.0 0.0 0.0 0.0 0.44068 60.10286 0.0 0.0
0.0 0.0
1240.0 1.0 0.0 0.0 0.0 0.0 0.0 0.352806 109.215086
0.0 0.0 0.0 0.0 0.442771 28.187448 0.0 0.0
0.0 0.0
1250.0 1.0 -0.0 0.0 0.0 0.0 0.0 0.352871 77.88995
0.0 0.0 0.0 0.0 0.44381 -3.874975 0.0 0.0
0.0 0.0
1260.0 1.0 -0.0 0.0 0.0 0.0 0.0 0.35121 46.609163
0.0 0.0 0.0 0.0 0.442674 -35.894255 0.0 0.0
0.0 0.0
1270.0 1.0 -0.0 0.0 0.0 0.0 0.0 0.348892 15.726298
0.0 0.0 0.0 0.0 0.440696 -67.516809 0.0 0.0
0.0 0.0
1280.0 1.0 0.0 0.0 0.0 0.0 0.0 0.349026 -14.862106
0.0 0.0 0.0 0.0 0.441809 -98.846085 0.0 0.0
0.0 0.0
1290.0 1.0 -0.0 0.0 0.0 0.0 0.0 0.3515 -45.789862
0.0 0.0 0.0 0.0 0.445889 -130.515887 0.0 0.0
0.0 0.0
1300.0 1.0 -0.0 0.0 0.0 0.0 0.0 0.352204 -77.164563
0.0 0.0 0.0 0.0 0.44773 -162.633797 0.0 0.0
0.0 0.0
1310.0 1.0 -0.0 0.0 0.0 0.0 0.0 0.34972 -108.391574
0.0 0.0 0.0 0.0 0.445512 165.39483 0.0 0.0
0.0 0.0
1320.0 1.0 0.0 0.0 0.0 0.0 0.0 0.346927 -139.138134
0.0 0.0 0.0 0.0 0.442883 133.902768 0.0 0.0
0.0 0.0
1330.0 1.0 0.0 0.0 0.0 0.0 0.0 0.34655 -169.701651
0.0 0.0 0.0 0.0 0.443328 102.592616 0.0 0.0
0.0 0.0
1340.0 1.0 0.0 0.0 0.0 0.0 0.0 0.348083 159.377732
0.0 0.0 0.0 0.0 0.446218 70.924246 0.0 0.0
0.0 0.0
1350.0 1.0 -0.0 0.0 0.0 0.0 0.0 0.348088 127.996236
0.0 0.0 0.0 0.0 0.447149 38.793887 0.0 0.0
0.0 0.0
1360.0 1.0 0.0 0.0 0.0 0.0 0.0 0.345178 96.722101
0.0 0.0 0.0 0.0 0.444326 6.769791 0.0 0.0
0.0 0.0
1370.0 1.0 0.0 0.0 0.0 0.0 0.0 0.342521 65.849747
0.0 0.0 0.0 0.0 0.441811 -24.853612 0.0 0.0
0.0 0.0
1380.0 1.0 0.0 0.0 0.0 0.0 0.0 0.341459 34.969369
0.0 0.0 0.0 0.0 0.44134 -56.486114 0.0 0.0
0.0 0.0
1390.0 1.0 -0.0 0.0 0.0 0.0 0.0 0.340163 4.048616
0.0 0.0 0.0 0.0 0.440558 -88.160058 0.0 0.0
0.0 0.0
1400.0 1.0 0.0 0.0 0.0 0.0 0.0 0.339683 -26.687993
0.0 0.0 0.0 0.0 0.440825 -119.650912 0.0 0.0
0.0 0.0
1410.0 1.0 0.0 0.0 0.0 0.0 0.0 0.340967 -57.578249
0.0 0.0 0.0 0.0 0.443379 -151.296456 0.0 0.0
0.0 0.0
1420.0 1.0 -0.0 0.0 0.0 0.0 0.0 0.341626 -88.769984
0.0 0.0 0.0 0.0 0.445123 176.755488 0.0 0.0
0.0 0.0
1430.0 1.0 0.0 0.0 0.0 0.0 0.0 0.340598 -119.91531
0.0 0.0 0.0 0.0 0.444664 144.85282 0.0 0.0
0.0 0.0
1440.0 1.0 0.0 0.0 0.0 0.0 0.0 0.339501 -150.794781
0.0 0.0 0.0 0.0 0.444106 113.214997 0.0 0.0
0.0 0.0
1450.0 1.0 0.0 0.0 0.0 0.0 0.0 0.340115 178.330784
0.0 0.0 0.0 0.0 0.44578 81.58121 0.0 0.0
0.0 0.0
1460.0 1.0 0.0 0.0 0.0 0.0 0.0 0.340701 147.050761
0.0 0.0 0.0 0.0 0.447418 49.540846 0.0 0.0
0.0 0.0
1470.0 1.0 -0.0 0.0 0.0 0.0 0.0 0.338328 115.683819
0.0 0.0 0.0 0.0 0.44516 17.412587 0.0 0.0
0.0 0.0
1480.0 1.0 -0.0 0.0 0.0 0.0 0.0 0.334687 84.764624
0.0 0.0 0.0 0.0 0.441215 -14.268893 0.0 0.0
0.0 0.0
1490.0 1.0 -0.0 0.0 0.0 0.0 0.0 0.332693 54.168266
0.0 0.0 0.0 0.0 0.439423 -45.62849 0.0 0.0
0.0 0.0
1500.0 1.0 -0.0 0.0 0.0 0.0 0.0 0.332865 23.54672
0.0 0.0 0.0 0.0 0.440484 -77.014221 0.0 0.0
0.0 0.0
1510.0 1.0 -0.0 0.0 0.0 0.0 0.0 0.334383 -7.364742
0.0 0.0 0.0 0.0 0.443324 -108.6908 0.0 0.0
0.0 0.0
1520.0 1.0 -0.0 0.0 0.0 0.0 0.0 0.335423 -38.624669
0.0 0.0 0.0 0.0 0.445533 -140.716768 0.0 0.0
0.0 0.0
1530.0 1.0 0.0 0.0 0.0 0.0 0.0 0.334723 -70.026391
0.0 0.0 0.0 0.0 0.445427 -172.885441 0.0 0.0
0.0 0.0
1540.0 1.0 -0.0 0.0 0.0 0.0 0.0 0.332155 -101.300249
0.0 0.0 0.0 0.0 0.442823 155.072848 0.0 0.0
0.0 0.0
1550.0 1.0 0.0 0.0 0.0 0.0 0.0 0.328876 -132.180187
0.0 0.0 0.0 0.0 0.439252 123.424168 0.0 0.0
0.0 0.0
1560.0 1.0 0.0 0.0 0.0 0.0 0.0 0.327395 -162.692407
0.0 0.0 0.0 0.0 0.438065 92.142326 0.0 0.0
0.0 0.0
1570.0 1.0 0.0 0.0 0.0 0.0 0.0 0.328741 166.64915
0.0 0.0 0.0 0.0 0.440656 60.713394 0.0 0.0
0.0 0.0
1580.0 1.0 0.0 0.0 0.0 0.0 0.0 0.330079 135.487538
0.0 0.0 0.0 0.0 0.443237 28.780436 0.0 0.0
0.0 0.0
1590.0 1.0 0.0 0.0 0.0 0.0 0.0 0.329118 104.248737
0.0 0.0 0.0 0.0 0.442727 -3.230557 0.0 0.0
0.0 0.0
1600.0 1.0 0.0 0.0 0.0 0.0 0.0 0.327954 73.210435
0.0 0.0 0.0 0.0 0.441932 -35.041888 0.0 0.0
0.0 0.0
1610.0 1.0 0.0 0.0 0.0 0.0 0.0 0.326789 42.050748
0.0 0.0 0.0 0.0 0.441127 -66.975428 0.0 0.0
0.0 0.0
1620.0 1.0 0.0 0.0 0.0 0.0 0.0 0.323936 11.020208
0.0 0.0 0.0 0.0 0.438028 -98.780636 0.0 0.0
0.0 0.0
1630.0 1.0 0.0 0.0 0.0 0.0 0.0 0.322047 -19.586371
0.0 0.0 0.0 0.0 0.436215 -130.162685 0.0 0.0
0.0 0.0
1640.0 1.0 0.0 0.0 0.0 0.0 0.0 0.322736 -50.301517
0.0 0.0 0.0 0.0 0.437886 -161.654095 0.0 0.0
0.0 0.0
1650.0 1.0 0.0 0.0 0.0 0.0 0.0 0.323481 -81.403441
0.0 0.0 0.0 0.0 0.439631 166.466935 0.0 0.0
0.0 0.0
1660.0 1.0 0.0 0.0 0.0 0.0 0.0 0.322753 -112.648746
0.0 0.0 0.0 0.0 0.439368 134.443813 0.0 0.0
0.0 0.0
1670.0 1.0 0.0 0.0 0.0 0.0 0.0 0.320348 -143.797351
0.0 0.0 0.0 0.0 0.436809 102.51663 0.0 0.0
0.0 0.0
1680.0 1.0 -0.0 0.0 0.0 0.0 0.0 0.317166 -174.50315
0.0 0.0 0.0 0.0 0.433174 71.031502 0.0 0.0
0.0 0.0
1690.0 1.0 -0.0 0.0 0.0 0.0 0.0 0.316756 155.204196
0.0 0.0 0.0 0.0 0.433309 39.95878 0.0 0.0
0.0 0.0
1700.0 1.0 0.0 0.0 0.0 0.0 0.0 0.319719 124.459275
0.0 0.0 0.0 0.0 0.438057 8.433061 0.0 0.0
0.0 0.0
1710.0 1.0 0.0 0.0 0.0 0.0 0.0 0.320915 93.040814
0.0 0.0 0.0 0.0 0.440388 -23.766918 0.0 0.0
0.0 0.0
1720.0 1.0 0.0 0.0 0.0 0.0 0.0 0.318829 61.739034
0.0 0.0 0.0 0.0 0.438207 -55.850924 0.0 0.0
0.0 0.0
1730.0 1.0 0.0 0.0 0.0 0.0 0.0 0.316242 30.795169
0.0 0.0 0.0 0.0 0.43532 -87.577714 0.0 0.0
0.0 0.0
1740.0 1.0 0.0 0.0 0.0 0.0 0.0 0.314001 0.1213
0.0 0.0 0.0 0.0 0.432893 -119.035196 0.0 0.0
0.0 0.0
1750.0 1.0 -0.0 0.0 0.0 0.0 0.0 0.31401 -30.28781
0.0 0.0 0.0 0.0 0.433558 -150.228596 0.0 0.0
0.0 0.0
1760.0 1.0 -0.0 0.0 0.0 0.0 0.0 0.317429 -61.13655
0.0 0.0 0.0 0.0 0.438932 178.137706 0.0 0.0
0.0 0.0
1770.0 1.0 -0.0 0.0 0.0 0.0 0.0 0.319478 -92.934165
0.0 0.0 0.0 0.0 0.442414 145.554475 0.0 0.0
0.0 0.0
1780.0 1.0 -0.0 0.0 0.0 0.0 0.0 0.315168 -124.907732
0.0 0.0 0.0 0.0 0.43708 112.794645 0.0 0.0
0.0 0.0
1790.0 1.0 0.0 0.0 0.0 0.0 0.0 0.306857 -155.780358
0.0 0.0 0.0 0.0 0.426165 81.135119 0.0 0.0
0.0 0.0
1800.0 1.0 0.0 0.0 0.0 0.0 0.0 0.302663 174.630002
0.0 0.0 0.0 0.0 0.420936 50.757951 0.0 0.0
0.0 0.0
1810.0 1.0 0.0 0.0 0.0 0.0 0.0 0.306635 144.894417
0.0 0.0 0.0 0.0 0.427058 20.234221 0.0 0.0
0.0 0.0
1820.0 1.0 0.0 0.0 0.0 0.0 0.0 0.313311 113.732701
0.0 0.0 0.0 0.0 0.436958 -11.716246 0.0 0.0
0.0 0.0
1830.0 1.0 0.0 0.0 0.0 0.0 0.0 0.314357 81.590083
0.0 0.0 0.0 0.0 0.439015 -44.648213 0.0 0.0
0.0 0.0
1840.0 1.0 0.0 0.0 0.0 0.0 0.0 0.308612 49.963956
0.0 0.0 0.0 0.0 0.431573 -77.064277 0.0 0.0
0.0 0.0
1850.0 1.0 0.0 0.0 0.0 0.0 0.0 0.302821 19.602337
0.0 0.0 0.0 0.0 0.424037 -108.21641 0.0 0.0
0.0 0.0
1860.0 1.0 0.0 0.0 0.0 0.0 0.0 0.302852 -10.255535
0.0 0.0 0.0 0.0 0.424634 -138.865363 0.0 0.0
0.0 0.0
1870.0 1.0 -0.0 0.0 0.0 0.0 0.0 0.307649 -40.918329
0.0 0.0 0.0 0.0 0.431917 -170.319797 0.0 0.0
0.0 0.0
1880.0 1.0 0.0 0.0 0.0 0.0 0.0 0.310289 -72.767622
0.0 0.0 0.0 0.0 0.436177 157.038722 0.0 0.0
0.0 0.0
1890.0 1.0 0.0 0.0 0.0 0.0 0.0 0.305898 -104.717504
0.0 0.0 0.0 0.0 0.430545 124.296114 0.0 0.0
0.0 0.0
1900.0 1.0 -0.0 0.0 0.0 0.0 0.0 0.297993 -135.490711
0.0 0.0 0.0 0.0 0.419935 92.729651 0.0 0.0
0.0 0.0
1910.0 1.0 -0.0 0.0 0.0 0.0 0.0 0.294152 -165.02959
0.0 0.0 0.0 0.0 0.415026 62.396997 0.0 0.0
0.0 0.0
1920.0 1.0 -0.0 0.0 0.0 0.0 0.0 0.298492 165.330287
0.0 0.0 0.0 0.0 0.421655 31.962589 0.0 0.0
0.0 0.0
1930.0 1.0 0.0 0.0 0.0 0.0 0.0 0.306063 134.096931
0.0 0.0 0.0 0.0 0.432859 -0.065551 0.0 0.0
0.0 0.0
1940.0 1.0 -0.0 0.0 0.0 0.0 0.0 0.30674 101.713939
