! File created by SignalIntegrity v1.2.1: Signal and Power Integrity Tools
! https://github.com/TeledyneLeCroy/SignalIntegrity
# MHz S MA R 50.0
0.0 0.0 0.0 1.0 0.0 1.0 0.0 0.0 0.0
100.0 0.022972 82.681291 0.999736 -7.318709 0.999736 -7.318709 0.022972 82.681291
200.0 0.045546 75.370218 0.998962 -14.629782 0.998962 -14.629782 0.045546 75.370218
300.0 0.067336 68.073893 0.99773 -21.926107 0.99773 -21.926107 0.067336 68.073893
400.0 0.087979 60.798423 0.996122 -29.201577 0.996122 -29.201577 0.087979 60.798423
500.0 0.10714 53.548513 0.994244 -36.451487 0.994244 -36.451487 0.10714 53.548513
600.0 0.124523 46.327181 0.992217 -43.672819 0.992217 -43.672819 0.124523 46.327181
700.0 0.139872 39.135598 0.99017 -50.864402 0.99017 -50.864402 0.139872 39.135598
800.0 0.152972 31.973058 0.988231 -58.026942 0.988231 -58.026942 0.152972 31.973058
900.0 0.163649 24.837064 0.986519 -65.162936 0.986519 -65.162936 0.163649 24.837064
1000.0 0.171769 17.723523 0.985137 -72.276477 0.985137 -72.276477 0.171769 17.723523
1100.0 0.177235 10.627016 0.984169 -79.372984 0.984169 -79.372984 0.177235 10.627016
1200.0 0.179984 3.541135 0.98367 -86.458865 0.98367 -86.458865 0.179984 3.541135
1300.0 0.179984 -3.541135 0.98367 -93.541135 0.98367 -93.541135 0.179984 -3.541135
1400.0 0.177235 -10.627016 0.984169 -100.627016 0.984169 -100.627016 0.177235 -10.627016
1500.0 0.171769 -17.723523 0.985137 -107.723523 0.985137 -107.723523 0.171769 -17.723523
1600.0 0.163649 -24.837064 0.986519 -114.837064 0.986519 -114.837064 0.163649 -24.837064
1700.0 0.152972 -31.973058 0.988231 -121.973058 0.988231 -121.973058 0.152972 -31.973058
1800.0 0.139872 -39.135598 0.99017 -129.135598 0.99017 -129.135598 0.139872 -39.135598
1900.0 0.124523 -46.327181 0.992217 -136.327181 0.992217 -136.327181 0.124523 -46.327181
2000.0 0.10714 -53.548513 0.994244 -143.548513 0.994244 -143.548513 0.10714 -53.548513
2100.0 0.087979 -60.798423 0.996122 -150.798423 0.996122 -150.798423 0.087979 -60.798423
2200.0 0.067336 -68.073893 0.99773 -158.073893 0.99773 -158.073893 0.067336 -68.073893
2300.0 0.045546 -75.370218 0.998962 -165.370218 0.998962 -165.370218 0.045546 -75.370218
2400.0 0.022972 -82.681291 0.999736 -172.681291 0.999736 -172.681291 0.022972 -82.681291
2500.0 0.0 -90.0 1.0 180.0 1.0 180.0 0.0 -90.0
2600.0 0.022972 82.681291 0.999736 172.681291 0.999736 172.681291 0.022972 82.681291
2700.0 0.045546 75.370218 0.998962 165.370218 0.998962 165.370218 0.045546 75.370218
2800.0 0.067336 68.073893 0.99773 158.073893 0.99773 158.073893 0.067336 68.073893
2900.0 0.087979 60.798423 0.996122 150.798423 0.996122 150.798423 0.087979 60.798423
3000.0 0.10714 53.548513 0.994244 143.548513 0.994244 143.548513 0.10714 53.548513
3100.0 0.124523 46.327181 0.992217 136.327181 0.992217 136.327181 0.124523 46.327181
3200.0 0.139872 39.135598 0.99017 129.135598 0.99017 129.135598 0.139872 39.135598
3300.0 0.152972 31.973058 0.988231 121.973058 0.988231 121.973058 0.152972 31.973058
3400.0 0.163649 24.837064 0.986519 114.837064 0.986519 114.837064 0.163649 24.837064
3500.0 0.171769 17.723523 0.985137 107.723523 0.985137 107.723523 0.171769 17.723523
3600.0 0.177235 10.627016 0.984169 100.627016 0.984169 100.627016 0.177235 10.627016
3700.0 0.179984 3.541135 0.98367 93.541135 0.98367 93.541135 0.179984 3.541135
3800.0 0.179984 -3.541135 0.98367 86.458865 0.98367 86.458865 0.179984 -3.541135
3900.0 0.177235 -10.627016 0.984169 79.372984 0.984169 79.372984 0.177235 -10.627016
4000.0 0.171769 -17.723523 0.985137 72.276477 0.985137 72.276477 0.171769 -17.723523
4100.0 0.163649 -24.837064 0.986519 65.162936 0.986519 65.162936 0.163649 -24.837064
4200.0 0.152972 -31.973058 0.988231 58.026942 0.988231 58.026942 0.152972 -31.973058
4300.0 0.139872 -39.135598 0.99017 50.864402 0.99017 50.864402 0.139872 -39.135598
4400.0 0.124523 -46.327181 0.992217 43.672819 0.992217 43.672819 0.124523 -46.327181
4500.0 0.10714 -53.548513 0.994244 36.451487 0.994244 36.451487 0.10714 -53.548513
4600.0 0.087979 -60.798423 0.996122 29.201577 0.996122 29.201577 0.087979 -60.798423
4700.0 0.067336 -68.073893 0.99773 21.926107 0.99773 21.926107 0.067336 -68.073893
4800.0 0.045546 -75.370218 0.998962 14.629782 0.998962 14.629782 0.045546 -75.370218
4900.0 0.022972 -82.681291 0.999736 7.318709 0.999736 7.318709 0.022972 -82.681291
5000.0 0.0 -90.0 1.0 0.0 1.0 0.0 0.0 -90.0
5100.0 0.022972 82.681291 0.999736 -7.318709 0.999736 -7.318709 0.022972 82.681291
5200.0 0.045546 75.370218 0.998962 -14.629782 0.998962 -14.629782 0.045546 75.370218
5300.0 0.067336 68.073893 0.99773 -21.926107 0.99773 -21.926107 0.067336 68.073893
5400.0 0.087979 60.798423 0.996122 -29.201577 0.996122 -29.201577 0.087979 60.798423
5500.0 0.10714 53.548513 0.994244 -36.451487 0.994244 -36.451487 0.10714 53.548513
5600.0 0.124523 46.327181 0.992217 -43.672819 0.992217 -43.672819 0.124523 46.327181
5700.0 0.139872 39.135598 0.99017 -50.864402 0.99017 -50.864402 0.139872 39.135598
5800.0 0.152972 31.973058 0.988231 -58.026942 0.988231 -58.026942 0.152972 31.973058
5900.0 0.163649 24.837064 0.986519 -65.162936 0.986519 -65.162936 0.163649 24.837064
6000.0 0.171769 17.723523 0.985137 -72.276477 0.985137 -72.276477 0.171769 17.723523
6100.0 0.177235 10.627016 0.984169 -79.372984 0.984169 -79.372984 0.177235 10.627016
6200.0 0.179984 3.541135 0.98367 -86.458865 0.98367 -86.458865 0.179984 3.541135
6300.0 0.179984 -3.541135 0.98367 -93.541135 0.98367 -93.541135 0.179984 -3.541135
6400.0 0.177235 -10.627016 0.984169 -100.627016 0.984169 -100.627016 0.177235 -10.627016
6500.0 0.171769 -17.723523 0.985137 -107.723523 0.985137 -107.723523 0.171769 -17.723523
6600.0 0.163649 -24.837064 0.986519 -114.837064 0.986519 -114.837064 0.163649 -24.837064
6700.0 0.152972 -31.973058 0.988231 -121.973058 0.988231 -121.973058 0.152972 -31.973058
6800.0 0.139872 -39.135598 0.99017 -129.135598 0.99017 -129.135598 0.139872 -39.135598
6900.0 0.124523 -46.327181 0.992217 -136.327181 0.992217 -136.327181 0.124523 -46.327181
7000.0 0.10714 -53.548513 0.994244 -143.548513 0.994244 -143.548513 0.10714 -53.548513
7100.0 0.087979 -60.798423 0.996122 -150.798423 0.996122 -150.798423 0.087979 -60.798423
7200.0 0.067336 -68.073893 0.99773 -158.073893 0.99773 -158.073893 0.067336 -68.073893
7300.0 0.045546 -75.370218 0.998962 -165.370218 0.998962 -165.370218 0.045546 -75.370218
7400.0 0.022972 -82.681291 0.999736 -172.681291 0.999736 -172.681291 0.022972 -82.681291
7500.0 0.0 -90.0 1.0 -180.0 1.0 -180.0 0.0 -90.0
7600.0 0.022972 82.681291 0.999736 172.681291 0.999736 172.681291 0.022972 82.681291
7700.0 0.045546 75.370218 0.998962 165.370218 0.998962 165.370218 0.045546 75.370218
7800.0 0.067336 68.073893 0.99773 158.073893 0.99773 158.073893 0.067336 68.073893
7900.0 0.087979 60.798423 0.996122 150.798423 0.996122 150.798423 0.087979 60.798423
8000.0 0.10714 53.548513 0.994244 143.548513 0.994244 143.548513 0.10714 53.548513
8100.0 0.124523 46.327181 0.992217 136.327181 0.992217 136.327181 0.124523 46.327181
8200.0 0.139872 39.135598 0.99017 129.135598 0.99017 129.135598 0.139872 39.135598
8300.0 0.152972 31.973058 0.988231 121.973058 0.988231 121.973058 0.152972 31.973058
8400.0 0.163649 24.837064 0.986519 114.837064 0.986519 114.837064 0.163649 24.837064
8500.0 0.171769 17.723523 0.985137 107.723523 0.985137 107.723523 0.171769 17.723523
8600.0 0.177235 10.627016 0.984169 100.627016 0.984169 100.627016 0.177235 10.627016
8700.0 0.179984 3.541135 0.98367 93.541135 0.98367 93.541135 0.179984 3.541135
8800.0 0.179984 -3.541135 0.98367 86.458865 0.98367 86.458865 0.179984 -3.541135
8900.0 0.177235 -10.627016 0.984169 79.372984 0.984169 79.372984 0.177235 -10.627016
9000.0 0.171769 -17.723523 0.985137 72.276477 0.985137 72.276477 0.171769 -17.723523
9100.0 0.163649 -24.837064 0.986519 65.162936 0.986519 65.162936 0.163649 -24.837064
9200.0 0.152972 -31.973058 0.988231 58.026942 0.988231 58.026942 0.152972 -31.973058
9300.0 0.139872 -39.135598 0.99017 50.864402 0.99017 50.864402 0.139872 -39.135598
9400.0 0.124523 -46.327181 0.992217 43.672819 0.992217 43.672819 0.124523 -46.327181
9500.0 0.10714 -53.548513 0.994244 36.451487 0.994244 36.451487 0.10714 -53.548513
9600.0 0.087979 -60.798423 0.996122 29.201577 0.996122 29.201577 0.087979 -60.798423
9700.0 0.067336 -68.073893 0.99773 21.926107 0.99773 21.926107 0.067336 -68.073893
9800.0 0.045546 -75.370218 0.998962 14.629782 0.998962 14.629782 0.045546 -75.370218
9900.0 0.022972 -82.681291 0.999736 7.318709 0.999736 7.318709 0.022972 -82.681291
10000.0 0.0 -90.0 1.0 0.0 1.0 0.0 0.0 -90.0
10100.0 0.022972 82.681291 0.999736 -7.318709 0.999736 -7.318709 0.022972 82.681291
10200.0 0.045546 75.370218 0.998962 -14.629782 0.998962 -14.629782 0.045546 75.370218
10300.0 0.067336 68.073893 0.99773 -21.926107 0.99773 -21.926107 0.067336 68.073893
10400.0 0.087979 60.798423 0.996122 -29.201577 0.996122 -29.201577 0.087979 60.798423
10500.0 0.10714 53.548513 0.994244 -36.451487 0.994244 -36.451487 0.10714 53.548513
10600.0 0.124523 46.327181 0.992217 -43.672819 0.992217 -43.672819 0.124523 46.327181
10700.0 0.139872 39.135598 0.99017 -50.864402 0.99017 -50.864402 0.139872 39.135598
10800.0 0.152972 31.973058 0.988231 -58.026942 0.988231 -58.026942 0.152972 31.973058
10900.0 0.163649 24.837064 0.986519 -65.162936 0.986519 -65.162936 0.163649 24.837064
11000.0 0.171769 17.723523 0.985137 -72.276477 0.985137 -72.276477 0.171769 17.723523
11100.0 0.177235 10.627016 0.984169 -79.372984 0.984169 -79.372984 0.177235 10.627016
11200.0 0.179984 3.541135 0.98367 -86.458865 0.98367 -86.458865 0.179984 3.541135
11300.0 0.179984 -3.541135 0.98367 -93.541135 0.98367 -93.541135 0.179984 -3.541135
11400.0 0.177235 -10.627016 0.984169 -100.627016 0.984169 -100.627016 0.177235 -10.627016
11500.0 0.171769 -17.723523 0.985137 -107.723523 0.985137 -107.723523 0.171769 -17.723523
11600.0 0.163649 -24.837064 0.986519 -114.837064 0.986519 -114.837064 0.163649 -24.837064
11700.0 0.152972 -31.973058 0.988231 -121.973058 0.988231 -121.973058 0.152972 -31.973058
11800.0 0.139872 -39.135598 0.99017 -129.135598 0.99017 -129.135598 0.139872 -39.135598
11900.0 0.124523 -46.327181 0.992217 -136.327181 0.992217 -136.327181 0.124523 -46.327181
12000.0 0.10714 -53.548513 0.994244 -143.548513 0.994244 -143.548513 0.10714 -53.548513
12100.0 0.087979 -60.798423 0.996122 -150.798423 0.996122 -150.798423 0.087979 -60.798423
12200.0 0.067336 -68.073893 0.99773 -158.073893 0.99773 -158.073893 0.067336 -68.073893
12300.0 0.045546 -75.370218 0.998962 -165.370218 0.998962 -165.370218 0.045546 -75.370218
12400.0 0.022972 -82.681291 0.999736 -172.681291 0.999736 -172.681291 0.022972 -82.681291
12500.0 0.0 -90.0 1.0 -180.0 1.0 -180.0 0.0 -90.0
12600.0 0.022972 82.681291 0.999736 172.681291 0.999736 172.681291 0.022972 82.681291
12700.0 0.045546 75.370218 0.998962 165.370218 0.998962 165.370218 0.045546 75.370218
12800.0 0.067336 68.073893 0.99773 158.073893 0.99773 158.073893 0.067336 68.073893
12900.0 0.087979 60.798423 0.996122 150.798423 0.996122 150.798423 0.087979 60.798423
13000.0 0.10714 53.548513 0.994244 143.548513 0.994244 143.548513 0.10714 53.548513
13100.0 0.124523 46.327181 0.992217 136.327181 0.992217 136.327181 0.124523 46.327181
13200.0 0.139872 39.135598 0.99017 129.135598 0.99017 129.135598 0.139872 39.135598
13300.0 0.152972 31.973058 0.988231 121.973058 0.988231 121.973058 0.152972 31.973058
13400.0 0.163649 24.837064 0.986519 114.837064 0.986519 114.837064 0.163649 24.837064
13500.0 0.171769 17.723523 0.985137 107.723523 0.985137 107.723523 0.171769 17.723523
13600.0 0.177235 10.627016 0.984169 100.627016 0.984169 100.627016 0.177235 10.627016
13700.0 0.179984 3.541135 0.98367 93.541135 0.98367 93.541135 0.179984 3.541135
13800.0 0.179984 -3.541135 0.98367 86.458865 0.98367 86.458865 0.179984 -3.541135
13900.0 0.177235 -10.627016 0.984169 79.372984 0.984169 79.372984 0.177235 -10.627016
14000.0 0.171769 -17.723523 0.985137 72.276477 0.985137 72.276477 0.171769 -17.723523
14100.0 0.163649 -24.837064 0.986519 65.162936 0.986519 65.162936 0.163649 -24.837064
14200.0 0.152972 -31.973058 0.988231 58.026942 0.988231 58.026942 0.152972 -31.973058
14300.0 0.139872 -39.135598 0.99017 50.864402 0.99017 50.864402 0.139872 -39.135598
14400.0 0.124523 -46.327181 0.992217 43.672819 0.992217 43.672819 0.124523 -46.327181
14500.0 0.10714 -53.548513 0.994244 36.451487 0.994244 36.451487 0.10714 -53.548513
14600.0 0.087979 -60.798423 0.996122 29.201577 0.996122 29.201577 0.087979 -60.798423
14700.0 0.067336 -68.073893 0.99773 21.926107 0.99773 21.926107 0.067336 -68.073893
14800.0 0.045546 -75.370218 0.998962 14.629782 0.998962 14.629782 0.045546 -75.370218
14900.0 0.022972 -82.681291 0.999736 7.318709 0.999736 7.318709 0.022972 -82.681291
15000.0 0.0 -90.0 1.0 0.0 1.0 0.0 0.0 -90.0
15100.0 0.022972 82.681291 0.999736 -7.318709 0.999736 -7.318709 0.022972 82.681291
15200.0 0.045546 75.370218 0.998962 -14.629782 0.998962 -14.629782 0.045546 75.370218
15300.0 0.067336 68.073893 0.99773 -21.926107 0.99773 -21.926107 0.067336 68.073893
15400.0 0.087979 60.798423 0.996122 -29.201577 0.996122 -29.201577 0.087979 60.798423
15500.0 0.10714 53.548513 0.994244 -36.451487 0.994244 -36.451487 0.10714 53.548513
15600.0 0.124523 46.327181 0.992217 -43.672819 0.992217 -43.672819 0.124523 46.327181
15700.0 0.139872 39.135598 0.99017 -50.864402 0.99017 -50.864402 0.139872 39.135598
15800.0 0.152972 31.973058 0.988231 -58.026942 0.988231 -58.026942 0.152972 31.973058
15900.0 0.163649 24.837064 0.986519 -65.162936 0.986519 -65.162936 0.163649 24.837064
16000.0 0.171769 17.723523 0.985137 -72.276477 0.985137 -72.276477 0.171769 17.723523
16100.0 0.177235 10.627016 0.984169 -79.372984 0.984169 -79.372984 0.177235 10.627016
16200.0 0.179984 3.541135 0.98367 -86.458865 0.98367 -86.458865 0.179984 3.541135
16300.0 0.179984 -3.541135 0.98367 -93.541135 0.98367 -93.541135 0.179984 -3.541135
16400.0 0.177235 -10.627016 0.984169 -100.627016 0.984169 -100.627016 0.177235 -10.627016
16500.0 0.171769 -17.723523 0.985137 -107.723523 0.985137 -107.723523 0.171769 -17.723523
16600.0 0.163649 -24.837064 0.986519 -114.837064 0.986519 -114.837064 0.163649 -24.837064
16700.0 0.152972 -31.973058 0.988231 -121.973058 0.988231 -121.973058 0.152972 -31.973058
16800.0 0.139872 -39.135598 0.99017 -129.135598 0.99017 -129.135598 0.139872 -39.135598
16900.0 0.124523 -46.327181 0.992217 -136.327181 0.992217 -136.327181 0.124523 -46.327181
17000.0 0.10714 -53.548513 0.994244 -143.548513 0.994244 -143.548513 0.10714 -53.548513
17100.0 0.087979 -60.798423 0.996122 -150.798423 0.996122 -150.798423 0.087979 -60.798423
17200.0 0.067336 -68.073893 0.99773 -158.073893 0.99773 -158.073893 0.067336 -68.073893
17300.0 0.045546 -75.370218 0.998962 -165.370218 0.998962 -165.370218 0.045546 -75.370218
17400.0 0.022972 -82.681291 0.999736 -172.681291 0.999736 -172.681291 0.022972 -82.681291
17500.0 0.0 -90.0 1.0 -180.0 1.0 -180.0 0.0 -90.0
17600.0 0.022972 82.681291 0.999736 172.681291 0.999736 172.681291 0.022972 82.681291
17700.0 0.045546 75.370218 0.998962 165.370218 0.998962 165.370218 0.045546 75.370218
17800.0 0.067336 68.073893 0.99773 158.073893 0.99773 158.073893 0.067336 68.073893
17900.0 0.087979 60.798423 0.996122 150.798423 0.996122 150.798423 0.087979 60.798423
18000.0 0.10714 53.548513 0.994244 143.548513 0.994244 143.548513 0.10714 53.548513
18100.0 0.124523 46.327181 0.992217 136.327181 0.992217 136.327181 0.124523 46.327181
18200.0 0.139872 39.135598 0.99017 129.135598 0.99017 129.135598 0.139872 39.135598
18300.0 0.152972 31.973058 0.988231 121.973058 0.988231 121.973058 0.152972 31.973058
18400.0 0.163649 24.837064 0.986519 114.837064 0.986519 114.837064 0.163649 24.837064
18500.0 0.171769 17.723523 0.985137 107.723523 0.985137 107.723523 0.171769 17.723523
18600.0 0.177235 10.627016 0.984169 100.627016 0.984169 100.627016 0.177235 10.627016
18700.0 0.179984 3.541135 0.98367 93.541135 0.98367 93.541135 0.179984 3.541135
18800.0 0.179984 -3.541135 0.98367 86.458865 0.98367 86.458865 0.179984 -3.541135
18900.0 0.177235 -10.627016 0.984169 79.372984 0.984169 79.372984 0.177235 -10.627016
19000.0 0.171769 -17.723523 0.985137 72.276477 0.985137 72.276477 0.171769 -17.723523
19100.0 0.163649 -24.837064 0.986519 65.162936 0.986519 65.162936 0.163649 -24.837064
19200.0 0.152972 -31.973058 0.988231 58.026942 0.988231 58.026942 0.152972 -31.973058
19300.0 0.139872 -39.135598 0.99017 50.864402 0.99017 50.864402 0.139872 -39.135598
19400.0 0.124523 -46.327181 0.992217 43.672819 0.992217 43.672819 0.124523 -46.327181
19500.0 0.10714 -53.548513 0.994244 36.451487 0.994244 36.451487 0.10714 -53.548513
19600.0 0.087979 -60.798423 0.996122 29.201577 0.996122 29.201577 0.087979 -60.798423
19700.0 0.067336 -68.073893 0.99773 21.926107 0.99773 21.926107 0.067336 -68.073893
19800.0 0.045546 -75.370218 0.998962 14.629782 0.998962 14.629782 0.045546 -75.370218
19900.0 0.022972 -82.681291 0.999736 7.318709 0.999736 7.318709 0.022972 -82.681291
20000.0 0.0 -90.0 1.0 0.0 1.0 0.0 0.0 -90.0
