! File created by SignalIntegrity v1.2.1: Signal and Power Integrity Tools
! https://github.com/TeledyneLeCroy/SignalIntegrity
# MHz S MA R 50.0
0.0 1.0 0.0
100.0 0.990122 -19.667482
200.0 0.965585 -38.631736
300.0 0.937636 -56.555509
400.0 0.916719 -73.543832
500.0 0.909091 -90.0
600.0 0.916719 -106.456168
700.0 0.937636 -123.444491
800.0 0.965585 -141.368264
900.0 0.990122 -160.332518
1000.0 1.0 180.0
1100.0 0.990122 160.332518
1200.0 0.965585 141.368264
1300.0 0.937636 123.444491
1400.0 0.916719 106.456168
1500.0 0.909091 90.0
1600.0 0.916719 73.543832
1700.0 0.937636 56.555509
1800.0 0.965585 38.631736
1900.0 0.990122 19.667482
2000.0 1.0 -0.0
2100.0 0.990122 -19.667482
2200.0 0.965585 -38.631736
2300.0 0.937636 -56.555509
2400.0 0.916719 -73.543832
2500.0 0.909091 -90.0
2600.0 0.916719 -106.456168
2700.0 0.937636 -123.444491
2800.0 0.965585 -141.368264
2900.0 0.990122 -160.332518
3000.0 1.0 -180.0
3100.0 0.990122 160.332518
3200.0 0.965585 141.368264
3300.0 0.937636 123.444491
3400.0 0.916719 106.456168
3500.0 0.909091 90.0
3600.0 0.916719 73.543832
3700.0 0.937636 56.555509
3800.0 0.965585 38.631736
3900.0 0.990122 19.667482
4000.0 1.0 -0.0
4100.0 0.990122 -19.667482
4200.0 0.965585 -38.631736
4300.0 0.937636 -56.555509
4400.0 0.916719 -73.543832
4500.0 0.909091 -90.0
4600.0 0.916719 -106.456168
4700.0 0.937636 -123.444491
4800.0 0.965585 -141.368264
4900.0 0.990122 -160.332518
5000.0 1.0 -180.0
5100.0 0.990122 160.332518
5200.0 0.965585 141.368264
5300.0 0.937636 123.444491
5400.0 0.916719 106.456168
5500.0 0.909091 90.0
5600.0 0.916719 73.543832
5700.0 0.937636 56.555509
5800.0 0.965585 38.631736
5900.0 0.990122 19.667482
6000.0 1.0 0.0
6100.0 0.990122 -19.667482
6200.0 0.965585 -38.631736
6300.0 0.937636 -56.555509
6400.0 0.916719 -73.543832
6500.0 0.909091 -90.0
6600.0 0.916719 -106.456168
6700.0 0.937636 -123.444491
6800.0 0.965585 -141.368264
6900.0 0.990122 -160.332518
7000.0 1.0 -180.0
7100.0 0.990122 160.332518
7200.0 0.965585 141.368264
7300.0 0.937636 123.444491
7400.0 0.916719 106.456168
7500.0 0.909091 90.0
7600.0 0.916719 73.543832
7700.0 0.937636 56.555509
7800.0 0.965585 38.631736
7900.0 0.990122 19.667482
8000.0 1.0 -0.0
8100.0 0.990122 -19.667482
8200.0 0.965585 -38.631736
8300.0 0.937636 -56.555509
8400.0 0.916719 -73.543832
8500.0 0.909091 -90.0
8600.0 0.916719 -106.456168
8700.0 0.937636 -123.444491
8800.0 0.965585 -141.368264
8900.0 0.990122 -160.332518
9000.0 1.0 180.0
9100.0 0.990122 160.332518
9200.0 0.965585 141.368264
9300.0 0.937636 123.444491
9400.0 0.916719 106.456168
9500.0 0.909091 90.0
9600.0 0.916719 73.543832
9700.0 0.937636 56.555509
9800.0 0.965585 38.631736
9900.0 0.990122 19.667482
10000.0 1.0 0.0
10100.0 0.990122 -19.667482
10200.0 0.965585 -38.631736
10300.0 0.937636 -56.555509
10400.0 0.916719 -73.543832
10500.0 0.909091 -90.0
10600.0 0.916719 -106.456168
10700.0 0.937636 -123.444491
10800.0 0.965585 -141.368264
10900.0 0.990122 -160.332518
11000.0 1.0 180.0
11100.0 0.990122 160.332518
11200.0 0.965585 141.368264
11300.0 0.937636 123.444491
11400.0 0.916719 106.456168
11500.0 0.909091 90.0
11600.0 0.916719 73.543832
11700.0 0.937636 56.555509
11800.0 0.965585 38.631736
11900.0 0.990122 19.667482
12000.0 1.0 0.0
12100.0 0.990122 -19.667482
12200.0 0.965585 -38.631736
12300.0 0.937636 -56.555509
12400.0 0.916719 -73.543832
12500.0 0.909091 -90.0
12600.0 0.916719 -106.456168
12700.0 0.937636 -123.444491
12800.0 0.965585 -141.368264
12900.0 0.990122 -160.332518
13000.0 1.0 180.0
13100.0 0.990122 160.332518
13200.0 0.965585 141.368264
13300.0 0.937636 123.444491
13400.0 0.916719 106.456168
13500.0 0.909091 90.0
13600.0 0.916719 73.543832
13700.0 0.937636 56.555509
13800.0 0.965585 38.631736
13900.0 0.990122 19.667482
14000.0 1.0 0.0
14100.0 0.990122 -19.667482
14200.0 0.965585 -38.631736
14300.0 0.937636 -56.555509
14400.0 0.916719 -73.543832
14500.0 0.909091 -90.0
14600.0 0.916719 -106.456168
14700.0 0.937636 -123.444491
14800.0 0.965585 -141.368264
14900.0 0.990122 -160.332518
15000.0 1.0 -180.0
15100.0 0.990122 160.332518
15200.0 0.965585 141.368264
15300.0 0.937636 123.444491
15400.0 0.916719 106.456168
15500.0 0.909091 90.0
15600.0 0.916719 73.543832
15700.0 0.937636 56.555509
15800.0 0.965585 38.631736
15900.0 0.990122 19.667482
16000.0 1.0 -0.0
16100.0 0.990122 -19.667482
16200.0 0.965585 -38.631736
16300.0 0.937636 -56.555509
16400.0 0.916719 -73.543832
16500.0 0.909091 -90.0
16600.0 0.916719 -106.456168
16700.0 0.937636 -123.444491
16800.0 0.965585 -141.368264
16900.0 0.990122 -160.332518
17000.0 1.0 180.0
17100.0 0.990122 160.332518
17200.0 0.965585 141.368264
17300.0 0.937636 123.444491
17400.0 0.916719 106.456168
17500.0 0.909091 90.0
17600.0 0.916719 73.543832
17700.0 0.937636 56.555509
17800.0 0.965585 38.631736
17900.0 0.990122 19.667482
18000.0 1.0 -0.0
18100.0 0.990122 -19.667482
18200.0 0.965585 -38.631736
18300.0 0.937636 -56.555509
18400.0 0.916719 -73.543832
18500.0 0.909091 -90.0
18600.0 0.916719 -106.456168
18700.0 0.937636 -123.444491
18800.0 0.965585 -141.368264
18900.0 0.990122 -160.332518
19000.0 1.0 180.0
19100.0 0.990122 160.332518
19200.0 0.965585 141.368264
19300.0 0.937636 123.444491
19400.0 0.916719 106.456168
19500.0 0.909091 90.0
19600.0 0.916719 73.543832
19700.0 0.937636 56.555509
19800.0 0.965585 38.631736
19900.0 0.990122 19.667482
20000.0 1.0 0.0
