! File created by SignalIntegrity v1.2.1: Signal and Power Integrity Tools
! https://github.com/TeledyneLeCroy/SignalIntegrity
# MHz S MA R 50.0
0.0 0.833333 0.0 0.166667 0.0 0.166667 0.0 0.833333 0.0
100.0 0.833028 -0.147007 0.164965 -8.193683 0.164965 -8.193683 0.837049 -17.996888
200.0 0.832183 -0.27741 0.160158 -16.065307 0.160158 -16.065307 0.847257 -35.129187
300.0 0.830969 -0.380318 0.153002 -23.362847 0.153002 -23.362847 0.861681 -50.76339
400.0 0.829585 -0.452583 0.144425 -29.940164 0.144425 -29.940164 0.877814 -64.590468
500.0 0.828192 -0.497038 0.135259 -35.751937 0.135259 -35.751937 0.893731 -76.576918
600.0 0.826892 -0.519371 0.126118 -40.824981 0.126118 -40.824981 0.908315 -86.858008
700.0 0.825733 -0.525656 0.117385 -45.226212 0.117385 -45.226212 0.921102 -95.642987
800.0 0.824727 -0.521093 0.109259 -49.038168 0.109259 -49.038168 0.932033 -103.155004
900.0 0.823869 -0.509643 0.10182 -52.344056 0.10182 -52.344056 0.941255 -109.601
1000.0 0.823142 -0.494123 0.095071 -55.220242 0.095071 -55.220242 0.948988 -115.160333
1100.0 0.822529 -0.476443 0.088977 -57.733388 0.088977 -57.733388 0.955466 -119.983092
1200.0 0.82201 -0.457857 0.083484 -59.940091 0.083484 -59.940091 0.960903 -124.19265
1300.0 0.82157 -0.439163 0.078534 -61.887691 0.078534 -61.887691 0.965483 -127.889606
1400.0 0.821196 -0.420852 0.074065 -63.615491 0.074065 -63.615491 0.969359 -131.155806
1500.0 0.820877 -0.403211 0.070025 -65.156043 0.070025 -65.156043 0.972657 -134.057924
1600.0 0.820603 -0.386396 0.066361 -66.536315 0.066361 -66.536315 0.975478 -136.650458
1700.0 0.820366 -0.370478 0.063031 -67.778706 0.063031 -67.778706 0.977905 -138.978161
1800.0 0.820161 -0.355475 0.059994 -68.901881 0.059994 -68.901881 0.980004 -141.077978
1900.0 0.819982 -0.341373 0.057218 -69.921464 0.057218 -69.921464 0.981828 -142.980583
2000.0 0.819826 -0.328137 0.054672 -70.850588 0.054672 -70.850588 0.983423 -144.711592
2100.0 0.819688 -0.315722 0.052331 -71.700352 0.052331 -71.700352 0.984823 -146.292519
2200.0 0.819566 -0.304079 0.050173 -72.480176 0.050173 -72.480176 0.986058 -147.741536
2300.0 0.819459 -0.293157 0.048177 -73.198097 0.048177 -73.198097 0.987152 -149.074077
2400.0 0.819363 -0.282903 0.046328 -73.861004 0.046328 -73.861004 0.988125 -150.303318
2500.0 0.819277 -0.273271 0.04461 -74.474828 0.04461 -74.474828 0.988994 -151.440568
2600.0 0.8192 -0.264213 0.043011 -75.0447 0.043011 -75.0447 0.989773 -152.495577
2700.0 0.81913 -0.255687 0.041519 -75.575075 0.041519 -75.575075 0.990474 -153.476792
2800.0 0.819068 -0.247652 0.040123 -76.06984 0.040123 -76.06984 0.991106 -154.39156
2900.0 0.819011 -0.240072 0.038816 -76.532398 0.038816 -76.532398 0.991679 -155.246305
3000.0 0.818959 -0.232913 0.037589 -76.96574 0.037589 -76.96574 0.992198 -156.046657
3100.0 0.818912 -0.226142 0.036435 -77.372504 0.036435 -77.372504 0.992672 -156.797577
3200.0 0.818869 -0.219733 0.035349 -77.755024 0.035349 -77.755024 0.993104 -157.503446
3300.0 0.81883 -0.213658 0.034324 -78.115374 0.034324 -78.115374 0.993499 -158.168152
3400.0 0.818794 -0.207894 0.033355 -78.455402 0.033355 -78.455402 0.993862 -158.795151
3500.0 0.818761 -0.202419 0.032439 -78.776757 0.032439 -78.776757 0.994196 -159.387528
3600.0 0.81873 -0.197213 0.03157 -79.080917 0.03157 -79.080917 0.994503 -159.948044
3700.0 0.818702 -0.192257 0.030747 -79.369211 0.030747 -79.369211 0.994787 -160.479176
3800.0 0.818676 -0.187535 0.029964 -79.642835 0.029964 -79.642835 0.99505 -160.983155
3900.0 0.818652 -0.183032 0.02922 -79.902869 0.02922 -79.902869 0.995293 -161.461993
4000.0 0.818629 -0.178732 0.028511 -80.150292 0.028511 -80.150292 0.995519 -161.917509
4100.0 0.818608 -0.174623 0.027835 -80.385991 0.027835 -80.385991 0.99573 -162.351353
4200.0 0.818589 -0.170694 0.02719 -80.610771 0.02719 -80.610771 0.995926 -162.765023
4300.0 0.81857 -0.166932 0.026574 -80.825369 0.026574 -80.825369 0.996108 -163.159885
4400.0 0.818553 -0.163328 0.025985 -81.030455 0.025985 -81.030455 0.996279 -163.537185
4500.0 0.818537 -0.159873 0.025421 -81.226643 0.025421 -81.226643 0.996439 -163.898059
4600.0 0.818523 -0.156557 0.024881 -81.414495 0.024881 -81.414495 0.996589 -164.243552
4700.0 0.818509 -0.153372 0.024363 -81.594528 0.024363 -81.594528 0.99673 -164.574619
4800.0 0.818495 -0.150312 0.023866 -81.767216 0.023866 -81.767216 0.996862 -164.892141
4900.0 0.818483 -0.147368 0.023389 -81.932998 0.023389 -81.932998 0.996987 -165.196928
5000.0 0.818471 -0.144536 0.02293 -82.092277 0.02293 -82.092277 0.997104 -165.489727
5100.0 0.81846 -0.141808 0.022488 -82.245425 0.022488 -82.245425 0.997215 -165.771227
5200.0 0.81845 -0.139179 0.022064 -82.392788 0.022064 -82.392788 0.997319 -166.042067
5300.0 0.81844 -0.136644 0.021654 -82.534687 0.021654 -82.534687 0.997418 -166.302838
5400.0 0.818431 -0.134198 0.02126 -82.671416 0.02126 -82.671416 0.997511 -166.554089
5500.0 0.818422 -0.131837 0.020879 -82.803253 0.020879 -82.803253 0.997599 -166.79633
5600.0 0.818413 -0.129556 0.020512 -82.930455 0.020512 -82.930455 0.997683 -167.030034
5700.0 0.818405 -0.127352 0.020158 -83.053259 0.020158 -83.053259 0.997763 -167.255644
5800.0 0.818398 -0.12522 0.019815 -83.17189 0.019815 -83.17189 0.997838 -167.47357
5900.0 0.818391 -0.123157 0.019484 -83.286555 0.019484 -83.286555 0.99791 -167.684197
6000.0 0.818384 -0.12116 0.019164 -83.39745 0.019164 -83.39745 0.997978 -167.887885
6100.0 0.818377 -0.119226 0.018853 -83.504756 0.018853 -83.504756 0.998043 -168.084969
6200.0 0.818371 -0.117352 0.018553 -83.608644 0.018553 -83.608644 0.998105 -168.275765
6300.0 0.818365 -0.115535 0.018262 -83.709274 0.018262 -83.709274 0.998164 -168.460568
6400.0 0.81836 -0.113773 0.01798 -83.806797 0.01798 -83.806797 0.99822 -168.639654
6500.0 0.818354 -0.112063 0.017707 -83.901354 0.017707 -83.901354 0.998274 -168.813285
6600.0 0.818349 -0.110403 0.017441 -83.993077 0.017441 -83.993077 0.998325 -168.981704
6700.0 0.818344 -0.108792 0.017184 -84.082091 0.017184 -84.082091 0.998375 -169.145143
6800.0 0.81834 -0.107226 0.016934 -84.168515 0.016934 -84.168515 0.998422 -169.303818
6900.0 0.818335 -0.105704 0.016691 -84.252459 0.016691 -84.252459 0.998467 -169.457934
7000.0 0.818331 -0.104224 0.016455 -84.334029 0.016455 -84.334029 0.99851 -169.607684
7100.0 0.818327 -0.102784 0.016225 -84.413323 0.016225 -84.413323 0.998551 -169.753251
7200.0 0.818323 -0.101384 0.016002 -84.490435 0.016002 -84.490435 0.998591 -169.894807
7300.0 0.818319 -0.100021 0.015785 -84.565453 0.015785 -84.565453 0.998629 -170.032515
7400.0 0.818315 -0.098693 0.015573 -84.638462 0.015573 -84.638462 0.998665 -170.16653
7500.0 0.818312 -0.0974 0.015367 -84.709541 0.015367 -84.709541 0.9987 -170.296998
7600.0 0.818308 -0.09614 0.015167 -84.778765 0.015167 -84.778765 0.998734 -170.424057
7700.0 0.818305 -0.094912 0.014972 -84.846206 0.014972 -84.846206 0.998766 -170.547839
7800.0 0.818302 -0.093715 0.014781 -84.911931 0.014781 -84.911931 0.998798 -170.668469
7900.0 0.818299 -0.092548 0.014595 -84.976005 0.014595 -84.976005 0.998828 -170.786065
8000.0 0.818296 -0.091408 0.014414 -85.03849 0.014414 -85.03849 0.998857 -170.900741
8100.0 0.818293 -0.090297 0.014238 -85.099443 0.014238 -85.099443 0.998884 -171.012603
8200.0 0.818291 -0.089212 0.014065 -85.15892 0.014065 -85.15892 0.998911 -171.121754
8300.0 0.818288 -0.088152 0.013897 -85.216974 0.013897 -85.216974 0.998937 -171.22829
8400.0 0.818286 -0.087117 0.013733 -85.273655 0.013733 -85.273655 0.998962 -171.332305
8500.0 0.818283 -0.086106 0.013572 -85.329012 0.013572 -85.329012 0.998986 -171.433887
8600.0 0.818281 -0.085118 0.013416 -85.38309 0.013416 -85.38309 0.99901 -171.53312
8700.0 0.818279 -0.084153 0.013262 -85.435932 0.013262 -85.435932 0.999032 -171.630084
8800.0 0.818276 -0.083209 0.013113 -85.487581 0.013113 -85.487581 0.999054 -171.724856
8900.0 0.818274 -0.082285 0.012966 -85.538076 0.012966 -85.538076 0.999075 -171.81751
9000.0 0.818272 -0.081382 0.012823 -85.587456 0.012823 -85.587456 0.999095 -171.908116
9100.0 0.81827 -0.080498 0.012683 -85.635758 0.012683 -85.635758 0.999115 -171.99674
9200.0 0.818268 -0.079634 0.012546 -85.683015 0.012546 -85.683015 0.999134 -172.083447
9300.0 0.818267 -0.078787 0.012412 -85.729261 0.012412 -85.729261 0.999152 -172.168298
9400.0 0.818265 -0.077958 0.01228 -85.774529 0.01228 -85.774529 0.99917 -172.251353
9500.0 0.818263 -0.077146 0.012152 -85.818849 0.012152 -85.818849 0.999188 -172.332667
9600.0 0.818261 -0.076351 0.012026 -85.862251 0.012026 -85.862251 0.999204 -172.412295
9700.0 0.81826 -0.075573 0.011902 -85.904762 0.011902 -85.904762 0.999221 -172.490288
9800.0 0.818258 -0.074809 0.011782 -85.94641 0.011782 -85.94641 0.999236 -172.566697
9900.0 0.818257 -0.074061 0.011663 -85.987221 0.011663 -85.987221 0.999252 -172.641568
10000.0 0.818255 -0.073328 0.011547 -86.02722 0.011547 -86.02722 0.999266 -172.714949
10100.0 0.818254 -0.072609 0.011433 -86.06643 0.011433 -86.06643 0.999281 -172.786882
10200.0 0.818252 -0.071904 0.011322 -86.104875 0.011322 -86.104875 0.999295 -172.85741
10300.0 0.818251 -0.071212 0.011212 -86.142577 0.011212 -86.142577 0.999308 -172.926574
10400.0 0.81825 -0.070534 0.011105 -86.179558 0.011105 -86.179558 0.999322 -172.994414
10500.0 0.818248 -0.069868 0.011 -86.215836 0.011 -86.215836 0.999334 -173.060966
10600.0 0.818247 -0.069214 0.010896 -86.251434 0.010896 -86.251434 0.999347 -173.126267
10700.0 0.818246 -0.068573 0.010795 -86.286369 0.010795 -86.286369 0.999359 -173.190352
10800.0 0.818245 -0.067944 0.010695 -86.320659 0.010695 -86.320659 0.999371 -173.253254
10900.0 0.818244 -0.067325 0.010598 -86.354323 0.010598 -86.354323 0.999382 -173.315007
11000.0 0.818243 -0.066718 0.010502 -86.387378 0.010502 -86.387378 0.999393 -173.37564
11100.0 0.818241 -0.066122 0.010407 -86.419839 0.010407 -86.419839 0.999404 -173.435185
11200.0 0.81824 -0.065536 0.010315 -86.451722 0.010315 -86.451722 0.999415 -173.493669
11300.0 0.818239 -0.064961 0.010224 -86.483044 0.010224 -86.483044 0.999425 -173.551123
11400.0 0.818238 -0.064395 0.010135 -86.513818 0.010135 -86.513818 0.999435 -173.607571
11500.0 0.818237 -0.063839 0.010047 -86.544059 0.010047 -86.544059 0.999445 -173.663041
11600.0 0.818236 -0.063293 0.009961 -86.57378 0.009961 -86.57378 0.999454 -173.717557
11700.0 0.818236 -0.062756 0.009876 -86.602995 0.009876 -86.602995 0.999463 -173.771144
11800.0 0.818235 -0.062228 0.009792 -86.631717 0.009792 -86.631717 0.999472 -173.823826
11900.0 0.818234 -0.061709 0.00971 -86.659957 0.00971 -86.659957 0.999481 -173.875625
12000.0 0.818233 -0.061198 0.00963 -86.687729 0.00963 -86.687729 0.99949 -173.926563
12100.0 0.818232 -0.060696 0.00955 -86.715043 0.00955 -86.715043 0.999498 -173.976662
12200.0 0.818231 -0.060201 0.009472 -86.74191 0.009472 -86.74191 0.999506 -174.025942
12300.0 0.81823 -0.059715 0.009396 -86.768343 0.009396 -86.768343 0.999514 -174.074422
12400.0 0.81823 -0.059237 0.00932 -86.79435 0.00932 -86.79435 0.999522 -174.122123
12500.0 0.818229 -0.058766 0.009246 -86.819942 0.009246 -86.819942 0.99953 -174.169062
12600.0 0.818228 -0.058302 0.009173 -86.845129 0.009173 -86.845129 0.999537 -174.215259
12700.0 0.818227 -0.057846 0.009101 -86.869921 0.009101 -86.869921 0.999544 -174.26073
12800.0 0.818227 -0.057397 0.00903 -86.894327 0.00903 -86.894327 0.999551 -174.305492
12900.0 0.818226 -0.056954 0.00896 -86.918355 0.00896 -86.918355 0.999558 -174.349562
13000.0 0.818225 -0.056519 0.008891 -86.942015 0.008891 -86.942015 0.999565 -174.392955
13100.0 0.818225 -0.05609 0.008823 -86.965315 0.008823 -86.965315 0.999572 -174.435688
13200.0 0.818224 -0.055667 0.008757 -86.988262 0.008757 -86.988262 0.999578 -174.477775
13300.0 0.818223 -0.055251 0.008691 -87.010866 0.008691 -87.010866 0.999584 -174.51923
13400.0 0.818223 -0.054841 0.008626 -87.033133 0.008626 -87.033133 0.999591 -174.560068
13500.0 0.818222 -0.054437 0.008563 -87.055071 0.008563 -87.055071 0.999597 -174.600303
13600.0 0.818222 -0.054039 0.0085 -87.076687 0.0085 -87.076687 0.999603 -174.639947
13700.0 0.818221 -0.053647 0.008438 -87.097988 0.008438 -87.097988 0.999608 -174.679013
13800.0 0.81822 -0.05326 0.008377 -87.118982 0.008377 -87.118982 0.999614 -174.717515
13900.0 0.81822 -0.052879 0.008317 -87.139674 0.008317 -87.139674 0.999619 -174.755464
14000.0 0.818219 -0.052503 0.008258 -87.160071 0.008258 -87.160071 0.999625 -174.792872
14100.0 0.818219 -0.052132 0.008199 -87.18018 0.008199 -87.18018 0.99963 -174.829751
14200.0 0.818218 -0.051767 0.008142 -87.200006 0.008142 -87.200006 0.999635 -174.866111
14300.0 0.818218 -0.051407 0.008085 -87.219556 0.008085 -87.219556 0.99964 -174.901963
14400.0 0.818217 -0.051051 0.008029 -87.238835 0.008029 -87.238835 0.999645 -174.937319
14500.0 0.818217 -0.050701 0.007974 -87.257848 0.007974 -87.257848 0.99965 -174.972188
14600.0 0.818216 -0.050355 0.007919 -87.276601 0.007919 -87.276601 0.999655 -175.00658
14700.0 0.818216 -0.050014 0.007865 -87.2951 0.007865 -87.2951 0.99966 -175.040505
14800.0 0.818215 -0.049678 0.007812 -87.31335 0.007812 -87.31335 0.999664 -175.073973
14900.0 0.818215 -0.049346 0.00776 -87.331355 0.00776 -87.331355 0.999669 -175.106992
15000.0 0.818215 -0.049018 0.007708 -87.34912 0.007708 -87.34912 0.999673 -175.139572
15100.0 0.818214 -0.048695 0.007657 -87.366651 0.007657 -87.366651 0.999677 -175.171721
15200.0 0.818214 -0.048376 0.007607 -87.383952 0.007607 -87.383952 0.999682 -175.203448
15300.0 0.818213 -0.048061 0.007558 -87.401026 0.007558 -87.401026 0.999686 -175.234761
15400.0 0.818213 -0.047751 0.007509 -87.41788 0.007509 -87.41788 0.99969 -175.265668
15500.0 0.818212 -0.047444 0.00746 -87.434516 0.00746 -87.434516 0.999694 -175.296177
15600.0 0.818212 -0.047141 0.007412 -87.45094 0.007412 -87.45094 0.999698 -175.326295
15700.0 0.818212 -0.046842 0.007365 -87.467155 0.007365 -87.467155 0.999702 -175.356031
15800.0 0.818211 -0.046546 0.007319 -87.483165 0.007319 -87.483165 0.999705 -175.38539
15900.0 0.818211 -0.046255 0.007273 -87.498974 0.007273 -87.498974 0.999709 -175.414381
16000.0 0.818211 -0.045967 0.007228 -87.514586 0.007228 -87.514586 0.999713 -175.44301
16100.0 0.81821 -0.045682 0.007183 -87.530004 0.007183 -87.530004 0.999716 -175.471284
16200.0 0.81821 -0.045402 0.007138 -87.545232 0.007138 -87.545232 0.99972 -175.49921
16300.0 0.81821 -0.045124 0.007095 -87.560274 0.007095 -87.560274 0.999723 -175.526793
16400.0 0.818209 -0.04485 0.007052 -87.575132 0.007052 -87.575132 0.999726 -175.55404
16500.0 0.818209 -0.044579 0.007009 -87.589811 0.007009 -87.589811 0.99973 -175.580958
16600.0 0.818209 -0.044311 0.006967 -87.604313 0.006967 -87.604313 0.999733 -175.607552
16700.0 0.818208 -0.044047 0.006925 -87.618642 0.006925 -87.618642 0.999736 -175.633828
16800.0 0.818208 -0.043786 0.006884 -87.632801 0.006884 -87.632801 0.999739 -175.659792
16900.0 0.818208 -0.043528 0.006843 -87.646792 0.006843 -87.646792 0.999742 -175.685448
17000.0 0.818207 -0.043272 0.006803 -87.660619 0.006803 -87.660619 0.999745 -175.710804
17100.0 0.818207 -0.04302 0.006763 -87.674284 0.006763 -87.674284 0.999748 -175.735863
17200.0 0.818207 -0.042771 0.006724 -87.687791 0.006724 -87.687791 0.999751 -175.760631
17300.0 0.818206 -0.042524 0.006685 -87.701142 0.006685 -87.701142 0.999754 -175.785114
17400.0 0.818206 -0.042281 0.006647 -87.71434 0.006647 -87.71434 0.999757 -175.809315
17500.0 0.818206 -0.04204 0.006609 -87.727387 0.006609 -87.727387 0.99976 -175.83324
17600.0 0.818206 -0.041802 0.006572 -87.740286 0.006572 -87.740286 0.999762 -175.856894
17700.0 0.818205 -0.041567 0.006534 -87.75304 0.006534 -87.75304 0.999765 -175.88028
17800.0 0.818205 -0.041334 0.006498 -87.765651 0.006498 -87.765651 0.999768 -175.903404
17900.0 0.818205 -0.041104 0.006462 -87.77812 0.006462 -87.77812 0.99977 -175.926271
18000.0 0.818205 -0.040876 0.006426 -87.790452 0.006426 -87.790452 0.999773 -175.948883
18100.0 0.818204 -0.040651 0.00639 -87.802647 0.00639 -87.802647 0.999775 -175.971246
18200.0 0.818204 -0.040428 0.006355 -87.814709 0.006355 -87.814709 0.999778 -175.993363
18300.0 0.818204 -0.040208 0.006321 -87.826639 0.006321 -87.826639 0.99978 -176.01524
18400.0 0.818204 -0.03999 0.006286 -87.83844 0.006286 -87.83844 0.999783 -176.036878
18500.0 0.818203 -0.039774 0.006252 -87.850113 0.006252 -87.850113 0.999785 -176.058283
18600.0 0.818203 -0.039561 0.006219 -87.86166 0.006219 -87.86166 0.999787 -176.079458
18700.0 0.818203 -0.03935 0.006186 -87.873085 0.006186 -87.873085 0.99979 -176.100407
18800.0 0.818203 -0.039141 0.006153 -87.884388 0.006153 -87.884388 0.999792 -176.121133
18900.0 0.818202 -0.038935 0.00612 -87.895572 0.00612 -87.895572 0.999794 -176.14164
19000.0 0.818202 -0.038731 0.006088 -87.906638 0.006088 -87.906638 0.999796 -176.161932
19100.0 0.818202 -0.038528 0.006056 -87.917588 0.006056 -87.917588 0.999798 -176.182011
19200.0 0.818202 -0.038328 0.006025 -87.928424 0.006025 -87.928424 0.9998 -176.201882
19300.0 0.818202 -0.03813 0.005993 -87.939149 0.005993 -87.939149 0.999802 -176.221546
19400.0 0.818201 -0.037934 0.005963 -87.949763 0.005963 -87.949763 0.999804 -176.241008
19500.0 0.818201 -0.03774 0.005932 -87.960268 0.005932 -87.960268 0.999806 -176.260271
19600.0 0.818201 -0.037548 0.005902 -87.970666 0.005902 -87.970666 0.999808 -176.279338
19700.0 0.818201 -0.037358 0.005872 -87.980958 0.005872 -87.980958 0.99981 -176.298211
19800.0 0.818201 -0.03717 0.005842 -87.991147 0.005842 -87.991147 0.999812 -176.316894
19900.0 0.8182 -0.036983 0.005813 -88.001234 0.005813 -88.001234 0.999814 -176.335389
20000.0 0.8182 -0.036799 0.005784 -88.011219 0.005784 -88.011219 0.999816 -176.353699
