! File created by SignalIntegrity v1.2.1: Signal and Power Integrity Tools
! https://github.com/TeledyneLeCroy/SignalIntegrity
# MHz S MA R 50.0
0.0 0.333333 0.0 0.666667 0.0 0.666667 0.0 0.333333 0.0
100.0 0.331521 -5.978211 0.663041 -5.978211 0.663041 -5.978211 0.347496 -23.418805
200.0 0.326255 -11.829018 0.652509 -11.829018 0.652509 -11.829018 0.38531 -43.970926
300.0 0.318009 -17.440594 0.636019 -17.440594 0.636019 -17.440594 0.43699 -60.744402
400.0 0.30745 -22.727787 0.614901 -22.727787 0.614901 -22.727787 0.493756 -74.2159
500.0 0.295303 -27.636499 0.590606 -27.636499 0.590606 -27.636499 0.549882 -85.154863
600.0 0.282244 -32.141908 0.564489 -32.141908 0.564489 -32.141908 0.60225 -94.19522
700.0 0.268839 -36.242843 0.537679 -36.242843 0.537679 -36.242843 0.649463 -101.790201
800.0 0.255517 -39.954863 0.511034 -39.954863 0.511034 -39.954863 0.691151 -108.257879
900.0 0.242576 -43.303807 0.485151 -43.303807 0.485151 -43.303807 0.7275 -113.826258
1000.0 0.230207 -46.320704 0.460414 -46.320704 0.460414 -46.320704 0.758972 -118.663917
1100.0 0.218519 -49.038168 0.437037 -49.038168 0.437037 -49.038168 0.786128 -122.899172
1200.0 0.207559 -51.488113 0.415118 -51.488113 0.415118 -51.488113 0.809539 -126.632061
1300.0 0.197336 -53.700437 0.394671 -53.700437 0.394671 -53.700437 0.82974 -129.942041
1400.0 0.187831 -55.702391 0.375661 -55.702391 0.375661 -55.702391 0.847206 -132.893141
1500.0 0.17901 -57.518363 0.35802 -57.518363 0.35802 -57.518363 0.862348 -135.53755
1600.0 0.170831 -59.169936 0.341662 -59.169936 0.341662 -59.169936 0.875519 -137.91821
1700.0 0.163249 -60.676062 0.326498 -60.676062 0.326498 -60.676062 0.887017 -140.070737
1800.0 0.156217 -62.053313 0.312433 -62.053313 0.312433 -62.053313 0.89709 -142.024873
1900.0 0.149689 -63.316147 0.299378 -63.316147 0.299378 -63.316147 0.90595 -143.805618
2000.0 0.143624 -64.477166 0.287247 -64.477166 0.287247 -64.477166 0.913771 -145.434105
2100.0 0.13798 -65.547358 0.275961 -65.547358 0.275961 -65.547358 0.920702 -146.928294
2200.0 0.132723 -66.536315 0.265445 -66.536315 0.265445 -66.536315 0.926864 -148.303531
2300.0 0.127817 -67.45242 0.255634 -67.45242 0.255634 -67.45242 0.932364 -149.572987
2400.0 0.123233 -68.303016 0.246465 -68.303016 0.246465 -68.303016 0.937289 -150.74802
2500.0 0.118942 -69.09455 0.237885 -69.09455 0.237885 -69.09455 0.941712 -151.838467
2600.0 0.114921 -69.832694 0.229842 -69.832694 0.229842 -69.832694 0.945698 -152.852884
2700.0 0.111146 -70.522451 0.222292 -70.522451 0.222292 -70.522451 0.949301 -153.798741
2800.0 0.107597 -71.168247 0.215194 -71.168247 0.215194 -71.168247 0.952567 -154.682586
2900.0 0.104255 -71.774005 0.208511 -71.774005 0.208511 -71.774005 0.955535 -155.510179
3000.0 0.101105 -72.343213 0.20221 -72.343213 0.20221 -72.343213 0.958239 -156.286602
3100.0 0.09813 -72.878979 0.196261 -72.878979 0.196261 -72.878979 0.96071 -157.01636
3200.0 0.095318 -73.38408 0.190636 -73.38408 0.190636 -73.38408 0.962972 -157.70345
3300.0 0.092656 -73.861004 0.185312 -73.861004 0.185312 -73.861004 0.965049 -158.351439
3400.0 0.090133 -74.311983 0.180266 -74.311983 0.180266 -74.311983 0.966958 -158.96351
3500.0 0.087739 -74.739027 0.175477 -74.739027 0.175477 -74.739027 0.968718 -159.542519
3600.0 0.085464 -75.143949 0.170928 -75.143949 0.170928 -75.143949 0.970344 -160.09103
3700.0 0.0833 -75.528385 0.1666 -75.528385 0.1666 -75.528385 0.971848 -160.611353
3800.0 0.08124 -75.893822 0.16248 -75.893822 0.16248 -75.893822 0.973242 -161.105575
3900.0 0.079276 -76.241604 0.158552 -76.241604 0.158552 -76.241604 0.974537 -161.575584
4000.0 0.077402 -76.572958 0.154805 -76.572958 0.154805 -76.572958 0.975741 -162.023093
4100.0 0.075613 -76.889 0.151226 -76.889 0.151226 -76.889 0.976863 -162.449658
4200.0 0.073902 -77.19075 0.147804 -77.19075 0.147804 -77.19075 0.97791 -162.856699
4300.0 0.072265 -77.47914 0.14453 -77.47914 0.14453 -77.47914 0.978888 -163.24551
4400.0 0.070697 -77.755024 0.141395 -77.755024 0.141395 -77.755024 0.979804 -163.617275
4500.0 0.069195 -78.019186 0.138389 -78.019186 0.138389 -78.019186 0.980661 -163.973078
4600.0 0.067753 -78.272348 0.135507 -78.272348 0.135507 -78.272348 0.981466 -164.313916
4700.0 0.066369 -78.515174 0.132739 -78.515174 0.132739 -78.515174 0.982222 -164.640704
4800.0 0.06504 -78.748274 0.13008 -78.748274 0.13008 -78.748274 0.982934 -164.954285
4900.0 0.063762 -78.972216 0.127523 -78.972216 0.127523 -78.972216 0.983603 -165.255436
5000.0 0.062532 -79.187521 0.125063 -79.187521 0.125063 -79.187521 0.984235 -165.544874
5100.0 0.061348 -79.394675 0.122695 -79.394675 0.122695 -79.394675 0.984831 -165.823266
5200.0 0.060207 -79.594126 0.120413 -79.594126 0.120413 -79.594126 0.985394 -166.091225
5300.0 0.059107 -79.786292 0.118213 -79.786292 0.118213 -79.786292 0.985927 -166.349324
5400.0 0.058046 -79.97156 0.116091 -79.97156 0.116091 -79.97156 0.986431 -166.598091
5500.0 0.057021 -80.150292 0.114043 -80.150292 0.114043 -80.150292 0.986909 -166.838021
5600.0 0.056032 -80.322825 0.112064 -80.322825 0.112064 -80.322825 0.987362 -167.069573
5700.0 0.055076 -80.489471 0.110153 -80.489471 0.110153 -80.489471 0.987792 -167.293175
5800.0 0.054152 -80.650526 0.108304 -80.650526 0.108304 -80.650526 0.988201 -167.509227
5900.0 0.053258 -80.806263 0.106516 -80.806263 0.106516 -80.806263 0.988589 -167.718102
6000.0 0.052392 -80.956939 0.104784 -80.956939 0.104784 -80.956939 0.988959 -167.92015
6100.0 0.051554 -81.102795 0.103108 -81.102795 0.103108 -81.102795 0.989312 -168.115699
6200.0 0.050742 -81.244057 0.101484 -81.244057 0.101484 -81.244057 0.989647 -168.305054
6300.0 0.049955 -81.380936 0.09991 -81.380936 0.09991 -81.380936 0.989968 -168.488505
6400.0 0.049191 -81.513633 0.098383 -81.513633 0.098383 -81.513633 0.990274 -168.666321
6500.0 0.048451 -81.642334 0.096901 -81.642334 0.096901 -81.642334 0.990566 -168.838756
6600.0 0.047732 -81.767216 0.095463 -81.767216 0.095463 -81.767216 0.990845 -169.006051
6700.0 0.047034 -81.888446 0.094067 -81.888446 0.094067 -81.888446 0.991112 -169.16843
6800.0 0.046355 -82.006181 0.092711 -82.006181 0.092711 -82.006181 0.991367 -169.326106
6900.0 0.045696 -82.120567 0.091393 -82.120567 0.091393 -82.120567 0.991612 -169.479279
7000.0 0.045056 -82.231747 0.090111 -82.231747 0.090111 -82.231747 0.991847 -169.628138
7100.0 0.044432 -82.33985 0.088865 -82.33985 0.088865 -82.33985 0.992072 -169.772863
7200.0 0.043826 -82.445004 0.087652 -82.445004 0.087652 -82.445004 0.992287 -169.913623
7300.0 0.043236 -82.547326 0.086471 -82.547326 0.086471 -82.547326 0.992495 -170.050577
7400.0 0.042661 -82.646928 0.085322 -82.646928 0.085322 -82.646928 0.992693 -170.183877
7500.0 0.042101 -82.743917 0.084203 -82.743917 0.084203 -82.743917 0.992885 -170.313667
7600.0 0.041556 -82.838394 0.083112 -82.838394 0.083112 -82.838394 0.993068 -170.440083
7700.0 0.041025 -82.930455 0.082049 -82.930455 0.082049 -82.930455 0.993245 -170.563255
7800.0 0.040507 -83.02019 0.081013 -83.02019 0.081013 -83.02019 0.993415 -170.683306
7900.0 0.040001 -83.107687 0.080002 -83.107687 0.080002 -83.107687 0.993579 -170.800351
8000.0 0.039508 -83.193027 0.079017 -83.193027 0.079017 -83.193027 0.993737 -170.914503
8100.0 0.039027 -83.27629 0.078054 -83.27629 0.078054 -83.27629 0.993889 -171.025866
8200.0 0.038558 -83.357549 0.077115 -83.357549 0.077115 -83.357549 0.994035 -171.134542
8300.0 0.038099 -83.436876 0.076199 -83.436876 0.076199 -83.436876 0.994177 -171.240626
8400.0 0.037652 -83.514339 0.075303 -83.514339 0.075303 -83.514339 0.994313 -171.344209
8500.0 0.037214 -83.590002 0.074428 -83.590002 0.074428 -83.590002 0.994445 -171.445379
8600.0 0.036787 -83.663927 0.073573 -83.663927 0.073573 -83.663927 0.994572 -171.544219
8700.0 0.036369 -83.736174 0.072738 -83.736174 0.072738 -83.736174 0.994695 -171.640808
8800.0 0.03596 -83.806797 0.071921 -83.806797 0.071921 -83.806797 0.994814 -171.735222
8900.0 0.035561 -83.875852 0.071122 -83.875852 0.071122 -83.875852 0.994929 -171.827532
9000.0 0.03517 -83.943389 0.070341 -83.943389 0.070341 -83.943389 0.99504 -171.91781
9100.0 0.034788 -84.009459 0.069576 -84.009459 0.069576 -84.009459 0.995147 -172.00612
9200.0 0.034414 -84.074108 0.068828 -84.074108 0.068828 -84.074108 0.995251 -172.092527
9300.0 0.034048 -84.137381 0.068096 -84.137381 0.068096 -84.137381 0.995352 -172.177091
9400.0 0.033689 -84.199321 0.067379 -84.199321 0.067379 -84.199321 0.99545 -172.25987
9500.0 0.033338 -84.259971 0.066677 -84.259971 0.066677 -84.259971 0.995544 -172.340919
9600.0 0.032994 -84.31937 0.065989 -84.31937 0.065989 -84.31937 0.995636 -172.420294
9700.0 0.032658 -84.377556 0.065315 -84.377556 0.065315 -84.377556 0.995725 -172.498044
9800.0 0.032327 -84.434566 0.064655 -84.434566 0.064655 -84.434566 0.995811 -172.574219
9900.0 0.032004 -84.490435 0.064008 -84.490435 0.064008 -84.490435 0.995895 -172.648866
10000.0 0.031687 -84.545197 0.063374 -84.545197 0.063374 -84.545197 0.995976 -172.722031
10100.0 0.031376 -84.598884 0.062752 -84.598884 0.062752 -84.598884 0.996054 -172.793757
10200.0 0.031071 -84.651527 0.062142 -84.651527 0.062142 -84.651527 0.996131 -172.864086
10300.0 0.030772 -84.703157 0.061544 -84.703157 0.061544 -84.703157 0.996205 -172.933059
10400.0 0.030479 -84.753803 0.060957 -84.753803 0.060957 -84.753803 0.996277 -173.000714
10500.0 0.030191 -84.803492 0.060381 -84.803492 0.060381 -84.803492 0.996347 -173.067089
10600.0 0.029908 -84.852251 0.059816 -84.852251 0.059816 -84.852251 0.996416 -173.132219
10700.0 0.029631 -84.900106 0.059262 -84.900106 0.059262 -84.900106 0.996482 -173.19614
10800.0 0.029359 -84.947081 0.058717 -84.947081 0.058717 -84.947081 0.996546 -173.258884
10900.0 0.029091 -84.993202 0.058183 -84.993202 0.058183 -84.993202 0.996609 -173.320483
11000.0 0.028829 -85.03849 0.057658 -85.03849 0.057658 -85.03849 0.99667 -173.380969
11100.0 0.028571 -85.082968 0.057142 -85.082968 0.057142 -85.082968 0.996729 -173.440372
11200.0 0.028318 -85.126658 0.056636 -85.126658 0.056636 -85.126658 0.996787 -173.49872
11300.0 0.028069 -85.16958 0.056138 -85.16958 0.056138 -85.16958 0.996844 -173.556041
11400.0 0.027824 -85.211754 0.055649 -85.211754 0.055649 -85.211754 0.996898 -173.612361
11500.0 0.027584 -85.2532 0.055168 -85.2532 0.055168 -85.2532 0.996952 -173.667708
11600.0 0.027348 -85.293936 0.054696 -85.293936 0.054696 -85.293936 0.997004 -173.722105
11700.0 0.027116 -85.33398 0.054232 -85.33398 0.054232 -85.33398 0.997055 -173.775577
11800.0 0.026888 -85.37335 0.053775 -85.37335 0.053775 -85.37335 0.997104 -173.828148
11900.0 0.026663 -85.412063 0.053326 -85.412063 0.053326 -85.412063 0.997152 -173.879839
12000.0 0.026442 -85.450135 0.052884 -85.450135 0.052884 -85.450135 0.997199 -173.930673
12100.0 0.026225 -85.487581 0.05245 -85.487581 0.05245 -85.487581 0.997245 -173.980671
12200.0 0.026011 -85.524417 0.052023 -85.524417 0.052023 -85.524417 0.99729 -174.029853
12300.0 0.025801 -85.560658 0.051602 -85.560658 0.051602 -85.560658 0.997334 -174.07824
12400.0 0.025594 -85.596318 0.051189 -85.596318 0.051189 -85.596318 0.997376 -174.125849
12500.0 0.025391 -85.63141 0.050782 -85.63141 0.050782 -85.63141 0.997418 -174.1727
12600.0 0.02519 -85.665949 0.050381 -85.665949 0.050381 -85.665949 0.997459 -174.218811
12700.0 0.024993 -85.699947 0.049986 -85.699947 0.049986 -85.699947 0.997498 -174.264199
12800.0 0.024799 -85.733416 0.049598 -85.733416 0.049598 -85.733416 0.997537 -174.308881
12900.0 0.024608 -85.76637 0.049216 -85.76637 0.049216 -85.76637 0.997575 -174.352873
13000.0 0.02442 -85.798819 0.048839 -85.798819 0.048839 -85.798819 0.997612 -174.396191
13100.0 0.024234 -85.830776 0.048468 -85.830776 0.048468 -85.830776 0.997648 -174.43885
13200.0 0.024052 -85.862251 0.048103 -85.862251 0.048103 -85.862251 0.997683 -174.480866
13300.0 0.023872 -85.893255 0.047743 -85.893255 0.047743 -85.893255 0.997718 -174.522252
13400.0 0.023694 -85.923798 0.047389 -85.923798 0.047389 -85.923798 0.997752 -174.563024
13500.0 0.02352 -85.953892 0.047039 -85.953892 0.047039 -85.953892 0.997785 -174.603193
13600.0 0.023348 -85.983545 0.046695 -85.983545 0.046695 -85.983545 0.997817 -174.642774
13700.0 0.023178 -86.012767 0.046356 -86.012767 0.046356 -86.012767 0.997849 -174.68178
13800.0 0.023011 -86.041568 0.046022 -86.041568 0.046022 -86.041568 0.99788 -174.720222
13900.0 0.022846 -86.069956 0.045692 -86.069956 0.045692 -86.069956 0.99791 -174.758113
14000.0 0.022684 -86.097941 0.045367 -86.097941 0.045367 -86.097941 0.99794 -174.795465
14100.0 0.022524 -86.125531 0.045047 -86.125531 0.045047 -86.125531 0.997969 -174.832288
14200.0 0.022366 -86.152734 0.044731 -86.152734 0.044731 -86.152734 0.997997 -174.868596
14300.0 0.02221 -86.179558 0.04442 -86.179558 0.04442 -86.179558 0.998025 -174.904397
14400.0 0.022056 -86.206011 0.044113 -86.206011 0.044113 -86.206011 0.998052 -174.939702
14500.0 0.021905 -86.2321 0.04381 -86.2321 0.04381 -86.2321 0.998079 -174.974522
14600.0 0.021756 -86.257834 0.043511 -86.257834 0.043511 -86.257834 0.998105 -175.008867
14700.0 0.021608 -86.28322 0.043216 -86.28322 0.043216 -86.28322 0.998131 -175.042746
14800.0 0.021463 -86.308263 0.042926 -86.308263 0.042926 -86.308263 0.998156 -175.076169
14900.0 0.021319 -86.332972 0.042639 -86.332972 0.042639 -86.332972 0.99818 -175.109144
15000.0 0.021178 -86.357353 0.042356 -86.357353 0.042356 -86.357353 0.998204 -175.141681
15100.0 0.021038 -86.381412 0.042076 -86.381412 0.042076 -86.381412 0.998228 -175.173789
15200.0 0.0209 -86.405156 0.0418 -86.405156 0.0418 -86.405156 0.998251 -175.205475
15300.0 0.020764 -86.428591 0.041528 -86.428591 0.041528 -86.428591 0.998274 -175.236749
15400.0 0.02063 -86.451722 0.04126 -86.451722 0.04126 -86.451722 0.998296 -175.267617
15500.0 0.020497 -86.474557 0.040995 -86.474557 0.040995 -86.474557 0.998318 -175.298089
15600.0 0.020366 -86.497099 0.040733 -86.497099 0.040733 -86.497099 0.998339 -175.328171
15700.0 0.020237 -86.519356 0.040474 -86.519356 0.040474 -86.519356 0.99836 -175.357871
15800.0 0.02011 -86.541331 0.040219 -86.541331 0.040219 -86.541331 0.998381 -175.387195
15900.0 0.019983 -86.563032 0.039967 -86.563032 0.039967 -86.563032 0.998401 -175.416153
16000.0 0.019859 -86.584462 0.039718 -86.584462 0.039718 -86.584462 0.998421 -175.444749
16100.0 0.019736 -86.605626 0.039472 -86.605626 0.039472 -86.605626 0.998441 -175.472991
16200.0 0.019615 -86.626531 0.039229 -86.626531 0.039229 -86.626531 0.99846 -175.500885
16300.0 0.019495 -86.64718 0.03899 -86.64718 0.03899 -86.64718 0.998479 -175.528438
16400.0 0.019376 -86.667577 0.038753 -86.667577 0.038753 -86.667577 0.998497 -175.555655
16500.0 0.019259 -86.687729 0.038519 -86.687729 0.038519 -86.687729 0.998515 -175.582544
16600.0 0.019144 -86.707638 0.038287 -86.707638 0.038287 -86.707638 0.998533 -175.609109
16700.0 0.019029 -86.72731 0.038059 -86.72731 0.038059 -86.72731 0.99855 -175.635358
16800.0 0.018916 -86.746748 0.037833 -86.746748 0.037833 -86.746748 0.998568 -175.661294
16900.0 0.018805 -86.765957 0.03761 -86.765957 0.03761 -86.765957 0.998584 -175.686924
17000.0 0.018695 -86.784941 0.037389 -86.784941 0.037389 -86.784941 0.998601 -175.712254
17100.0 0.018586 -86.803704 0.037171 -86.803704 0.037171 -86.803704 0.998617 -175.737288
17200.0 0.018478 -86.822248 0.036956 -86.822248 0.036956 -86.822248 0.998633 -175.762031
17300.0 0.018371 -86.84058 0.036743 -86.84058 0.036743 -86.84058 0.998649 -175.78649
17400.0 0.018266 -86.858701 0.036532 -86.858701 0.036532 -86.858701 0.998664 -175.810667
17500.0 0.018162 -86.876615 0.036324 -86.876615 0.036324 -86.876615 0.99868 -175.83457
17600.0 0.018059 -86.894327 0.036118 -86.894327 0.036118 -86.894327 0.998695 -175.858201
17700.0 0.017957 -86.911839 0.035915 -86.911839 0.035915 -86.911839 0.998709 -175.881565
17800.0 0.017857 -86.929155 0.035714 -86.929155 0.035714 -86.929155 0.998724 -175.904668
17900.0 0.017757 -86.946278 0.035515 -86.946278 0.035515 -86.946278 0.998738 -175.927513
18000.0 0.017659 -86.963211 0.035318 -86.963211 0.035318 -86.963211 0.998752 -175.950105
18100.0 0.017562 -86.979958 0.035124 -86.979958 0.035124 -86.979958 0.998766 -175.972448
18200.0 0.017466 -86.996521 0.034931 -86.996521 0.034931 -86.996521 0.998779 -175.994546
18300.0 0.01737 -87.012904 0.034741 -87.012904 0.034741 -87.012904 0.998792 -176.016403
18400.0 0.017276 -87.029109 0.034552 -87.029109 0.034552 -87.029109 0.998805 -176.038022
18500.0 0.017183 -87.045139 0.034366 -87.045139 0.034366 -87.045139 0.998818 -176.059409
18600.0 0.017091 -87.060998 0.034182 -87.060998 0.034182 -87.060998 0.998831 -176.080566
18700.0 0.017 -87.076687 0.034 -87.076687 0.034 -87.076687 0.998843 -176.101497
18800.0 0.01691 -87.09221 0.033819 -87.09221 0.033819 -87.09221 0.998856 -176.122206
18900.0 0.01682 -87.107569 0.033641 -87.107569 0.033641 -87.107569 0.998868 -176.142696
19000.0 0.016732 -87.122766 0.033464 -87.122766 0.033464 -87.122766 0.99888 -176.162971
19100.0 0.016645 -87.137805 0.033289 -87.137805 0.033289 -87.137805 0.998891 -176.183034
19200.0 0.016558 -87.152688 0.033116 -87.152688 0.033116 -87.152688 0.998903 -176.202889
19300.0 0.016473 -87.167417 0.032945 -87.167417 0.032945 -87.167417 0.998914 -176.222538
19400.0 0.016388 -87.181994 0.032776 -87.181994 0.032776 -87.181994 0.998925 -176.241985
19500.0 0.016304 -87.196422 0.032608 -87.196422 0.032608 -87.196422 0.998936 -176.261233
19600.0 0.016221 -87.210704 0.032442 -87.210704 0.032442 -87.210704 0.998947 -176.280285
19700.0 0.016139 -87.22484 0.032278 -87.22484 0.032278 -87.22484 0.998958 -176.299144
19800.0 0.016058 -87.238835 0.032115 -87.238835 0.032115 -87.238835 0.998968 -176.317812
19900.0 0.015977 -87.252688 0.031954 -87.252688 0.031954 -87.252688 0.998978 -176.336294
20000.0 0.015897 -87.266404 0.031795 -87.266404 0.031795 -87.266404 0.998989 -176.35459
