! File created by SignalIntegrity v1.3.2: Signal and Power Integrity Tools
! https://github.com/TeledyneLeCroy/SignalIntegrity

! the calculations of this model are from:
!     https://www.allaboutcircuits.com/tools/wire-self-inductance-calculator/
# MHz S MA R 50.0
0.0 3.1e-05 0.0 0.999969 0.0 0.999969 0.0 3.1e-05 0.0
500.0 0.999933 0.660886 0.011534 -89.339093 0.011534 -89.339093 0.999933 0.660886
1000.0 0.999983 0.330454 0.005767 -89.669535 0.005767 -89.669535 0.999983 0.330454
1500.0 0.999993 0.220304 0.003845 -89.779689 0.003845 -89.779689 0.999993 0.220304
2000.0 0.999996 0.165228 0.002884 -89.834766 0.002884 -89.834766 0.999996 0.165228
2500.0 0.999997 0.132183 0.002307 -89.867813 0.002307 -89.867813 0.999997 0.132183
3000.0 0.999998 0.110152 0.001923 -89.889844 0.001923 -89.889844 0.999998 0.110152
3500.0 0.999999 0.094416 0.001648 -89.905581 0.001648 -89.905581 0.999999 0.094416
4000.0 0.999999 0.082614 0.001442 -89.917383 0.001442 -89.917383 0.999999 0.082614
4500.0 0.999999 0.073435 0.001282 -89.926563 0.001282 -89.926563 0.999999 0.073435
5000.0 0.999999 0.066092 0.001154 -89.933906 0.001154 -89.933906 0.999999 0.066092
5500.0 0.999999 0.060083 0.001049 -89.939915 0.001049 -89.939915 0.999999 0.060083
6000.0 1.0 0.055076 0.000961 -89.944922 0.000961 -89.944922 1.0 0.055076
6500.0 1.0 0.05084 0.000887 -89.949159 0.000887 -89.949159 1.0 0.05084
7000.0 1.0 0.047208 0.000824 -89.95279 0.000824 -89.95279 1.0 0.047208
7500.0 1.0 0.044061 0.000769 -89.955938 0.000769 -89.955938 1.0 0.044061
8000.0 1.0 0.041307 0.000721 -89.958691 0.000721 -89.958691 1.0 0.041307
8500.0 1.0 0.038877 0.000679 -89.961121 0.000679 -89.961121 1.0 0.038877
9000.0 1.0 0.036718 0.000641 -89.963281 0.000641 -89.963281 1.0 0.036718
9500.0 1.0 0.034785 0.000607 -89.965214 0.000607 -89.965214 1.0 0.034785
10000.0 1.0 0.033046 0.000577 -89.966953 0.000577 -89.966953 1.0 0.033046
10500.0 1.0 0.031472 0.000549 -89.968527 0.000549 -89.968527 1.0 0.031472
11000.0 1.0 0.030042 0.000524 -89.969957 0.000524 -89.969957 1.0 0.030042
11500.0 1.0 0.028735 0.000502 -89.971264 0.000502 -89.971264 1.0 0.028735
12000.0 1.0 0.027538 0.000481 -89.972461 0.000481 -89.972461 1.0 0.027538
12500.0 1.0 0.026437 0.000461 -89.973563 0.000461 -89.973563 1.0 0.026437
13000.0 1.0 0.02542 0.000444 -89.974579 0.000444 -89.974579 1.0 0.02542
13500.0 1.0 0.024478 0.000427 -89.975521 0.000427 -89.975521 1.0 0.024478
14000.0 1.0 0.023604 0.000412 -89.976395 0.000412 -89.976395 1.0 0.023604
14500.0 1.0 0.02279 0.000398 -89.977209 0.000398 -89.977209 1.0 0.02279
15000.0 1.0 0.022031 0.000385 -89.977969 0.000385 -89.977969 1.0 0.022031
15500.0 1.0 0.02132 0.000372 -89.978679 0.000372 -89.978679 1.0 0.02132
16000.0 1.0 0.020654 0.00036 -89.979346 0.00036 -89.979346 1.0 0.020654
16500.0 1.0 0.020028 0.00035 -89.979972 0.00035 -89.979972 1.0 0.020028
17000.0 1.0 0.019439 0.000339 -89.980561 0.000339 -89.980561 1.0 0.019439
17500.0 1.0 0.018883 0.00033 -89.981116 0.00033 -89.981116 1.0 0.018883
18000.0 1.0 0.018359 0.00032 -89.981641 0.00032 -89.981641 1.0 0.018359
18500.0 1.0 0.017863 0.000312 -89.982137 0.000312 -89.982137 1.0 0.017863
19000.0 1.0 0.017393 0.000304 -89.982607 0.000304 -89.982607 1.0 0.017393
19500.0 1.0 0.016947 0.000296 -89.983053 0.000296 -89.983053 1.0 0.016947
20000.0 1.0 0.016523 0.000288 -89.983477 0.000288 -89.983477 1.0 0.016523
20500.0 1.0 0.01612 0.000281 -89.98388 0.000281 -89.98388 1.0 0.01612
21000.0 1.0 0.015736 0.000275 -89.984263 0.000275 -89.984263 1.0 0.015736
21500.0 1.0 0.01537 0.000268 -89.984629 0.000268 -89.984629 1.0 0.01537
22000.0 1.0 0.015021 0.000262 -89.984979 0.000262 -89.984979 1.0 0.015021
22500.0 1.0 0.014687 0.000256 -89.985313 0.000256 -89.985313 1.0 0.014687
23000.0 1.0 0.014368 0.000251 -89.985632 0.000251 -89.985632 1.0 0.014368
23500.0 1.0 0.014062 0.000245 -89.985938 0.000245 -89.985938 1.0 0.014062
24000.0 1.0 0.013769 0.00024 -89.98623 0.00024 -89.98623 1.0 0.013769
24500.0 1.0 0.013488 0.000235 -89.986512 0.000235 -89.986512 1.0 0.013488
25000.0 1.0 0.013218 0.000231 -89.986781 0.000231 -89.986781 1.0 0.013218
25500.0 1.0 0.012959 0.000226 -89.98704 0.000226 -89.98704 1.0 0.012959
26000.0 1.0 0.01271 0.000222 -89.98729 0.000222 -89.98729 1.0 0.01271
26500.0 1.0 0.01247 0.000218 -89.98753 0.000218 -89.98753 1.0 0.01247
27000.0 1.0 0.012239 0.000214 -89.98776 0.000214 -89.98776 1.0 0.012239
27500.0 1.0 0.012017 0.00021 -89.987983 0.00021 -89.987983 1.0 0.012017
28000.0 1.0 0.011802 0.000206 -89.988198 0.000206 -89.988198 1.0 0.011802
28500.0 1.0 0.011595 0.000202 -89.988405 0.000202 -89.988405 1.0 0.011595
29000.0 1.0 0.011395 0.000199 -89.988605 0.000199 -89.988605 1.0 0.011395
29500.0 1.0 0.011202 0.000196 -89.988798 0.000196 -89.988798 1.0 0.011202
30000.0 1.0 0.011015 0.000192 -89.988984 0.000192 -89.988984 1.0 0.011015
30500.0 1.0 0.010835 0.000189 -89.989165 0.000189 -89.989165 1.0 0.010835
31000.0 1.0 0.01066 0.000186 -89.98934 0.000186 -89.98934 1.0 0.01066
31500.0 1.0 0.010491 0.000183 -89.989509 0.000183 -89.989509 1.0 0.010491
32000.0 1.0 0.010327 0.00018 -89.989673 0.00018 -89.989673 1.0 0.010327
32500.0 1.0 0.010168 0.000177 -89.989832 0.000177 -89.989832 1.0 0.010168
33000.0 1.0 0.010014 0.000175 -89.989986 0.000175 -89.989986 1.0 0.010014
33500.0 1.0 0.009864 0.000172 -89.990135 0.000172 -89.990135 1.0 0.009864
34000.0 1.0 0.009719 0.00017 -89.99028 0.00017 -89.99028 1.0 0.009719
34500.0 1.0 0.009578 0.000167 -89.990421 0.000167 -89.990421 1.0 0.009578
35000.0 1.0 0.009442 0.000165 -89.990558 0.000165 -89.990558 1.0 0.009442
35500.0 1.0 0.009309 0.000162 -89.990691 0.000162 -89.990691 1.0 0.009309
36000.0 1.0 0.009179 0.00016 -89.99082 0.00016 -89.99082 1.0 0.009179
36500.0 1.0 0.009054 0.000158 -89.990946 0.000158 -89.990946 1.0 0.009054
37000.0 1.0 0.008931 0.000156 -89.991068 0.000156 -89.991068 1.0 0.008931
37500.0 1.0 0.008812 0.000154 -89.991188 0.000154 -89.991188 1.0 0.008812
38000.0 1.0 0.008696 0.000152 -89.991303 0.000152 -89.991303 1.0 0.008696
38500.0 1.0 0.008583 0.00015 -89.991416 0.00015 -89.991416 1.0 0.008583
39000.0 1.0 0.008473 0.000148 -89.991526 0.000148 -89.991526 1.0 0.008473
39500.0 1.0 0.008366 0.000146 -89.991634 0.000146 -89.991634 1.0 0.008366
40000.0 1.0 0.008261 0.000144 -89.991738 0.000144 -89.991738 1.0 0.008261
40500.0 1.0 0.008159 0.000142 -89.99184 0.000142 -89.99184 1.0 0.008159
41000.0 1.0 0.00806 0.000141 -89.99194 0.000141 -89.99194 1.0 0.00806
41500.0 1.0 0.007963 0.000139 -89.992037 0.000139 -89.992037 1.0 0.007963
42000.0 1.0 0.007868 0.000137 -89.992132 0.000137 -89.992132 1.0 0.007868
42500.0 1.0 0.007775 0.000136 -89.992224 0.000136 -89.992224 1.0 0.007775
43000.0 1.0 0.007685 0.000134 -89.992315 0.000134 -89.992315 1.0 0.007685
43500.0 1.0 0.007597 0.000133 -89.992403 0.000133 -89.992403 1.0 0.007597
44000.0 1.0 0.00751 0.000131 -89.992489 0.000131 -89.992489 1.0 0.00751
44500.0 1.0 0.007426 0.00013 -89.992574 0.00013 -89.992574 1.0 0.007426
45000.0 1.0 0.007344 0.000128 -89.992656 0.000128 -89.992656 1.0 0.007344
45500.0 1.0 0.007263 0.000127 -89.992737 0.000127 -89.992737 1.0 0.007263
46000.0 1.0 0.007184 0.000125 -89.992816 0.000125 -89.992816 1.0 0.007184
46500.0 1.0 0.007107 0.000124 -89.992893 0.000124 -89.992893 1.0 0.007107
47000.0 1.0 0.007031 0.000123 -89.992969 0.000123 -89.992969 1.0 0.007031
47500.0 1.0 0.006957 0.000121 -89.993043 0.000121 -89.993043 1.0 0.006957
48000.0 1.0 0.006885 0.00012 -89.993115 0.00012 -89.993115 1.0 0.006885
48500.0 1.0 0.006814 0.000119 -89.993186 0.000119 -89.993186 1.0 0.006814
49000.0 1.0 0.006744 0.000118 -89.993256 0.000118 -89.993256 1.0 0.006744
49500.0 1.0 0.006676 0.000117 -89.993324 0.000117 -89.993324 1.0 0.006676
50000.0 1.0 0.006609 0.000115 -89.993391 0.000115 -89.993391 1.0 0.006609
50500.0 1.0 0.006544 0.000114 -89.993456 0.000114 -89.993456 1.0 0.006544
51000.0 1.0 0.00648 0.000113 -89.99352 0.000113 -89.99352 1.0 0.00648
51500.0 1.0 0.006417 0.000112 -89.993583 0.000112 -89.993583 1.0 0.006417
52000.0 1.0 0.006355 0.000111 -89.993645 0.000111 -89.993645 1.0 0.006355
52500.0 1.0 0.006294 0.00011 -89.993705 0.00011 -89.993705 1.0 0.006294
53000.0 1.0 0.006235 0.000109 -89.993765 0.000109 -89.993765 1.0 0.006235
53500.0 1.0 0.006177 0.000108 -89.993823 0.000108 -89.993823 1.0 0.006177
54000.0 1.0 0.00612 0.000107 -89.99388 0.000107 -89.99388 1.0 0.00612
54500.0 1.0 0.006063 0.000106 -89.993936 0.000106 -89.993936 1.0 0.006063
55000.0 1.0 0.006008 0.000105 -89.993991 0.000105 -89.993991 1.0 0.006008
55500.0 1.0 0.005954 0.000104 -89.994046 0.000104 -89.994046 1.0 0.005954
56000.0 1.0 0.005901 0.000103 -89.994099 0.000103 -89.994099 1.0 0.005901
56500.0 1.0 0.005849 0.000102 -89.994151 0.000102 -89.994151 1.0 0.005849
57000.0 1.0 0.005798 0.000101 -89.994202 0.000101 -89.994202 1.0 0.005798
57500.0 1.0 0.005747 0.0001 -89.994253 0.0001 -89.994253 1.0 0.005747
58000.0 1.0 0.005698 9.9e-05 -89.994302 9.9e-05 -89.994302 1.0 0.005698
58500.0 1.0 0.005649 9.9e-05 -89.994351 9.9e-05 -89.994351 1.0 0.005649
59000.0 1.0 0.005601 9.8e-05 -89.994399 9.8e-05 -89.994399 1.0 0.005601
59500.0 1.0 0.005554 9.7e-05 -89.994446 9.7e-05 -89.994446 1.0 0.005554
60000.0 1.0 0.005508 9.6e-05 -89.994492 9.6e-05 -89.994492 1.0 0.005508
60500.0 1.0 0.005462 9.5e-05 -89.994538 9.5e-05 -89.994538 1.0 0.005462
61000.0 1.0 0.005417 9.5e-05 -89.994582 9.5e-05 -89.994582 1.0 0.005417
61500.0 1.0 0.005373 9.4e-05 -89.994627 9.4e-05 -89.994627 1.0 0.005373
62000.0 1.0 0.00533 9.3e-05 -89.99467 9.3e-05 -89.99467 1.0 0.00533
62500.0 1.0 0.005287 9.2e-05 -89.994713 9.2e-05 -89.994713 1.0 0.005287
63000.0 1.0 0.005245 9.2e-05 -89.994754 9.2e-05 -89.994754 1.0 0.005245
63500.0 1.0 0.005204 9.1e-05 -89.994796 9.1e-05 -89.994796 1.0 0.005204
64000.0 1.0 0.005163 9e-05 -89.994836 9e-05 -89.994836 1.0 0.005163
64500.0 1.0 0.005123 8.9e-05 -89.994876 8.9e-05 -89.994876 1.0 0.005123
65000.0 1.0 0.005084 8.9e-05 -89.994916 8.9e-05 -89.994916 1.0 0.005084
65500.0 1.0 0.005045 8.8e-05 -89.994955 8.8e-05 -89.994955 1.0 0.005045
66000.0 1.0 0.005007 8.7e-05 -89.994993 8.7e-05 -89.994993 1.0 0.005007
66500.0 1.0 0.004969 8.7e-05 -89.995031 8.7e-05 -89.995031 1.0 0.004969
67000.0 1.0 0.004932 8.6e-05 -89.995068 8.6e-05 -89.995068 1.0 0.004932
67500.0 1.0 0.004896 8.5e-05 -89.995104 8.5e-05 -89.995104 1.0 0.004896
68000.0 1.0 0.00486 8.5e-05 -89.99514 8.5e-05 -89.99514 1.0 0.00486
68500.0 1.0 0.004824 8.4e-05 -89.995176 8.4e-05 -89.995176 1.0 0.004824
69000.0 1.0 0.004789 8.4e-05 -89.995211 8.4e-05 -89.995211 1.0 0.004789
69500.0 1.0 0.004755 8.3e-05 -89.995245 8.3e-05 -89.995245 1.0 0.004755
70000.0 1.0 0.004721 8.2e-05 -89.995279 8.2e-05 -89.995279 1.0 0.004721
70500.0 1.0 0.004687 8.2e-05 -89.995313 8.2e-05 -89.995313 1.0 0.004687
71000.0 1.0 0.004654 8.1e-05 -89.995346 8.1e-05 -89.995346 1.0 0.004654
71500.0 1.0 0.004622 8.1e-05 -89.995378 8.1e-05 -89.995378 1.0 0.004622
72000.0 1.0 0.00459 8e-05 -89.99541 8e-05 -89.99541 1.0 0.00459
72500.0 1.0 0.004558 8e-05 -89.995442 8e-05 -89.995442 1.0 0.004558
73000.0 1.0 0.004527 7.9e-05 -89.995473 7.9e-05 -89.995473 1.0 0.004527
73500.0 1.0 0.004496 7.8e-05 -89.995504 7.8e-05 -89.995504 1.0 0.004496
74000.0 1.0 0.004466 7.8e-05 -89.995534 7.8e-05 -89.995534 1.0 0.004466
74500.0 1.0 0.004436 7.7e-05 -89.995564 7.7e-05 -89.995564 1.0 0.004436
75000.0 1.0 0.004406 7.7e-05 -89.995594 7.7e-05 -89.995594 1.0 0.004406
75500.0 1.0 0.004377 7.6e-05 -89.995623 7.6e-05 -89.995623 1.0 0.004377
76000.0 1.0 0.004348 7.6e-05 -89.995652 7.6e-05 -89.995652 1.0 0.004348
76500.0 1.0 0.00432 7.5e-05 -89.99568 7.5e-05 -89.99568 1.0 0.00432
77000.0 1.0 0.004292 7.5e-05 -89.995708 7.5e-05 -89.995708 1.0 0.004292
77500.0 1.0 0.004264 7.4e-05 -89.995736 7.4e-05 -89.995736 1.0 0.004264
78000.0 1.0 0.004237 7.4e-05 -89.995763 7.4e-05 -89.995763 1.0 0.004237
78500.0 1.0 0.00421 7.3e-05 -89.99579 7.3e-05 -89.99579 1.0 0.00421
79000.0 1.0 0.004183 7.3e-05 -89.995817 7.3e-05 -89.995817 1.0 0.004183
79500.0 1.0 0.004157 7.3e-05 -89.995843 7.3e-05 -89.995843 1.0 0.004157
80000.0 1.0 0.004131 7.2e-05 -89.995869 7.2e-05 -89.995869 1.0 0.004131
80500.0 1.0 0.004105 7.2e-05 -89.995895 7.2e-05 -89.995895 1.0 0.004105
81000.0 1.0 0.00408 7.1e-05 -89.99592 7.1e-05 -89.99592 1.0 0.00408
81500.0 1.0 0.004055 7.1e-05 -89.995945 7.1e-05 -89.995945 1.0 0.004055
82000.0 1.0 0.00403 7e-05 -89.99597 7e-05 -89.99597 1.0 0.00403
82500.0 1.0 0.004006 7e-05 -89.995994 7e-05 -89.995994 1.0 0.004006
83000.0 1.0 0.003981 6.9e-05 -89.996018 6.9e-05 -89.996018 1.0 0.003981
83500.0 1.0 0.003958 6.9e-05 -89.996042 6.9e-05 -89.996042 1.0 0.003958
84000.0 1.0 0.003934 6.9e-05 -89.996066 6.9e-05 -89.996066 1.0 0.003934
84500.0 1.0 0.003911 6.8e-05 -89.996089 6.8e-05 -89.996089 1.0 0.003911
85000.0 1.0 0.003888 6.8e-05 -89.996112 6.8e-05 -89.996112 1.0 0.003888
85500.0 1.0 0.003865 6.7e-05 -89.996135 6.7e-05 -89.996135 1.0 0.003865
86000.0 1.0 0.003843 6.7e-05 -89.996157 6.7e-05 -89.996157 1.0 0.003843
86500.0 1.0 0.00382 6.7e-05 -89.99618 6.7e-05 -89.99618 1.0 0.00382
87000.0 1.0 0.003798 6.6e-05 -89.996202 6.6e-05 -89.996202 1.0 0.003798
87500.0 1.0 0.003777 6.6e-05 -89.996223 6.6e-05 -89.996223 1.0 0.003777
88000.0 1.0 0.003755 6.6e-05 -89.996245 6.6e-05 -89.996245 1.0 0.003755
88500.0 1.0 0.003734 6.5e-05 -89.996266 6.5e-05 -89.996266 1.0 0.003734
89000.0 1.0 0.003713 6.5e-05 -89.996287 6.5e-05 -89.996287 1.0 0.003713
89500.0 1.0 0.003692 6.4e-05 -89.996308 6.4e-05 -89.996308 1.0 0.003692
90000.0 1.0 0.003672 6.4e-05 -89.996328 6.4e-05 -89.996328 1.0 0.003672
90500.0 1.0 0.003651 6.4e-05 -89.996348 6.4e-05 -89.996348 1.0 0.003651
91000.0 1.0 0.003631 6.3e-05 -89.996368 6.3e-05 -89.996368 1.0 0.003631
91500.0 1.0 0.003612 6.3e-05 -89.996388 6.3e-05 -89.996388 1.0 0.003612
92000.0 1.0 0.003592 6.3e-05 -89.996408 6.3e-05 -89.996408 1.0 0.003592
92500.0 1.0 0.003573 6.2e-05 -89.996427 6.2e-05 -89.996427 1.0 0.003573
93000.0 1.0 0.003553 6.2e-05 -89.996447 6.2e-05 -89.996447 1.0 0.003553
93500.0 1.0 0.003534 6.2e-05 -89.996466 6.2e-05 -89.996466 1.0 0.003534
94000.0 1.0 0.003516 6.1e-05 -89.996484 6.1e-05 -89.996484 1.0 0.003516
94500.0 1.0 0.003497 6.1e-05 -89.996503 6.1e-05 -89.996503 1.0 0.003497
95000.0 1.0 0.003479 6.1e-05 -89.996521 6.1e-05 -89.996521 1.0 0.003479
95500.0 1.0 0.00346 6e-05 -89.99654 6e-05 -89.99654 1.0 0.00346
96000.0 1.0 0.003442 6e-05 -89.996558 6e-05 -89.996558 1.0 0.003442
96500.0 1.0 0.003424 6e-05 -89.996575 6e-05 -89.996575 1.0 0.003424
97000.0 1.0 0.003407 5.9e-05 -89.996593 5.9e-05 -89.996593 1.0 0.003407
97500.0 1.0 0.003389 5.9e-05 -89.996611 5.9e-05 -89.996611 1.0 0.003389
98000.0 1.0 0.003372 5.9e-05 -89.996628 5.9e-05 -89.996628 1.0 0.003372
98500.0 1.0 0.003355 5.9e-05 -89.996645 5.9e-05 -89.996645 1.0 0.003355
99000.0 1.0 0.003338 5.8e-05 -89.996662 5.8e-05 -89.996662 1.0 0.003338
99500.0 1.0 0.003321 5.8e-05 -89.996679 5.8e-05 -89.996679 1.0 0.003321
100000.0 1.0 0.003305 5.8e-05 -89.996695 5.8e-05 -89.996695 1.0 0.003305
