! File created by SignalIntegrity v1.3.1: Signal and Power Integrity Tools
! https://github.com/TeledyneLeCroy/SignalIntegrity

! the calculations of this model are from:
!     https://www.allaboutcircuits.com/tools/wire-self-inductance-calculator/
# MHz S MA R 50.0
0.0 3.1e-05 0.0 0.999969 0.0 0.999969 0.0 3.1e-05 0.0
250.0 0.999734 1.321597 0.023064 -88.678362 0.023064 -88.678362 0.999734 1.321597
500.0 0.999933 0.660886 0.011534 -89.339093 0.011534 -89.339093 0.999933 0.660886
750.0 0.99997 0.440602 0.00769 -89.559384 0.00769 -89.559384 0.99997 0.440602
1000.0 0.999983 0.330454 0.005767 -89.669535 0.005767 -89.669535 0.999983 0.330454
1250.0 0.999989 0.264364 0.004614 -89.735627 0.004614 -89.735627 0.999989 0.264364
1500.0 0.999993 0.220304 0.003845 -89.779689 0.003845 -89.779689 0.999993 0.220304
1750.0 0.999995 0.188832 0.003296 -89.811162 0.003296 -89.811162 0.999995 0.188832
2000.0 0.999996 0.165228 0.002884 -89.834766 0.002884 -89.834766 0.999996 0.165228
2250.0 0.999997 0.14687 0.002563 -89.853126 0.002563 -89.853126 0.999997 0.14687
2500.0 0.999997 0.132183 0.002307 -89.867813 0.002307 -89.867813 0.999997 0.132183
2750.0 0.999998 0.120166 0.002097 -89.87983 0.002097 -89.87983 0.999998 0.120166
3000.0 0.999998 0.110152 0.001923 -89.889844 0.001923 -89.889844 0.999998 0.110152
3250.0 0.999998 0.101679 0.001775 -89.898318 0.001775 -89.898318 0.999998 0.101679
3500.0 0.999999 0.094416 0.001648 -89.905581 0.001648 -89.905581 0.999999 0.094416
3750.0 0.999999 0.088122 0.001538 -89.911875 0.001538 -89.911875 0.999999 0.088122
4000.0 0.999999 0.082614 0.001442 -89.917383 0.001442 -89.917383 0.999999 0.082614
4250.0 0.999999 0.077755 0.001357 -89.922243 0.001357 -89.922243 0.999999 0.077755
4500.0 0.999999 0.073435 0.001282 -89.926563 0.001282 -89.926563 0.999999 0.073435
4750.0 0.999999 0.06957 0.001214 -89.930428 0.001214 -89.930428 0.999999 0.06957
5000.0 0.999999 0.066092 0.001154 -89.933906 0.001154 -89.933906 0.999999 0.066092
5250.0 0.999999 0.062944 0.001099 -89.937054 0.001099 -89.937054 0.999999 0.062944
5500.0 0.999999 0.060083 0.001049 -89.939915 0.001049 -89.939915 0.999999 0.060083
5750.0 0.999999 0.057471 0.001003 -89.942527 0.001003 -89.942527 0.999999 0.057471
6000.0 1.0 0.055076 0.000961 -89.944922 0.000961 -89.944922 1.0 0.055076
6250.0 1.0 0.052873 0.000923 -89.947125 0.000923 -89.947125 1.0 0.052873
6500.0 1.0 0.05084 0.000887 -89.949159 0.000887 -89.949159 1.0 0.05084
6750.0 1.0 0.048957 0.000854 -89.951042 0.000854 -89.951042 1.0 0.048957
7000.0 1.0 0.047208 0.000824 -89.95279 0.000824 -89.95279 1.0 0.047208
7250.0 1.0 0.04558 0.000796 -89.954418 0.000796 -89.954418 1.0 0.04558
7500.0 1.0 0.044061 0.000769 -89.955938 0.000769 -89.955938 1.0 0.044061
7750.0 1.0 0.04264 0.000744 -89.957359 0.000744 -89.957359 1.0 0.04264
8000.0 1.0 0.041307 0.000721 -89.958691 0.000721 -89.958691 1.0 0.041307
8250.0 1.0 0.040055 0.000699 -89.959943 0.000699 -89.959943 1.0 0.040055
8500.0 1.0 0.038877 0.000679 -89.961121 0.000679 -89.961121 1.0 0.038877
8750.0 1.0 0.037767 0.000659 -89.962232 0.000659 -89.962232 1.0 0.037767
9000.0 1.0 0.036718 0.000641 -89.963281 0.000641 -89.963281 1.0 0.036718
9250.0 1.0 0.035725 0.000624 -89.964274 0.000624 -89.964274 1.0 0.035725
9500.0 1.0 0.034785 0.000607 -89.965214 0.000607 -89.965214 1.0 0.034785
9750.0 1.0 0.033893 0.000592 -89.966106 0.000592 -89.966106 1.0 0.033893
10000.0 1.0 0.033046 0.000577 -89.966953 0.000577 -89.966953 1.0 0.033046
10250.0 1.0 0.03224 0.000563 -89.967759 0.000563 -89.967759 1.0 0.03224
10500.0 1.0 0.031472 0.000549 -89.968527 0.000549 -89.968527 1.0 0.031472
10750.0 1.0 0.03074 0.000537 -89.969259 0.000537 -89.969259 1.0 0.03074
11000.0 1.0 0.030042 0.000524 -89.969957 0.000524 -89.969957 1.0 0.030042
11250.0 1.0 0.029374 0.000513 -89.970625 0.000513 -89.970625 1.0 0.029374
11500.0 1.0 0.028735 0.000502 -89.971264 0.000502 -89.971264 1.0 0.028735
11750.0 1.0 0.028124 0.000491 -89.971875 0.000491 -89.971875 1.0 0.028124
12000.0 1.0 0.027538 0.000481 -89.972461 0.000481 -89.972461 1.0 0.027538
12250.0 1.0 0.026976 0.000471 -89.973023 0.000471 -89.973023 1.0 0.026976
12500.0 1.0 0.026437 0.000461 -89.973563 0.000461 -89.973563 1.0 0.026437
12750.0 1.0 0.025918 0.000452 -89.974081 0.000452 -89.974081 1.0 0.025918
13000.0 1.0 0.02542 0.000444 -89.974579 0.000444 -89.974579 1.0 0.02542
13250.0 1.0 0.02494 0.000435 -89.975059 0.000435 -89.975059 1.0 0.02494
13500.0 1.0 0.024478 0.000427 -89.975521 0.000427 -89.975521 1.0 0.024478
13750.0 1.0 0.024033 0.000419 -89.975966 0.000419 -89.975966 1.0 0.024033
14000.0 1.0 0.023604 0.000412 -89.976395 0.000412 -89.976395 1.0 0.023604
14250.0 1.0 0.02319 0.000405 -89.976809 0.000405 -89.976809 1.0 0.02319
14500.0 1.0 0.02279 0.000398 -89.977209 0.000398 -89.977209 1.0 0.02279
14750.0 1.0 0.022404 0.000391 -89.977595 0.000391 -89.977595 1.0 0.022404
15000.0 1.0 0.022031 0.000385 -89.977969 0.000385 -89.977969 1.0 0.022031
15250.0 1.0 0.021669 0.000378 -89.97833 0.000378 -89.97833 1.0 0.021669
15500.0 1.0 0.02132 0.000372 -89.978679 0.000372 -89.978679 1.0 0.02132
15750.0 1.0 0.020981 0.000366 -89.979018 0.000366 -89.979018 1.0 0.020981
16000.0 1.0 0.020654 0.00036 -89.979346 0.00036 -89.979346 1.0 0.020654
16250.0 1.0 0.020336 0.000355 -89.979663 0.000355 -89.979663 1.0 0.020336
16500.0 1.0 0.020028 0.00035 -89.979972 0.00035 -89.979972 1.0 0.020028
16750.0 1.0 0.019729 0.000344 -89.980271 0.000344 -89.980271 1.0 0.019729
17000.0 1.0 0.019439 0.000339 -89.980561 0.000339 -89.980561 1.0 0.019439
17250.0 1.0 0.019157 0.000334 -89.980842 0.000334 -89.980842 1.0 0.019157
17500.0 1.0 0.018883 0.00033 -89.981116 0.00033 -89.981116 1.0 0.018883
17750.0 1.0 0.018617 0.000325 -89.981382 0.000325 -89.981382 1.0 0.018617
18000.0 1.0 0.018359 0.00032 -89.981641 0.00032 -89.981641 1.0 0.018359
18250.0 1.0 0.018107 0.000316 -89.981892 0.000316 -89.981892 1.0 0.018107
18500.0 1.0 0.017863 0.000312 -89.982137 0.000312 -89.982137 1.0 0.017863
18750.0 1.0 0.017624 0.000308 -89.982375 0.000308 -89.982375 1.0 0.017624
19000.0 1.0 0.017393 0.000304 -89.982607 0.000304 -89.982607 1.0 0.017393
19250.0 1.0 0.017167 0.0003 -89.982833 0.0003 -89.982833 1.0 0.017167
19500.0 1.0 0.016947 0.000296 -89.983053 0.000296 -89.983053 1.0 0.016947
19750.0 1.0 0.016732 0.000292 -89.983267 0.000292 -89.983267 1.0 0.016732
20000.0 1.0 0.016523 0.000288 -89.983477 0.000288 -89.983477 1.0 0.016523
20250.0 1.0 0.016319 0.000285 -89.983681 0.000285 -89.983681 1.0 0.016319
20500.0 1.0 0.01612 0.000281 -89.98388 0.000281 -89.98388 1.0 0.01612
20750.0 1.0 0.015926 0.000278 -89.984074 0.000278 -89.984074 1.0 0.015926
21000.0 1.0 0.015736 0.000275 -89.984263 0.000275 -89.984263 1.0 0.015736
21250.0 1.0 0.015551 0.000271 -89.984449 0.000271 -89.984449 1.0 0.015551
21500.0 1.0 0.01537 0.000268 -89.984629 0.000268 -89.984629 1.0 0.01537
21750.0 1.0 0.015193 0.000265 -89.984806 0.000265 -89.984806 1.0 0.015193
22000.0 1.0 0.015021 0.000262 -89.984979 0.000262 -89.984979 1.0 0.015021
22250.0 1.0 0.014852 0.000259 -89.985147 0.000259 -89.985147 1.0 0.014852
22500.0 1.0 0.014687 0.000256 -89.985313 0.000256 -89.985313 1.0 0.014687
22750.0 1.0 0.014526 0.000254 -89.985474 0.000254 -89.985474 1.0 0.014526
23000.0 1.0 0.014368 0.000251 -89.985632 0.000251 -89.985632 1.0 0.014368
23250.0 1.0 0.014213 0.000248 -89.985786 0.000248 -89.985786 1.0 0.014213
23500.0 1.0 0.014062 0.000245 -89.985938 0.000245 -89.985938 1.0 0.014062
23750.0 1.0 0.013914 0.000243 -89.986086 0.000243 -89.986086 1.0 0.013914
24000.0 1.0 0.013769 0.00024 -89.98623 0.00024 -89.98623 1.0 0.013769
24250.0 1.0 0.013627 0.000238 -89.986372 0.000238 -89.986372 1.0 0.013627
24500.0 1.0 0.013488 0.000235 -89.986512 0.000235 -89.986512 1.0 0.013488
24750.0 1.0 0.013352 0.000233 -89.986648 0.000233 -89.986648 1.0 0.013352
25000.0 1.0 0.013218 0.000231 -89.986781 0.000231 -89.986781 1.0 0.013218
25250.0 1.0 0.013087 0.000228 -89.986912 0.000228 -89.986912 1.0 0.013087
25500.0 1.0 0.012959 0.000226 -89.98704 0.000226 -89.98704 1.0 0.012959
25750.0 1.0 0.012833 0.000224 -89.987166 0.000224 -89.987166 1.0 0.012833
26000.0 1.0 0.01271 0.000222 -89.98729 0.000222 -89.98729 1.0 0.01271
26250.0 1.0 0.012589 0.00022 -89.987411 0.00022 -89.987411 1.0 0.012589
26500.0 1.0 0.01247 0.000218 -89.98753 0.000218 -89.98753 1.0 0.01247
26750.0 1.0 0.012354 0.000216 -89.987646 0.000216 -89.987646 1.0 0.012354
27000.0 1.0 0.012239 0.000214 -89.98776 0.000214 -89.98776 1.0 0.012239
27250.0 1.0 0.012127 0.000212 -89.987873 0.000212 -89.987873 1.0 0.012127
27500.0 1.0 0.012017 0.00021 -89.987983 0.00021 -89.987983 1.0 0.012017
27750.0 1.0 0.011908 0.000208 -89.988091 0.000208 -89.988091 1.0 0.011908
28000.0 1.0 0.011802 0.000206 -89.988198 0.000206 -89.988198 1.0 0.011802
28250.0 1.0 0.011698 0.000204 -89.988302 0.000204 -89.988302 1.0 0.011698
28500.0 1.0 0.011595 0.000202 -89.988405 0.000202 -89.988405 1.0 0.011595
28750.0 1.0 0.011494 0.000201 -89.988505 0.000201 -89.988505 1.0 0.011494
29000.0 1.0 0.011395 0.000199 -89.988605 0.000199 -89.988605 1.0 0.011395
29250.0 1.0 0.011298 0.000197 -89.988702 0.000197 -89.988702 1.0 0.011298
29500.0 1.0 0.011202 0.000196 -89.988798 0.000196 -89.988798 1.0 0.011202
29750.0 1.0 0.011108 0.000194 -89.988892 0.000194 -89.988892 1.0 0.011108
30000.0 1.0 0.011015 0.000192 -89.988984 0.000192 -89.988984 1.0 0.011015
30250.0 1.0 0.010924 0.000191 -89.989075 0.000191 -89.989075 1.0 0.010924
30500.0 1.0 0.010835 0.000189 -89.989165 0.000189 -89.989165 1.0 0.010835
30750.0 1.0 0.010747 0.000188 -89.989253 0.000188 -89.989253 1.0 0.010747
31000.0 1.0 0.01066 0.000186 -89.98934 0.000186 -89.98934 1.0 0.01066
31250.0 1.0 0.010575 0.000185 -89.989425 0.000185 -89.989425 1.0 0.010575
31500.0 1.0 0.010491 0.000183 -89.989509 0.000183 -89.989509 1.0 0.010491
31750.0 1.0 0.010408 0.000182 -89.989592 0.000182 -89.989592 1.0 0.010408
32000.0 1.0 0.010327 0.00018 -89.989673 0.00018 -89.989673 1.0 0.010327
32250.0 1.0 0.010247 0.000179 -89.989753 0.000179 -89.989753 1.0 0.010247
32500.0 1.0 0.010168 0.000177 -89.989832 0.000177 -89.989832 1.0 0.010168
32750.0 1.0 0.01009 0.000176 -89.989909 0.000176 -89.989909 1.0 0.01009
33000.0 1.0 0.010014 0.000175 -89.989986 0.000175 -89.989986 1.0 0.010014
33250.0 1.0 0.009939 0.000173 -89.990061 0.000173 -89.990061 1.0 0.009939
33500.0 1.0 0.009864 0.000172 -89.990135 0.000172 -89.990135 1.0 0.009864
33750.0 1.0 0.009791 0.000171 -89.990208 0.000171 -89.990208 1.0 0.009791
34000.0 1.0 0.009719 0.00017 -89.99028 0.00017 -89.99028 1.0 0.009719
34250.0 1.0 0.009648 0.000168 -89.990351 0.000168 -89.990351 1.0 0.009648
34500.0 1.0 0.009578 0.000167 -89.990421 0.000167 -89.990421 1.0 0.009578
34750.0 1.0 0.00951 0.000166 -89.99049 0.000166 -89.99049 1.0 0.00951
35000.0 1.0 0.009442 0.000165 -89.990558 0.000165 -89.990558 1.0 0.009442
35250.0 1.0 0.009375 0.000164 -89.990625 0.000164 -89.990625 1.0 0.009375
35500.0 1.0 0.009309 0.000162 -89.990691 0.000162 -89.990691 1.0 0.009309
35750.0 1.0 0.009244 0.000161 -89.990756 0.000161 -89.990756 1.0 0.009244
36000.0 1.0 0.009179 0.00016 -89.99082 0.00016 -89.99082 1.0 0.009179
36250.0 1.0 0.009116 0.000159 -89.990884 0.000159 -89.990884 1.0 0.009116
36500.0 1.0 0.009054 0.000158 -89.990946 0.000158 -89.990946 1.0 0.009054
36750.0 1.0 0.008992 0.000157 -89.991008 0.000157 -89.991008 1.0 0.008992
37000.0 1.0 0.008931 0.000156 -89.991068 0.000156 -89.991068 1.0 0.008931
37250.0 1.0 0.008871 0.000155 -89.991128 0.000155 -89.991128 1.0 0.008871
37500.0 1.0 0.008812 0.000154 -89.991188 0.000154 -89.991188 1.0 0.008812
37750.0 1.0 0.008754 0.000153 -89.991246 0.000153 -89.991246 1.0 0.008754
38000.0 1.0 0.008696 0.000152 -89.991303 0.000152 -89.991303 1.0 0.008696
38250.0 1.0 0.008639 0.000151 -89.99136 0.000151 -89.99136 1.0 0.008639
38500.0 1.0 0.008583 0.00015 -89.991416 0.00015 -89.991416 1.0 0.008583
38750.0 1.0 0.008528 0.000149 -89.991472 0.000149 -89.991472 1.0 0.008528
39000.0 1.0 0.008473 0.000148 -89.991526 0.000148 -89.991526 1.0 0.008473
39250.0 1.0 0.008419 0.000147 -89.99158 0.000147 -89.99158 1.0 0.008419
39500.0 1.0 0.008366 0.000146 -89.991634 0.000146 -89.991634 1.0 0.008366
39750.0 1.0 0.008313 0.000145 -89.991686 0.000145 -89.991686 1.0 0.008313
40000.0 1.0 0.008261 0.000144 -89.991738 0.000144 -89.991738 1.0 0.008261
40250.0 1.0 0.00821 0.000143 -89.99179 0.000143 -89.99179 1.0 0.00821
40500.0 1.0 0.008159 0.000142 -89.99184 0.000142 -89.99184 1.0 0.008159
40750.0 1.0 0.008109 0.000142 -89.99189 0.000142 -89.99189 1.0 0.008109
41000.0 1.0 0.00806 0.000141 -89.99194 0.000141 -89.99194 1.0 0.00806
41250.0 1.0 0.008011 0.00014 -89.991989 0.00014 -89.991989 1.0 0.008011
41500.0 1.0 0.007963 0.000139 -89.992037 0.000139 -89.992037 1.0 0.007963
41750.0 1.0 0.007915 0.000138 -89.992085 0.000138 -89.992085 1.0 0.007915
42000.0 1.0 0.007868 0.000137 -89.992132 0.000137 -89.992132 1.0 0.007868
42250.0 1.0 0.007821 0.000137 -89.992178 0.000137 -89.992178 1.0 0.007821
42500.0 1.0 0.007775 0.000136 -89.992224 0.000136 -89.992224 1.0 0.007775
42750.0 1.0 0.00773 0.000135 -89.99227 0.000135 -89.99227 1.0 0.00773
43000.0 1.0 0.007685 0.000134 -89.992315 0.000134 -89.992315 1.0 0.007685
43250.0 1.0 0.007641 0.000133 -89.992359 0.000133 -89.992359 1.0 0.007641
43500.0 1.0 0.007597 0.000133 -89.992403 0.000133 -89.992403 1.0 0.007597
43750.0 1.0 0.007553 0.000132 -89.992446 0.000132 -89.992446 1.0 0.007553
44000.0 1.0 0.00751 0.000131 -89.992489 0.000131 -89.992489 1.0 0.00751
44250.0 1.0 0.007468 0.00013 -89.992532 0.00013 -89.992532 1.0 0.007468
44500.0 1.0 0.007426 0.00013 -89.992574 0.00013 -89.992574 1.0 0.007426
44750.0 1.0 0.007385 0.000129 -89.992615 0.000129 -89.992615 1.0 0.007385
45000.0 1.0 0.007344 0.000128 -89.992656 0.000128 -89.992656 1.0 0.007344
45250.0 1.0 0.007303 0.000127 -89.992697 0.000127 -89.992697 1.0 0.007303
45500.0 1.0 0.007263 0.000127 -89.992737 0.000127 -89.992737 1.0 0.007263
45750.0 1.0 0.007223 0.000126 -89.992777 0.000126 -89.992777 1.0 0.007223
46000.0 1.0 0.007184 0.000125 -89.992816 0.000125 -89.992816 1.0 0.007184
46250.0 1.0 0.007145 0.000125 -89.992855 0.000125 -89.992855 1.0 0.007145
46500.0 1.0 0.007107 0.000124 -89.992893 0.000124 -89.992893 1.0 0.007107
46750.0 1.0 0.007069 0.000123 -89.992931 0.000123 -89.992931 1.0 0.007069
47000.0 1.0 0.007031 0.000123 -89.992969 0.000123 -89.992969 1.0 0.007031
47250.0 1.0 0.006994 0.000122 -89.993006 0.000122 -89.993006 1.0 0.006994
47500.0 1.0 0.006957 0.000121 -89.993043 0.000121 -89.993043 1.0 0.006957
47750.0 1.0 0.006921 0.000121 -89.993079 0.000121 -89.993079 1.0 0.006921
48000.0 1.0 0.006885 0.00012 -89.993115 0.00012 -89.993115 1.0 0.006885
48250.0 1.0 0.006849 0.00012 -89.993151 0.00012 -89.993151 1.0 0.006849
48500.0 1.0 0.006814 0.000119 -89.993186 0.000119 -89.993186 1.0 0.006814
48750.0 1.0 0.006779 0.000118 -89.993221 0.000118 -89.993221 1.0 0.006779
49000.0 1.0 0.006744 0.000118 -89.993256 0.000118 -89.993256 1.0 0.006744
49250.0 1.0 0.00671 0.000117 -89.99329 0.000117 -89.99329 1.0 0.00671
49500.0 1.0 0.006676 0.000117 -89.993324 0.000117 -89.993324 1.0 0.006676
49750.0 1.0 0.006642 0.000116 -89.993357 0.000116 -89.993357 1.0 0.006642
50000.0 1.0 0.006609 0.000115 -89.993391 0.000115 -89.993391 1.0 0.006609
50250.0 1.0 0.006576 0.000115 -89.993424 0.000115 -89.993424 1.0 0.006576
50500.0 1.0 0.006544 0.000114 -89.993456 0.000114 -89.993456 1.0 0.006544
50750.0 1.0 0.006511 0.000114 -89.993488 0.000114 -89.993488 1.0 0.006511
51000.0 1.0 0.00648 0.000113 -89.99352 0.000113 -89.99352 1.0 0.00648
51250.0 1.0 0.006448 0.000113 -89.993552 0.000113 -89.993552 1.0 0.006448
51500.0 1.0 0.006417 0.000112 -89.993583 0.000112 -89.993583 1.0 0.006417
51750.0 1.0 0.006386 0.000111 -89.993614 0.000111 -89.993614 1.0 0.006386
52000.0 1.0 0.006355 0.000111 -89.993645 0.000111 -89.993645 1.0 0.006355
52250.0 1.0 0.006325 0.00011 -89.993675 0.00011 -89.993675 1.0 0.006325
52500.0 1.0 0.006294 0.00011 -89.993705 0.00011 -89.993705 1.0 0.006294
52750.0 1.0 0.006265 0.000109 -89.993735 0.000109 -89.993735 1.0 0.006265
53000.0 1.0 0.006235 0.000109 -89.993765 0.000109 -89.993765 1.0 0.006235
53250.0 1.0 0.006206 0.000108 -89.993794 0.000108 -89.993794 1.0 0.006206
53500.0 1.0 0.006177 0.000108 -89.993823 0.000108 -89.993823 1.0 0.006177
53750.0 1.0 0.006148 0.000107 -89.993852 0.000107 -89.993852 1.0 0.006148
54000.0 1.0 0.00612 0.000107 -89.99388 0.000107 -89.99388 1.0 0.00612
54250.0 1.0 0.006091 0.000106 -89.993908 0.000106 -89.993908 1.0 0.006091
54500.0 1.0 0.006063 0.000106 -89.993936 0.000106 -89.993936 1.0 0.006063
54750.0 1.0 0.006036 0.000105 -89.993964 0.000105 -89.993964 1.0 0.006036
55000.0 1.0 0.006008 0.000105 -89.993991 0.000105 -89.993991 1.0 0.006008
55250.0 1.0 0.005981 0.000104 -89.994019 0.000104 -89.994019 1.0 0.005981
55500.0 1.0 0.005954 0.000104 -89.994046 0.000104 -89.994046 1.0 0.005954
55750.0 1.0 0.005927 0.000103 -89.994072 0.000103 -89.994072 1.0 0.005927
56000.0 1.0 0.005901 0.000103 -89.994099 0.000103 -89.994099 1.0 0.005901
56250.0 1.0 0.005875 0.000103 -89.994125 0.000103 -89.994125 1.0 0.005875
56500.0 1.0 0.005849 0.000102 -89.994151 0.000102 -89.994151 1.0 0.005849
56750.0 1.0 0.005823 0.000102 -89.994177 0.000102 -89.994177 1.0 0.005823
57000.0 1.0 0.005798 0.000101 -89.994202 0.000101 -89.994202 1.0 0.005798
57250.0 1.0 0.005772 0.000101 -89.994228 0.000101 -89.994228 1.0 0.005772
57500.0 1.0 0.005747 0.0001 -89.994253 0.0001 -89.994253 1.0 0.005747
57750.0 1.0 0.005722 0.0001 -89.994278 0.0001 -89.994278 1.0 0.005722
58000.0 1.0 0.005698 9.9e-05 -89.994302 9.9e-05 -89.994302 1.0 0.005698
58250.0 1.0 0.005673 9.9e-05 -89.994327 9.9e-05 -89.994327 1.0 0.005673
58500.0 1.0 0.005649 9.9e-05 -89.994351 9.9e-05 -89.994351 1.0 0.005649
58750.0 1.0 0.005625 9.8e-05 -89.994375 9.8e-05 -89.994375 1.0 0.005625
59000.0 1.0 0.005601 9.8e-05 -89.994399 9.8e-05 -89.994399 1.0 0.005601
59250.0 1.0 0.005577 9.7e-05 -89.994422 9.7e-05 -89.994422 1.0 0.005577
59500.0 1.0 0.005554 9.7e-05 -89.994446 9.7e-05 -89.994446 1.0 0.005554
59750.0 1.0 0.005531 9.7e-05 -89.994469 9.7e-05 -89.994469 1.0 0.005531
60000.0 1.0 0.005508 9.6e-05 -89.994492 9.6e-05 -89.994492 1.0 0.005508
60250.0 1.0 0.005485 9.6e-05 -89.994515 9.6e-05 -89.994515 1.0 0.005485
60500.0 1.0 0.005462 9.5e-05 -89.994538 9.5e-05 -89.994538 1.0 0.005462
60750.0 1.0 0.00544 9.5e-05 -89.99456 9.5e-05 -89.99456 1.0 0.00544
61000.0 1.0 0.005417 9.5e-05 -89.994582 9.5e-05 -89.994582 1.0 0.005417
61250.0 1.0 0.005395 9.4e-05 -89.994605 9.4e-05 -89.994605 1.0 0.005395
61500.0 1.0 0.005373 9.4e-05 -89.994627 9.4e-05 -89.994627 1.0 0.005373
61750.0 1.0 0.005352 9.3e-05 -89.994648 9.3e-05 -89.994648 1.0 0.005352
62000.0 1.0 0.00533 9.3e-05 -89.99467 9.3e-05 -89.99467 1.0 0.00533
62250.0 1.0 0.005309 9.3e-05 -89.994691 9.3e-05 -89.994691 1.0 0.005309
62500.0 1.0 0.005287 9.2e-05 -89.994713 9.2e-05 -89.994713 1.0 0.005287
62750.0 1.0 0.005266 9.2e-05 -89.994734 9.2e-05 -89.994734 1.0 0.005266
63000.0 1.0 0.005245 9.2e-05 -89.994754 9.2e-05 -89.994754 1.0 0.005245
63250.0 1.0 0.005225 9.1e-05 -89.994775 9.1e-05 -89.994775 1.0 0.005225
63500.0 1.0 0.005204 9.1e-05 -89.994796 9.1e-05 -89.994796 1.0 0.005204
63750.0 1.0 0.005184 9e-05 -89.994816 9e-05 -89.994816 1.0 0.005184
64000.0 1.0 0.005163 9e-05 -89.994836 9e-05 -89.994836 1.0 0.005163
64250.0 1.0 0.005143 9e-05 -89.994857 9e-05 -89.994857 1.0 0.005143
64500.0 1.0 0.005123 8.9e-05 -89.994876 8.9e-05 -89.994876 1.0 0.005123
64750.0 1.0 0.005104 8.9e-05 -89.994896 8.9e-05 -89.994896 1.0 0.005104
65000.0 1.0 0.005084 8.9e-05 -89.994916 8.9e-05 -89.994916 1.0 0.005084
65250.0 1.0 0.005064 8.8e-05 -89.994935 8.8e-05 -89.994935 1.0 0.005064
65500.0 1.0 0.005045 8.8e-05 -89.994955 8.8e-05 -89.994955 1.0 0.005045
65750.0 1.0 0.005026 8.8e-05 -89.994974 8.8e-05 -89.994974 1.0 0.005026
66000.0 1.0 0.005007 8.7e-05 -89.994993 8.7e-05 -89.994993 1.0 0.005007
66250.0 1.0 0.004988 8.7e-05 -89.995012 8.7e-05 -89.995012 1.0 0.004988
66500.0 1.0 0.004969 8.7e-05 -89.995031 8.7e-05 -89.995031 1.0 0.004969
