! File created by SignalIntegrity v1.3.1: Signal and Power Integrity Tools
! https://github.com/TeledyneLeCroy/SignalIntegrity

! the calculations of this model are from:
!     https://www.allaboutcircuits.com/tools/wire-self-inductance-calculator/
# MHz S MA R 50.0
0.0 2e-06 0.0 0.999998 0.0 0.999998 0.0 2e-06 0.0
250.0 0.097873 84.38215 0.995197 -5.616683 0.995197 -5.616683 0.097873 84.38215
500.0 0.192992 78.871972 0.981198 -11.127445 0.981198 -11.127445 0.192992 78.871972
750.0 0.282976 73.561732 0.959125 -16.437879 0.959125 -16.437879 0.282976 73.561732
1000.0 0.366073 68.526056 0.930584 -21.473653 0.930584 -21.473653 0.366073 68.526056
1250.0 0.441263 63.815304 0.897376 -26.184463 0.897376 -26.184463 0.441263 63.815304
1500.0 0.508193 59.456266 0.861242 -30.54354 0.861242 -30.54354 0.508193 59.456266
1750.0 0.56704 55.455769 0.823689 -34.544064 0.823689 -34.544064 0.56704 55.455769
2000.0 0.618329 51.805646 0.785918 -38.194208 0.785918 -38.194208 0.618329 51.805646
2250.0 0.662779 48.487714 0.748814 -41.512157 0.748814 -41.512157 0.662779 48.487714
2500.0 0.701182 45.477997 0.712981 -44.521887 0.712981 -44.521887 0.701182 45.477997
2750.0 0.734322 42.749911 0.6788 -47.249983 0.6788 -47.249983 0.734322 42.749911
3000.0 0.762933 40.276458 0.646476 -49.723444 0.646476 -49.723444 0.762933 40.276458
3250.0 0.78767 38.031611 0.616096 -51.968299 0.616096 -51.968299 0.78767 38.031611
3500.0 0.809108 35.991092 0.587659 -54.008824 0.587659 -54.008824 0.809108 35.991092
3750.0 0.827739 34.132748 0.561112 -55.867175 0.561112 -55.867175 0.827739 34.132748
4000.0 0.843984 32.436654 0.536367 -57.563273 0.536367 -57.563273 0.843984 32.436654
4250.0 0.858198 30.885068 0.513318 -59.114863 0.513318 -59.114863 0.858198 30.885068
4500.0 0.870679 29.462285 0.491851 -60.53765 0.491851 -60.53765 0.870679 29.462285
4750.0 0.881678 28.154459 0.47185 -61.845479 0.47185 -61.845479 0.881678 28.154459
5000.0 0.891407 26.949411 0.453204 -63.05053 0.453204 -63.05053 0.891407 26.949411
5250.0 0.900041 25.836434 0.435804 -64.16351 0.435804 -64.16351 0.900041 25.836434
5500.0 0.907732 24.806115 0.419549 -65.193832 0.419549 -65.193832 0.907732 24.806115
5750.0 0.914606 23.850174 0.404346 -66.149775 0.404346 -66.149775 0.914606 23.850174
6000.0 0.920768 22.961316 0.39011 -67.038636 0.39011 -67.038636 0.920768 22.961316
6250.0 0.926311 22.133105 0.37676 -67.866849 0.37676 -67.866849 0.926311 22.133105
6500.0 0.931311 21.359852 0.364224 -68.640103 0.364224 -68.640103 0.931311 21.359852
6750.0 0.935835 20.636519 0.352438 -69.363438 0.352438 -69.363438 0.935835 20.636519
7000.0 0.939939 19.958632 0.341342 -70.041326 0.341342 -70.041326 0.939939 19.958632
7250.0 0.943673 19.322212 0.33088 -70.677748 0.33088 -70.677748 0.943673 19.322212
7500.0 0.947077 18.72371 0.321005 -71.276251 0.321005 -71.276251 0.947077 18.72371
7750.0 0.95019 18.159956 0.311671 -71.840007 0.311671 -71.840007 0.95019 18.159956
8000.0 0.953042 17.628108 0.302837 -72.371855 0.302837 -72.371855 0.953042 17.628108
8250.0 0.955661 17.125618 0.294468 -72.874347 0.294468 -72.874347 0.955661 17.125618
8500.0 0.958072 16.65019 0.286528 -73.349775 0.286528 -73.349775 0.958072 16.65019
8750.0 0.960295 16.199757 0.278987 -73.800209 0.278987 -73.800209 0.960295 16.199757
9000.0 0.962349 15.77245 0.271818 -74.227518 0.271818 -74.227518 0.962349 15.77245
9250.0 0.96425 15.366576 0.264994 -74.633393 0.264994 -74.633393 0.96425 15.366576
9500.0 0.966013 14.980599 0.258492 -75.01937 0.258492 -75.01937 0.966013 14.980599
9750.0 0.967651 14.613125 0.252291 -75.386845 0.252291 -75.386845 0.967651 14.613125
10000.0 0.969175 14.262882 0.246371 -75.737089 0.246371 -75.737089 0.969175 14.262882
10250.0 0.970596 13.92871 0.240714 -76.071261 0.240714 -76.071261 0.970596 13.92871
10500.0 0.971922 13.60955 0.235304 -76.390422 0.235304 -76.390422 0.971922 13.60955
10750.0 0.973161 13.30443 0.230125 -76.695543 0.230125 -76.695543 0.973161 13.30443
11000.0 0.974321 13.012461 0.225163 -76.987513 0.225163 -76.987513 0.974321 13.012461
11250.0 0.975408 12.732823 0.220405 -77.267151 0.220405 -77.267151 0.975408 12.732823
11500.0 0.976429 12.464765 0.215839 -77.535209 0.215839 -77.535209 0.976429 12.464765
11750.0 0.977388 12.207594 0.211454 -77.792382 0.211454 -77.792382 0.977388 12.207594
12000.0 0.97829 11.960667 0.20724 -78.039308 0.20724 -78.039308 0.97829 11.960667
12250.0 0.97914 11.723396 0.203187 -78.276581 0.203187 -78.276581 0.97914 11.723396
12500.0 0.979941 11.49523 0.199286 -78.504747 0.199286 -78.504747 0.979941 11.49523
12750.0 0.980698 11.275663 0.19553 -78.724314 0.19553 -78.724314 0.980698 11.275663
13000.0 0.981413 11.064225 0.191909 -78.935753 0.191909 -78.935753 0.981413 11.064225
13250.0 0.982089 10.860476 0.188418 -79.139502 0.188418 -79.139502 0.982089 10.860476
13500.0 0.982729 10.664011 0.185049 -79.335967 0.185049 -79.335967 0.982729 10.664011
13750.0 0.983336 10.474449 0.181797 -79.525529 0.181797 -79.525529 0.983336 10.474449
14000.0 0.983912 10.291438 0.178655 -79.708541 0.178655 -79.708541 0.983912 10.291438
14250.0 0.984458 10.114647 0.175618 -79.885333 0.175618 -79.885333 0.984458 10.114647
14500.0 0.984978 9.943766 0.172682 -80.056213 0.172682 -80.056213 0.984978 9.943766
14750.0 0.985472 9.778509 0.16984 -80.221471 0.16984 -80.221471 0.985472 9.778509
15000.0 0.985942 9.618604 0.167089 -80.381377 0.167089 -80.381377 0.985942 9.618604
15250.0 0.98639 9.463797 0.164424 -80.536184 0.164424 -80.536184 0.98639 9.463797
15500.0 0.986817 9.313851 0.161842 -80.68613 0.161842 -80.68613 0.986817 9.313851
15750.0 0.987224 9.168543 0.159339 -80.831438 0.159339 -80.831438 0.987224 9.168543
16000.0 0.987613 9.027662 0.156911 -80.97232 0.156911 -80.97232 0.987613 9.027662
16250.0 0.987984 8.891011 0.154555 -81.108971 0.154555 -81.108971 0.987984 8.891011
16500.0 0.988339 8.758403 0.152268 -81.241579 0.152268 -81.241579 0.988339 8.758403
16750.0 0.988679 8.629663 0.150047 -81.37032 0.150047 -81.37032 0.988679 8.629663
17000.0 0.989004 8.504626 0.147889 -81.495357 0.147889 -81.495357 0.989004 8.504626
17250.0 0.989315 8.383134 0.145792 -81.616849 0.145792 -81.616849 0.989315 8.383134
17500.0 0.989614 8.265041 0.143752 -81.734942 0.143752 -81.734942 0.989614 8.265041
17750.0 0.9899 8.150207 0.141769 -81.849776 0.141769 -81.849776 0.9899 8.150207
18000.0 0.990174 8.0385 0.139838 -81.961484 0.139838 -81.961484 0.990174 8.0385
18250.0 0.990438 7.929794 0.13796 -82.07019 0.13796 -82.07019 0.990438 7.929794
18500.0 0.990691 7.82397 0.13613 -82.176014 0.13613 -82.176014 0.990691 7.82397
18750.0 0.990934 7.720917 0.134348 -82.279067 0.134348 -82.279067 0.990934 7.720917
19000.0 0.991168 7.620528 0.132612 -82.379457 0.132612 -82.379457 0.991168 7.620528
19250.0 0.991393 7.522701 0.130919 -82.477284 0.130919 -82.477284 0.991393 7.522701
19500.0 0.99161 7.42734 0.129269 -82.572645 0.129269 -82.572645 0.99161 7.42734
19750.0 0.991818 7.334353 0.127659 -82.665632 0.127659 -82.665632 0.991818 7.334353
20000.0 0.992019 7.243653 0.126089 -82.756332 0.126089 -82.756332 0.992019 7.243653
20250.0 0.992212 7.155158 0.124557 -82.844827 0.124557 -82.844827 0.992212 7.155158
20500.0 0.992399 7.068788 0.123061 -82.931197 0.123061 -82.931197 0.992399 7.068788
20750.0 0.992579 6.984468 0.1216 -83.015518 0.1216 -83.015518 0.992579 6.984468
21000.0 0.992753 6.902127 0.120174 -83.097859 0.120174 -83.097859 0.992753 6.902127
21250.0 0.992921 6.821695 0.11878 -83.178291 0.11878 -83.178291 0.992921 6.821695
21500.0 0.993083 6.743108 0.117418 -83.256879 0.117418 -83.256879 0.993083 6.743108
21750.0 0.993239 6.666302 0.116087 -83.333684 0.116087 -83.333684 0.993239 6.666302
22000.0 0.99339 6.591219 0.114785 -83.408768 0.114785 -83.408768 0.99339 6.591219
22250.0 0.993537 6.517801 0.113512 -83.482185 0.113512 -83.482185 0.993537 6.517801
22500.0 0.993678 6.445994 0.112267 -83.553993 0.112267 -83.553993 0.993678 6.445994
22750.0 0.993815 6.375746 0.111048 -83.624241 0.111048 -83.624241 0.993815 6.375746
23000.0 0.993948 6.307006 0.109856 -83.692982 0.109856 -83.692982 0.993948 6.307006
23250.0 0.994076 6.239726 0.108689 -83.760261 0.108689 -83.760261 0.994076 6.239726
23500.0 0.9942 6.173861 0.107546 -83.826126 0.107546 -83.826126 0.9942 6.173861
23750.0 0.994321 6.109368 0.106427 -83.89062 0.106427 -83.89062 0.994321 6.109368
24000.0 0.994437 6.046202 0.10533 -83.953786 0.10533 -83.953786 0.994437 6.046202
24250.0 0.99455 5.984325 0.104256 -84.015663 0.104256 -84.015663 0.99455 5.984325
24500.0 0.99466 5.923697 0.103204 -84.076291 0.103204 -84.076291 0.99466 5.923697
24750.0 0.994767 5.86428 0.102172 -84.135708 0.102172 -84.135708 0.994767 5.86428
25000.0 0.99487 5.80604 0.101161 -84.193948 0.101161 -84.193948 0.99487 5.80604
25250.0 0.99497 5.748942 0.10017 -84.251047 0.10017 -84.251047 0.99497 5.748942
25500.0 0.995068 5.692952 0.099197 -84.307037 0.099197 -84.307037 0.995068 5.692952
25750.0 0.995162 5.638038 0.098244 -84.361951 0.098244 -84.361951 0.995162 5.638038
26000.0 0.995254 5.58417 0.097308 -84.415818 0.097308 -84.415818 0.995254 5.58417
26250.0 0.995344 5.531319 0.09639 -84.46867 0.09639 -84.46867 0.995344 5.531319
26500.0 0.99543 5.479456 0.095489 -84.520533 0.095489 -84.520533 0.99543 5.479456
26750.0 0.995515 5.428554 0.094604 -84.571436 0.094604 -84.571436 0.995515 5.428554
27000.0 0.995597 5.378585 0.093736 -84.621404 0.093736 -84.621404 0.995597 5.378585
27250.0 0.995677 5.329526 0.092884 -84.670463 0.092884 -84.670463 0.995677 5.329526
27500.0 0.995755 5.281351 0.092046 -84.718638 0.092046 -84.718638 0.995755 5.281351
27750.0 0.99583 5.234037 0.091224 -84.765953 0.091224 -84.765953 0.99583 5.234037
28000.0 0.995904 5.18756 0.090416 -84.812429 0.090416 -84.812429 0.995904 5.18756
28250.0 0.995976 5.1419 0.089623 -84.85809 0.089623 -84.85809 0.995976 5.1419
28500.0 0.996046 5.097034 0.088843 -84.902956 0.088843 -84.902956 0.996046 5.097034
28750.0 0.996114 5.052943 0.088076 -84.947047 0.088076 -84.947047 0.996114 5.052943
29000.0 0.99618 5.009605 0.087323 -84.990385 0.087323 -84.990385 0.99618 5.009605
29250.0 0.996245 4.967003 0.086582 -85.032987 0.086582 -85.032987 0.996245 4.967003
29500.0 0.996308 4.925118 0.085854 -85.074872 0.085854 -85.074872 0.996308 4.925118
29750.0 0.996369 4.883931 0.085137 -85.116059 0.085137 -85.116059 0.996369 4.883931
30000.0 0.996429 4.843426 0.084433 -85.156564 0.084433 -85.156564 0.996429 4.843426
30250.0 0.996488 4.803586 0.08374 -85.196404 0.08374 -85.196404 0.996488 4.803586
30500.0 0.996545 4.764395 0.083059 -85.235596 0.083059 -85.235596 0.996545 4.764395
30750.0 0.9966 4.725836 0.082388 -85.274155 0.082388 -85.274155 0.9966 4.725836
31000.0 0.996655 4.687895 0.081728 -85.312096 0.081728 -85.312096 0.996655 4.687895
31250.0 0.996708 4.650557 0.081078 -85.349434 0.081078 -85.349434 0.996708 4.650557
31500.0 0.99676 4.613808 0.080439 -85.386183 0.080439 -85.386183 0.99676 4.613808
31750.0 0.99681 4.577633 0.07981 -85.422357 0.07981 -85.422357 0.99681 4.577633
32000.0 0.99686 4.542021 0.07919 -85.45797 0.07919 -85.45797 0.99686 4.542021
32250.0 0.996908 4.506957 0.07858 -85.493034 0.07858 -85.493034 0.996908 4.506957
32500.0 0.996955 4.472429 0.077979 -85.527562 0.077979 -85.527562 0.996955 4.472429
32750.0 0.997001 4.438426 0.077388 -85.561566 0.077388 -85.561566 0.997001 4.438426
33000.0 0.997046 4.404934 0.076805 -85.595057 0.076805 -85.595057 0.997046 4.404934
33250.0 0.99709 4.371943 0.076231 -85.628048 0.076231 -85.628048 0.99709 4.371943
33500.0 0.997133 4.339442 0.075665 -85.66055 0.075665 -85.66055 0.997133 4.339442
33750.0 0.997175 4.307419 0.075108 -85.692572 0.075108 -85.692572 0.997175 4.307419
34000.0 0.997217 4.275865 0.074559 -85.724127 0.074559 -85.724127 0.997217 4.275865
34250.0 0.997257 4.244769 0.074017 -85.755223 0.074017 -85.755223 0.997257 4.244769
34500.0 0.997296 4.214121 0.073484 -85.785871 0.073484 -85.785871 0.997296 4.214121
34750.0 0.997335 4.183911 0.072958 -85.81608 0.072958 -85.81608 0.997335 4.183911
35000.0 0.997373 4.154131 0.07244 -85.84586 0.07244 -85.84586 0.997373 4.154131
35250.0 0.99741 4.124771 0.071929 -85.87522 0.071929 -85.87522 0.99741 4.124771
35500.0 0.997446 4.095823 0.071425 -85.904169 0.071425 -85.904169 0.997446 4.095823
35750.0 0.997481 4.067277 0.070928 -85.932715 0.070928 -85.932715 0.997481 4.067277
36000.0 0.997516 4.039126 0.070438 -85.960866 0.070438 -85.960866 0.997516 4.039126
36250.0 0.99755 4.011361 0.069954 -85.988631 0.069954 -85.988631 0.99755 4.011361
36500.0 0.997584 3.983975 0.069477 -86.016017 0.069477 -86.016017 0.997584 3.983975
36750.0 0.997616 3.956959 0.069007 -86.043033 0.069007 -86.043033 0.997616 3.956959
37000.0 0.997648 3.930307 0.068543 -86.069685 0.068543 -86.069685 0.997648 3.930307
37250.0 0.99768 3.904011 0.068085 -86.095981 0.068085 -86.095981 0.99768 3.904011
37500.0 0.99771 3.878064 0.067633 -86.121928 0.067633 -86.121928 0.99771 3.878064
37750.0 0.99774 3.852459 0.067187 -86.147533 0.067187 -86.147533 0.99774 3.852459
38000.0 0.99777 3.82719 0.066747 -86.172803 0.066747 -86.172803 0.99777 3.82719
38250.0 0.997799 3.802249 0.066313 -86.197743 0.066313 -86.197743 0.997799 3.802249
38500.0 0.997827 3.777631 0.065884 -86.222362 0.065884 -86.222362 0.997827 3.777631
38750.0 0.997855 3.753329 0.065461 -86.246664 0.065461 -86.246664 0.997855 3.753329
39000.0 0.997882 3.729337 0.065043 -86.270655 0.065043 -86.270655 0.997882 3.729337
39250.0 0.997909 3.70565 0.064631 -86.294343 0.064631 -86.294343 0.997909 3.70565
39500.0 0.997936 3.682261 0.064223 -86.317732 0.064223 -86.317732 0.997936 3.682261
39750.0 0.997961 3.659165 0.063821 -86.340827 0.063821 -86.340827 0.997961 3.659165
40000.0 0.997987 3.636357 0.063424 -86.363636 0.063424 -86.363636 0.997987 3.636357
40250.0 0.998012 3.613831 0.063031 -86.386162 0.063031 -86.386162 0.998012 3.613831
40500.0 0.998036 3.591582 0.062644 -86.408411 0.062644 -86.408411 0.998036 3.591582
40750.0 0.99806 3.569605 0.062261 -86.430388 0.062261 -86.430388 0.99806 3.569605
41000.0 0.998083 3.547895 0.061883 -86.452098 0.061883 -86.452098 0.998083 3.547895
41250.0 0.998107 3.526447 0.061509 -86.473546 0.061509 -86.473546 0.998107 3.526447
41500.0 0.998129 3.505256 0.06114 -86.494737 0.06114 -86.494737 0.998129 3.505256
41750.0 0.998151 3.484319 0.060775 -86.515674 0.060775 -86.515674 0.998151 3.484319
42000.0 0.998173 3.463629 0.060415 -86.536364 0.060415 -86.536364 0.998173 3.463629
42250.0 0.998195 3.443184 0.060059 -86.556809 0.060059 -86.556809 0.998195 3.443184
42500.0 0.998216 3.422978 0.059707 -86.577015 0.059707 -86.577015 0.998216 3.422978
42750.0 0.998237 3.403008 0.059359 -86.596985 0.059359 -86.596985 0.998237 3.403008
43000.0 0.998257 3.383269 0.059015 -86.616724 0.059015 -86.616724 0.998257 3.383269
43250.0 0.998277 3.363758 0.058675 -86.636236 0.058675 -86.636236 0.998277 3.363758
43500.0 0.998297 3.34447 0.058339 -86.655524 0.058339 -86.655524 0.998297 3.34447
43750.0 0.998316 3.325402 0.058007 -86.674592 0.058007 -86.674592 0.998316 3.325402
44000.0 0.998335 3.306549 0.057678 -86.693444 0.057678 -86.693444 0.998335 3.306549
44250.0 0.998354 3.287909 0.057353 -86.712084 0.057353 -86.712084 0.998354 3.287909
44500.0 0.998372 3.269478 0.057032 -86.730515 0.057032 -86.730515 0.998372 3.269478
44750.0 0.99839 3.251252 0.056715 -86.748741 0.056715 -86.748741 0.99839 3.251252
45000.0 0.998408 3.233228 0.056401 -86.766766 0.056401 -86.766766 0.998408 3.233228
45250.0 0.998426 3.215402 0.05609 -86.784591 0.05609 -86.784591 0.998426 3.215402
45500.0 0.998443 3.197772 0.055783 -86.802221 0.055783 -86.802221 0.998443 3.197772
45750.0 0.99846 3.180334 0.055479 -86.81966 0.055479 -86.81966 0.99846 3.180334
46000.0 0.998477 3.163085 0.055178 -86.836909 0.055178 -86.836909 0.998477 3.163085
46250.0 0.998493 3.146021 0.054881 -86.853972 0.054881 -86.853972 0.998493 3.146021
46500.0 0.998509 3.129141 0.054587 -86.870853 0.054587 -86.870853 0.998509 3.129141
46750.0 0.998525 3.112441 0.054296 -86.887553 0.054296 -86.887553 0.998525 3.112441
47000.0 0.998541 3.095917 0.054008 -86.904076 0.054008 -86.904076 0.998541 3.095917
47250.0 0.998556 3.079569 0.053723 -86.920425 0.053723 -86.920425 0.998556 3.079569
47500.0 0.998571 3.063391 0.053441 -86.936603 0.053441 -86.936603 0.998571 3.063391
47750.0 0.998586 3.047383 0.053162 -86.952611 0.053162 -86.952611 0.998586 3.047383
48000.0 0.998601 3.031541 0.052886 -86.968453 0.052886 -86.968453 0.998601 3.031541
48250.0 0.998615 3.015862 0.052612 -86.984132 0.052612 -86.984132 0.998615 3.015862
48500.0 0.998629 3.000345 0.052342 -86.999649 0.052342 -86.999649 0.998629 3.000345
48750.0 0.998643 2.984987 0.052074 -87.015007 0.052074 -87.015007 0.998643 2.984987
49000.0 0.998657 2.969784 0.051809 -87.03021 0.051809 -87.03021 0.998657 2.969784
49250.0 0.998671 2.954736 0.051547 -87.045258 0.051547 -87.045258 0.998671 2.954736
49500.0 0.998684 2.93984 0.051287 -87.060155 0.051287 -87.060155 0.998684 2.93984
49750.0 0.998697 2.925092 0.05103 -87.074902 0.05103 -87.074902 0.998697 2.925092
50000.0 0.99871 2.910492 0.050776 -87.089502 0.050776 -87.089502 0.99871 2.910492
50250.0 0.998723 2.896037 0.050524 -87.103958 0.050524 -87.103958 0.998723 2.896037
50500.0 0.998735 2.881724 0.050274 -87.11827 0.050274 -87.11827 0.998735 2.881724
50750.0 0.998748 2.867552 0.050027 -87.132442 0.050027 -87.132442 0.998748 2.867552
51000.0 0.99876 2.853519 0.049783 -87.146476 0.049783 -87.146476 0.99876 2.853519
51250.0 0.998772 2.839622 0.04954 -87.160372 0.04954 -87.160372 0.998772 2.839622
51500.0 0.998784 2.82586 0.049301 -87.174135 0.049301 -87.174135 0.998784 2.82586
51750.0 0.998796 2.81223 0.049063 -87.187764 0.049063 -87.187764 0.998796 2.81223
52000.0 0.998807 2.798731 0.048828 -87.201263 0.048828 -87.201263 0.998807 2.798731
52250.0 0.998819 2.785362 0.048595 -87.214633 0.048595 -87.214633 0.998819 2.785362
52500.0 0.99883 2.772119 0.048364 -87.227876 0.048364 -87.227876 0.99883 2.772119
52750.0 0.998841 2.759001 0.048135 -87.240993 0.048135 -87.240993 0.998841 2.759001
53000.0 0.998852 2.746007 0.047909 -87.253988 0.047909 -87.253988 0.998852 2.746007
53250.0 0.998862 2.733134 0.047684 -87.26686 0.047684 -87.26686 0.998862 2.733134
53500.0 0.998873 2.720382 0.047462 -87.279613 0.047462 -87.279613 0.998873 2.720382
53750.0 0.998883 2.707748 0.047242 -87.292247 0.047242 -87.292247 0.998883 2.707748
54000.0 0.998894 2.695231 0.047023 -87.304764 0.047023 -87.304764 0.998894 2.695231
54250.0 0.998904 2.682828 0.046807 -87.317166 0.046807 -87.317166 0.998904 2.682828
54500.0 0.998914 2.67054 0.046593 -87.329455 0.046593 -87.329455 0.998914 2.67054
54750.0 0.998924 2.658363 0.046381 -87.341632 0.046381 -87.341632 0.998924 2.658363
55000.0 0.998934 2.646297 0.04617 -87.353698 0.04617 -87.353698 0.998934 2.646297
55250.0 0.998943 2.634339 0.045962 -87.365655 0.045962 -87.365655 0.998943 2.634339
55500.0 0.998953 2.62249 0.045755 -87.377505 0.045755 -87.377505 0.998953 2.62249
55750.0 0.998962 2.610746 0.04555 -87.389249 0.04555 -87.389249 0.998962 2.610746
56000.0 0.998971 2.599107 0.045347 -87.400888 0.045347 -87.400888 0.998971 2.599107
56250.0 0.99898 2.587571 0.045146 -87.412424 0.045146 -87.412424 0.99898 2.587571
56500.0 0.998989 2.576137 0.044947 -87.423858 0.044947 -87.423858 0.998989 2.576137
56750.0 0.998998 2.564803 0.044749 -87.435191 0.044749 -87.435191 0.998998 2.564803
57000.0 0.999007 2.553569 0.044553 -87.446426 0.044553 -87.446426 0.999007 2.553569
57250.0 0.999016 2.542433 0.044359 -87.457562 0.044359 -87.457562 0.999016 2.542433
57500.0 0.999024 2.531393 0.044167 -87.468602 0.044167 -87.468602 0.999024 2.531393
57750.0 0.999033 2.520449 0.043976 -87.479546 0.043976 -87.479546 0.999033 2.520449
58000.0 0.999041 2.509599 0.043787 -87.490396 0.043787 -87.490396 0.999041 2.509599
58250.0 0.999049 2.498842 0.043599 -87.501153 0.043599 -87.501153 0.999049 2.498842
58500.0 0.999057 2.488176 0.043413 -87.511819 0.043413 -87.511819 0.999057 2.488176
58750.0 0.999065 2.477602 0.043229 -87.522393 0.043229 -87.522393 0.999065 2.477602
59000.0 0.999073 2.467116 0.043046 -87.532879 0.043046 -87.532879 0.999073 2.467116
