! File created by SignalIntegrity v1.4.3: Signal and Power Integrity Tools
! https://github.com/Nubis-Communications/SignalIntegrity
! 
! the calculations of this model are from:
! https://www.allaboutcircuits.com/tools/wire-self-inductance-calculator/
# MHz S MA R 50.0
0.0 1e-06 0.0 0.999999 0.0 0.999999 0.0 1e-06 0.0
500.0 0.011791 89.318935 0.999929 -0.67559 0.999929 -0.67559 0.011791 89.318935
1000.0 0.023577 88.646269 0.999721 -1.350993 0.999721 -1.350993 0.023577 88.646269
1500.0 0.035353 87.972155 0.999374 -2.026021 0.999374 -2.026021 0.035353 87.972155
2000.0 0.047115 87.298146 0.998888 -2.700486 0.998888 -2.700486 0.047115 87.298146
2500.0 0.058857 86.624702 0.998265 -3.374203 0.998265 -3.374203 0.058857 86.624702
3000.0 0.070575 85.9521 0.997505 -4.046987 0.997505 -4.046987 0.070575 85.9521
3500.0 0.082263 85.280562 0.99661 -4.718656 0.99661 -4.718656 0.082263 85.280562
4000.0 0.093918 84.610289 0.995579 -5.389027 0.995579 -5.389027 0.093918 84.610289
4500.0 0.105534 83.941471 0.994415 -6.057921 0.994415 -6.057921 0.105534 83.941471
5000.0 0.117107 83.27429 0.993118 -6.725162 0.993118 -6.725162 0.117107 83.27429
5500.0 0.128632 82.608926 0.991691 -7.390576 0.991691 -7.390576 0.128632 82.608926
6000.0 0.140106 81.945552 0.990135 -8.053991 0.990135 -8.053991 0.140106 81.945552
6500.0 0.151524 81.284339 0.988453 -8.71524 0.988453 -8.71524 0.151524 81.284339
7000.0 0.162881 80.625452 0.986645 -9.374157 0.986645 -9.374157 0.162881 80.625452
7500.0 0.174174 79.969053 0.984714 -10.030582 0.984714 -10.030582 0.174174 79.969053
8000.0 0.185398 79.315301 0.982662 -10.684357 0.982662 -10.684357 0.185398 79.315301
8500.0 0.196551 78.664349 0.980493 -11.335329 0.980493 -11.335329 0.196551 78.664349
9000.0 0.207627 78.016346 0.978207 -11.98335 0.978207 -11.98335 0.207627 78.016346
9500.0 0.218625 77.371437 0.975808 -12.628274 0.975808 -12.628274 0.218625 77.371437
10000.0 0.22954 76.729764 0.973298 -13.269962 0.973298 -13.269962 0.22954 76.729764
10500.0 0.240368 76.091461 0.970681 -13.908279 0.970681 -13.908279 0.240368 76.091461
11000.0 0.251108 75.456659 0.967958 -14.543093 0.967958 -14.543093 0.251108 75.456659
11500.0 0.261756 74.825484 0.965133 -15.174278 0.965133 -15.174278 0.261756 74.825484
12000.0 0.272309 74.198057 0.962209 -15.801715 0.962209 -15.801715 0.272309 74.198057
12500.0 0.282765 73.574495 0.959188 -16.425286 0.959188 -16.425286 0.282765 73.574495
13000.0 0.293121 72.954907 0.956074 -17.044882 0.956074 -17.044882 0.293121 72.954907
13500.0 0.303375 72.3394 0.95287 -17.660397 0.95287 -17.660397 0.303375 72.3394
14000.0 0.313524 71.728074 0.949579 -18.27173 0.949579 -18.27173 0.313524 71.728074
14500.0 0.323567 71.121025 0.946204 -18.878786 0.946204 -18.878786 0.323567 71.121025
15000.0 0.333502 70.518342 0.942748 -19.481475 0.942748 -19.481475 0.333502 70.518342
15500.0 0.343327 69.920111 0.939215 -20.079712 0.939215 -20.079712 0.343327 69.920111
16000.0 0.353041 69.326412 0.935607 -20.673417 0.935607 -20.673417 0.353041 69.326412
16500.0 0.362642 68.737318 0.931928 -21.262516 0.931928 -21.262516 0.362642 68.737318
17000.0 0.372128 68.152901 0.92818 -21.846938 0.92818 -21.846938 0.372128 68.152901
17500.0 0.3815 67.573224 0.924368 -22.426619 0.924368 -22.426619 0.3815 67.573224
18000.0 0.390755 66.998348 0.920494 -23.0015 0.920494 -23.0015 0.390755 66.998348
18500.0 0.399894 66.428328 0.916561 -23.571524 0.916561 -23.571524 0.399894 66.428328
19000.0 0.408914 65.863213 0.912572 -24.136643 0.912572 -24.136643 0.408914 65.863213
19500.0 0.417817 65.303049 0.90853 -24.696811 0.90853 -24.696811 0.417817 65.303049
20000.0 0.4266 64.747877 0.904439 -25.251987 0.904439 -25.251987 0.4266 64.747877
20500.0 0.435265 64.197733 0.900302 -25.802134 0.900302 -25.802134 0.435265 64.197733
21000.0 0.44381 63.65265 0.89612 -26.34722 0.89612 -26.34722 0.44381 63.65265
21500.0 0.452236 63.112655 0.891897 -26.887218 0.891897 -26.887218 0.452236 63.112655
22000.0 0.460542 62.577772 0.887637 -27.422104 0.887637 -27.422104 0.460542 62.577772
22500.0 0.46873 62.04802 0.883341 -27.951858 0.883341 -27.951858 0.46873 62.04802
23000.0 0.476798 61.523416 0.879012 -28.476465 0.879012 -28.476465 0.476798 61.523416
23500.0 0.484747 61.003972 0.874653 -28.995912 0.874653 -28.995912 0.484747 61.003972
24000.0 0.492578 60.489695 0.870267 -29.510191 0.870267 -29.510191 0.492578 60.489695
24500.0 0.500292 59.980591 0.865856 -30.019298 0.865856 -30.019298 0.500292 59.980591
25000.0 0.507888 59.476661 0.861422 -30.52323 0.861422 -30.52323 0.507888 59.476661
25500.0 0.515367 58.977904 0.856969 -31.021989 0.856969 -31.021989 0.515367 58.977904
26000.0 0.52273 58.484314 0.852497 -31.515581 0.852497 -31.515581 0.52273 58.484314
26500.0 0.529979 57.995884 0.84801 -32.004012 0.84801 -32.004012 0.529979 57.995884
27000.0 0.537113 57.512604 0.84351 -32.487295 0.84351 -32.487295 0.537113 57.512604
27500.0 0.544133 57.03446 0.838998 -32.965441 0.838998 -32.965441 0.544133 57.03446
28000.0 0.551041 56.561436 0.834477 -33.438467 0.834477 -33.438467 0.551041 56.561436
28500.0 0.557838 56.093513 0.829949 -33.906391 0.829949 -33.906391 0.557838 56.093513
29000.0 0.564524 55.630672 0.825416 -34.369234 0.825416 -34.369234 0.564524 55.630672
29500.0 0.571101 55.172889 0.820879 -34.827018 0.820879 -34.827018 0.571101 55.172889
30000.0 0.577569 54.720139 0.816341 -35.27977 0.816341 -35.27977 0.577569 54.720139
30500.0 0.583931 54.272395 0.811802 -35.727515 0.811802 -35.727515 0.583931 54.272395
31000.0 0.590187 53.829629 0.807266 -36.170282 0.807266 -36.170282 0.590187 53.829629
31500.0 0.596338 53.39181 0.802732 -36.608103 0.802732 -36.608103 0.596338 53.39181
32000.0 0.602386 52.958906 0.798204 -37.041008 0.798204 -37.041008 0.602386 52.958906
32500.0 0.608333 52.530883 0.793681 -37.469033 0.793681 -37.469033 0.608333 52.530883
33000.0 0.614178 52.107706 0.789167 -37.892211 0.789167 -37.892211 0.614178 52.107706
33500.0 0.619924 51.689338 0.784661 -38.31058 0.784661 -38.31058 0.619924 51.689338
34000.0 0.625572 51.275743 0.780166 -38.724177 0.780166 -38.724177 0.625572 51.275743
34500.0 0.631123 50.86688 0.775682 -39.133041 0.775682 -39.133041 0.631123 50.86688
35000.0 0.636579 50.46271 0.77121 -39.537211 0.77121 -39.537211 0.636579 50.46271
35500.0 0.641941 50.063193 0.766753 -39.936729 0.766753 -39.936729 0.641941 50.063193
36000.0 0.647211 49.668287 0.76231 -40.331637 0.76231 -40.331637 0.647211 49.668287
36500.0 0.652389 49.277949 0.757883 -40.721976 0.757883 -40.721976 0.652389 49.277949
37000.0 0.657478 48.892136 0.753473 -41.10779 0.753473 -41.10779 0.657478 48.892136
37500.0 0.662478 48.510804 0.749081 -41.489123 0.749081 -41.489123 0.662478 48.510804
38000.0 0.667391 48.133909 0.744707 -41.866019 0.744707 -41.866019 0.667391 48.133909
38500.0 0.672219 47.761406 0.740352 -42.238523 0.740352 -42.238523 0.672219 47.761406
39000.0 0.676962 47.393249 0.736017 -42.606681 0.736017 -42.606681 0.676962 47.393249
39500.0 0.681622 47.029393 0.731703 -42.970538 0.731703 -42.970538 0.681622 47.029393
40000.0 0.686201 46.669791 0.727411 -43.33014 0.727411 -43.33014 0.686201 46.669791
40500.0 0.6907 46.314398 0.723141 -43.685534 0.723141 -43.685534 0.6907 46.314398
41000.0 0.69512 45.963167 0.718893 -44.036767 0.718893 -44.036767 0.69512 45.963167
41500.0 0.699462 45.61605 0.714669 -44.383884 0.714669 -44.383884 0.699462 45.61605
42000.0 0.703729 45.273002 0.710468 -44.726933 0.710468 -44.726933 0.703729 45.273002
42500.0 0.70792 44.933974 0.706291 -45.065961 0.706291 -45.065961 0.70792 44.933974
43000.0 0.712038 44.598921 0.70214 -45.401015 0.70214 -45.401015 0.712038 44.598921
43500.0 0.716084 44.267796 0.698013 -45.732142 0.698013 -45.732142 0.716084 44.267796
44000.0 0.720059 43.94055 0.693912 -46.059388 0.693912 -46.059388 0.720059 43.94055
44500.0 0.723965 43.617138 0.689836 -46.3828 0.689836 -46.3828 0.723965 43.617138
45000.0 0.727802 43.297513 0.685787 -46.702426 0.685787 -46.702426 0.727802 43.297513
45500.0 0.731572 42.981628 0.681764 -47.018312 0.681764 -47.018312 0.731572 42.981628
46000.0 0.735276 42.669437 0.677768 -47.330504 0.677768 -47.330504 0.735276 42.669437
46500.0 0.738915 42.360893 0.673798 -47.639048 0.673798 -47.639048 0.738915 42.360893
47000.0 0.74249 42.055951 0.669856 -47.94399 0.669856 -47.94399 0.74249 42.055951
47500.0 0.746004 41.754565 0.665941 -48.245377 0.665941 -48.245377 0.746004 41.754565
48000.0 0.749456 41.45669 0.662054 -48.543253 0.662054 -48.543253 0.749456 41.45669
48500.0 0.752848 41.16228 0.658194 -48.837664 0.658194 -48.837664 0.752848 41.16228
49000.0 0.756181 40.87129 0.654362 -49.128654 0.654362 -49.128654 0.756181 40.87129
49500.0 0.759456 40.583676 0.650558 -49.416268 0.650558 -49.416268 0.759456 40.583676
50000.0 0.762675 40.299394 0.646782 -49.700551 0.646782 -49.700551 0.762675 40.299394
50500.0 0.765837 40.0184 0.643034 -49.981545 0.643034 -49.981545 0.765837 40.0184
51000.0 0.768946 39.740651 0.639314 -50.259295 0.639314 -50.259295 0.768946 39.740651
51500.0 0.772 39.466103 0.635622 -50.533844 0.635622 -50.533844 0.772 39.466103
52000.0 0.775002 39.194714 0.631958 -50.805233 0.631958 -50.805233 0.775002 39.194714
52500.0 0.777953 38.926442 0.628322 -51.073506 0.628322 -51.073506 0.777953 38.926442
53000.0 0.780853 38.661244 0.624715 -51.338704 0.624715 -51.338704 0.780853 38.661244
53500.0 0.783703 38.39908 0.621135 -51.600868 0.621135 -51.600868 0.783703 38.39908
54000.0 0.786504 38.139909 0.617584 -51.860041 0.617584 -51.860041 0.786504 38.139909
54500.0 0.789258 37.883689 0.614061 -52.116261 0.614061 -52.116261 0.789258 37.883689
55000.0 0.791965 37.630381 0.610565 -52.369569 0.610565 -52.369569 0.791965 37.630381
55500.0 0.794627 37.379946 0.607098 -52.620005 0.607098 -52.620005 0.794627 37.379946
56000.0 0.797243 37.132343 0.603658 -52.867608 0.603658 -52.867608 0.797243 37.132343
56500.0 0.799815 36.887535 0.600246 -53.112416 0.600246 -53.112416 0.799815 36.887535
57000.0 0.802343 36.645483 0.596862 -53.354469 0.596862 -53.354469 0.802343 36.645483
57500.0 0.80483 36.40615 0.593505 -53.593803 0.593505 -53.593803 0.80483 36.40615
58000.0 0.807274 36.169497 0.590176 -53.830456 0.590176 -53.830456 0.807274 36.169497
58500.0 0.809678 35.935489 0.586874 -54.064464 0.586874 -54.064464 0.809678 35.935489
59000.0 0.812041 35.704088 0.583599 -54.295865 0.583599 -54.295865 0.812041 35.704088
59500.0 0.814366 35.475259 0.580351 -54.524695 0.580351 -54.524695 0.814366 35.475259
60000.0 0.816652 35.248967 0.57713 -54.750987 0.57713 -54.750987 0.816652 35.248967
60500.0 0.818899 35.025176 0.573936 -54.974779 0.573936 -54.974779 0.818899 35.025176
61000.0 0.82111 34.803852 0.570769 -55.196103 0.570769 -55.196103 0.82111 34.803852
61500.0 0.823285 34.58496 0.567628 -55.414995 0.567628 -55.414995 0.823285 34.58496
62000.0 0.825424 34.368468 0.564513 -55.631488 0.564513 -55.631488 0.825424 34.368468
62500.0 0.827528 34.154342 0.561424 -55.845614 0.561424 -55.845614 0.827528 34.154342
63000.0 0.829597 33.942549 0.558361 -56.057408 0.558361 -56.057408 0.829597 33.942549
63500.0 0.831633 33.733057 0.555324 -56.2669 0.555324 -56.2669 0.831633 33.733057
64000.0 0.833636 33.525835 0.552313 -56.474122 0.552313 -56.474122 0.833636 33.525835
64500.0 0.835607 33.32085 0.549327 -56.679107 0.549327 -56.679107 0.835607 33.32085
65000.0 0.837546 33.118073 0.546366 -56.881885 0.546366 -56.881885 0.837546 33.118073
65500.0 0.839454 32.917472 0.54343 -57.082486 0.54343 -57.082486 0.839454 32.917472
66000.0 0.841331 32.719018 0.54052 -57.280941 0.54052 -57.280941 0.841331 32.719018
66500.0 0.843178 32.522681 0.537633 -57.477278 0.537633 -57.477278 0.843178 32.522681
67000.0 0.844996 32.328431 0.534772 -57.671528 0.534772 -57.671528 0.844996 32.328431
67500.0 0.846785 32.136241 0.531934 -57.863718 0.531934 -57.863718 0.846785 32.136241
68000.0 0.848546 31.946082 0.529121 -58.053878 0.529121 -58.053878 0.848546 31.946082
68500.0 0.850279 31.757925 0.526332 -58.242035 0.526332 -58.242035 0.850279 31.757925
69000.0 0.851985 31.571744 0.523566 -58.428216 0.523566 -58.428216 0.851985 31.571744
69500.0 0.853664 31.387512 0.520824 -58.612449 0.520824 -58.612449 0.853664 31.387512
70000.0 0.855317 31.205201 0.518105 -58.79476 0.518105 -58.79476 0.855317 31.205201
70500.0 0.856944 31.024785 0.515409 -58.975176 0.515409 -58.975176 0.856944 31.024785
71000.0 0.858546 30.846239 0.512736 -59.153722 0.512736 -59.153722 0.858546 30.846239
71500.0 0.860123 30.669537 0.510086 -59.330425 0.510086 -59.330425 0.860123 30.669537
72000.0 0.861676 30.494654 0.507458 -59.505308 0.507458 -59.505308 0.861676 30.494654
72500.0 0.863205 30.321565 0.504853 -59.678397 0.504853 -59.678397 0.863205 30.321565
73000.0 0.864711 30.150246 0.502269 -59.849717 0.502269 -59.849717 0.864711 30.150246
73500.0 0.866194 29.980673 0.499708 -60.01929 0.499708 -60.01929 0.866194 29.980673
74000.0 0.867654 29.812822 0.497168 -60.187141 0.497168 -60.187141 0.867654 29.812822
74500.0 0.869092 29.64667 0.49465 -60.353294 0.49465 -60.353294 0.869092 29.64667
75000.0 0.870508 29.482194 0.492153 -60.51777 0.492153 -60.51777 0.870508 29.482194
75500.0 0.871903 29.319371 0.489677 -60.680593 0.489677 -60.680593 0.871903 29.319371
76000.0 0.873278 29.15818 0.487222 -60.841784 0.487222 -60.841784 0.873278 29.15818
76500.0 0.874631 28.998598 0.484788 -61.001367 0.484788 -61.001367 0.874631 28.998598
77000.0 0.875965 28.840603 0.482375 -61.159361 0.482375 -61.159361 0.875965 28.840603
77500.0 0.877278 28.684176 0.479981 -61.315789 0.479981 -61.315789 0.877278 28.684176
78000.0 0.878573 28.529294 0.477608 -61.470671 0.477608 -61.470671 0.878573 28.529294
78500.0 0.879848 28.375937 0.475255 -61.624028 0.475255 -61.624028 0.879848 28.375937
79000.0 0.881104 28.224086 0.472921 -61.77588 0.472921 -61.77588 0.881104 28.224086
79500.0 0.882343 28.073719 0.470607 -61.926247 0.470607 -61.926247 0.882343 28.073719
80000.0 0.883563 27.924818 0.468313 -62.075148 0.468313 -62.075148 0.883563 27.924818
80500.0 0.884765 27.777362 0.466037 -62.222604 0.466037 -62.222604 0.884765 27.777362
81000.0 0.88595 27.631334 0.463781 -62.368633 0.463781 -62.368633 0.88595 27.631334
81500.0 0.887118 27.486713 0.461543 -62.513253 0.461543 -62.513253 0.887118 27.486713
82000.0 0.888269 27.343483 0.459324 -62.656484 0.459324 -62.656484 0.888269 27.343483
82500.0 0.889403 27.201624 0.457123 -62.798343 0.457123 -62.798343 0.889403 27.201624
83000.0 0.890521 27.061119 0.454941 -62.938848 0.454941 -62.938848 0.890521 27.061119
83500.0 0.891624 26.92195 0.452776 -63.078018 0.452776 -63.078018 0.891624 26.92195
84000.0 0.892711 26.784099 0.45063 -63.215868 0.45063 -63.215868 0.892711 26.784099
84500.0 0.893782 26.64755 0.448501 -63.352417 0.448501 -63.352417 0.893782 26.64755
85000.0 0.894838 26.512286 0.44639 -63.487681 0.44639 -63.487681 0.894838 26.512286
85500.0 0.89588 26.378291 0.444296 -63.621677 0.444296 -63.621677 0.89588 26.378291
86000.0 0.896907 26.245547 0.442219 -63.754421 0.442219 -63.754421 0.896907 26.245547
86500.0 0.89792 26.114039 0.440159 -63.885929 0.440159 -63.885929 0.89792 26.114039
87000.0 0.898918 25.983751 0.438116 -64.016217 0.438116 -64.016217 0.898918 25.983751
87500.0 0.899903 25.854668 0.43609 -64.1453 0.43609 -64.1453 0.899903 25.854668
88000.0 0.900874 25.726774 0.43408 -64.273195 0.43408 -64.273195 0.900874 25.726774
88500.0 0.901832 25.600054 0.432087 -64.399915 0.432087 -64.399915 0.901832 25.600054
89000.0 0.902777 25.474493 0.430109 -64.525476 0.430109 -64.525476 0.902777 25.474493
89500.0 0.903708 25.350077 0.428148 -64.649892 0.428148 -64.649892 0.903708 25.350077
90000.0 0.904628 25.226791 0.426202 -64.773178 0.426202 -64.773178 0.904628 25.226791
90500.0 0.905534 25.104621 0.424272 -64.895349 0.424272 -64.895349 0.905534 25.104621
91000.0 0.906429 24.983553 0.422358 -65.016417 0.422358 -65.016417 0.906429 24.983553
91500.0 0.907311 24.863573 0.420459 -65.136397 0.420459 -65.136397 0.907311 24.863573
92000.0 0.908182 24.744667 0.418575 -65.255303 0.418575 -65.255303 0.908182 24.744667
92500.0 0.909041 24.626823 0.416706 -65.373147 0.416706 -65.373147 0.909041 24.626823
93000.0 0.909888 24.510027 0.414852 -65.489943 0.414852 -65.489943 0.909888 24.510027
93500.0 0.910725 24.394266 0.413013 -65.605704 0.413013 -65.605704 0.910725 24.394266
94000.0 0.91155 24.279528 0.411189 -65.720443 0.411189 -65.720443 0.91155 24.279528
94500.0 0.912364 24.165799 0.409378 -65.834172 0.409378 -65.834172 0.912364 24.165799
95000.0 0.913168 24.053067 0.407583 -65.946904 0.407583 -65.946904 0.913168 24.053067
95500.0 0.913961 23.941321 0.405801 -66.05865 0.405801 -66.05865 0.913961 23.941321
96000.0 0.914744 23.830548 0.404033 -66.169423 0.404033 -66.169423 0.914744 23.830548
96500.0 0.915517 23.720736 0.402279 -66.279235 0.402279 -66.279235 0.915517 23.720736
97000.0 0.91628 23.611874 0.400539 -66.388097 0.400539 -66.388097 0.91628 23.611874
97500.0 0.917032 23.50395 0.398812 -66.496021 0.398812 -66.496021 0.917032 23.50395
98000.0 0.917776 23.396953 0.397099 -66.603019 0.397099 -66.603019 0.917776 23.396953
98500.0 0.918509 23.290872 0.395399 -66.7091 0.395399 -66.7091 0.918509 23.290872
99000.0 0.919233 23.185695 0.393712 -66.814277 0.393712 -66.814277 0.919233 23.185695
99500.0 0.919949 23.081413 0.392039 -66.91856 0.392039 -66.91856 0.919949 23.081413
100000.0 0.920655 22.978013 0.390378 -67.021959 0.390378 -67.021959 0.920655 22.978013
