! File created by SignalIntegrity v1.4.3: Signal and Power Integrity Tools
! https://github.com/Nubis-Communications/SignalIntegrity
! 
! the calculations of this model are from:
! https://www.allaboutcircuits.com/tools/wire-self-inductance-calculator/
# MHz S MA R 50.0
0.0 0.000114 0.0 0.999886 0.0 0.999886 0.0 0.000114 0.0
500.0 0.022968 88.399434 0.999622 -1.316088 0.999622 -1.316088 0.022968 88.399434
1000.0 0.0459 87.226971 0.998832 -2.630789 0.998832 -2.630789 0.0459 87.226971
1500.0 0.068759 85.96245 0.997519 -3.942724 0.997519 -3.942724 0.068759 85.96245
2000.0 0.091511 84.678349 0.99569 -5.250531 0.99569 -5.250531 0.091511 84.678349
2500.0 0.11412 83.390228 0.993354 -6.552876 0.993354 -6.552876 0.11412 83.390228
3000.0 0.136553 82.10413 0.99052 -7.848457 0.99052 -7.848457 0.136553 82.10413
3500.0 0.158779 80.823348 0.987202 -9.136012 0.987202 -9.136012 0.158779 80.823348
4000.0 0.180765 79.55011 0.983414 -10.41433 0.983414 -10.41433 0.180765 79.55011
4500.0 0.202484 78.28614 0.979174 -11.682251 0.979174 -11.682251 0.202484 78.28614
5000.0 0.223908 77.032877 0.974499 -12.938675 0.974499 -12.938675 0.223908 77.032877
5500.0 0.245012 75.791569 0.969409 -14.182569 0.969409 -14.182569 0.245012 75.791569
6000.0 0.265774 74.56333 0.963925 -15.412963 0.963925 -15.412963 0.265774 74.56333
6500.0 0.286173 73.349155 0.958069 -16.628962 0.958069 -16.628962 0.286173 73.349155
7000.0 0.30619 72.149939 0.951862 -17.829741 0.951862 -17.829741 0.30619 72.149939
7500.0 0.325808 70.966486 0.945328 -19.014548 0.945328 -19.014548 0.325808 70.966486
8000.0 0.345015 69.799511 0.93849 -20.182709 0.93849 -20.182709 0.345015 69.799511
8500.0 0.363798 68.649644 0.931372 -21.333622 0.931372 -21.333622 0.363798 68.649644
9000.0 0.382147 67.517438 0.923996 -22.466758 0.923996 -22.466758 0.382147 67.517438
9500.0 0.400056 66.403368 0.916386 -23.581659 0.916386 -23.581659 0.400056 66.403368
10000.0 0.417517 65.307836 0.908565 -24.67794 0.908565 -24.67794 0.417517 65.307836
10500.0 0.434528 64.231174 0.900555 -25.755279 0.900555 -25.755279 0.434528 64.231174
11000.0 0.451087 63.173646 0.892378 -26.813423 0.892378 -26.813423 0.451087 63.173646
11500.0 0.467192 62.135455 0.884055 -27.852176 0.884055 -27.852176 0.467192 62.135455
12000.0 0.482845 61.116742 0.875606 -28.871404 0.875606 -28.871404 0.482845 61.116742
12500.0 0.498049 60.117596 0.86705 -29.871025 0.86705 -29.871025 0.498049 60.117596
13000.0 0.512807 59.138051 0.858406 -30.851007 0.858406 -30.851007 0.512807 59.138051
13500.0 0.527124 58.178096 0.849691 -31.811368 0.849691 -31.811368 0.527124 58.178096
14000.0 0.541006 57.237673 0.840923 -32.752167 0.840923 -32.752167 0.541006 57.237673
14500.0 0.55446 56.316685 0.832116 -33.673505 0.832116 -33.673505 0.55446 56.316685
15000.0 0.567492 55.415 0.823285 -34.575517 0.823285 -34.575517 0.567492 55.415
15500.0 0.580111 54.532451 0.814444 -35.458372 0.814444 -35.458372 0.580111 54.532451
16000.0 0.592326 53.668843 0.805606 -36.322267 0.805606 -36.322267 0.592326 53.668843
16500.0 0.604146 52.823952 0.796783 -37.167427 0.796783 -37.167427 0.604146 52.823952
17000.0 0.61558 51.997535 0.787984 -37.994098 0.787984 -37.994098 0.61558 51.997535
17500.0 0.626638 51.189324 0.779221 -38.802548 0.779221 -38.802548 0.626638 51.189324
18000.0 0.637331 50.399037 0.770503 -39.593061 0.770503 -39.593061 0.637331 50.399037
18500.0 0.647667 49.626375 0.761837 -40.365937 0.761837 -40.365937 0.647667 49.626375
19000.0 0.657658 48.871027 0.753231 -41.121486 0.753231 -41.121486 0.657658 48.871027
19500.0 0.667313 48.132674 0.744692 -41.860032 0.744692 -41.860032 0.667313 48.132674
20000.0 0.676643 47.410984 0.736227 -42.581904 0.736227 -42.581904 0.676643 47.410984
20500.0 0.685659 46.705621 0.72784 -43.28744 0.72784 -43.28744 0.685659 46.705621
21000.0 0.694369 46.016246 0.719537 -43.976981 0.719537 -43.976981 0.694369 46.016246
21500.0 0.702785 45.342513 0.711321 -44.650871 0.711321 -44.650871 0.702785 45.342513
22000.0 0.710916 44.684077 0.703197 -45.309457 0.703197 -45.309457 0.710916 44.684077
22500.0 0.718771 44.040591 0.695168 -45.953087 0.695168 -45.953087 0.718771 44.040591
23000.0 0.72636 43.411708 0.687236 -46.582108 0.687236 -46.582108 0.72636 43.411708
23500.0 0.733693 42.797084 0.679404 -47.196864 0.679404 -47.196864 0.733693 42.797084
24000.0 0.740778 42.196375 0.671674 -47.797698 0.671674 -47.797698 0.740778 42.196375
24500.0 0.747624 41.609243 0.664047 -48.384951 0.664047 -48.384951 0.747624 41.609243
25000.0 0.754239 41.035352 0.656525 -48.958958 0.656525 -48.958958 0.754239 41.035352
25500.0 0.760633 40.47437 0.649108 -49.520052 0.649108 -49.520052 0.760633 40.47437
26000.0 0.766813 39.925971 0.641797 -50.068558 0.641797 -50.068558 0.766813 39.925971
26500.0 0.772787 39.389833 0.634593 -50.604799 0.634593 -50.604799 0.772787 39.389833
27000.0 0.778562 38.865641 0.627496 -51.129091 0.627496 -51.129091 0.778562 38.865641
27500.0 0.784146 38.353084 0.620506 -51.641744 0.620506 -51.641744 0.784146 38.353084
28000.0 0.789546 37.851859 0.613622 -52.143061 0.613622 -52.143061 0.789546 37.851859
28500.0 0.794768 37.361668 0.606844 -52.633341 0.606844 -52.633341 0.794768 37.361668
29000.0 0.79982 36.882221 0.600172 -53.112874 0.600172 -53.112874 0.79982 36.882221
29500.0 0.804707 36.413233 0.593605 -53.581945 0.593605 -53.581945 0.804707 36.413233
30000.0 0.809436 35.954427 0.587142 -54.040831 0.587142 -54.040831 0.809436 35.954427
30500.0 0.814012 35.505532 0.580782 -54.489805 0.580782 -54.489805 0.814012 35.505532
31000.0 0.818442 35.066282 0.574524 -54.929129 0.574524 -54.929129 0.818442 35.066282
31500.0 0.82273 34.636422 0.568367 -55.359063 0.568367 -55.359063 0.82273 34.636422
32000.0 0.826883 34.215699 0.56231 -55.779856 0.56231 -55.779856 0.826883 34.215699
32500.0 0.830904 33.80387 0.556352 -56.191754 0.556352 -56.191754 0.830904 33.80387
33000.0 0.8348 33.400696 0.550491 -56.594994 0.550491 -56.594994 0.8348 33.400696
33500.0 0.838574 33.005947 0.544726 -56.989807 0.544726 -56.989807 0.838574 33.005947
34000.0 0.842231 32.619397 0.539056 -57.37642 0.539056 -57.37642 0.842231 32.619397
34500.0 0.845775 32.240828 0.533479 -57.75505 0.533479 -57.75505 0.845775 32.240828
35000.0 0.849211 31.870026 0.527994 -58.12591 0.527994 -58.12591 0.849211 31.870026
35500.0 0.852542 31.506787 0.5226 -58.489206 0.5226 -58.489206 0.852542 31.506787
36000.0 0.855772 31.150908 0.517294 -58.84514 0.517294 -58.84514 0.855772 31.150908
36500.0 0.858905 30.802196 0.512076 -59.193907 0.512076 -59.193907 0.858905 30.802196
37000.0 0.861945 30.460461 0.506944 -59.535695 0.506944 -59.535695 0.861945 30.460461
37500.0 0.864895 30.125519 0.501896 -59.870688 0.501896 -59.870688 0.864895 30.125519
38000.0 0.867757 29.797191 0.496931 -60.199066 0.496931 -60.199066 0.867757 29.797191
38500.0 0.870536 29.475306 0.492048 -60.521 0.492048 -60.521 0.870536 29.475306
39000.0 0.873234 29.159694 0.487245 -60.836659 0.487245 -60.836659 0.873234 29.159694
39500.0 0.875854 28.850193 0.482521 -61.146206 0.482521 -61.146206 0.875854 28.850193
40000.0 0.878399 28.546645 0.477874 -61.449799 0.477874 -61.449799 0.878399 28.546645
40500.0 0.880871 28.248895 0.473303 -61.747592 0.473303 -61.747592 0.880871 28.248895
41000.0 0.883273 27.956796 0.468806 -62.039735 0.468806 -62.039735 0.883273 27.956796
41500.0 0.885607 27.670202 0.464382 -62.32637 0.464382 -62.32637 0.885607 27.670202
42000.0 0.887877 27.388974 0.460029 -62.607639 0.460029 -62.607639 0.887877 27.388974
42500.0 0.890083 27.112975 0.455746 -62.883678 0.455746 -62.883678 0.890083 27.112975
43000.0 0.892228 26.842073 0.451533 -63.154619 0.451533 -63.154619 0.892228 26.842073
43500.0 0.894315 26.57614 0.447387 -63.42059 0.447387 -63.42059 0.894315 26.57614
44000.0 0.896345 26.315051 0.443307 -63.681716 0.443307 -63.681716 0.896345 26.315051
44500.0 0.89832 26.058687 0.439292 -63.938116 0.439292 -63.938116 0.89832 26.058687
45000.0 0.900242 25.80693 0.43534 -64.189909 0.43534 -64.189909 0.900242 25.80693
45500.0 0.902113 25.559666 0.431451 -64.437208 0.431451 -64.437208 0.902113 25.559666
46000.0 0.903934 25.316785 0.427623 -64.680122 0.427623 -64.680122 0.903934 25.316785
46500.0 0.905708 25.078181 0.423855 -64.91876 0.423855 -64.91876 0.905708 25.078181
47000.0 0.907435 24.843748 0.420145 -65.153225 0.420145 -65.153225 0.907435 24.843748
47500.0 0.909117 24.613388 0.416493 -65.383618 0.416493 -65.383618 0.909117 24.613388
48000.0 0.910756 24.387 0.412898 -65.610036 0.412898 -65.610036 0.910756 24.387
48500.0 0.912353 24.164491 0.409358 -65.832576 0.409358 -65.832576 0.912353 24.164491
49000.0 0.913909 23.945769 0.405872 -66.051329 0.405872 -66.051329 0.913909 23.945769
49500.0 0.915427 23.730742 0.402439 -66.266384 0.402439 -66.266384 0.915427 23.730742
50000.0 0.916906 23.519326 0.399058 -66.477829 0.399058 -66.477829 0.916906 23.519326
50500.0 0.918348 23.311435 0.395729 -66.685749 0.395729 -66.685749 0.918348 23.311435
51000.0 0.919755 23.106986 0.392449 -66.890225 0.392449 -66.890225 0.919755 23.106986
51500.0 0.921127 22.905901 0.389219 -67.091337 0.389219 -67.091337 0.921127 22.905901
52000.0 0.922465 22.708101 0.386036 -67.289163 0.386036 -67.289163 0.922465 22.708101
52500.0 0.923771 22.513512 0.382901 -67.483778 0.382901 -67.483778 0.923771 22.513512
53000.0 0.925046 22.322061 0.379812 -67.675256 0.379812 -67.675256 0.925046 22.322061
53500.0 0.92629 22.133675 0.376769 -67.863666 0.376769 -67.863666 0.92629 22.133675
54000.0 0.927504 21.948287 0.37377 -68.049079 0.37377 -68.049079 0.927504 21.948287
54500.0 0.92869 21.765828 0.370814 -68.231562 0.370814 -68.231562 0.92869 21.765828
55000.0 0.929848 21.586235 0.367901 -68.411179 0.367901 -68.411179 0.929848 21.586235
55500.0 0.930979 21.409442 0.36503 -68.587995 0.36503 -68.587995 0.930979 21.409442
56000.0 0.932084 21.235389 0.3622 -68.762071 0.3622 -68.762071 0.932084 21.235389
56500.0 0.933164 21.064016 0.359411 -68.933467 0.359411 -68.933467 0.933164 21.064016
57000.0 0.934218 20.895263 0.356661 -69.102242 0.356661 -69.102242 0.934218 20.895263
57500.0 0.935249 20.729074 0.353949 -69.268452 0.353949 -69.268452 0.935249 20.729074
58000.0 0.936257 20.565395 0.351276 -69.432153 0.351276 -69.432153 0.936257 20.565395
58500.0 0.937242 20.40417 0.34864 -69.593398 0.34864 -69.593398 0.937242 20.40417
59000.0 0.938205 20.245349 0.346041 -69.75224 0.346041 -69.75224 0.938205 20.245349
59500.0 0.939147 20.088879 0.343477 -69.90873 0.343477 -69.90873 0.939147 20.088879
60000.0 0.940068 19.934712 0.340949 -70.062918 0.340949 -70.062918 0.940068 19.934712
60500.0 0.940969 19.782798 0.338455 -70.214851 0.338455 -70.214851 0.940969 19.782798
61000.0 0.94185 19.633092 0.335996 -70.364576 0.335996 -70.364576 0.94185 19.633092
61500.0 0.942712 19.485547 0.333569 -70.51214 0.333569 -70.51214 0.942712 19.485547
62000.0 0.943556 19.340119 0.331175 -70.657587 0.331175 -70.657587 0.943556 19.340119
62500.0 0.944382 19.196764 0.328813 -70.80096 0.328813 -70.80096 0.944382 19.196764
63000.0 0.94519 19.05544 0.326483 -70.942302 0.326483 -70.942302 0.94519 19.05544
63500.0 0.945982 18.916106 0.324183 -71.081654 0.324183 -71.081654 0.945982 18.916106
64000.0 0.946756 18.778722 0.321914 -71.219055 0.321914 -71.219055 0.946756 18.778722
64500.0 0.947515 18.643249 0.319675 -71.354546 0.319675 -71.354546 0.947515 18.643249
65000.0 0.948258 18.509648 0.317464 -71.488164 0.317464 -71.488164 0.948258 18.509648
65500.0 0.948986 18.377883 0.315283 -71.619945 0.315283 -71.619945 0.948986 18.377883
66000.0 0.949699 18.247917 0.313129 -71.749928 0.313129 -71.749928 0.949699 18.247917
66500.0 0.950397 18.119715 0.311003 -71.878146 0.311003 -71.878146 0.950397 18.119715
67000.0 0.951082 17.993242 0.308905 -72.004635 0.308905 -72.004635 0.951082 17.993242
67500.0 0.951752 17.868466 0.306833 -72.129427 0.306833 -72.129427 0.951752 17.868466
68000.0 0.952409 17.745353 0.304787 -72.252555 0.304787 -72.252555 0.952409 17.745353
68500.0 0.953054 17.623871 0.302767 -72.374052 0.302767 -72.374052 0.953054 17.623871
69000.0 0.953685 17.50399 0.300772 -72.493949 0.300772 -72.493949 0.953685 17.50399
69500.0 0.954304 17.385678 0.298802 -72.612276 0.298802 -72.612276 0.954304 17.385678
70000.0 0.954912 17.268906 0.296857 -72.729062 0.296857 -72.729062 0.954912 17.268906
70500.0 0.955507 17.153646 0.294935 -72.844336 0.294935 -72.844336 0.955507 17.153646
71000.0 0.956091 17.039869 0.293037 -72.958128 0.293037 -72.958128 0.956091 17.039869
71500.0 0.956664 16.927547 0.291162 -73.070464 0.291162 -73.070464 0.956664 16.927547
72000.0 0.957225 16.816654 0.28931 -73.181371 0.28931 -73.181371 0.957225 16.816654
72500.0 0.957777 16.707163 0.28748 -73.290875 0.28748 -73.290875 0.957777 16.707163
73000.0 0.958318 16.599048 0.285672 -73.399003 0.285672 -73.399003 0.958318 16.599048
73500.0 0.958848 16.492286 0.283886 -73.505779 0.283886 -73.505779 0.958848 16.492286
74000.0 0.959369 16.38685 0.282121 -73.611228 0.282121 -73.611228 0.959369 16.38685
74500.0 0.959881 16.282718 0.280377 -73.715373 0.280377 -73.715373 0.959881 16.282718
75000.0 0.960382 16.179866 0.278654 -73.818238 0.278654 -73.818238 0.960382 16.179866
75500.0 0.960875 16.07827 0.27695 -73.919846 0.27695 -73.919846 0.960875 16.07827
76000.0 0.961359 15.97791 0.275267 -74.020219 0.275267 -74.020219 0.961359 15.97791
76500.0 0.961834 15.878762 0.273603 -74.119378 0.273603 -74.119378 0.961834 15.878762
77000.0 0.9623 15.780807 0.271958 -74.217346 0.271958 -74.217346 0.9623 15.780807
77500.0 0.962759 15.684022 0.270332 -74.314142 0.270332 -74.314142 0.962759 15.684022
78000.0 0.963208 15.588388 0.268725 -74.409788 0.268725 -74.409788 0.963208 15.588388
78500.0 0.963651 15.493885 0.267136 -74.504303 0.267136 -74.504303 0.963651 15.493885
79000.0 0.964085 15.400493 0.265564 -74.597706 0.265564 -74.597706 0.964085 15.400493
79500.0 0.964511 15.308194 0.264011 -74.690017 0.264011 -74.690017 0.964511 15.308194
80000.0 0.964931 15.216968 0.262475 -74.781254 0.262475 -74.781254 0.964931 15.216968
80500.0 0.965343 15.126798 0.260956 -74.871435 0.260956 -74.871435 0.965343 15.126798
81000.0 0.965748 15.037666 0.259454 -74.960578 0.259454 -74.960578 0.965748 15.037666
81500.0 0.966145 14.949554 0.257968 -75.048701 0.257968 -75.048701 0.966145 14.949554
82000.0 0.966537 14.862445 0.256499 -75.13582 0.256499 -75.13582 0.966537 14.862445
82500.0 0.966921 14.776324 0.255046 -75.221952 0.255046 -75.221952 0.966921 14.776324
83000.0 0.967299 14.691172 0.253609 -75.307114 0.253609 -75.307114 0.967299 14.691172
83500.0 0.967671 14.606976 0.252187 -75.391321 0.252187 -75.391321 0.967671 14.606976
84000.0 0.968036 14.523718 0.250781 -75.474589 0.250781 -75.474589 0.968036 14.523718
84500.0 0.968396 14.441384 0.249389 -75.556933 0.249389 -75.556933 0.968396 14.441384
85000.0 0.968749 14.359958 0.248013 -75.638368 0.248013 -75.638368 0.968749 14.359958
85500.0 0.969097 14.279427 0.246651 -75.718909 0.246651 -75.718909 0.969097 14.279427
86000.0 0.969439 14.199775 0.245304 -75.798571 0.245304 -75.798571 0.969439 14.199775
86500.0 0.969776 14.120989 0.24397 -75.877366 0.24397 -75.877366 0.969776 14.120989
87000.0 0.970107 14.043055 0.242651 -75.95531 0.242651 -75.95531 0.970107 14.043055
87500.0 0.970432 13.96596 0.241345 -76.032414 0.241345 -76.032414 0.970432 13.96596
88000.0 0.970753 13.88969 0.240053 -76.108694 0.240053 -76.108694 0.970753 13.88969
88500.0 0.971068 13.814232 0.238775 -76.184161 0.238775 -76.184161 0.971068 13.814232
89000.0 0.971379 13.739574 0.237509 -76.258828 0.237509 -76.258828 0.971379 13.739574
89500.0 0.971684 13.665703 0.236257 -76.332708 0.236257 -76.332708 0.971684 13.665703
90000.0 0.971985 13.592608 0.235017 -76.405812 0.235017 -76.405812 0.971985 13.592608
90500.0 0.972281 13.520275 0.233789 -76.478153 0.233789 -76.478153 0.972281 13.520275
91000.0 0.972572 13.448695 0.232575 -76.549742 0.232575 -76.549742 0.972572 13.448695
91500.0 0.972859 13.377854 0.231372 -76.620591 0.231372 -76.620591 0.972859 13.377854
92000.0 0.973142 13.307743 0.230181 -76.690711 0.230181 -76.690711 0.973142 13.307743
92500.0 0.97342 13.23835 0.229002 -76.760113 0.229002 -76.760113 0.97342 13.23835
93000.0 0.973694 13.169663 0.227835 -76.828807 0.227835 -76.828807 0.973694 13.169663
93500.0 0.973963 13.101674 0.22668 -76.896805 0.22668 -76.896805 0.973963 13.101674
94000.0 0.974229 13.034371 0.225536 -76.964116 0.225536 -76.964116 0.974229 13.034371
94500.0 0.974491 12.967744 0.224402 -77.030751 0.224402 -77.030751 0.974491 12.967744
95000.0 0.974748 12.901783 0.22328 -77.09672 0.22328 -77.09672 0.974748 12.901783
95500.0 0.975002 12.836478 0.222169 -77.162032 0.222169 -77.162032 0.975002 12.836478
96000.0 0.975252 12.77182 0.221069 -77.226698 0.221069 -77.226698 0.975252 12.77182
96500.0 0.975499 12.7078 0.219979 -77.290726 0.219979 -77.290726 0.975499 12.7078
97000.0 0.975742 12.644408 0.2189 -77.354125 0.2189 -77.354125 0.975742 12.644408
97500.0 0.975981 12.581635 0.21783 -77.416906 0.21783 -77.416906 0.975981 12.581635
98000.0 0.976217 12.519473 0.216771 -77.479076 0.216771 -77.479076 0.976217 12.519473
98500.0 0.976449 12.457912 0.215722 -77.540644 0.215722 -77.540644 0.976449 12.457912
99000.0 0.976678 12.396944 0.214683 -77.601619 0.214683 -77.601619 0.976678 12.396944
99500.0 0.976904 12.33656 0.213654 -77.66201 0.213654 -77.66201 0.976904 12.33656
100000.0 0.977127 12.276753 0.212634 -77.721824 0.212634 -77.721824 0.977127 12.276753
