! File created by SignalIntegrity v1.3.2: Signal and Power Integrity Tools
! https://github.com/TeledyneLeCroy/SignalIntegrity

! the calculations of this model are from:
!     https://www.allaboutcircuits.com/tools/wire-self-inductance-calculator/
# MHz S MA R 50.0
0.0 0.000114 0.0 0.999886 0.0 0.999886 0.0 0.000114 0.0
500.0 0.223908 77.032877 0.974499 -12.938675 0.974499 -12.938675 0.223908 77.032877
1000.0 0.417517 65.307836 0.908565 -24.67794 0.908565 -24.67794 0.417517 65.307836
1500.0 0.567492 55.415 0.823285 -34.575517 0.823285 -34.575517 0.567492 55.415
2000.0 0.676643 47.410984 0.736227 -42.581904 0.736227 -42.581904 0.676643 47.410984
2500.0 0.754239 41.035352 0.656525 -48.958958 0.656525 -48.958958 0.754239 41.035352
3000.0 0.809436 35.954427 0.587142 -54.040831 0.587142 -54.040831 0.809436 35.954427
3500.0 0.849211 31.870026 0.527994 -58.12591 0.527994 -58.12591 0.849211 31.870026
4000.0 0.878399 28.546645 0.477874 -61.449799 0.477874 -61.449799 0.878399 28.546645
4500.0 0.900242 25.80693 0.43534 -64.189909 0.43534 -64.189909 0.900242 25.80693
5000.0 0.916906 23.519326 0.399058 -66.477829 0.399058 -66.477829 0.916906 23.519326
5500.0 0.929848 21.586235 0.367901 -68.411179 0.367901 -68.411179 0.929848 21.586235
6000.0 0.940068 19.934712 0.340949 -70.062918 0.340949 -70.062918 0.940068 19.934712
6500.0 0.948258 18.509648 0.317464 -71.488164 0.317464 -71.488164 0.948258 18.509648
7000.0 0.954912 17.268906 0.296857 -72.729062 0.296857 -72.729062 0.954912 17.268906
7500.0 0.960382 16.179866 0.278654 -73.818238 0.278654 -73.818238 0.960382 16.179866
8000.0 0.964931 15.216968 0.262475 -74.781254 0.262475 -74.781254 0.964931 15.216968
8500.0 0.968749 14.359958 0.248013 -75.638368 0.248013 -75.638368 0.968749 14.359958
9000.0 0.971985 13.592608 0.235017 -76.405812 0.235017 -76.405812 0.971985 13.592608
9500.0 0.974748 12.901783 0.22328 -77.09672 0.22328 -77.09672 0.974748 12.901783
10000.0 0.977127 12.276753 0.212634 -77.721824 0.212634 -77.721824 0.977127 12.276753
10500.0 0.979187 11.708677 0.202936 -78.289968 0.202936 -78.289968 0.979187 11.708677
11000.0 0.980984 11.190207 0.194067 -78.8085 0.194067 -78.8085 0.980984 11.190207
11500.0 0.98256 10.715191 0.185927 -79.283572 0.185927 -79.283572 0.98256 10.715191
12000.0 0.983949 10.278445 0.178432 -79.720369 0.178432 -79.720369 0.983949 10.278445
12500.0 0.985179 9.875568 0.171509 -80.123294 0.171509 -80.123294 0.985179 9.875568
13000.0 0.986274 9.502803 0.165096 -80.496103 0.165096 -80.496103 0.986274 9.502803
13500.0 0.987253 9.156923 0.159139 -80.842023 0.159139 -80.842023 0.987253 9.156923
14000.0 0.988132 8.835144 0.153592 -81.16384 0.153592 -81.16384 0.988132 8.835144
14500.0 0.988923 8.535051 0.148414 -81.463968 0.148414 -81.463968 0.988923 8.535051
15000.0 0.989638 8.254537 0.143571 -81.744514 0.143571 -81.744514 0.989638 8.254537
15500.0 0.990286 7.991759 0.139031 -82.007323 0.139031 -82.007323 0.990286 7.991759
16000.0 0.990875 7.745097 0.134766 -82.254014 0.134766 -82.254014 0.990875 7.745097
16500.0 0.991413 7.51312 0.130753 -82.486017 0.130753 -82.486017 0.991413 7.51312
17000.0 0.991905 7.294563 0.12697 -82.704601 0.12697 -82.704601 0.991905 7.294563
17500.0 0.992355 7.088298 0.123399 -82.910889 0.123399 -82.910889 0.992355 7.088298
18000.0 0.99277 6.893323 0.120021 -83.105887 0.120021 -83.105887 0.99277 6.893323
18500.0 0.993151 6.708739 0.116822 -83.290492 0.116822 -83.290492 0.993151 6.708739
19000.0 0.993504 6.53374 0.113788 -83.465511 0.113788 -83.465511 0.993504 6.53374
19500.0 0.993829 6.367603 0.110907 -83.631668 0.110907 -83.631668 0.993829 6.367603
20000.0 0.994131 6.209673 0.108167 -83.789616 0.108167 -83.789616 0.994131 6.209673
20500.0 0.994412 6.059358 0.105559 -83.939948 0.105559 -83.939948 0.994412 6.059358
21000.0 0.994673 5.916124 0.103072 -84.083199 0.103072 -84.083199 0.994673 5.916124
21500.0 0.994916 5.779482 0.1007 -84.219856 0.1007 -84.219856 0.994916 5.779482
22000.0 0.995142 5.64899 0.098434 -84.350363 0.098434 -84.350363 0.995142 5.64899
22500.0 0.995354 5.524242 0.096267 -84.475125 0.096267 -84.475125 0.995354 5.524242
23000.0 0.995553 5.404869 0.094193 -84.594512 0.094193 -84.594512 0.995553 5.404869
23500.0 0.995739 5.290532 0.092206 -84.708863 0.092206 -84.708863 0.995739 5.290532
24000.0 0.995914 5.180919 0.090301 -84.818488 0.090301 -84.818488 0.995914 5.180919
24500.0 0.996078 5.075744 0.088473 -84.923675 0.088473 -84.923675 0.996078 5.075744
25000.0 0.996232 4.974744 0.086717 -85.024687 0.086717 -85.024687 0.996232 4.974744
25500.0 0.996378 4.877675 0.085029 -85.121767 0.085029 -85.121767 0.996378 4.877675
26000.0 0.996515 4.784314 0.083405 -85.215139 0.083405 -85.215139 0.996515 4.784314
26500.0 0.996645 4.694451 0.081842 -85.305012 0.081842 -85.305012 0.996645 4.694451
27000.0 0.996767 4.607895 0.080336 -85.391578 0.080336 -85.391578 0.996767 4.607895
27500.0 0.996883 4.524466 0.078885 -85.475017 0.078885 -85.475017 0.996883 4.524466
28000.0 0.996993 4.443999 0.077485 -85.555493 0.077485 -85.555493 0.996993 4.443999
28500.0 0.997097 4.366338 0.076133 -85.633163 0.076133 -85.633163 0.997097 4.366338
29000.0 0.997196 4.29134 0.074828 -85.708169 0.074828 -85.708169 0.997196 4.29134
29500.0 0.99729 4.218871 0.073567 -85.780647 0.073567 -85.780647 0.99729 4.218871
30000.0 0.997379 4.148804 0.072347 -85.850722 0.072347 -85.850722 0.997379 4.148804
30500.0 0.997464 4.081022 0.071167 -85.918511 0.071167 -85.918511 0.997464 4.081022
31000.0 0.997545 4.015417 0.070025 -85.984124 0.070025 -85.984124 0.997545 4.015417
31500.0 0.997622 3.951884 0.068919 -86.047665 0.068919 -86.047665 0.997622 3.951884
32000.0 0.997695 3.890327 0.067847 -86.109229 0.067847 -86.109229 0.997695 3.890327
32500.0 0.997765 3.830655 0.066808 -86.168907 0.066808 -86.168907 0.997765 3.830655
33000.0 0.997832 3.772784 0.0658 -86.226785 0.0658 -86.226785 0.997832 3.772784
33500.0 0.997896 3.716633 0.064822 -86.282943 0.064822 -86.282943 0.997896 3.716633
34000.0 0.997958 3.662126 0.063873 -86.337456 0.063873 -86.337456 0.997958 3.662126
34500.0 0.998016 3.609193 0.062951 -86.390395 0.062951 -86.390395 0.998016 3.609193
35000.0 0.998072 3.557767 0.062055 -86.441827 0.062055 -86.441827 0.998072 3.557767
35500.0 0.998126 3.507783 0.061184 -86.491816 0.061184 -86.491816 0.998126 3.507783
36000.0 0.998178 3.459183 0.060337 -86.540422 0.060337 -86.540422 0.998178 3.459183
36500.0 0.998227 3.41191 0.059514 -86.5877 0.059514 -86.5877 0.998227 3.41191
37000.0 0.998275 3.36591 0.058712 -86.633706 0.058712 -86.633706 0.998275 3.36591
37500.0 0.99832 3.321132 0.057932 -86.678488 0.057932 -86.678488 0.99832 3.321132
38000.0 0.998364 3.277529 0.057172 -86.722097 0.057172 -86.722097 0.998364 3.277529
38500.0 0.998406 3.235055 0.056432 -86.764576 0.056432 -86.764576 0.998406 3.235055
39000.0 0.998447 3.193666 0.055711 -86.805969 0.055711 -86.805969 0.998447 3.193666
39500.0 0.998486 3.153322 0.055008 -86.846318 0.055008 -86.846318 0.998486 3.153322
40000.0 0.998523 3.113984 0.054323 -86.885661 0.054323 -86.885661 0.998523 3.113984
40500.0 0.998559 3.075614 0.053654 -86.924035 0.053654 -86.924035 0.998559 3.075614
41000.0 0.998594 3.038177 0.053001 -86.961476 0.053001 -86.961476 0.998594 3.038177
41500.0 0.998628 3.00164 0.052365 -86.998017 0.052365 -86.998017 0.998628 3.00164
42000.0 0.99866 2.96597 0.051743 -87.033691 0.051743 -87.033691 0.99866 2.96597
42500.0 0.998691 2.931138 0.051136 -87.068528 0.051136 -87.068528 0.998691 2.931138
43000.0 0.998722 2.897113 0.050543 -87.102556 0.050543 -87.102556 0.998722 2.897113
43500.0 0.998751 2.863869 0.049963 -87.135804 0.049963 -87.135804 0.998751 2.863869
44000.0 0.998779 2.831378 0.049397 -87.168299 0.049397 -87.168299 0.998779 2.831378
44500.0 0.998806 2.799616 0.048843 -87.200065 0.048843 -87.200065 0.998806 2.799616
45000.0 0.998833 2.768558 0.048302 -87.231126 0.048302 -87.231126 0.998833 2.768558
45500.0 0.998858 2.73818 0.047772 -87.261507 0.047772 -87.261507 0.998858 2.73818
46000.0 0.998883 2.708462 0.047254 -87.291229 0.047254 -87.291229 0.998883 2.708462
46500.0 0.998907 2.679382 0.046747 -87.320312 0.046747 -87.320312 0.998907 2.679382
47000.0 0.99893 2.650919 0.046251 -87.348779 0.046251 -87.348779 0.99893 2.650919
47500.0 0.998952 2.623053 0.045765 -87.376647 0.045765 -87.376647 0.998952 2.623053
48000.0 0.998974 2.595767 0.045289 -87.403936 0.045289 -87.403936 0.998974 2.595767
48500.0 0.998995 2.569043 0.044823 -87.430664 0.044823 -87.430664 0.998995 2.569043
49000.0 0.999015 2.542863 0.044367 -87.456847 0.044367 -87.456847 0.999015 2.542863
49500.0 0.999035 2.517211 0.043919 -87.482502 0.043919 -87.482502 0.999035 2.517211
50000.0 0.999054 2.49207 0.043481 -87.507645 0.043481 -87.507645 0.999054 2.49207
50500.0 0.999073 2.467427 0.043051 -87.532291 0.043051 -87.532291 0.999073 2.467427
51000.0 0.999091 2.443266 0.04263 -87.556455 0.04263 -87.556455 0.999091 2.443266
51500.0 0.999108 2.419573 0.042217 -87.58015 0.042217 -87.58015 0.999108 2.419573
52000.0 0.999125 2.396336 0.041812 -87.603391 0.041812 -87.603391 0.999125 2.396336
52500.0 0.999142 2.37354 0.041414 -87.62619 0.041414 -87.62619 0.999142 2.37354
53000.0 0.999158 2.351173 0.041024 -87.648559 0.041024 -87.648559 0.999158 2.351173
53500.0 0.999174 2.329224 0.040641 -87.670511 0.040641 -87.670511 0.999174 2.329224
54000.0 0.999189 2.30768 0.040266 -87.692056 0.040266 -87.692056 0.999189 2.30768
54500.0 0.999204 2.286531 0.039897 -87.713208 0.039897 -87.713208 0.999204 2.286531
55000.0 0.999218 2.265767 0.039535 -87.733975 0.039535 -87.733975 0.999218 2.265767
55500.0 0.999232 2.245375 0.039179 -87.754369 0.039179 -87.754369 0.999232 2.245375
56000.0 0.999246 2.225347 0.03883 -87.774399 0.03883 -87.774399 0.999246 2.225347
56500.0 0.999259 2.205674 0.038487 -87.794075 0.038487 -87.794075 0.999259 2.205674
57000.0 0.999272 2.186345 0.03815 -87.813406 0.03815 -87.813406 0.999272 2.186345
57500.0 0.999284 2.167351 0.037818 -87.832402 0.037818 -87.832402 0.999284 2.167351
58000.0 0.999297 2.148685 0.037493 -87.85107 0.037493 -87.85107 0.999297 2.148685
58500.0 0.999309 2.130337 0.037173 -87.86942 0.037173 -87.86942 0.999309 2.130337
59000.0 0.99932 2.112299 0.036858 -87.887459 0.036858 -87.887459 0.99932 2.112299
59500.0 0.999332 2.094565 0.036549 -87.905196 0.036549 -87.905196 0.999332 2.094565
60000.0 0.999343 2.077126 0.036245 -87.922637 0.036245 -87.922637 0.999343 2.077126
60500.0 0.999354 2.059974 0.035946 -87.939791 0.035946 -87.939791 0.999354 2.059974
61000.0 0.999364 2.043103 0.035651 -87.956663 0.035651 -87.956663 0.999364 2.043103
61500.0 0.999374 2.026507 0.035362 -87.973262 0.035362 -87.973262 0.999374 2.026507
62000.0 0.999384 2.010177 0.035077 -87.989593 0.035077 -87.989593 0.999384 2.010177
62500.0 0.999394 1.994109 0.034797 -88.005663 0.034797 -88.005663 0.999394 1.994109
63000.0 0.999404 1.978295 0.034521 -88.021479 0.034521 -88.021479 0.999404 1.978295
63500.0 0.999413 1.962731 0.034249 -88.037045 0.034249 -88.037045 0.999413 1.962731
64000.0 0.999422 1.947409 0.033982 -88.052369 0.033982 -88.052369 0.999422 1.947409
64500.0 0.999431 1.932324 0.033719 -88.067456 0.033719 -88.067456 0.999431 1.932324
65000.0 0.99944 1.917471 0.03346 -88.08231 0.03346 -88.08231 0.99944 1.917471
65500.0 0.999448 1.902845 0.033205 -88.096938 0.033205 -88.096938 0.999448 1.902845
66000.0 0.999457 1.88844 0.032954 -88.111345 0.032954 -88.111345 0.999457 1.88844
66500.0 0.999465 1.874251 0.032706 -88.125535 0.032706 -88.125535 0.999465 1.874251
67000.0 0.999473 1.860274 0.032462 -88.139514 0.032462 -88.139514 0.999473 1.860274
67500.0 0.999481 1.846504 0.032222 -88.153286 0.032222 -88.153286 0.999481 1.846504
68000.0 0.999488 1.832936 0.031985 -88.166855 0.031985 -88.166855 0.999488 1.832936
68500.0 0.999496 1.819566 0.031752 -88.180227 0.031752 -88.180227 0.999496 1.819566
69000.0 0.999503 1.806389 0.031522 -88.193405 0.031522 -88.193405 0.999503 1.806389
69500.0 0.99951 1.793402 0.031296 -88.206393 0.031296 -88.206393 0.99951 1.793402
70000.0 0.999517 1.7806 0.031072 -88.219196 0.031072 -88.219196 0.999517 1.7806
70500.0 0.999524 1.76798 0.030852 -88.231818 0.030852 -88.231818 0.999524 1.76798
71000.0 0.999531 1.755537 0.030635 -88.244262 0.030635 -88.244262 0.999531 1.755537
71500.0 0.999537 1.743268 0.030421 -88.256533 0.030421 -88.256533 0.999537 1.743268
72000.0 0.999543 1.73117 0.03021 -88.268633 0.03021 -88.268633 0.999543 1.73117
72500.0 0.99955 1.719238 0.030002 -88.280566 0.030002 -88.280566 0.99955 1.719238
73000.0 0.999556 1.707469 0.029797 -88.292336 0.029797 -88.292336 0.999556 1.707469
73500.0 0.999562 1.695861 0.029594 -88.303946 0.029594 -88.303946 0.999562 1.695861
74000.0 0.999568 1.684409 0.029394 -88.315399 0.029394 -88.315399 0.999568 1.684409
74500.0 0.999574 1.67311 0.029197 -88.326699 0.029197 -88.326699 0.999574 1.67311
75000.0 0.999579 1.661963 0.029003 -88.337848 0.029003 -88.337848 0.999579 1.661963
75500.0 0.999585 1.650962 0.028811 -88.348849 0.028811 -88.348849 0.999585 1.650962
76000.0 0.99959 1.640107 0.028621 -88.359706 0.028621 -88.359706 0.99959 1.640107
76500.0 0.999596 1.629393 0.028434 -88.370421 0.028434 -88.370421 0.999596 1.629393
77000.0 0.999601 1.618818 0.02825 -88.380997 0.02825 -88.380997 0.999601 1.618818
77500.0 0.999606 1.60838 0.028068 -88.391437 0.028068 -88.391437 0.999606 1.60838
78000.0 0.999611 1.598075 0.027888 -88.401743 0.027888 -88.401743 0.999611 1.598075
78500.0 0.999616 1.587901 0.027711 -88.411918 0.027711 -88.411918 0.999616 1.587901
79000.0 0.999621 1.577856 0.027535 -88.421964 0.027535 -88.421964 0.999621 1.577856
79500.0 0.999625 1.567938 0.027362 -88.431883 0.027362 -88.431883 0.999625 1.567938
80000.0 0.99963 1.558143 0.027191 -88.441679 0.027191 -88.441679 0.99963 1.558143
80500.0 0.999635 1.54847 0.027023 -88.451354 0.027023 -88.451354 0.999635 1.54847
81000.0 0.999639 1.538916 0.026856 -88.460909 0.026856 -88.460909 0.999639 1.538916
81500.0 0.999644 1.529479 0.026691 -88.470346 0.026691 -88.470346 0.999644 1.529479
82000.0 0.999648 1.520157 0.026529 -88.479669 0.026529 -88.479669 0.999648 1.520157
82500.0 0.999652 1.510949 0.026368 -88.488879 0.026368 -88.488879 0.999652 1.510949
83000.0 0.999656 1.501851 0.026209 -88.497978 0.026209 -88.497978 0.999656 1.501851
83500.0 0.999661 1.492862 0.026052 -88.506968 0.026052 -88.506968 0.999661 1.492862
84000.0 0.999665 1.48398 0.025897 -88.515851 0.025897 -88.515851 0.999665 1.48398
84500.0 0.999668 1.475203 0.025744 -88.524629 0.025744 -88.524629 0.999668 1.475203
85000.0 0.999672 1.466529 0.025593 -88.533304 0.025593 -88.533304 0.999672 1.466529
85500.0 0.999676 1.457956 0.025443 -88.541877 0.025443 -88.541877 0.999676 1.457956
86000.0 0.99968 1.449483 0.025296 -88.550351 0.025296 -88.550351 0.99968 1.449483
86500.0 0.999684 1.441108 0.025149 -88.558727 0.025149 -88.558727 0.999684 1.441108
87000.0 0.999687 1.43283 0.025005 -88.567007 0.025005 -88.567007 0.999687 1.43283
87500.0 0.999691 1.424645 0.024862 -88.575192 0.024862 -88.575192 0.999691 1.424645
88000.0 0.999694 1.416554 0.024721 -88.583284 0.024721 -88.583284 0.999694 1.416554
88500.0 0.999698 1.408554 0.024581 -88.591285 0.024581 -88.591285 0.999698 1.408554
89000.0 0.999701 1.400644 0.024443 -88.599196 0.024443 -88.599196 0.999701 1.400644
89500.0 0.999704 1.392822 0.024307 -88.607019 0.024307 -88.607019 0.999704 1.392822
90000.0 0.999708 1.385088 0.024172 -88.614754 0.024172 -88.614754 0.999708 1.385088
90500.0 0.999711 1.377438 0.024039 -88.622405 0.024039 -88.622405 0.999711 1.377438
91000.0 0.999714 1.369873 0.023907 -88.629971 0.023907 -88.629971 0.999714 1.369873
91500.0 0.999717 1.36239 0.023776 -88.637455 0.023776 -88.637455 0.999717 1.36239
92000.0 0.99972 1.354988 0.023647 -88.644857 0.023647 -88.644857 0.99972 1.354988
92500.0 0.999723 1.347667 0.023519 -88.652179 0.023519 -88.652179 0.999723 1.347667
93000.0 0.999726 1.340424 0.023393 -88.659423 0.023393 -88.659423 0.999726 1.340424
93500.0 0.999729 1.333258 0.023268 -88.666589 0.023268 -88.666589 0.999729 1.333258
94000.0 0.999732 1.326169 0.023144 -88.673679 0.023144 -88.673679 0.999732 1.326169
94500.0 0.999735 1.319155 0.023022 -88.680695 0.023022 -88.680695 0.999735 1.319155
95000.0 0.999738 1.312214 0.0229 -88.687636 0.0229 -88.687636 0.999738 1.312214
95500.0 0.99974 1.305347 0.022781 -88.694504 0.022781 -88.694504 0.99974 1.305347
96000.0 0.999743 1.29855 0.022662 -88.701302 0.022662 -88.701302 0.999743 1.29855
96500.0 0.999746 1.291824 0.022545 -88.708028 0.022545 -88.708028 0.999746 1.291824
97000.0 0.999748 1.285168 0.022429 -88.714686 0.022429 -88.714686 0.999748 1.285168
97500.0 0.999751 1.278579 0.022314 -88.721275 0.022314 -88.721275 0.999751 1.278579
98000.0 0.999753 1.272058 0.0222 -88.727797 0.0222 -88.727797 0.999753 1.272058
98500.0 0.999756 1.265603 0.022087 -88.734253 0.022087 -88.734253 0.999756 1.265603
99000.0 0.999758 1.259213 0.021976 -88.740643 0.021976 -88.740643 0.999758 1.259213
99500.0 0.999761 1.252887 0.021865 -88.74697 0.021865 -88.74697 0.999761 1.252887
100000.0 0.999763 1.246625 0.021756 -88.753233 0.021756 -88.753233 0.999763 1.246625
