! File created by SignalIntegrity v1.3.1: Signal and Power Integrity Tools
! https://github.com/TeledyneLeCroy/SignalIntegrity

! the calculations of this model are from:
!     https://www.allaboutcircuits.com/tools/wire-self-inductance-calculator/
# MHz S MA R 50.0
0.0 1e-06 0.0 0.999999 0.0 0.999999 0.0 1e-06 0.0
250.0 0.058857 86.624702 0.998265 -3.374203 0.998265 -3.374203 0.058857 86.624702
500.0 0.117107 83.27429 0.993118 -6.725162 0.993118 -6.725162 0.117107 83.27429
750.0 0.174174 79.969053 0.984714 -10.030582 0.984714 -10.030582 0.174174 79.969053
1000.0 0.22954 76.729764 0.973298 -13.269962 0.973298 -13.269962 0.22954 76.729764
1250.0 0.282765 73.574495 0.959188 -16.425286 0.959188 -16.425286 0.282765 73.574495
1500.0 0.333502 70.518342 0.942748 -19.481475 0.942748 -19.481475 0.333502 70.518342
1750.0 0.3815 67.573224 0.924368 -22.426619 0.924368 -22.426619 0.3815 67.573224
2000.0 0.4266 64.747877 0.904439 -25.251987 0.904439 -25.251987 0.4266 64.747877
2250.0 0.46873 62.04802 0.883341 -27.951858 0.883341 -27.951858 0.46873 62.04802
2500.0 0.507888 59.476661 0.861422 -30.52323 0.861422 -30.52323 0.507888 59.476661
2750.0 0.544133 57.03446 0.838998 -32.965441 0.838998 -32.965441 0.544133 57.03446
3000.0 0.577569 54.720139 0.816341 -35.27977 0.816341 -35.27977 0.577569 54.720139
3250.0 0.608333 52.530883 0.793681 -37.469033 0.793681 -37.469033 0.608333 52.530883
3500.0 0.636579 50.46271 0.77121 -39.537211 0.77121 -39.537211 0.636579 50.46271
3750.0 0.662478 48.510804 0.749081 -41.489123 0.749081 -41.489123 0.662478 48.510804
4000.0 0.686201 46.669791 0.727411 -43.33014 0.727411 -43.33014 0.686201 46.669791
4250.0 0.70792 44.933974 0.706291 -45.065961 0.706291 -45.065961 0.70792 44.933974
4500.0 0.727802 43.297513 0.685787 -46.702426 0.685787 -46.702426 0.727802 43.297513
4750.0 0.746004 41.754565 0.665941 -48.245377 0.665941 -48.245377 0.746004 41.754565
5000.0 0.762675 40.299394 0.646782 -49.700551 0.646782 -49.700551 0.762675 40.299394
5250.0 0.777953 38.926442 0.628322 -51.073506 0.628322 -51.073506 0.777953 38.926442
5500.0 0.791965 37.630381 0.610565 -52.369569 0.610565 -52.369569 0.791965 37.630381
5750.0 0.80483 36.40615 0.593505 -53.593803 0.593505 -53.593803 0.80483 36.40615
6000.0 0.816652 35.248967 0.57713 -54.750987 0.57713 -54.750987 0.816652 35.248967
6250.0 0.827528 34.154342 0.561424 -55.845614 0.561424 -55.845614 0.827528 34.154342
6500.0 0.837546 33.118073 0.546366 -56.881885 0.546366 -56.881885 0.837546 33.118073
6750.0 0.846785 32.136241 0.531934 -57.863718 0.531934 -57.863718 0.846785 32.136241
7000.0 0.855317 31.205201 0.518105 -58.79476 0.518105 -58.79476 0.855317 31.205201
7250.0 0.863205 30.321565 0.504853 -59.678397 0.504853 -59.678397 0.863205 30.321565
7500.0 0.870508 29.482194 0.492153 -60.51777 0.492153 -60.51777 0.870508 29.482194
7750.0 0.877278 28.684176 0.479981 -61.315789 0.479981 -61.315789 0.877278 28.684176
8000.0 0.883563 27.924818 0.468313 -62.075148 0.468313 -62.075148 0.883563 27.924818
8250.0 0.889403 27.201624 0.457123 -62.798343 0.457123 -62.798343 0.889403 27.201624
8500.0 0.894838 26.512286 0.44639 -63.487681 0.44639 -63.487681 0.894838 26.512286
8750.0 0.899903 25.854668 0.43609 -64.1453 0.43609 -64.1453 0.899903 25.854668
9000.0 0.904628 25.226791 0.426202 -64.773178 0.426202 -64.773178 0.904628 25.226791
9250.0 0.909041 24.626823 0.416706 -65.373147 0.416706 -65.373147 0.909041 24.626823
9500.0 0.913168 24.053067 0.407583 -65.946904 0.407583 -65.946904 0.913168 24.053067
9750.0 0.917032 23.50395 0.398812 -66.496021 0.398812 -66.496021 0.917032 23.50395
10000.0 0.920655 22.978013 0.390378 -67.021959 0.390378 -67.021959 0.920655 22.978013
10250.0 0.924054 22.473902 0.382263 -67.526072 0.382263 -67.526072 0.924054 22.473902
10500.0 0.927247 21.990358 0.374451 -68.009616 0.374451 -68.009616 0.927247 21.990358
10750.0 0.93025 21.526214 0.366927 -68.47376 0.366927 -68.47376 0.93025 21.526214
11000.0 0.933077 21.080382 0.359677 -68.919593 0.359677 -68.919593 0.933077 21.080382
11250.0 0.935741 20.651851 0.352689 -69.348125 0.352689 -69.348125 0.935741 20.651851
11500.0 0.938254 20.239677 0.345948 -69.760299 0.345948 -69.760299 0.938254 20.239677
11750.0 0.940626 19.842983 0.339444 -70.156994 0.339444 -70.156994 0.940626 19.842983
12000.0 0.942869 19.460948 0.333164 -70.539029 0.333164 -70.539029 0.942869 19.460948
12250.0 0.94499 19.092806 0.327099 -70.907172 0.327099 -70.907172 0.94499 19.092806
12500.0 0.946998 18.737842 0.321239 -71.262136 0.321239 -71.262136 0.946998 18.737842
12750.0 0.948901 18.395387 0.315573 -71.604591 0.315573 -71.604591 0.948901 18.395387
13000.0 0.950706 18.064814 0.310093 -71.935165 0.310093 -71.935165 0.950706 18.064814
13250.0 0.952419 17.745536 0.30479 -72.254443 0.30479 -72.254443 0.952419 17.745536
13500.0 0.954047 17.437003 0.299657 -72.562976 0.299657 -72.562976 0.954047 17.437003
13750.0 0.955594 17.138699 0.294686 -72.861281 0.294686 -72.861281 0.955594 17.138699
14000.0 0.957066 16.850138 0.289869 -73.149842 0.289869 -73.149842 0.957066 16.850138
14250.0 0.958468 16.570865 0.285201 -73.429116 0.285201 -73.429116 0.958468 16.570865
14500.0 0.959803 16.300451 0.280674 -73.69953 0.280674 -73.69953 0.959803 16.300451
14750.0 0.961076 16.038492 0.276283 -73.961489 0.276283 -73.961489 0.961076 16.038492
15000.0 0.962291 15.784609 0.272022 -74.215373 0.272022 -74.215373 0.962291 15.784609
15250.0 0.963451 15.538444 0.267885 -74.461538 0.267885 -74.461538 0.963451 15.538444
15500.0 0.964559 15.299657 0.263867 -74.700325 0.263867 -74.700325 0.964559 15.299657
15750.0 0.965618 15.067932 0.259964 -74.932051 0.259964 -74.932051 0.965618 15.067932
16000.0 0.966631 14.842965 0.256171 -75.157018 0.256171 -75.157018 0.966631 14.842965
16250.0 0.967601 14.624473 0.252483 -75.37551 0.252483 -75.37551 0.967601 14.624473
16500.0 0.96853 14.412185 0.248896 -75.587798 0.248896 -75.587798 0.96853 14.412185
16750.0 0.96942 14.205848 0.245406 -75.794136 0.245406 -75.794136 0.96942 14.205848
17000.0 0.970274 14.005218 0.24201 -75.994766 0.24201 -75.994766 0.970274 14.005218
17250.0 0.971092 13.810068 0.238704 -76.189916 0.238704 -76.189916 0.971092 13.810068
17500.0 0.971878 13.62018 0.235484 -76.379804 0.235484 -76.379804 0.971878 13.62018
17750.0 0.972633 13.435349 0.232348 -76.564636 0.232348 -76.564636 0.972633 13.435349
18000.0 0.973358 13.255378 0.229292 -76.744607 0.229292 -76.744607 0.973358 13.255378
18250.0 0.974055 13.080082 0.226313 -76.919903 0.226313 -76.919903 0.974055 13.080082
18500.0 0.974725 12.909284 0.223408 -77.090701 0.223408 -77.090701 0.974725 12.909284
18750.0 0.97537 12.742816 0.220575 -77.257169 0.220575 -77.257169 0.97537 12.742816
19000.0 0.975991 12.580519 0.217811 -77.419467 0.217811 -77.419467 0.975991 12.580519
19250.0 0.976589 12.422239 0.215114 -77.577747 0.215114 -77.577747 0.976589 12.422239
19500.0 0.977165 12.267833 0.212482 -77.732153 0.212482 -77.732153 0.977165 12.267833
19750.0 0.97772 12.117161 0.209911 -77.882825 0.209911 -77.882825 0.97772 12.117161
20000.0 0.978256 11.970091 0.207401 -78.029895 0.207401 -78.029895 0.978256 11.970091
20250.0 0.978773 11.826499 0.204949 -78.173487 0.204949 -78.173487 0.978773 11.826499
20500.0 0.979271 11.686264 0.202553 -78.313723 0.202553 -78.313723 0.979271 11.686264
20750.0 0.979753 11.549271 0.200211 -78.450716 0.200211 -78.450716 0.979753 11.549271
21000.0 0.980218 11.41541 0.197921 -78.584577 0.197921 -78.584577 0.980218 11.41541
21250.0 0.980667 11.284577 0.195682 -78.71541 0.195682 -78.71541 0.980667 11.284577
21500.0 0.981102 11.156671 0.193492 -78.843316 0.193492 -78.843316 0.981102 11.156671
21750.0 0.981522 11.031597 0.19135 -78.96839 0.19135 -78.96839 0.981522 11.031597
22000.0 0.981928 10.909262 0.189254 -79.090725 0.189254 -79.090725 0.981928 10.909262
22250.0 0.982321 10.78958 0.187203 -79.210408 0.187203 -79.210408 0.982321 10.78958
22500.0 0.982702 10.672464 0.185194 -79.327524 0.185194 -79.327524 0.982702 10.672464
22750.0 0.98307 10.557835 0.183228 -79.442153 0.183228 -79.442153 0.98307 10.557835
23000.0 0.983427 10.445616 0.181302 -79.554373 0.181302 -79.554373 0.983427 10.445616
23250.0 0.983773 10.335731 0.179416 -79.664258 0.179416 -79.664258 0.983773 10.335731
23500.0 0.984109 10.228109 0.177568 -79.771879 0.177568 -79.771879 0.984109 10.228109
23750.0 0.984434 10.122683 0.175756 -79.877306 0.175756 -79.877306 0.984434 10.122683
24000.0 0.984749 10.019386 0.173981 -79.980603 0.173981 -79.980603 0.984749 10.019386
24250.0 0.985055 9.918155 0.172241 -80.081834 0.172241 -80.081834 0.985055 9.918155
24500.0 0.985352 9.818929 0.170535 -80.18106 0.170535 -80.18106 0.985352 9.818929
24750.0 0.98564 9.72165 0.168862 -80.278339 0.168862 -80.278339 0.98564 9.72165
25000.0 0.985919 9.626261 0.167221 -80.373728 0.167221 -80.373728 0.985919 9.626261
25250.0 0.986191 9.532709 0.165611 -80.46728 0.165611 -80.46728 0.986191 9.532709
25500.0 0.986455 9.440942 0.164031 -80.559047 0.164031 -80.559047 0.986455 9.440942
25750.0 0.986712 9.350909 0.162481 -80.64908 0.162481 -80.64908 0.986712 9.350909
26000.0 0.986961 9.262562 0.160959 -80.737427 0.160959 -80.737427 0.986961 9.262562
26250.0 0.987204 9.175855 0.159465 -80.824135 0.159465 -80.824135 0.987204 9.175855
26500.0 0.987439 9.090742 0.157999 -80.909247 0.157999 -80.909247 0.987439 9.090742
26750.0 0.987669 9.007181 0.156558 -80.992808 0.156558 -80.992808 0.987669 9.007181
27000.0 0.987892 8.92513 0.155144 -81.074859 0.155144 -81.074859 0.987892 8.92513
27250.0 0.988109 8.844549 0.153754 -81.155441 0.153754 -81.155441 0.988109 8.844549
27500.0 0.988321 8.765398 0.152389 -81.234592 0.152389 -81.234592 0.988321 8.765398
27750.0 0.988526 8.687641 0.151048 -81.312349 0.151048 -81.312349 0.988526 8.687641
28000.0 0.988727 8.611241 0.149729 -81.38875 0.149729 -81.38875 0.988727 8.611241
28250.0 0.988922 8.536162 0.148434 -81.463828 0.148434 -81.463828 0.988922 8.536162
28500.0 0.989113 8.462373 0.14716 -81.537618 0.14716 -81.537618 0.989113 8.462373
28750.0 0.989298 8.389839 0.145908 -81.610152 0.145908 -81.610152 0.989298 8.389839
29000.0 0.989479 8.318529 0.144676 -81.681462 0.144676 -81.681462 0.989479 8.318529
29250.0 0.989655 8.248413 0.143465 -81.751578 0.143465 -81.751578 0.989655 8.248413
29500.0 0.989827 8.179461 0.142274 -81.82053 0.142274 -81.82053 0.989827 8.179461
29750.0 0.989995 8.111644 0.141102 -81.888346 0.141102 -81.888346 0.989995 8.111644
30000.0 0.990159 8.044936 0.13995 -81.955055 0.13995 -81.955055 0.990159 8.044936
30250.0 0.990318 7.979309 0.138815 -82.020682 0.138815 -82.020682 0.990318 7.979309
30500.0 0.990474 7.914737 0.137699 -82.085254 0.137699 -82.085254 0.990474 7.914737
30750.0 0.990626 7.851195 0.136601 -82.148796 0.136601 -82.148796 0.990626 7.851195
31000.0 0.990775 7.788659 0.135519 -82.211332 0.135519 -82.211332 0.990775 7.788659
31250.0 0.99092 7.727106 0.134455 -82.272886 0.134455 -82.272886 0.99092 7.727106
31500.0 0.991061 7.666512 0.133407 -82.33348 0.133407 -82.33348 0.991061 7.666512
31750.0 0.9912 7.606855 0.132375 -82.393136 0.132375 -82.393136 0.9912 7.606855
32000.0 0.991335 7.548114 0.131359 -82.451877 0.131359 -82.451877 0.991335 7.548114
32250.0 0.991467 7.490269 0.130358 -82.509723 0.130358 -82.509723 0.991467 7.490269
32500.0 0.991596 7.433298 0.129372 -82.566693 0.129372 -82.566693 0.991596 7.433298
32750.0 0.991722 7.377183 0.128401 -82.622809 0.128401 -82.622809 0.991722 7.377183
33000.0 0.991846 7.321904 0.127444 -82.678088 0.127444 -82.678088 0.991846 7.321904
33250.0 0.991966 7.267443 0.126501 -82.732549 0.126501 -82.732549 0.991966 7.267443
33500.0 0.992085 7.213781 0.125572 -82.78621 0.125572 -82.78621 0.992085 7.213781
33750.0 0.9922 7.160903 0.124656 -82.839089 0.124656 -82.839089 0.9922 7.160903
34000.0 0.992313 7.10879 0.123754 -82.891202 0.123754 -82.891202 0.992313 7.10879
34250.0 0.992423 7.057426 0.122864 -82.942566 0.122864 -82.942566 0.992423 7.057426
34500.0 0.992532 7.006795 0.121987 -82.993197 0.121987 -82.993197 0.992532 7.006795
34750.0 0.992638 6.956883 0.121122 -83.04311 0.121122 -83.04311 0.992638 6.956883
35000.0 0.992741 6.907672 0.12027 -83.09232 0.12027 -83.09232 0.992741 6.907672
35250.0 0.992843 6.85915 0.119429 -83.140842 0.119429 -83.140842 0.992843 6.85915
35500.0 0.992942 6.811302 0.1186 -83.188691 0.1186 -83.188691 0.992942 6.811302
35750.0 0.993039 6.764113 0.117782 -83.235879 0.117782 -83.235879 0.993039 6.764113
36000.0 0.993135 6.717571 0.116975 -83.282422 0.116975 -83.282422 0.993135 6.717571
36250.0 0.993228 6.671662 0.11618 -83.328331 0.11618 -83.328331 0.993228 6.671662
36500.0 0.99332 6.626373 0.115394 -83.373619 0.115394 -83.373619 0.99332 6.626373
36750.0 0.993409 6.581693 0.11462 -83.4183 0.11462 -83.4183 0.993409 6.581693
37000.0 0.993497 6.537608 0.113855 -83.462385 0.113855 -83.462385 0.993497 6.537608
37250.0 0.993583 6.494108 0.113101 -83.505885 0.113101 -83.505885 0.993583 6.494108
37500.0 0.993668 6.45118 0.112357 -83.548813 0.112357 -83.548813 0.993668 6.45118
37750.0 0.993751 6.408813 0.111622 -83.591179 0.111622 -83.591179 0.993751 6.408813
38000.0 0.993832 6.366997 0.110897 -83.632995 0.110897 -83.632995 0.993832 6.366997
38250.0 0.993912 6.325722 0.110181 -83.674271 0.110181 -83.674271 0.993912 6.325722
38500.0 0.99399 6.284975 0.109474 -83.715018 0.109474 -83.715018 0.99399 6.284975
38750.0 0.994066 6.244748 0.108776 -83.755245 0.108776 -83.755245 0.994066 6.244748
39000.0 0.994141 6.205031 0.108087 -83.794962 0.108087 -83.794962 0.994141 6.205031
39250.0 0.994215 6.165814 0.107406 -83.834179 0.107406 -83.834179 0.994215 6.165814
39500.0 0.994288 6.127088 0.106734 -83.872905 0.106734 -83.872905 0.994288 6.127088
39750.0 0.994359 6.088843 0.10607 -83.91115 0.10607 -83.91115 0.994359 6.088843
40000.0 0.994428 6.051071 0.105415 -83.948922 0.105415 -83.948922 0.994428 6.051071
40250.0 0.994497 6.013763 0.104767 -83.98623 0.104767 -83.98623 0.994497 6.013763
40500.0 0.994564 5.97691 0.104128 -84.023083 0.104128 -84.023083 0.994564 5.97691
40750.0 0.99463 5.940505 0.103496 -84.059488 0.103496 -84.059488 0.99463 5.940505
41000.0 0.994695 5.904539 0.102871 -84.095454 0.102871 -84.095454 0.994695 5.904539
41250.0 0.994758 5.869005 0.102254 -84.130989 0.102254 -84.130989 0.994758 5.869005
41500.0 0.994821 5.833894 0.101645 -84.166099 0.101645 -84.166099 0.994821 5.833894
41750.0 0.994882 5.799199 0.101042 -84.200794 0.101042 -84.200794 0.994882 5.799199
42000.0 0.994942 5.764913 0.100447 -84.23508 0.100447 -84.23508 0.994942 5.764913
42250.0 0.995002 5.731029 0.099859 -84.268964 0.099859 -84.268964 0.995002 5.731029
42500.0 0.99506 5.69754 0.099277 -84.302454 0.099277 -84.302454 0.99506 5.69754
42750.0 0.995117 5.664438 0.098702 -84.335555 0.098702 -84.335555 0.995117 5.664438
43000.0 0.995173 5.631718 0.098134 -84.368276 0.098134 -84.368276 0.995173 5.631718
43250.0 0.995228 5.599372 0.097572 -84.400622 0.097572 -84.400622 0.995228 5.599372
43500.0 0.995283 5.567394 0.097017 -84.432599 0.097017 -84.432599 0.995283 5.567394
43750.0 0.995336 5.535779 0.096467 -84.464215 0.096467 -84.464215 0.995336 5.535779
44000.0 0.995389 5.504519 0.095924 -84.495474 0.095924 -84.495474 0.995389 5.504519
44250.0 0.99544 5.47361 0.095387 -84.526384 0.095387 -84.526384 0.99544 5.47361
44500.0 0.995491 5.443044 0.094856 -84.55695 0.094856 -84.55695 0.995491 5.443044
44750.0 0.995541 5.412817 0.094331 -84.587177 0.094331 -84.587177 0.995541 5.412817
45000.0 0.99559 5.382923 0.093812 -84.617071 0.093812 -84.617071 0.99559 5.382923
45250.0 0.995638 5.353357 0.093298 -84.646637 0.093298 -84.646637 0.995638 5.353357
45500.0 0.995686 5.324112 0.09279 -84.675882 0.09279 -84.675882 0.995686 5.324112
45750.0 0.995732 5.295184 0.092287 -84.70481 0.092287 -84.70481 0.995732 5.295184
46000.0 0.995778 5.266568 0.09179 -84.733426 0.09179 -84.733426 0.995778 5.266568
46250.0 0.995824 5.238259 0.091298 -84.761735 0.091298 -84.761735 0.995824 5.238259
46500.0 0.995868 5.210252 0.090811 -84.789742 0.090811 -84.789742 0.995868 5.210252
46750.0 0.995912 5.182542 0.090329 -84.817452 0.090329 -84.817452 0.995912 5.182542
47000.0 0.995955 5.155124 0.089853 -84.84487 0.089853 -84.84487 0.995955 5.155124
47250.0 0.995998 5.127994 0.089381 -84.872 0.089381 -84.872 0.995998 5.127994
47500.0 0.996039 5.101147 0.088914 -84.898847 0.088914 -84.898847 0.996039 5.101147
47750.0 0.99608 5.07458 0.088452 -84.925415 0.088452 -84.925415 0.99608 5.07458
48000.0 0.996121 5.048286 0.087995 -84.951708 0.087995 -84.951708 0.996121 5.048286
48250.0 0.996161 5.022264 0.087543 -84.977731 0.087543 -84.977731 0.996161 5.022264
48500.0 0.9962 4.996507 0.087095 -85.003487 0.087095 -85.003487 0.9962 4.996507
48750.0 0.996239 4.971013 0.086652 -85.028982 0.086652 -85.028982 0.996239 4.971013
49000.0 0.996277 4.945777 0.086213 -85.054218 0.086213 -85.054218 0.996277 4.945777
49250.0 0.996314 4.920795 0.085779 -85.0792 0.085779 -85.0792 0.996314 4.920795
49500.0 0.996351 4.896063 0.085348 -85.103931 0.085348 -85.103931 0.996351 4.896063
49750.0 0.996388 4.871579 0.084923 -85.128416 0.084923 -85.128416 0.996388 4.871579
50000.0 0.996423 4.847337 0.084501 -85.152657 0.084501 -85.152657 0.996423 4.847337
50250.0 0.996459 4.823335 0.084084 -85.17666 0.084084 -85.17666 0.996459 4.823335
50500.0 0.996493 4.799569 0.08367 -85.200426 0.08367 -85.200426 0.996493 4.799569
50750.0 0.996528 4.776035 0.083261 -85.223959 0.083261 -85.223959 0.996528 4.776035
51000.0 0.996562 4.752731 0.082856 -85.247264 0.082856 -85.247264 0.996562 4.752731
51250.0 0.996595 4.729652 0.082454 -85.270342 0.082454 -85.270342 0.996595 4.729652
51500.0 0.996628 4.706796 0.082057 -85.293198 0.082057 -85.293198 0.996628 4.706796
51750.0 0.99666 4.68416 0.081663 -85.315835 0.081663 -85.315835 0.99666 4.68416
52000.0 0.996692 4.661739 0.081273 -85.338256 0.081273 -85.338256 0.996692 4.661739
52250.0 0.996723 4.639532 0.080887 -85.360463 0.080887 -85.360463 0.996723 4.639532
52500.0 0.996754 4.617534 0.080504 -85.38246 0.080504 -85.38246 0.996754 4.617534
52750.0 0.996785 4.595744 0.080125 -85.40425 0.080125 -85.40425 0.996785 4.595744
53000.0 0.996815 4.574159 0.079749 -85.425836 0.079749 -85.425836 0.996815 4.574159
53250.0 0.996845 4.552774 0.079377 -85.447221 0.079377 -85.447221 0.996845 4.552774
53500.0 0.996874 4.531588 0.079009 -85.468407 0.079009 -85.468407 0.996874 4.531588
53750.0 0.996903 4.510598 0.078643 -85.489397 0.078643 -85.489397 0.996903 4.510598
54000.0 0.996931 4.489801 0.078282 -85.510193 0.078282 -85.510193 0.996931 4.489801
54250.0 0.996959 4.469195 0.077923 -85.5308 0.077923 -85.5308 0.996959 4.469195
54500.0 0.996987 4.448777 0.077568 -85.551218 0.077568 -85.551218 0.996987 4.448777
54750.0 0.997014 4.428544 0.077216 -85.571451 0.077216 -85.571451 0.997014 4.428544
55000.0 0.997041 4.408494 0.076867 -85.591502 0.076867 -85.591502 0.997041 4.408494
55250.0 0.997068 4.388624 0.076521 -85.611371 0.076521 -85.611371 0.997068 4.388624
55500.0 0.997094 4.368932 0.076178 -85.631063 0.076178 -85.631063 0.997094 4.368932
55750.0 0.99712 4.349416 0.075839 -85.65058 0.075839 -85.65058 0.99712 4.349416
56000.0 0.997146 4.330073 0.075502 -85.669923 0.075502 -85.669923 0.997146 4.330073
56250.0 0.997171 4.3109 0.075168 -85.689095 0.075168 -85.689095 0.997171 4.3109
56500.0 0.997196 4.291897 0.074838 -85.708098 0.074838 -85.708098 0.997196 4.291897
56750.0 0.99722 4.27306 0.07451 -85.726935 0.07451 -85.726935 0.99722 4.27306
57000.0 0.997245 4.254388 0.074185 -85.745607 0.074185 -85.745607 0.997245 4.254388
57250.0 0.997268 4.235877 0.073863 -85.764118 0.073863 -85.764118 0.997268 4.235877
57500.0 0.997292 4.217527 0.073543 -85.782468 0.073543 -85.782468 0.997292 4.217527
57750.0 0.997315 4.199335 0.073227 -85.80066 0.073227 -85.80066 0.997315 4.199335
58000.0 0.997338 4.181299 0.072913 -85.818697 0.072913 -85.818697 0.997338 4.181299
58250.0 0.997361 4.163416 0.072601 -85.836579 0.072601 -85.836579 0.997361 4.163416
58500.0 0.997383 4.145686 0.072293 -85.854309 0.072293 -85.854309 0.997383 4.145686
58750.0 0.997406 4.128106 0.071987 -85.871889 0.071987 -85.871889 0.997406 4.128106
