! File created by SignalIntegrity v1.3.1: Signal and Power Integrity Tools
! https://github.com/TeledyneLeCroy/SignalIntegrity

! the calculations of this model are from:
!     https://www.allaboutcircuits.com/tools/wire-self-inductance-calculator/
# MHz S MA R 50.0
0.0 0.000114 0.0 0.999886 0.0 0.999886 0.0 0.000114 0.0
250.0 0.11412 83.390228 0.993354 -6.552876 0.993354 -6.552876 0.11412 83.390228
500.0 0.223908 77.032877 0.974499 -12.938675 0.974499 -12.938675 0.223908 77.032877
750.0 0.325808 70.966486 0.945328 -19.014548 0.945328 -19.014548 0.325808 70.966486
1000.0 0.417517 65.307836 0.908565 -24.67794 0.908565 -24.67794 0.417517 65.307836
1250.0 0.498049 60.117596 0.86705 -29.871025 0.86705 -29.871025 0.498049 60.117596
1500.0 0.567492 55.415 0.823285 -34.575517 0.823285 -34.575517 0.567492 55.415
1750.0 0.626638 51.189324 0.779221 -38.802548 0.779221 -38.802548 0.626638 51.189324
2000.0 0.676643 47.410984 0.736227 -42.581904 0.736227 -42.581904 0.676643 47.410984
2250.0 0.718771 44.040591 0.695168 -45.953087 0.695168 -45.953087 0.718771 44.040591
2500.0 0.754239 41.035352 0.656525 -48.958958 0.656525 -48.958958 0.754239 41.035352
2750.0 0.784146 38.353084 0.620506 -51.641744 0.620506 -51.641744 0.784146 38.353084
3000.0 0.809436 35.954427 0.587142 -54.040831 0.587142 -54.040831 0.809436 35.954427
3250.0 0.830904 33.80387 0.556352 -56.191754 0.556352 -56.191754 0.830904 33.80387
3500.0 0.849211 31.870026 0.527994 -58.12591 0.527994 -58.12591 0.849211 31.870026
3750.0 0.864895 30.125519 0.501896 -59.870688 0.501896 -59.870688 0.864895 30.125519
4000.0 0.878399 28.546645 0.477874 -61.449799 0.477874 -61.449799 0.878399 28.546645
4250.0 0.890083 27.112975 0.455746 -62.883678 0.455746 -62.883678 0.890083 27.112975
4500.0 0.900242 25.80693 0.43534 -64.189909 0.43534 -64.189909 0.900242 25.80693
4750.0 0.909117 24.613388 0.416493 -65.383618 0.416493 -65.383618 0.909117 24.613388
5000.0 0.916906 23.519326 0.399058 -66.477829 0.399058 -66.477829 0.916906 23.519326
5250.0 0.923771 22.513512 0.382901 -67.483778 0.382901 -67.483778 0.923771 22.513512
5500.0 0.929848 21.586235 0.367901 -68.411179 0.367901 -68.411179 0.929848 21.586235
5750.0 0.935249 20.729074 0.353949 -69.268452 0.353949 -69.268452 0.935249 20.729074
6000.0 0.940068 19.934712 0.340949 -70.062918 0.340949 -70.062918 0.940068 19.934712
6250.0 0.944382 19.196764 0.328813 -70.80096 0.328813 -70.80096 0.944382 19.196764
6500.0 0.948258 18.509648 0.317464 -71.488164 0.317464 -71.488164 0.948258 18.509648
6750.0 0.951752 17.868466 0.306833 -72.129427 0.306833 -72.129427 0.951752 17.868466
7000.0 0.954912 17.268906 0.296857 -72.729062 0.296857 -72.729062 0.954912 17.268906
7250.0 0.957777 16.707163 0.28748 -73.290875 0.28748 -73.290875 0.957777 16.707163
7500.0 0.960382 16.179866 0.278654 -73.818238 0.278654 -73.818238 0.960382 16.179866
7750.0 0.962759 15.684022 0.270332 -74.314142 0.270332 -74.314142 0.962759 15.684022
8000.0 0.964931 15.216968 0.262475 -74.781254 0.262475 -74.781254 0.964931 15.216968
8250.0 0.966921 14.776324 0.255046 -75.221952 0.255046 -75.221952 0.966921 14.776324
8500.0 0.968749 14.359958 0.248013 -75.638368 0.248013 -75.638368 0.968749 14.359958
8750.0 0.970432 13.96596 0.241345 -76.032414 0.241345 -76.032414 0.970432 13.96596
9000.0 0.971985 13.592608 0.235017 -76.405812 0.235017 -76.405812 0.971985 13.592608
9250.0 0.97342 13.23835 0.229002 -76.760113 0.229002 -76.760113 0.97342 13.23835
9500.0 0.974748 12.901783 0.22328 -77.09672 0.22328 -77.09672 0.974748 12.901783
9750.0 0.975981 12.581635 0.21783 -77.416906 0.21783 -77.416906 0.975981 12.581635
10000.0 0.977127 12.276753 0.212634 -77.721824 0.212634 -77.721824 0.977127 12.276753
10250.0 0.978193 11.986087 0.207674 -78.012526 0.207674 -78.012526 0.978193 11.986087
10500.0 0.979187 11.708677 0.202936 -78.289968 0.202936 -78.289968 0.979187 11.708677
10750.0 0.980116 11.443651 0.198404 -78.555026 0.198404 -78.555026 0.980116 11.443651
11000.0 0.980984 11.190207 0.194067 -78.8085 0.194067 -78.8085 0.980984 11.190207
11250.0 0.981797 10.947612 0.189911 -79.051124 0.189911 -79.051124 0.981797 10.947612
11500.0 0.98256 10.715191 0.185927 -79.283572 0.185927 -79.283572 0.98256 10.715191
11750.0 0.983275 10.492326 0.182104 -79.506463 0.182104 -79.506463 0.983275 10.492326
12000.0 0.983949 10.278445 0.178432 -79.720369 0.178432 -79.720369 0.983949 10.278445
12250.0 0.984582 10.073021 0.174903 -79.925817 0.174903 -79.925817 0.984582 10.073021
12500.0 0.985179 9.875568 0.171509 -80.123294 0.171509 -80.123294 0.985179 9.875568
12750.0 0.985742 9.685634 0.168242 -80.31325 0.168242 -80.31325 0.985742 9.685634
13000.0 0.986274 9.502803 0.165096 -80.496103 0.165096 -80.496103 0.986274 9.502803
13250.0 0.986777 9.326685 0.162063 -80.672241 0.162063 -80.672241 0.986777 9.326685
13500.0 0.987253 9.156923 0.159139 -80.842023 0.159139 -80.842023 0.987253 9.156923
13750.0 0.987704 8.99318 0.156317 -81.005786 0.156317 -81.005786 0.987704 8.99318
14000.0 0.988132 8.835144 0.153592 -81.16384 0.153592 -81.16384 0.988132 8.835144
14250.0 0.988537 8.682525 0.150959 -81.316476 0.150959 -81.316476 0.988537 8.682525
14500.0 0.988923 8.535051 0.148414 -81.463968 0.148414 -81.463968 0.988923 8.535051
14750.0 0.989289 8.392468 0.145953 -81.606568 0.145953 -81.606568 0.989289 8.392468
15000.0 0.989638 8.254537 0.143571 -81.744514 0.143571 -81.744514 0.989638 8.254537
15250.0 0.98997 8.121037 0.141265 -81.87803 0.141265 -81.87803 0.98997 8.121037
15500.0 0.990286 7.991759 0.139031 -82.007323 0.139031 -82.007323 0.990286 7.991759
15750.0 0.990587 7.866507 0.136866 -82.13259 0.136866 -82.13259 0.990587 7.866507
16000.0 0.990875 7.745097 0.134766 -82.254014 0.134766 -82.254014 0.990875 7.745097
16250.0 0.99115 7.627356 0.13273 -82.371769 0.13273 -82.371769 0.99115 7.627356
16500.0 0.991413 7.51312 0.130753 -82.486017 0.130753 -82.486017 0.991413 7.51312
16750.0 0.991664 7.402238 0.128834 -82.596913 0.128834 -82.596913 0.991664 7.402238
17000.0 0.991905 7.294563 0.12697 -82.704601 0.12697 -82.704601 0.991905 7.294563
17250.0 0.992135 7.189959 0.125159 -82.809216 0.125159 -82.809216 0.992135 7.189959
17500.0 0.992355 7.088298 0.123399 -82.910889 0.123399 -82.910889 0.992355 7.088298
17750.0 0.992567 6.989458 0.121687 -83.009741 0.121687 -83.009741 0.992567 6.989458
18000.0 0.99277 6.893323 0.120021 -83.105887 0.120021 -83.105887 0.99277 6.893323
18250.0 0.992964 6.799784 0.1184 -83.199436 0.1184 -83.199436 0.992964 6.799784
18500.0 0.993151 6.708739 0.116822 -83.290492 0.116822 -83.290492 0.993151 6.708739
18750.0 0.993331 6.620088 0.115285 -83.379153 0.115285 -83.379153 0.993331 6.620088
19000.0 0.993504 6.53374 0.113788 -83.465511 0.113788 -83.465511 0.993504 6.53374
19250.0 0.99367 6.449607 0.112329 -83.549655 0.112329 -83.549655 0.99367 6.449607
19500.0 0.993829 6.367603 0.110907 -83.631668 0.110907 -83.631668 0.993829 6.367603
19750.0 0.993983 6.28765 0.10952 -83.711629 0.10952 -83.711629 0.993983 6.28765
20000.0 0.994131 6.209673 0.108167 -83.789616 0.108167 -83.789616 0.994131 6.209673
20250.0 0.994274 6.133598 0.106847 -83.865699 0.106847 -83.865699 0.994274 6.133598
20500.0 0.994412 6.059358 0.105559 -83.939948 0.105559 -83.939948 0.994412 6.059358
20750.0 0.994545 5.986888 0.104301 -84.012427 0.104301 -84.012427 0.994545 5.986888
21000.0 0.994673 5.916124 0.103072 -84.083199 0.103072 -84.083199 0.994673 5.916124
21250.0 0.994796 5.847008 0.101873 -84.152323 0.101873 -84.152323 0.994796 5.847008
21500.0 0.994916 5.779482 0.1007 -84.219856 0.1007 -84.219856 0.994916 5.779482
21750.0 0.995031 5.713494 0.099554 -84.285852 0.099554 -84.285852 0.995031 5.713494
22000.0 0.995142 5.64899 0.098434 -84.350363 0.098434 -84.350363 0.995142 5.64899
22250.0 0.99525 5.585922 0.097338 -84.413439 0.097338 -84.413439 0.99525 5.585922
22500.0 0.995354 5.524242 0.096267 -84.475125 0.096267 -84.475125 0.995354 5.524242
22750.0 0.995455 5.463906 0.095219 -84.535469 0.095219 -84.535469 0.995455 5.463906
23000.0 0.995553 5.404869 0.094193 -84.594512 0.094193 -84.594512 0.995553 5.404869
23250.0 0.995647 5.347091 0.093189 -84.652297 0.093189 -84.652297 0.995647 5.347091
23500.0 0.995739 5.290532 0.092206 -84.708863 0.092206 -84.708863 0.995739 5.290532
23750.0 0.995828 5.235153 0.091244 -84.764248 0.091244 -84.764248 0.995828 5.235153
24000.0 0.995914 5.180919 0.090301 -84.818488 0.090301 -84.818488 0.995914 5.180919
24250.0 0.995997 5.127794 0.089377 -84.87162 0.089377 -84.87162 0.995997 5.127794
24500.0 0.996078 5.075744 0.088473 -84.923675 0.088473 -84.923675 0.996078 5.075744
24750.0 0.996156 5.024738 0.087586 -84.974687 0.087586 -84.974687 0.996156 5.024738
25000.0 0.996232 4.974744 0.086717 -85.024687 0.086717 -85.024687 0.996232 4.974744
25250.0 0.996306 4.925733 0.085864 -85.073704 0.085864 -85.073704 0.996306 4.925733
25500.0 0.996378 4.877675 0.085029 -85.121767 0.085029 -85.121767 0.996378 4.877675
25750.0 0.996447 4.830545 0.084209 -85.168903 0.084209 -85.168903 0.996447 4.830545
26000.0 0.996515 4.784314 0.083405 -85.215139 0.083405 -85.215139 0.996515 4.784314
26250.0 0.996581 4.738958 0.082616 -85.260501 0.082616 -85.260501 0.996581 4.738958
26500.0 0.996645 4.694451 0.081842 -85.305012 0.081842 -85.305012 0.996645 4.694451
26750.0 0.996707 4.650771 0.081082 -85.348697 0.081082 -85.348697 0.996707 4.650771
27000.0 0.996767 4.607895 0.080336 -85.391578 0.080336 -85.391578 0.996767 4.607895
27250.0 0.996826 4.5658 0.079604 -85.433678 0.079604 -85.433678 0.996826 4.5658
27500.0 0.996883 4.524466 0.078885 -85.475017 0.078885 -85.475017 0.996883 4.524466
27750.0 0.996939 4.483872 0.078178 -85.515615 0.078178 -85.515615 0.996939 4.483872
28000.0 0.996993 4.443999 0.077485 -85.555493 0.077485 -85.555493 0.996993 4.443999
28250.0 0.997046 4.404827 0.076803 -85.59467 0.076803 -85.59467 0.997046 4.404827
28500.0 0.997097 4.366338 0.076133 -85.633163 0.076133 -85.633163 0.997097 4.366338
28750.0 0.997147 4.328515 0.075475 -85.67099 0.075475 -85.67099 0.997147 4.328515
29000.0 0.997196 4.29134 0.074828 -85.708169 0.074828 -85.708169 0.997196 4.29134
29250.0 0.997243 4.254798 0.074192 -85.744716 0.074192 -85.744716 0.997243 4.254798
29500.0 0.99729 4.218871 0.073567 -85.780647 0.073567 -85.780647 0.99729 4.218871
29750.0 0.997335 4.183544 0.072952 -85.815977 0.072952 -85.815977 0.997335 4.183544
30000.0 0.997379 4.148804 0.072347 -85.850722 0.072347 -85.850722 0.997379 4.148804
30250.0 0.997422 4.114635 0.071752 -85.884895 0.071752 -85.884895 0.997422 4.114635
30500.0 0.997464 4.081022 0.071167 -85.918511 0.071167 -85.918511 0.997464 4.081022
30750.0 0.997505 4.047954 0.070591 -85.951583 0.070591 -85.951583 0.997505 4.047954
31000.0 0.997545 4.015417 0.070025 -85.984124 0.070025 -85.984124 0.997545 4.015417
31250.0 0.997584 3.983397 0.069467 -86.016148 0.069467 -86.016148 0.997584 3.983397
31500.0 0.997622 3.951884 0.068919 -86.047665 0.068919 -86.047665 0.997622 3.951884
31750.0 0.997659 3.920864 0.068379 -86.078688 0.068379 -86.078688 0.997659 3.920864
32000.0 0.997695 3.890327 0.067847 -86.109229 0.067847 -86.109229 0.997695 3.890327
32250.0 0.997731 3.860261 0.067323 -86.139298 0.067323 -86.139298 0.997731 3.860261
32500.0 0.997765 3.830655 0.066808 -86.168907 0.066808 -86.168907 0.997765 3.830655
32750.0 0.997799 3.801499 0.0663 -86.198066 0.0663 -86.198066 0.997799 3.801499
33000.0 0.997832 3.772784 0.0658 -86.226785 0.0658 -86.226785 0.997832 3.772784
33250.0 0.997865 3.744498 0.065307 -86.255074 0.065307 -86.255074 0.997865 3.744498
33500.0 0.997896 3.716633 0.064822 -86.282943 0.064822 -86.282943 0.997896 3.716633
33750.0 0.997927 3.689178 0.064344 -86.3104 0.064344 -86.3104 0.997927 3.689178
34000.0 0.997958 3.662126 0.063873 -86.337456 0.063873 -86.337456 0.997958 3.662126
34250.0 0.997987 3.635467 0.063408 -86.364117 0.063408 -86.364117 0.997987 3.635467
34500.0 0.998016 3.609193 0.062951 -86.390395 0.062951 -86.390395 0.998016 3.609193
34750.0 0.998045 3.583296 0.0625 -86.416295 0.0625 -86.416295 0.998045 3.583296
35000.0 0.998072 3.557767 0.062055 -86.441827 0.062055 -86.441827 0.998072 3.557767
35250.0 0.998099 3.532598 0.061616 -86.466998 0.061616 -86.466998 0.998099 3.532598
35500.0 0.998126 3.507783 0.061184 -86.491816 0.061184 -86.491816 0.998126 3.507783
35750.0 0.998152 3.483314 0.060758 -86.516288 0.060758 -86.516288 0.998152 3.483314
36000.0 0.998178 3.459183 0.060337 -86.540422 0.060337 -86.540422 0.998178 3.459183
36250.0 0.998203 3.435384 0.059923 -86.564223 0.059923 -86.564223 0.998203 3.435384
36500.0 0.998227 3.41191 0.059514 -86.5877 0.059514 -86.5877 0.998227 3.41191
36750.0 0.998251 3.388754 0.05911 -86.610859 0.05911 -86.610859 0.998251 3.388754
37000.0 0.998275 3.36591 0.058712 -86.633706 0.058712 -86.633706 0.998275 3.36591
37250.0 0.998298 3.343371 0.05832 -86.656247 0.05832 -86.656247 0.998298 3.343371
37500.0 0.99832 3.321132 0.057932 -86.678488 0.057932 -86.678488 0.99832 3.321132
37750.0 0.998342 3.299187 0.05755 -86.700436 0.05755 -86.700436 0.998342 3.299187
38000.0 0.998364 3.277529 0.057172 -86.722097 0.057172 -86.722097 0.998364 3.277529
38250.0 0.998385 3.256154 0.0568 -86.743475 0.0568 -86.743475 0.998385 3.256154
38500.0 0.998406 3.235055 0.056432 -86.764576 0.056432 -86.764576 0.998406 3.235055
38750.0 0.998427 3.214227 0.056069 -86.785406 0.056069 -86.785406 0.998427 3.214227
39000.0 0.998447 3.193666 0.055711 -86.805969 0.055711 -86.805969 0.998447 3.193666
39250.0 0.998466 3.173366 0.055357 -86.826271 0.055357 -86.826271 0.998466 3.173366
39500.0 0.998486 3.153322 0.055008 -86.846318 0.055008 -86.846318 0.998486 3.153322
39750.0 0.998505 3.13353 0.054663 -86.866113 0.054663 -86.866113 0.998505 3.13353
40000.0 0.998523 3.113984 0.054323 -86.885661 0.054323 -86.885661 0.998523 3.113984
40250.0 0.998541 3.09468 0.053986 -86.904967 0.053986 -86.904967 0.998541 3.09468
40500.0 0.998559 3.075614 0.053654 -86.924035 0.053654 -86.924035 0.998559 3.075614
40750.0 0.998577 3.056781 0.053326 -86.94287 0.053326 -86.94287 0.998577 3.056781
41000.0 0.998594 3.038177 0.053001 -86.961476 0.053001 -86.961476 0.998594 3.038177
41250.0 0.998611 3.019798 0.052681 -86.979857 0.052681 -86.979857 0.998611 3.019798
41500.0 0.998628 3.00164 0.052365 -86.998017 0.052365 -86.998017 0.998628 3.00164
41750.0 0.998644 2.983699 0.052052 -87.015961 0.052052 -87.015961 0.998644 2.983699
42000.0 0.99866 2.96597 0.051743 -87.033691 0.051743 -87.033691 0.99866 2.96597
42250.0 0.998676 2.948451 0.051437 -87.051212 0.051437 -87.051212 0.998676 2.948451
42500.0 0.998691 2.931138 0.051136 -87.068528 0.051136 -87.068528 0.998691 2.931138
42750.0 0.998707 2.914026 0.050837 -87.085641 0.050837 -87.085641 0.998707 2.914026
43000.0 0.998722 2.897113 0.050543 -87.102556 0.050543 -87.102556 0.998722 2.897113
43250.0 0.998736 2.880395 0.050251 -87.119276 0.050251 -87.119276 0.998736 2.880395
43500.0 0.998751 2.863869 0.049963 -87.135804 0.049963 -87.135804 0.998751 2.863869
43750.0 0.998765 2.847531 0.049678 -87.152144 0.049678 -87.152144 0.998765 2.847531
44000.0 0.998779 2.831378 0.049397 -87.168299 0.049397 -87.168299 0.998779 2.831378
44250.0 0.998793 2.815407 0.049118 -87.184271 0.049118 -87.184271 0.998793 2.815407
44500.0 0.998806 2.799616 0.048843 -87.200065 0.048843 -87.200065 0.998806 2.799616
44750.0 0.998819 2.784 0.048571 -87.215682 0.048571 -87.215682 0.998819 2.784
45000.0 0.998833 2.768558 0.048302 -87.231126 0.048302 -87.231126 0.998833 2.768558
45250.0 0.998845 2.753285 0.048035 -87.2464 0.048035 -87.2464 0.998845 2.753285
45500.0 0.998858 2.73818 0.047772 -87.261507 0.047772 -87.261507 0.998858 2.73818
45750.0 0.99887 2.72324 0.047512 -87.276449 0.047512 -87.276449 0.99887 2.72324
46000.0 0.998883 2.708462 0.047254 -87.291229 0.047254 -87.291229 0.998883 2.708462
46250.0 0.998895 2.693844 0.046999 -87.305849 0.046999 -87.305849 0.998895 2.693844
46500.0 0.998907 2.679382 0.046747 -87.320312 0.046747 -87.320312 0.998907 2.679382
46750.0 0.998918 2.665074 0.046498 -87.334622 0.046498 -87.334622 0.998918 2.665074
47000.0 0.99893 2.650919 0.046251 -87.348779 0.046251 -87.348779 0.99893 2.650919
47250.0 0.998941 2.636912 0.046007 -87.362787 0.046007 -87.362787 0.998941 2.636912
47500.0 0.998952 2.623053 0.045765 -87.376647 0.045765 -87.376647 0.998952 2.623053
47750.0 0.998963 2.609339 0.045526 -87.390363 0.045526 -87.390363 0.998963 2.609339
48000.0 0.998974 2.595767 0.045289 -87.403936 0.045289 -87.403936 0.998974 2.595767
48250.0 0.998984 2.582336 0.045055 -87.417369 0.045055 -87.417369 0.998984 2.582336
48500.0 0.998995 2.569043 0.044823 -87.430664 0.044823 -87.430664 0.998995 2.569043
48750.0 0.999005 2.555886 0.044594 -87.443822 0.044594 -87.443822 0.999005 2.555886
49000.0 0.999015 2.542863 0.044367 -87.456847 0.044367 -87.456847 0.999015 2.542863
49250.0 0.999025 2.529972 0.044142 -87.469739 0.044142 -87.469739 0.999025 2.529972
49500.0 0.999035 2.517211 0.043919 -87.482502 0.043919 -87.482502 0.999035 2.517211
49750.0 0.999045 2.504577 0.043699 -87.495137 0.043699 -87.495137 0.999045 2.504577
50000.0 0.999054 2.49207 0.043481 -87.507645 0.043481 -87.507645 0.999054 2.49207
50250.0 0.999063 2.479688 0.043265 -87.520029 0.043265 -87.520029 0.999063 2.479688
50500.0 0.999073 2.467427 0.043051 -87.532291 0.043051 -87.532291 0.999073 2.467427
50750.0 0.999082 2.455287 0.04284 -87.544433 0.04284 -87.544433 0.999082 2.455287
51000.0 0.999091 2.443266 0.04263 -87.556455 0.04263 -87.556455 0.999091 2.443266
51250.0 0.9991 2.431362 0.042423 -87.56836 0.042423 -87.56836 0.9991 2.431362
51500.0 0.999108 2.419573 0.042217 -87.58015 0.042217 -87.58015 0.999108 2.419573
51750.0 0.999117 2.407898 0.042013 -87.591827 0.042013 -87.591827 0.999117 2.407898
52000.0 0.999125 2.396336 0.041812 -87.603391 0.041812 -87.603391 0.999125 2.396336
52250.0 0.999134 2.384883 0.041612 -87.614845 0.041612 -87.614845 0.999134 2.384883
52500.0 0.999142 2.37354 0.041414 -87.62619 0.041414 -87.62619 0.999142 2.37354
52750.0 0.99915 2.362303 0.041218 -87.637427 0.041218 -87.637427 0.99915 2.362303
53000.0 0.999158 2.351173 0.041024 -87.648559 0.041024 -87.648559 0.999158 2.351173
53250.0 0.999166 2.340147 0.040832 -87.659586 0.040832 -87.659586 0.999166 2.340147
53500.0 0.999174 2.329224 0.040641 -87.670511 0.040641 -87.670511 0.999174 2.329224
53750.0 0.999181 2.318402 0.040453 -87.681333 0.040453 -87.681333 0.999181 2.318402
54000.0 0.999189 2.30768 0.040266 -87.692056 0.040266 -87.692056 0.999189 2.30768
54250.0 0.999196 2.297057 0.04008 -87.702681 0.04008 -87.702681 0.999196 2.297057
54500.0 0.999204 2.286531 0.039897 -87.713208 0.039897 -87.713208 0.999204 2.286531
54750.0 0.999211 2.276102 0.039715 -87.723639 0.039715 -87.723639 0.999211 2.276102
55000.0 0.999218 2.265767 0.039535 -87.733975 0.039535 -87.733975 0.999218 2.265767
55250.0 0.999225 2.255525 0.039356 -87.744218 0.039356 -87.744218 0.999225 2.255525
55500.0 0.999232 2.245375 0.039179 -87.754369 0.039179 -87.754369 0.999232 2.245375
55750.0 0.999239 2.235316 0.039004 -87.764428 0.039004 -87.764428 0.999239 2.235316
56000.0 0.999246 2.225347 0.03883 -87.774399 0.03883 -87.774399 0.999246 2.225347
56250.0 0.999252 2.215467 0.038658 -87.78428 0.038658 -87.78428 0.999252 2.215467
56500.0 0.999259 2.205674 0.038487 -87.794075 0.038487 -87.794075 0.999259 2.205674
56750.0 0.999265 2.195967 0.038317 -87.803783 0.038317 -87.803783 0.999265 2.195967
57000.0 0.999272 2.186345 0.03815 -87.813406 0.03815 -87.813406 0.999272 2.186345
57250.0 0.999278 2.176806 0.037983 -87.822945 0.037983 -87.822945 0.999278 2.176806
57500.0 0.999284 2.167351 0.037818 -87.832402 0.037818 -87.832402 0.999284 2.167351
57750.0 0.999291 2.157977 0.037655 -87.841776 0.037655 -87.841776 0.999291 2.157977
58000.0 0.999297 2.148685 0.037493 -87.85107 0.037493 -87.85107 0.999297 2.148685
58250.0 0.999303 2.139471 0.037332 -87.860284 0.037332 -87.860284 0.999303 2.139471
58500.0 0.999309 2.130337 0.037173 -87.86942 0.037173 -87.86942 0.999309 2.130337
58750.0 0.999315 2.12128 0.037015 -87.878478 0.037015 -87.878478 0.999315 2.12128
59000.0 0.99932 2.112299 0.036858 -87.887459 0.036858 -87.887459 0.99932 2.112299
