! File created by SignalIntegrity v1.4.3: Signal and Power Integrity Tools
! https://github.com/Nubis-Communications/SignalIntegrity
! 
! the calculations of this model are from:
! https://www.allaboutcircuits.com/tools/wire-self-inductance-calculator/
# MHz S MA R 50.0
0.0 3.1e-05 0.0 0.999969 0.0 0.999969 0.0 3.1e-05 0.0
500.0 0.993412 6.580072 0.114592 -83.419721 0.114592 -83.419721 0.993412 6.580072
1000.0 0.998341 3.300921 0.05758 -86.698975 0.05758 -86.698975 0.998341 3.300921
1500.0 0.999262 2.201967 0.038422 -87.797963 0.038422 -87.797963 0.999262 2.201967
2000.0 0.999584 1.651831 0.028826 -88.348117 0.028826 -88.348117 0.999584 1.651831
2500.0 0.999734 1.321597 0.023064 -88.678362 0.023064 -88.678362 0.999734 1.321597
3000.0 0.999815 1.10139 0.019222 -88.898575 0.019222 -88.898575 0.999815 1.10139
3500.0 0.999864 0.94408 0.016477 -89.055891 0.016477 -89.055891 0.999864 0.94408
4000.0 0.999896 0.826087 0.014417 -89.173887 0.014417 -89.173887 0.999896 0.826087
4500.0 0.999918 0.734311 0.012816 -89.265666 0.012816 -89.265666 0.999918 0.734311
5000.0 0.999933 0.660886 0.011534 -89.339093 0.011534 -89.339093 0.999933 0.660886
5500.0 0.999945 0.60081 0.010486 -89.399171 0.010486 -89.399171 0.999945 0.60081
6000.0 0.999954 0.550746 0.009612 -89.449237 0.009612 -89.449237 0.999954 0.550746
6500.0 0.999961 0.508383 0.008873 -89.491601 0.008873 -89.491601 0.999961 0.508383
7000.0 0.999966 0.472072 0.008239 -89.527913 0.008239 -89.527913 0.999966 0.472072
7500.0 0.99997 0.440602 0.00769 -89.559384 0.00769 -89.559384 0.99997 0.440602
8000.0 0.999974 0.413065 0.007209 -89.586922 0.007209 -89.586922 0.999974 0.413065
8500.0 0.999977 0.388768 0.006785 -89.61122 0.006785 -89.61122 0.999977 0.388768
9000.0 0.999979 0.36717 0.006408 -89.632818 0.006408 -89.632818 0.999979 0.36717
9500.0 0.999982 0.347846 0.006071 -89.652143 0.006071 -89.652143 0.999982 0.347846
10000.0 0.999983 0.330454 0.005767 -89.669535 0.005767 -89.669535 0.999983 0.330454
10500.0 0.999985 0.314719 0.005493 -89.685272 0.005493 -89.685272 0.999985 0.314719
11000.0 0.999986 0.300413 0.005243 -89.699577 0.005243 -89.699577 0.999986 0.300413
11500.0 0.999987 0.287352 0.005015 -89.712639 0.005015 -89.712639 0.999987 0.287352
12000.0 0.999988 0.275379 0.004806 -89.724612 0.004806 -89.724612 0.999988 0.275379
12500.0 0.999989 0.264364 0.004614 -89.735627 0.004614 -89.735627 0.999989 0.264364
13000.0 0.99999 0.254197 0.004437 -89.745795 0.004437 -89.745795 0.99999 0.254197
13500.0 0.999991 0.244782 0.004272 -89.75521 0.004272 -89.75521 0.999991 0.244782
14000.0 0.999992 0.23604 0.00412 -89.763953 0.00412 -89.763953 0.999992 0.23604
14500.0 0.999992 0.227901 0.003978 -89.772092 0.003978 -89.772092 0.999992 0.227901
15000.0 0.999993 0.220304 0.003845 -89.779689 0.003845 -89.779689 0.999993 0.220304
15500.0 0.999993 0.213198 0.003721 -89.786796 0.003721 -89.786796 0.999993 0.213198
16000.0 0.999994 0.206535 0.003605 -89.793458 0.003605 -89.793458 0.999994 0.206535
16500.0 0.999994 0.200277 0.003495 -89.799717 0.003495 -89.799717 0.999994 0.200277
17000.0 0.999994 0.194386 0.003393 -89.805608 0.003393 -89.805608 0.999994 0.194386
17500.0 0.999995 0.188832 0.003296 -89.811162 0.003296 -89.811162 0.999995 0.188832
18000.0 0.999995 0.183587 0.003204 -89.816407 0.003204 -89.816407 0.999995 0.183587
18500.0 0.999995 0.178625 0.003118 -89.821369 0.003118 -89.821369 0.999995 0.178625
19000.0 0.999995 0.173925 0.003036 -89.82607 0.003036 -89.82607 0.999995 0.173925
19500.0 0.999996 0.169465 0.002958 -89.83053 0.002958 -89.83053 0.999996 0.169465
20000.0 0.999996 0.165228 0.002884 -89.834766 0.002884 -89.834766 0.999996 0.165228
20500.0 0.999996 0.161199 0.002813 -89.838796 0.002813 -89.838796 0.999996 0.161199
21000.0 0.999996 0.15736 0.002746 -89.842635 0.002746 -89.842635 0.999996 0.15736
21500.0 0.999996 0.153701 0.002683 -89.846294 0.002683 -89.846294 0.999996 0.153701
22000.0 0.999997 0.150208 0.002622 -89.849788 0.002622 -89.849788 0.999997 0.150208
22500.0 0.999997 0.14687 0.002563 -89.853126 0.002563 -89.853126 0.999997 0.14687
23000.0 0.999997 0.143677 0.002508 -89.856318 0.002508 -89.856318 0.999997 0.143677
23500.0 0.999997 0.14062 0.002454 -89.859376 0.002454 -89.859376 0.999997 0.14062
24000.0 0.999997 0.137691 0.002403 -89.862305 0.002403 -89.862305 0.999997 0.137691
24500.0 0.999997 0.134881 0.002354 -89.865115 0.002354 -89.865115 0.999997 0.134881
25000.0 0.999997 0.132183 0.002307 -89.867813 0.002307 -89.867813 0.999997 0.132183
25500.0 0.999997 0.129591 0.002262 -89.870405 0.002262 -89.870405 0.999997 0.129591
26000.0 0.999998 0.127099 0.002218 -89.872897 0.002218 -89.872897 0.999998 0.127099
26500.0 0.999998 0.124701 0.002176 -89.875295 0.002176 -89.875295 0.999998 0.124701
27000.0 0.999998 0.122392 0.002136 -89.877605 0.002136 -89.877605 0.999998 0.122392
27500.0 0.999998 0.120166 0.002097 -89.87983 0.002097 -89.87983 0.999998 0.120166
28000.0 0.999998 0.11802 0.00206 -89.881976 0.00206 -89.881976 0.999998 0.11802
28500.0 0.999998 0.11595 0.002024 -89.884046 0.002024 -89.884046 0.999998 0.11595
29000.0 0.999998 0.113951 0.001989 -89.886046 0.001989 -89.886046 0.999998 0.113951
29500.0 0.999998 0.112019 0.001955 -89.887977 0.001955 -89.887977 0.999998 0.112019
30000.0 0.999998 0.110152 0.001923 -89.889844 0.001923 -89.889844 0.999998 0.110152
30500.0 0.999998 0.108347 0.001891 -89.89165 0.001891 -89.89165 0.999998 0.108347
31000.0 0.999998 0.106599 0.001861 -89.893397 0.001861 -89.893397 0.999998 0.106599
31500.0 0.999998 0.104907 0.001831 -89.89509 0.001831 -89.89509 0.999998 0.104907
32000.0 0.999998 0.103268 0.001802 -89.896729 0.001802 -89.896729 0.999998 0.103268
32500.0 0.999998 0.101679 0.001775 -89.898318 0.001775 -89.898318 0.999998 0.101679
33000.0 0.999998 0.100139 0.001748 -89.899858 0.001748 -89.899858 0.999998 0.100139
33500.0 0.999999 0.098644 0.001722 -89.901353 0.001722 -89.901353 0.999999 0.098644
34000.0 0.999999 0.097193 0.001696 -89.902804 0.001696 -89.902804 0.999999 0.097193
34500.0 0.999999 0.095785 0.001672 -89.904212 0.001672 -89.904212 0.999999 0.095785
35000.0 0.999999 0.094416 0.001648 -89.905581 0.001648 -89.905581 0.999999 0.094416
35500.0 0.999999 0.093087 0.001625 -89.90691 0.001625 -89.90691 0.999999 0.093087
36000.0 0.999999 0.091794 0.001602 -89.908203 0.001602 -89.908203 0.999999 0.091794
36500.0 0.999999 0.090536 0.00158 -89.909461 0.00158 -89.909461 0.999999 0.090536
37000.0 0.999999 0.089313 0.001559 -89.910684 0.001559 -89.910684 0.999999 0.089313
37500.0 0.999999 0.088122 0.001538 -89.911875 0.001538 -89.911875 0.999999 0.088122
38000.0 0.999999 0.086963 0.001518 -89.913035 0.001518 -89.913035 0.999999 0.086963
38500.0 0.999999 0.085833 0.001498 -89.914164 0.001498 -89.914164 0.999999 0.085833
39000.0 0.999999 0.084733 0.001479 -89.915265 0.001479 -89.915265 0.999999 0.084733
39500.0 0.999999 0.08366 0.00146 -89.916337 0.00146 -89.916337 0.999999 0.08366
40000.0 0.999999 0.082614 0.001442 -89.917383 0.001442 -89.917383 0.999999 0.082614
40500.0 0.999999 0.081594 0.001424 -89.918403 0.001424 -89.918403 0.999999 0.081594
41000.0 0.999999 0.080599 0.001407 -89.919398 0.001407 -89.919398 0.999999 0.080599
41500.0 0.999999 0.079628 0.00139 -89.920369 0.00139 -89.920369 0.999999 0.079628
42000.0 0.999999 0.07868 0.001373 -89.921317 0.001373 -89.921317 0.999999 0.07868
42500.0 0.999999 0.077755 0.001357 -89.922243 0.001357 -89.922243 0.999999 0.077755
43000.0 0.999999 0.076851 0.001341 -89.923147 0.001341 -89.923147 0.999999 0.076851
43500.0 0.999999 0.075967 0.001326 -89.92403 0.001326 -89.92403 0.999999 0.075967
44000.0 0.999999 0.075104 0.001311 -89.924894 0.001311 -89.924894 0.999999 0.075104
44500.0 0.999999 0.07426 0.001296 -89.925738 0.001296 -89.925738 0.999999 0.07426
45000.0 0.999999 0.073435 0.001282 -89.926563 0.001282 -89.926563 0.999999 0.073435
45500.0 0.999999 0.072628 0.001268 -89.92737 0.001268 -89.92737 0.999999 0.072628
46000.0 0.999999 0.071839 0.001254 -89.928159 0.001254 -89.928159 0.999999 0.071839
46500.0 0.999999 0.071066 0.00124 -89.928932 0.00124 -89.928932 0.999999 0.071066
47000.0 0.999999 0.07031 0.001227 -89.929688 0.001227 -89.929688 0.999999 0.07031
47500.0 0.999999 0.06957 0.001214 -89.930428 0.001214 -89.930428 0.999999 0.06957
48000.0 0.999999 0.068845 0.001202 -89.931152 0.001202 -89.931152 0.999999 0.068845
48500.0 0.999999 0.068136 0.001189 -89.931862 0.001189 -89.931862 0.999999 0.068136
49000.0 0.999999 0.06744 0.001177 -89.932558 0.001177 -89.932558 0.999999 0.06744
49500.0 0.999999 0.066759 0.001165 -89.933239 0.001165 -89.933239 0.999999 0.066759
50000.0 0.999999 0.066092 0.001154 -89.933906 0.001154 -89.933906 0.999999 0.066092
50500.0 0.999999 0.065437 0.001142 -89.934561 0.001142 -89.934561 0.999999 0.065437
51000.0 0.999999 0.064796 0.001131 -89.935202 0.001131 -89.935202 0.999999 0.064796
51500.0 0.999999 0.064167 0.00112 -89.935831 0.00112 -89.935831 0.999999 0.064167
52000.0 0.999999 0.06355 0.001109 -89.936448 0.001109 -89.936448 0.999999 0.06355
52500.0 0.999999 0.062944 0.001099 -89.937054 0.001099 -89.937054 0.999999 0.062944
53000.0 0.999999 0.062351 0.001088 -89.937648 0.001088 -89.937648 0.999999 0.062351
53500.0 0.999999 0.061768 0.001078 -89.93823 0.001078 -89.93823 0.999999 0.061768
54000.0 0.999999 0.061196 0.001068 -89.938802 0.001068 -89.938802 0.999999 0.061196
54500.0 0.999999 0.060634 0.001058 -89.939364 0.001058 -89.939364 0.999999 0.060634
55000.0 0.999999 0.060083 0.001049 -89.939915 0.001049 -89.939915 0.999999 0.060083
55500.0 0.999999 0.059542 0.001039 -89.940456 0.001039 -89.940456 0.999999 0.059542
56000.0 0.999999 0.05901 0.00103 -89.940988 0.00103 -89.940988 0.999999 0.05901
56500.0 0.999999 0.058488 0.001021 -89.94151 0.001021 -89.94151 0.999999 0.058488
57000.0 0.999999 0.057975 0.001012 -89.942023 0.001012 -89.942023 0.999999 0.057975
57500.0 0.999999 0.057471 0.001003 -89.942527 0.001003 -89.942527 0.999999 0.057471
58000.0 1.0 0.056975 0.000994 -89.943023 0.000994 -89.943023 1.0 0.056975
58500.0 1.0 0.056489 0.000986 -89.94351 0.000986 -89.94351 1.0 0.056489
59000.0 1.0 0.05601 0.000978 -89.943988 0.000978 -89.943988 1.0 0.05601
59500.0 1.0 0.055539 0.000969 -89.944459 0.000969 -89.944459 1.0 0.055539
60000.0 1.0 0.055076 0.000961 -89.944922 0.000961 -89.944922 1.0 0.055076
60500.0 1.0 0.054621 0.000953 -89.945377 0.000953 -89.945377 1.0 0.054621
61000.0 1.0 0.054173 0.000946 -89.945825 0.000946 -89.945825 1.0 0.054173
61500.0 1.0 0.053733 0.000938 -89.946265 0.000938 -89.946265 1.0 0.053733
62000.0 1.0 0.0533 0.00093 -89.946699 0.00093 -89.946699 1.0 0.0533
62500.0 1.0 0.052873 0.000923 -89.947125 0.000923 -89.947125 1.0 0.052873
63000.0 1.0 0.052454 0.000915 -89.947545 0.000915 -89.947545 1.0 0.052454
63500.0 1.0 0.052041 0.000908 -89.947958 0.000908 -89.947958 1.0 0.052041
64000.0 1.0 0.051634 0.000901 -89.948364 0.000901 -89.948364 1.0 0.051634
64500.0 1.0 0.051234 0.000894 -89.948765 0.000894 -89.948765 1.0 0.051234
65000.0 1.0 0.05084 0.000887 -89.949159 0.000887 -89.949159 1.0 0.05084
65500.0 1.0 0.050452 0.000881 -89.949547 0.000881 -89.949547 1.0 0.050452
66000.0 1.0 0.050069 0.000874 -89.949929 0.000874 -89.949929 1.0 0.050069
66500.0 1.0 0.049693 0.000867 -89.950306 0.000867 -89.950306 1.0 0.049693
67000.0 1.0 0.049322 0.000861 -89.950676 0.000861 -89.950676 1.0 0.049322
67500.0 1.0 0.048957 0.000854 -89.951042 0.000854 -89.951042 1.0 0.048957
68000.0 1.0 0.048597 0.000848 -89.951402 0.000848 -89.951402 1.0 0.048597
68500.0 1.0 0.048242 0.000842 -89.951756 0.000842 -89.951756 1.0 0.048242
69000.0 1.0 0.047892 0.000836 -89.952106 0.000836 -89.952106 1.0 0.047892
69500.0 1.0 0.047548 0.00083 -89.952451 0.00083 -89.952451 1.0 0.047548
70000.0 1.0 0.047208 0.000824 -89.95279 0.000824 -89.95279 1.0 0.047208
70500.0 1.0 0.046873 0.000818 -89.953125 0.000818 -89.953125 1.0 0.046873
71000.0 1.0 0.046543 0.000812 -89.953455 0.000812 -89.953455 1.0 0.046543
71500.0 1.0 0.046218 0.000807 -89.953781 0.000807 -89.953781 1.0 0.046218
72000.0 1.0 0.045897 0.000801 -89.954102 0.000801 -89.954102 1.0 0.045897
72500.0 1.0 0.04558 0.000796 -89.954418 0.000796 -89.954418 1.0 0.04558
73000.0 1.0 0.045268 0.00079 -89.95473 0.00079 -89.95473 1.0 0.045268
73500.0 1.0 0.04496 0.000785 -89.955038 0.000785 -89.955038 1.0 0.04496
74000.0 1.0 0.044656 0.000779 -89.955342 0.000779 -89.955342 1.0 0.044656
74500.0 1.0 0.044357 0.000774 -89.955642 0.000774 -89.955642 1.0 0.044357
75000.0 1.0 0.044061 0.000769 -89.955938 0.000769 -89.955938 1.0 0.044061
75500.0 1.0 0.043769 0.000764 -89.956229 0.000764 -89.956229 1.0 0.043769
76000.0 1.0 0.043481 0.000759 -89.956517 0.000759 -89.956517 1.0 0.043481
76500.0 1.0 0.043197 0.000754 -89.956802 0.000754 -89.956802 1.0 0.043197
77000.0 1.0 0.042917 0.000749 -89.957082 0.000749 -89.957082 1.0 0.042917
77500.0 1.0 0.04264 0.000744 -89.957359 0.000744 -89.957359 1.0 0.04264
78000.0 1.0 0.042366 0.000739 -89.957632 0.000739 -89.957632 1.0 0.042366
78500.0 1.0 0.042097 0.000735 -89.957902 0.000735 -89.957902 1.0 0.042097
79000.0 1.0 0.04183 0.00073 -89.958169 0.00073 -89.958169 1.0 0.04183
79500.0 1.0 0.041567 0.000725 -89.958432 0.000725 -89.958432 1.0 0.041567
80000.0 1.0 0.041307 0.000721 -89.958691 0.000721 -89.958691 1.0 0.041307
80500.0 1.0 0.041051 0.000716 -89.958948 0.000716 -89.958948 1.0 0.041051
81000.0 1.0 0.040797 0.000712 -89.959201 0.000712 -89.959201 1.0 0.040797
81500.0 1.0 0.040547 0.000708 -89.959452 0.000708 -89.959452 1.0 0.040547
82000.0 1.0 0.0403 0.000703 -89.959699 0.000703 -89.959699 1.0 0.0403
82500.0 1.0 0.040055 0.000699 -89.959943 0.000699 -89.959943 1.0 0.040055
83000.0 1.0 0.039814 0.000695 -89.960185 0.000695 -89.960185 1.0 0.039814
83500.0 1.0 0.039576 0.000691 -89.960423 0.000691 -89.960423 1.0 0.039576
84000.0 1.0 0.03934 0.000687 -89.960659 0.000687 -89.960659 1.0 0.03934
84500.0 1.0 0.039107 0.000683 -89.960891 0.000683 -89.960891 1.0 0.039107
85000.0 1.0 0.038877 0.000679 -89.961121 0.000679 -89.961121 1.0 0.038877
85500.0 1.0 0.03865 0.000675 -89.961349 0.000675 -89.961349 1.0 0.03865
86000.0 1.0 0.038425 0.000671 -89.961573 0.000671 -89.961573 1.0 0.038425
86500.0 1.0 0.038203 0.000667 -89.961796 0.000667 -89.961796 1.0 0.038203
87000.0 1.0 0.037984 0.000663 -89.962015 0.000663 -89.962015 1.0 0.037984
87500.0 1.0 0.037767 0.000659 -89.962232 0.000659 -89.962232 1.0 0.037767
88000.0 1.0 0.037552 0.000655 -89.962447 0.000655 -89.962447 1.0 0.037552
88500.0 1.0 0.03734 0.000652 -89.962659 0.000652 -89.962659 1.0 0.03734
89000.0 1.0 0.03713 0.000648 -89.962869 0.000648 -89.962869 1.0 0.03713
89500.0 1.0 0.036923 0.000644 -89.963076 0.000644 -89.963076 1.0 0.036923
90000.0 1.0 0.036718 0.000641 -89.963281 0.000641 -89.963281 1.0 0.036718
90500.0 1.0 0.036515 0.000637 -89.963484 0.000637 -89.963484 1.0 0.036515
91000.0 1.0 0.036314 0.000634 -89.963685 0.000634 -89.963685 1.0 0.036314
91500.0 1.0 0.036116 0.00063 -89.963883 0.00063 -89.963883 1.0 0.036116
92000.0 1.0 0.035919 0.000627 -89.96408 0.000627 -89.96408 1.0 0.035919
92500.0 1.0 0.035725 0.000624 -89.964274 0.000624 -89.964274 1.0 0.035725
93000.0 1.0 0.035533 0.00062 -89.964466 0.00062 -89.964466 1.0 0.035533
93500.0 1.0 0.035343 0.000617 -89.964656 0.000617 -89.964656 1.0 0.035343
94000.0 1.0 0.035155 0.000614 -89.964844 0.000614 -89.964844 1.0 0.035155
94500.0 1.0 0.034969 0.00061 -89.96503 0.00061 -89.96503 1.0 0.034969
95000.0 1.0 0.034785 0.000607 -89.965214 0.000607 -89.965214 1.0 0.034785
95500.0 1.0 0.034603 0.000604 -89.965396 0.000604 -89.965396 1.0 0.034603
96000.0 1.0 0.034423 0.000601 -89.965576 0.000601 -89.965576 1.0 0.034423
96500.0 1.0 0.034244 0.000598 -89.965755 0.000598 -89.965755 1.0 0.034244
97000.0 1.0 0.034068 0.000595 -89.965931 0.000595 -89.965931 1.0 0.034068
97500.0 1.0 0.033893 0.000592 -89.966106 0.000592 -89.966106 1.0 0.033893
98000.0 1.0 0.03372 0.000589 -89.966279 0.000589 -89.966279 1.0 0.03372
98500.0 1.0 0.033549 0.000586 -89.96645 0.000586 -89.96645 1.0 0.033549
99000.0 1.0 0.03338 0.000583 -89.966619 0.000583 -89.966619 1.0 0.03338
99500.0 1.0 0.033212 0.00058 -89.966787 0.00058 -89.966787 1.0 0.033212
100000.0 1.0 0.033046 0.000577 -89.966953 0.000577 -89.966953 1.0 0.033046
