! File created by SignalIntegrity v1.4.3: Signal and Power Integrity Tools
! https://github.com/Nubis-Communications/SignalIntegrity
! 
! the calculations of this model are from:
! https://www.allaboutcircuits.com/tools/wire-self-inductance-calculator/
# MHz S MA R 50.0
0.0 0.000449 0.0 0.999551 0.0 0.999551 0.0 0.000449 0.0
500.0 0.060727 86.096127 0.997707 -3.48145 0.997707 -3.48145 0.060727 86.096127
1000.0 0.120785 82.851406 0.992233 -6.937379 0.992233 -6.937379 0.120785 82.851406
1500.0 0.179548 79.515815 0.983308 -10.343375 0.983308 -10.343375 0.179548 79.515815
2000.0 0.23645 76.217278 0.971208 -13.677114 0.971208 -13.677114 0.23645 76.217278
2500.0 0.291022 72.996369 0.956287 -16.919144 0.956287 -16.919144 0.291022 72.996369
3000.0 0.342896 69.876204 0.938952 -20.053391 0.938952 -20.053391 0.342896 69.876204
3500.0 0.391814 66.872266 0.919632 -23.067387 0.919632 -23.067387 0.391814 66.872266
4000.0 0.437622 63.994954 0.898756 -25.952242 0.898756 -25.952242 0.437622 63.994954
4500.0 0.480261 61.250646 0.876732 -28.702417 0.876732 -28.702417 0.480261 61.250646
5000.0 0.519748 58.642409 0.853936 -31.315348 0.853936 -31.315348 0.519748 58.642409
5500.0 0.556165 56.1706 0.830699 -33.790997 0.830699 -33.790997 0.556165 56.1706
6000.0 0.589639 53.833418 0.807305 -36.13138 0.807305 -36.13138 0.589639 53.833418
6500.0 0.620328 51.627405 0.783991 -38.3401 0.783991 -38.3401 0.620328 51.627405
7000.0 0.648412 49.547891 0.760949 -40.421936 0.760949 -40.421936 0.648412 49.547891
7500.0 0.674077 47.589363 0.73833 -42.382475 0.73833 -42.382475 0.674077 47.589363
8000.0 0.697513 45.745787 0.716251 -44.227811 0.716251 -44.227811 0.697513 45.745787
8500.0 0.718907 44.010848 0.694795 -45.964303 0.694795 -45.964303 0.718907 44.010848
9000.0 0.738436 42.378148 0.674021 -47.598383 0.674021 -47.598383 0.738436 42.378148
9500.0 0.75627 40.84135 0.653967 -49.136417 0.653967 -49.136417 0.75627 40.84135
10000.0 0.772563 39.394279 0.634653 -50.584599 0.634653 -50.584599 0.772563 39.394279
10500.0 0.787461 38.031 0.616088 -51.948884 0.616088 -51.948884 0.787461 38.031
11000.0 0.801097 36.745862 0.598267 -53.234937 0.598267 -53.234937 0.801097 36.745862
11500.0 0.813589 35.533525 0.581179 -54.448108 0.581179 -54.448108 0.813589 35.533525
12000.0 0.825049 34.388976 0.564808 -55.593423 0.564808 -55.593423 0.825049 34.388976
12500.0 0.835573 33.307527 0.549133 -56.675576 0.549133 -56.675576 0.835573 33.307527
13000.0 0.845252 32.284811 0.534128 -57.698941 0.534128 -57.698941 0.845252 32.284811
13500.0 0.854165 31.316775 0.519769 -58.66758 0.519769 -58.66758 0.854165 31.316775
14000.0 0.862383 30.399658 0.506029 -59.585255 0.506029 -59.585255 0.862383 30.399658
14500.0 0.869973 29.529983 0.492879 -60.45545 0.492879 -60.45545 0.869973 29.529983
15000.0 0.87699 28.704533 0.480293 -61.281386 0.480293 -61.281386 0.87699 28.704533
15500.0 0.883488 27.920337 0.468243 -62.066036 0.468243 -62.066036 0.883488 27.920337
16000.0 0.889513 27.174651 0.456704 -62.812148 0.456704 -62.812148 0.889513 27.174651
16500.0 0.895108 26.464942 0.44565 -63.522257 0.44565 -63.522257 0.895108 26.464942
17000.0 0.900309 25.78887 0.435056 -64.198705 0.435056 -64.198705 0.900309 25.78887
17500.0 0.905151 25.144277 0.424899 -64.843654 0.424899 -64.843654 0.905151 25.144277
18000.0 0.909665 24.529165 0.415156 -65.459101 0.415156 -65.459101 0.909665 24.529165
18500.0 0.913878 23.941691 0.405807 -66.046892 0.405807 -66.046892 0.913878 23.941691
19000.0 0.917815 23.380148 0.39683 -66.608736 0.39683 -66.608736 0.917815 23.380148
19500.0 0.921499 22.842957 0.388207 -67.146211 0.388207 -67.146211 0.921499 22.842957
20000.0 0.92495 22.328658 0.379919 -67.660781 0.379919 -67.660781 0.92495 22.328658
20500.0 0.928186 21.835895 0.371949 -68.153801 0.371949 -68.153801 0.928186 21.835895
21000.0 0.931225 21.363413 0.364282 -68.62653 0.364282 -68.62653 0.931225 21.363413
21500.0 0.934081 20.910043 0.356902 -69.080133 0.356902 -69.080133 0.934081 20.910043
22000.0 0.936768 20.474705 0.349794 -69.515694 0.349794 -69.515694 0.936768 20.474705
22500.0 0.939299 20.05639 0.342945 -69.934223 0.342945 -69.934223 0.939299 20.05639
23000.0 0.941686 19.654161 0.336342 -70.336656 0.336342 -70.336656 0.941686 19.654161
23500.0 0.943939 19.267145 0.329973 -70.723867 0.329973 -70.723867 0.943939 19.267145
24000.0 0.946067 18.894529 0.323827 -71.09667 0.323827 -71.09667 0.946067 18.894529
24500.0 0.948079 18.535554 0.317893 -71.455825 0.317893 -71.455825 0.948079 18.535554
25000.0 0.949983 18.189511 0.312161 -71.802041 0.312161 -71.802041 0.949983 18.189511
25500.0 0.951787 17.855736 0.306621 -72.135981 0.306621 -72.135981 0.951787 17.855736
26000.0 0.953498 17.533612 0.301265 -72.458264 0.301265 -72.458264 0.953498 17.533612
26500.0 0.955121 17.222557 0.296084 -72.769473 0.296084 -72.769473 0.955121 17.222557
27000.0 0.956662 16.922028 0.29107 -73.070149 0.29107 -73.070149 0.956662 16.922028
27500.0 0.958127 16.631516 0.286215 -73.360804 0.286215 -73.360804 0.958127 16.631516
28000.0 0.95952 16.350542 0.281513 -73.641915 0.281513 -73.641915 0.95952 16.350542
28500.0 0.960847 16.078656 0.276957 -73.913933 0.276957 -73.913933 0.960847 16.078656
29000.0 0.96211 15.815437 0.272539 -74.177279 0.272539 -74.177279 0.96211 15.815437
29500.0 0.963314 15.560488 0.268256 -74.432352 0.268256 -74.432352 0.963314 15.560488
30000.0 0.964463 15.313434 0.264099 -74.679526 0.264099 -74.679526 0.964463 15.313434
30500.0 0.96556 15.073923 0.260065 -74.919152 0.260065 -74.919152 0.96556 15.073923
31000.0 0.966607 14.841622 0.256148 -75.151565 0.256148 -75.151565 0.966607 14.841622
31500.0 0.967608 14.616219 0.252343 -75.377076 0.252343 -75.377076 0.967608 14.616219
32000.0 0.968566 14.397417 0.248646 -75.595983 0.248646 -75.595983 0.968566 14.397417
32500.0 0.969482 14.184936 0.245052 -75.808565 0.245052 -75.808565 0.969482 14.184936
33000.0 0.970359 13.978513 0.241558 -76.015087 0.241558 -76.015087 0.970359 13.978513
33500.0 0.9712 13.777896 0.238159 -76.215799 0.238159 -76.215799 0.9712 13.777896
34000.0 0.972006 13.582849 0.234851 -76.410938 0.234851 -76.410938 0.972006 13.582849
34500.0 0.972779 13.393148 0.231632 -76.60073 0.231632 -76.60073 0.972779 13.393148
35000.0 0.973521 13.20858 0.228497 -76.785385 0.228497 -76.785385 0.973521 13.20858
35500.0 0.974233 13.028942 0.225443 -76.965108 0.225443 -76.965108 0.974233 13.028942
36000.0 0.974917 12.854044 0.222468 -77.140089 0.222468 -77.140089 0.974917 12.854044
36500.0 0.975575 12.683703 0.219569 -77.31051 0.219569 -77.31051 0.975575 12.683703
37000.0 0.976207 12.517747 0.216742 -77.476545 0.216742 -77.476545 0.976207 12.517747
37500.0 0.976816 12.35601 0.213985 -77.638358 0.213985 -77.638358 0.976816 12.35601
38000.0 0.977402 12.198337 0.211296 -77.796105 0.211296 -77.796105 0.977402 12.198337
38500.0 0.977966 12.044578 0.208673 -77.949935 0.208673 -77.949935 0.977966 12.044578
39000.0 0.978509 11.894593 0.206112 -78.099992 0.206112 -78.099992 0.978509 11.894593
39500.0 0.979033 11.748244 0.203612 -78.246408 0.203612 -78.246408 0.979033 11.748244
40000.0 0.979538 11.605405 0.20117 -78.389315 0.20117 -78.389315 0.979538 11.605405
40500.0 0.980025 11.465951 0.198786 -78.528834 0.198786 -78.528834 0.980025 11.465951
41000.0 0.980495 11.329765 0.196456 -78.665083 0.196456 -78.665083 0.980495 11.329765
41500.0 0.980949 11.196736 0.194178 -78.798175 0.194178 -78.798175 0.980949 11.196736
42000.0 0.981387 11.066755 0.191953 -78.928216 0.191953 -78.928216 0.981387 11.066755
42500.0 0.981811 10.939722 0.189776 -79.055309 0.189776 -79.055309 0.981811 10.939722
43000.0 0.98222 10.815537 0.187648 -79.179551 0.187648 -79.179551 0.98222 10.815537
43500.0 0.982616 10.694108 0.185566 -79.301037 0.185566 -79.301037 0.982616 10.694108
44000.0 0.982999 10.575344 0.183528 -79.419856 0.183528 -79.419856 0.982999 10.575344
44500.0 0.98337 10.45916 0.181535 -79.536094 0.181535 -79.536094 0.98337 10.45916
45000.0 0.983728 10.345474 0.179583 -79.649833 0.179583 -79.649833 0.983728 10.345474
45500.0 0.984075 10.234206 0.177672 -79.761152 0.177672 -79.761152 0.984075 10.234206
46000.0 0.984412 10.125282 0.175801 -79.870127 0.175801 -79.870127 0.984412 10.125282
46500.0 0.984737 10.018628 0.173968 -79.97683 0.173968 -79.97683 0.984737 10.018628
47000.0 0.985053 9.914175 0.172173 -80.081331 0.172173 -80.081331 0.985053 9.914175
47500.0 0.985359 9.811857 0.170413 -80.183696 0.170413 -80.183696 0.985359 9.811857
48000.0 0.985656 9.711609 0.168689 -80.28399 0.168689 -80.28399 0.985656 9.711609
48500.0 0.985944 9.61337 0.166999 -80.382275 0.166999 -80.382275 0.985944 9.61337
49000.0 0.986224 9.51708 0.165342 -80.478609 0.165342 -80.478609 0.986224 9.51708
49500.0 0.986495 9.422683 0.163717 -80.57305 0.163717 -80.57305 0.986495 9.422683
50000.0 0.986759 9.330124 0.162123 -80.665652 0.162123 -80.665652 0.986759 9.330124
50500.0 0.987015 9.239349 0.160559 -80.756468 0.160559 -80.756468 0.987015 9.239349
51000.0 0.987263 9.150309 0.159025 -80.845549 0.159025 -80.845549 0.987263 9.150309
51500.0 0.987505 9.062955 0.15752 -80.932944 0.15752 -80.932944 0.987505 9.062955
52000.0 0.987739 8.977239 0.156042 -81.018699 0.156042 -81.018699 0.987739 8.977239
52500.0 0.987968 8.893116 0.154592 -81.102861 0.154592 -81.102861 0.987968 8.893116
53000.0 0.98819 8.810543 0.153168 -81.185472 0.153168 -81.185472 0.98819 8.810543
53500.0 0.988405 8.729477 0.151769 -81.266575 0.151769 -81.266575 0.988405 8.729477
54000.0 0.988616 8.649879 0.150396 -81.34621 0.150396 -81.34621 0.988616 8.649879
54500.0 0.98882 8.571708 0.149047 -81.424417 0.149047 -81.424417 0.98882 8.571708
55000.0 0.989019 8.494927 0.147722 -81.501233 0.147722 -81.501233 0.989019 8.494927
55500.0 0.989213 8.419499 0.14642 -81.576695 0.14642 -81.576695 0.989213 8.419499
56000.0 0.989402 8.34539 0.14514 -81.650838 0.14514 -81.650838 0.989402 8.34539
56500.0 0.989585 8.272565 0.143882 -81.723697 0.143882 -81.723697 0.989585 8.272565
57000.0 0.989765 8.200991 0.142646 -81.795303 0.142646 -81.795303 0.989765 8.200991
57500.0 0.989939 8.130637 0.141431 -81.86569 0.141431 -81.86569 0.989939 8.130637
58000.0 0.990109 8.061472 0.140235 -81.934886 0.140235 -81.934886 0.990109 8.061472
58500.0 0.990275 7.993466 0.13906 -82.002923 0.13906 -82.002923 0.990275 7.993466
59000.0 0.990437 7.926591 0.137904 -82.069829 0.137904 -82.069829 0.990437 7.926591
59500.0 0.990595 7.860818 0.136767 -82.135632 0.136767 -82.135632 0.990595 7.860818
60000.0 0.990749 7.796121 0.135648 -82.200359 0.135648 -82.200359 0.990749 7.796121
60500.0 0.990899 7.732474 0.134548 -82.264035 0.134548 -82.264035 0.990899 7.732474
61000.0 0.991045 7.669852 0.133465 -82.326686 0.133465 -82.326686 0.991045 7.669852
61500.0 0.991189 7.60823 0.132399 -82.388336 0.132399 -82.388336 0.991189 7.60823
62000.0 0.991328 7.547584 0.13135 -82.449009 0.13135 -82.449009 0.991328 7.547584
62500.0 0.991465 7.487892 0.130317 -82.508728 0.130317 -82.508728 0.991465 7.487892
63000.0 0.991598 7.429132 0.1293 -82.567516 0.1293 -82.567516 0.991598 7.429132
63500.0 0.991728 7.371281 0.128299 -82.625392 0.128299 -82.625392 0.991728 7.371281
64000.0 0.991855 7.31432 0.127313 -82.68238 0.127313 -82.68238 0.991855 7.31432
64500.0 0.99198 7.258228 0.126341 -82.738498 0.126341 -82.738498 0.99198 7.258228
65000.0 0.992101 7.202985 0.125385 -82.793766 0.125385 -82.793766 0.992101 7.202985
65500.0 0.99222 7.148572 0.124443 -82.848203 0.124443 -82.848203 0.99222 7.148572
66000.0 0.992336 7.094971 0.123514 -82.901829 0.123514 -82.901829 0.992336 7.094971
66500.0 0.992449 7.042164 0.1226 -82.95466 0.1226 -82.95466 0.992449 7.042164
67000.0 0.99256 6.990133 0.121698 -83.006715 0.121698 -83.006715 0.99256 6.990133
67500.0 0.992669 6.938861 0.12081 -83.05801 0.12081 -83.05801 0.992669 6.938861
68000.0 0.992775 6.888333 0.119935 -83.108561 0.119935 -83.108561 0.992775 6.888333
68500.0 0.992879 6.838532 0.119072 -83.158385 0.119072 -83.158385 0.992879 6.838532
69000.0 0.992981 6.789442 0.118221 -83.207497 0.118221 -83.207497 0.992981 6.789442
69500.0 0.993081 6.741049 0.117382 -83.255912 0.117382 -83.255912 0.993081 6.741049
70000.0 0.993178 6.693337 0.116555 -83.303645 0.116555 -83.303645 0.993178 6.693337
70500.0 0.993274 6.646294 0.11574 -83.35071 0.11574 -83.35071 0.993274 6.646294
71000.0 0.993367 6.599904 0.114935 -83.397121 0.114935 -83.397121 0.993367 6.599904
71500.0 0.993459 6.554154 0.114142 -83.442892 0.114142 -83.442892 0.993459 6.554154
72000.0 0.993548 6.509032 0.11336 -83.488035 0.11336 -83.488035 0.993548 6.509032
72500.0 0.993636 6.464523 0.112588 -83.532563 0.112588 -83.532563 0.993636 6.464523
73000.0 0.993722 6.420617 0.111827 -83.576489 0.111827 -83.576489 0.993722 6.420617
73500.0 0.993806 6.377301 0.111075 -83.619825 0.111075 -83.619825 0.993806 6.377301
74000.0 0.993889 6.334563 0.110334 -83.662582 0.110334 -83.662582 0.993889 6.334563
74500.0 0.99397 6.292392 0.109602 -83.704773 0.109602 -83.704773 0.99397 6.292392
75000.0 0.99405 6.250776 0.10888 -83.746407 0.10888 -83.746407 0.99405 6.250776
75500.0 0.994127 6.209705 0.108168 -83.787497 0.108168 -83.787497 0.994127 6.209705
76000.0 0.994204 6.169169 0.107464 -83.828052 0.107464 -83.828052 0.994204 6.169169
76500.0 0.994279 6.129156 0.10677 -83.868083 0.10677 -83.868083 0.994279 6.129156
77000.0 0.994352 6.089656 0.106085 -83.907601 0.106085 -83.907601 0.994352 6.089656
77500.0 0.994424 6.050661 0.105408 -83.946614 0.105408 -83.946614 0.994424 6.050661
78000.0 0.994495 6.01216 0.10474 -83.985132 0.10474 -83.985132 0.994495 6.01216
78500.0 0.994564 5.974144 0.10408 -84.023165 0.10408 -84.023165 0.994564 5.974144
79000.0 0.994632 5.936604 0.103428 -84.060722 0.103428 -84.060722 0.994632 5.936604
79500.0 0.994699 5.899532 0.102784 -84.097811 0.102784 -84.097811 0.994699 5.899532
80000.0 0.994764 5.862918 0.102149 -84.134442 0.102149 -84.134442 0.994764 5.862918
80500.0 0.994829 5.826754 0.101521 -84.170622 0.101521 -84.170622 0.994829 5.826754
81000.0 0.994892 5.791032 0.100901 -84.206361 0.100901 -84.206361 0.994892 5.791032
81500.0 0.994954 5.755743 0.100288 -84.241665 0.100288 -84.241665 0.994954 5.755743
82000.0 0.995015 5.720881 0.099682 -84.276543 0.099682 -84.276543 0.995015 5.720881
82500.0 0.995075 5.686438 0.099084 -84.311002 0.099084 -84.311002 0.995075 5.686438
83000.0 0.995133 5.652405 0.098493 -84.345051 0.098493 -84.345051 0.995133 5.652405
83500.0 0.995191 5.618775 0.097909 -84.378695 0.097909 -84.378695 0.995191 5.618775
84000.0 0.995248 5.585543 0.097332 -84.411943 0.097332 -84.411943 0.995248 5.585543
84500.0 0.995303 5.5527 0.096761 -84.444801 0.096761 -84.444801 0.995303 5.5527
85000.0 0.995358 5.520239 0.096197 -84.477276 0.096197 -84.477276 0.995358 5.520239
85500.0 0.995412 5.488155 0.09564 -84.509374 0.09564 -84.509374 0.995412 5.488155
86000.0 0.995465 5.456441 0.095089 -84.541103 0.095089 -84.541103 0.995465 5.456441
86500.0 0.995517 5.42509 0.094544 -84.572469 0.094544 -84.572469 0.995517 5.42509
87000.0 0.995568 5.394096 0.094006 -84.603477 0.094006 -84.603477 0.995568 5.394096
87500.0 0.995618 5.363453 0.093473 -84.634133 0.093473 -84.634133 0.995618 5.363453
88000.0 0.995667 5.333155 0.092947 -84.664445 0.092947 -84.664445 0.995667 5.333155
88500.0 0.995716 5.303197 0.092426 -84.694417 0.092426 -84.694417 0.995716 5.303197
89000.0 0.995763 5.273572 0.091911 -84.724055 0.091911 -84.724055 0.995763 5.273572
89500.0 0.99581 5.244276 0.091402 -84.753364 0.091402 -84.753364 0.99581 5.244276
90000.0 0.995856 5.215302 0.090899 -84.782351 0.090899 -84.782351 0.995856 5.215302
90500.0 0.995902 5.186646 0.0904 -84.81102 0.0904 -84.81102 0.995902 5.186646
91000.0 0.995946 5.158302 0.089908 -84.839376 0.089908 -84.839376 0.995946 5.158302
91500.0 0.99599 5.130266 0.08942 -84.867426 0.08942 -84.867426 0.99599 5.130266
92000.0 0.996034 5.102532 0.088938 -84.895172 0.088938 -84.895172 0.996034 5.102532
92500.0 0.996076 5.075095 0.088461 -84.922621 0.088461 -84.922621 0.996076 5.075095
93000.0 0.996118 5.047951 0.087989 -84.949777 0.087989 -84.949777 0.996118 5.047951
93500.0 0.996159 5.021096 0.087523 -84.976645 0.087523 -84.976645 0.996159 5.021096
94000.0 0.9962 4.994523 0.087061 -85.00323 0.087061 -85.00323 0.9962 4.994523
94500.0 0.996239 4.96823 0.086603 -85.029535 0.086603 -85.029535 0.996239 4.96823
95000.0 0.996279 4.942211 0.086151 -85.055565 0.086151 -85.055565 0.996279 4.942211
95500.0 0.996317 4.916463 0.085703 -85.081325 0.085703 -85.081325 0.996317 4.916463
96000.0 0.996355 4.890981 0.08526 -85.106818 0.08526 -85.106818 0.996355 4.890981
96500.0 0.996393 4.865762 0.084822 -85.132049 0.084822 -85.132049 0.996393 4.865762
97000.0 0.99643 4.8408 0.084387 -85.157022 0.084387 -85.157022 0.99643 4.8408
97500.0 0.996466 4.816093 0.083958 -85.181741 0.083958 -85.181741 0.996466 4.816093
98000.0 0.996502 4.791636 0.083532 -85.206209 0.083532 -85.206209 0.996502 4.791636
98500.0 0.996537 4.767425 0.083111 -85.23043 0.083111 -85.23043 0.996537 4.767425
99000.0 0.996572 4.743458 0.082694 -85.254409 0.082694 -85.254409 0.996572 4.743458
99500.0 0.996606 4.719729 0.082282 -85.278148 0.082282 -85.278148 0.996606 4.719729
100000.0 0.99664 4.696237 0.081873 -85.301651 0.081873 -85.301651 0.99664 4.696237
