! File created by SignalIntegrity v1.3.2: Signal and Power Integrity Tools
! https://github.com/TeledyneLeCroy/SignalIntegrity

! the calculations of this model are from:
!     https://www.allaboutcircuits.com/tools/wire-self-inductance-calculator/
# MHz S MA R 50.0
0.0 0.000449 0.0 0.999551 0.0 0.999551 0.0 0.000449 0.0
500.0 0.519748 58.642409 0.853936 -31.315348 0.853936 -31.315348 0.519748 58.642409
1000.0 0.772563 39.394279 0.634653 -50.584599 0.634653 -50.584599 0.772563 39.394279
1500.0 0.87699 28.704533 0.480293 -61.281386 0.480293 -61.281386 0.87699 28.704533
2000.0 0.92495 22.328658 0.379919 -67.660781 0.379919 -67.660781 0.92495 22.328658
2500.0 0.949983 18.189511 0.312161 -71.802041 0.312161 -71.802041 0.949983 18.189511
3000.0 0.964463 15.313434 0.264099 -74.679526 0.264099 -74.679526 0.964463 15.313434
3500.0 0.973521 13.20858 0.228497 -76.785385 0.228497 -76.785385 0.973521 13.20858
4000.0 0.979538 11.605405 0.20117 -78.389315 0.20117 -78.389315 0.979538 11.605405
4500.0 0.983728 10.345474 0.179583 -79.649833 0.179583 -79.649833 0.983728 10.345474
5000.0 0.986759 9.330124 0.162123 -80.665652 0.162123 -80.665652 0.986759 9.330124
5500.0 0.989019 8.494927 0.147722 -81.501233 0.147722 -81.501233 0.989019 8.494927
6000.0 0.990749 7.796121 0.135648 -82.200359 0.135648 -82.200359 0.990749 7.796121
6500.0 0.992101 7.202985 0.125385 -82.793766 0.125385 -82.793766 0.992101 7.202985
7000.0 0.993178 6.693337 0.116555 -83.303645 0.116555 -83.303645 0.993178 6.693337
7500.0 0.99405 6.250776 0.10888 -83.746407 0.10888 -83.746407 0.99405 6.250776
8000.0 0.994764 5.862918 0.102149 -84.134442 0.102149 -84.134442 0.994764 5.862918
8500.0 0.995358 5.520239 0.096197 -84.477276 0.096197 -84.477276 0.995358 5.520239
9000.0 0.995856 5.215302 0.090899 -84.782351 0.090899 -84.782351 0.995856 5.215302
9500.0 0.996279 4.942211 0.086151 -85.055565 0.086151 -85.055565 0.996279 4.942211
10000.0 0.99664 4.696237 0.081873 -85.301651 0.081873 -85.301651 0.99664 4.696237
10500.0 0.996951 4.473538 0.077999 -85.524451 0.077999 -85.524451 0.996951 4.473538
11000.0 0.997221 4.270966 0.074473 -85.727113 0.074473 -85.727113 0.997221 4.270966
11500.0 0.997456 4.085916 0.071252 -85.912247 0.071252 -85.912247 0.997456 4.085916
12000.0 0.997663 3.916212 0.068298 -86.082028 0.068298 -86.082028 0.997663 3.916212
12500.0 0.997846 3.760022 0.065578 -86.238288 0.065578 -86.238288 0.997846 3.760022
13000.0 0.998008 3.615798 0.063066 -86.382577 0.063066 -86.382577 0.998008 3.615798
13500.0 0.998152 3.482216 0.060739 -86.51622 0.060739 -86.51622 0.998152 3.482216
14000.0 0.998281 3.358141 0.058577 -86.64035 0.058577 -86.64035 0.998281 3.358141
14500.0 0.998398 3.242595 0.056564 -86.755948 0.056564 -86.755948 0.998398 3.242595
15000.0 0.998502 3.134728 0.054684 -86.863864 0.054684 -86.863864 0.998502 3.134728
15500.0 0.998597 3.0338 0.052925 -86.964837 0.052925 -86.964837 0.998597 3.0338
16000.0 0.998683 2.939163 0.051276 -87.059517 0.051276 -87.059517 0.998683 2.939163
16500.0 0.998762 2.850247 0.049726 -87.148473 0.049726 -87.148473 0.998762 2.850247
17000.0 0.998833 2.766549 0.048267 -87.232209 0.048267 -87.232209 0.998833 2.766549
17500.0 0.998899 2.687622 0.046891 -87.311171 0.046891 -87.311171 0.998899 2.687622
18000.0 0.998959 2.613071 0.045591 -87.385756 0.045591 -87.385756 0.998959 2.613071
18500.0 0.999015 2.542542 0.044361 -87.456317 0.044361 -87.456317 0.999015 2.542542
19000.0 0.999066 2.475717 0.043196 -87.523171 0.043196 -87.523171 0.999066 2.475717
19500.0 0.999113 2.412313 0.04209 -87.586604 0.04209 -87.586604 0.999113 2.412313
20000.0 0.999157 2.352074 0.04104 -87.64687 0.04104 -87.64687 0.999157 2.352074
20500.0 0.999197 2.294769 0.040041 -87.704201 0.040041 -87.704201 0.999197 2.294769
21000.0 0.999235 2.240188 0.039089 -87.758807 0.039089 -87.758807 0.999235 2.240188
21500.0 0.99927 2.188142 0.038181 -87.810876 0.038181 -87.810876 0.99927 2.188142
22000.0 0.999303 2.138458 0.037314 -87.860582 0.037314 -87.860582 0.999303 2.138458
22500.0 0.999334 2.090979 0.036486 -87.908082 0.036486 -87.908082 0.999334 2.090979
23000.0 0.999362 2.045562 0.035694 -87.953519 0.035694 -87.953519 0.999362 2.045562
23500.0 0.999389 2.002076 0.034936 -87.997026 0.034936 -87.997026 0.999389 2.002076
24000.0 0.999414 1.960399 0.034209 -88.038721 0.034209 -88.038721 0.999414 1.960399
24500.0 0.999438 1.920421 0.033511 -88.078717 0.033511 -88.078717 0.999438 1.920421
25000.0 0.99946 1.88204 0.032842 -88.117115 0.032842 -88.117115 0.99946 1.88204
25500.0 0.999481 1.845163 0.032199 -88.154008 0.032199 -88.154008 0.999481 1.845163
26000.0 0.999501 1.809703 0.03158 -88.189484 0.03158 -88.189484 0.999501 1.809703
26500.0 0.999519 1.77558 0.030985 -88.223623 0.030985 -88.223623 0.999519 1.77558
27000.0 0.999537 1.742719 0.030412 -88.256498 0.030412 -88.256498 0.999537 1.742719
27500.0 0.999554 1.711053 0.029859 -88.288179 0.029859 -88.288179 0.999554 1.711053
28000.0 0.99957 1.680516 0.029326 -88.31873 0.029326 -88.31873 0.99957 1.680516
28500.0 0.999584 1.65105 0.028812 -88.348209 0.028812 -88.348209 0.999584 1.65105
29000.0 0.999599 1.622599 0.028316 -88.376673 0.028316 -88.376673 0.999599 1.622599
29500.0 0.999612 1.595111 0.027836 -88.404173 0.027836 -88.404173 0.999612 1.595111
30000.0 0.999625 1.568539 0.027373 -88.430756 0.027373 -88.430756 0.999625 1.568539
30500.0 0.999637 1.542838 0.026924 -88.456469 0.026924 -88.456469 0.999637 1.542838
31000.0 0.999649 1.517966 0.02649 -88.481353 0.02649 -88.481353 0.999649 1.517966
31500.0 0.99966 1.493882 0.02607 -88.505448 0.02607 -88.505448 0.99966 1.493882
32000.0 0.99967 1.47055 0.025663 -88.52879 0.025663 -88.52879 0.99967 1.47055
32500.0 0.99968 1.447936 0.025269 -88.551414 0.025269 -88.551414 0.99968 1.447936
33000.0 0.99969 1.426007 0.024886 -88.573353 0.024886 -88.573353 0.99969 1.426007
33500.0 0.999699 1.404732 0.024515 -88.594638 0.024515 -88.594638 0.999699 1.404732
34000.0 0.999708 1.384082 0.024154 -88.615297 0.024154 -88.615297 0.999708 1.384082
34500.0 0.999716 1.364031 0.023805 -88.635357 0.023805 -88.635357 0.999716 1.364031
35000.0 0.999724 1.344552 0.023465 -88.654845 0.023465 -88.654845 0.999724 1.344552
35500.0 0.999732 1.325621 0.023134 -88.673784 0.023134 -88.673784 0.999732 1.325621
36000.0 0.99974 1.307216 0.022813 -88.692197 0.022813 -88.692197 0.99974 1.307216
36500.0 0.999747 1.289315 0.022501 -88.710106 0.022501 -88.710106 0.999747 1.289315
37000.0 0.999753 1.271898 0.022197 -88.727531 0.022197 -88.727531 0.999753 1.271898
37500.0 0.99976 1.254945 0.021901 -88.744492 0.021901 -88.744492 0.99976 1.254945
38000.0 0.999766 1.238437 0.021613 -88.761007 0.021613 -88.761007 0.999766 1.238437
38500.0 0.999772 1.222359 0.021333 -88.777093 0.021333 -88.777093 0.999772 1.222359
39000.0 0.999778 1.206692 0.021059 -88.792766 0.021059 -88.792766 0.999778 1.206692
39500.0 0.999784 1.191422 0.020793 -88.808043 0.020793 -88.808043 0.999784 1.191422
40000.0 0.999789 1.176533 0.020533 -88.822939 0.020533 -88.822939 0.999789 1.176533
40500.0 0.999794 1.162012 0.02028 -88.837466 0.02028 -88.837466 0.999794 1.162012
41000.0 0.999799 1.147845 0.020032 -88.85164 0.020032 -88.85164 0.999799 1.147845
41500.0 0.999804 1.134019 0.019791 -88.865472 0.019791 -88.865472 0.999804 1.134019
42000.0 0.999809 1.120523 0.019556 -88.878974 0.019556 -88.878974 0.999809 1.120523
42500.0 0.999813 1.107343 0.019326 -88.89216 0.019326 -88.89216 0.999813 1.107343
43000.0 0.999817 1.09447 0.019101 -88.905038 0.019101 -88.905038 0.999817 1.09447
43500.0 0.999822 1.081893 0.018881 -88.917621 0.018881 -88.917621 0.999822 1.081893
44000.0 0.999826 1.069602 0.018667 -88.929918 0.018667 -88.929918 0.999826 1.069602
44500.0 0.999829 1.057587 0.018457 -88.941939 0.018457 -88.941939 0.999829 1.057587
45000.0 0.999833 1.045838 0.018252 -88.953692 0.018252 -88.953692 0.999833 1.045838
45500.0 0.999837 1.034348 0.018052 -88.965188 0.018052 -88.965188 0.999837 1.034348
46000.0 0.99984 1.023108 0.017856 -88.976433 0.017856 -88.976433 0.99984 1.023108
46500.0 0.999844 1.012109 0.017664 -88.987437 0.017664 -88.987437 0.999844 1.012109
47000.0 0.999847 1.001344 0.017476 -88.998207 0.017476 -88.998207 0.999847 1.001344
47500.0 0.99985 0.990806 0.017292 -89.00875 0.017292 -89.00875 0.99985 0.990806
48000.0 0.999853 0.980487 0.017112 -89.019073 0.017112 -89.019073 0.999853 0.980487
48500.0 0.999856 0.97038 0.016936 -89.029184 0.016936 -89.029184 0.999856 0.97038
49000.0 0.999859 0.960481 0.016763 -89.039088 0.016763 -89.039088 0.999859 0.960481
49500.0 0.999862 0.95078 0.016593 -89.048793 0.016593 -89.048793 0.999862 0.95078
50000.0 0.999865 0.941274 0.016428 -89.058303 0.016428 -89.058303 0.999865 0.941274
50500.0 0.999868 0.931956 0.016265 -89.067625 0.016265 -89.067625 0.999868 0.931956
51000.0 0.99987 0.922821 0.016106 -89.076765 0.016106 -89.076765 0.99987 0.922821
51500.0 0.999873 0.913863 0.015949 -89.085727 0.015949 -89.085727 0.999873 0.913863
52000.0 0.999875 0.905078 0.015796 -89.094516 0.015796 -89.094516 0.999875 0.905078
52500.0 0.999877 0.896459 0.015646 -89.103138 0.015646 -89.103138 0.999877 0.896459
53000.0 0.99988 0.888004 0.015498 -89.111598 0.015498 -89.111598 0.99988 0.888004
53500.0 0.999882 0.879706 0.015353 -89.119899 0.015353 -89.119899 0.999882 0.879706
54000.0 0.999884 0.871562 0.015211 -89.128047 0.015211 -89.128047 0.999884 0.871562
54500.0 0.999886 0.863567 0.015072 -89.136046 0.015072 -89.136046 0.999886 0.863567
55000.0 0.999888 0.855717 0.014935 -89.143899 0.014935 -89.143899 0.999888 0.855717
55500.0 0.99989 0.848009 0.0148 -89.15161 0.0148 -89.15161 0.99989 0.848009
56000.0 0.999892 0.840439 0.014668 -89.159184 0.014668 -89.159184 0.999892 0.840439
56500.0 0.999894 0.833002 0.014538 -89.166624 0.014538 -89.166624 0.999894 0.833002
57000.0 0.999896 0.825696 0.014411 -89.173933 0.014411 -89.173933 0.999896 0.825696
57500.0 0.999898 0.818517 0.014285 -89.181115 0.014285 -89.181115 0.999898 0.818517
58000.0 0.9999 0.811462 0.014162 -89.188174 0.014162 -89.188174 0.9999 0.811462
58500.0 0.999901 0.804528 0.014041 -89.195111 0.014041 -89.195111 0.999901 0.804528
59000.0 0.999903 0.79771 0.013922 -89.201932 0.013922 -89.201932 0.999903 0.79771
59500.0 0.999905 0.791008 0.013805 -89.208637 0.013805 -89.208637 0.999905 0.791008
60000.0 0.999906 0.784417 0.01369 -89.215231 0.01369 -89.215231 0.999906 0.784417
60500.0 0.999908 0.777935 0.013577 -89.221716 0.013577 -89.221716 0.999908 0.777935
61000.0 0.999909 0.771559 0.013466 -89.228095 0.013466 -89.228095 0.999909 0.771559
61500.0 0.999911 0.765287 0.013356 -89.234369 0.013356 -89.234369 0.999911 0.765287
62000.0 0.999912 0.759116 0.013249 -89.240543 0.013249 -89.240543 0.999912 0.759116
62500.0 0.999914 0.753044 0.013143 -89.246618 0.013143 -89.246618 0.999914 0.753044
63000.0 0.999915 0.747068 0.013038 -89.252597 0.013038 -89.252597 0.999915 0.747068
63500.0 0.999916 0.741186 0.012936 -89.258481 0.012936 -89.258481 0.999916 0.741186
64000.0 0.999918 0.735396 0.012835 -89.264274 0.012835 -89.264274 0.999918 0.735396
64500.0 0.999919 0.729696 0.012735 -89.269976 0.012735 -89.269976 0.999919 0.729696
65000.0 0.99992 0.724084 0.012637 -89.275591 0.012637 -89.275591 0.99992 0.724084
65500.0 0.999921 0.718557 0.012541 -89.28112 0.012541 -89.28112 0.999921 0.718557
66000.0 0.999922 0.713114 0.012446 -89.286566 0.012446 -89.286566 0.999922 0.713114
66500.0 0.999924 0.707753 0.012352 -89.29193 0.012352 -89.29193 0.999924 0.707753
67000.0 0.999925 0.702472 0.01226 -89.297213 0.01226 -89.297213 0.999925 0.702472
67500.0 0.999926 0.697269 0.012169 -89.302418 0.012169 -89.302418 0.999926 0.697269
68000.0 0.999927 0.692142 0.01208 -89.307547 0.01208 -89.307547 0.999927 0.692142
68500.0 0.999928 0.687091 0.011992 -89.312601 0.011992 -89.312601 0.999928 0.687091
69000.0 0.999929 0.682112 0.011905 -89.317582 0.011905 -89.317582 0.999929 0.682112
69500.0 0.99993 0.677205 0.011819 -89.322491 0.011819 -89.322491 0.99993 0.677205
70000.0 0.999931 0.672369 0.011735 -89.32733 0.011735 -89.32733 0.999931 0.672369
70500.0 0.999932 0.6676 0.011652 -89.3321 0.011652 -89.3321 0.999932 0.6676
71000.0 0.999933 0.662899 0.01157 -89.336803 0.01157 -89.336803 0.999933 0.662899
71500.0 0.999934 0.658264 0.011489 -89.34144 0.011489 -89.34144 0.999934 0.658264
72000.0 0.999935 0.653693 0.011409 -89.346013 0.011409 -89.346013 0.999935 0.653693
72500.0 0.999936 0.649185 0.01133 -89.350523 0.01133 -89.350523 0.999936 0.649185
73000.0 0.999937 0.644739 0.011253 -89.354971 0.011253 -89.354971 0.999937 0.644739
73500.0 0.999937 0.640354 0.011176 -89.359359 0.011176 -89.359359 0.999937 0.640354
74000.0 0.999938 0.636027 0.011101 -89.363687 0.011101 -89.363687 0.999938 0.636027
74500.0 0.999939 0.631759 0.011026 -89.367957 0.011026 -89.367957 0.999939 0.631759
75000.0 0.99994 0.627548 0.010953 -89.372171 0.010953 -89.372171 0.99994 0.627548
75500.0 0.999941 0.623392 0.01088 -89.376328 0.01088 -89.376328 0.999941 0.623392
76000.0 0.999942 0.619291 0.010808 -89.380431 0.010808 -89.380431 0.999942 0.619291
76500.0 0.999942 0.615244 0.010738 -89.38448 0.010738 -89.38448 0.999942 0.615244
77000.0 0.999943 0.611249 0.010668 -89.388477 0.010668 -89.388477 0.999943 0.611249
77500.0 0.999944 0.607306 0.010599 -89.392422 0.010599 -89.392422 0.999944 0.607306
78000.0 0.999944 0.603413 0.010531 -89.396316 0.010531 -89.396316 0.999944 0.603413
78500.0 0.999945 0.59957 0.010464 -89.400161 0.010464 -89.400161 0.999945 0.59957
79000.0 0.999946 0.595775 0.010398 -89.403957 0.010398 -89.403957 0.999946 0.595775
79500.0 0.999947 0.592029 0.010333 -89.407706 0.010333 -89.407706 0.999947 0.592029
80000.0 0.999947 0.588329 0.010268 -89.411407 0.010268 -89.411407 0.999947 0.588329
80500.0 0.999948 0.584675 0.010204 -89.415063 0.010204 -89.415063 0.999948 0.584675
81000.0 0.999949 0.581066 0.010141 -89.418673 0.010141 -89.418673 0.999949 0.581066
81500.0 0.999949 0.577501 0.010079 -89.422239 0.010079 -89.422239 0.999949 0.577501
82000.0 0.99995 0.57398 0.010018 -89.425762 0.010018 -89.425762 0.99995 0.57398
82500.0 0.99995 0.570502 0.009957 -89.429242 0.009957 -89.429242 0.99995 0.570502
83000.0 0.999951 0.567065 0.009897 -89.43268 0.009897 -89.43268 0.999951 0.567065
83500.0 0.999952 0.56367 0.009838 -89.436077 0.009838 -89.436077 0.999952 0.56367
84000.0 0.999952 0.560315 0.009779 -89.439434 0.009779 -89.439434 0.999952 0.560315
84500.0 0.999953 0.557 0.009721 -89.44275 0.009721 -89.44275 0.999953 0.557
85000.0 0.999953 0.553723 0.009664 -89.446028 0.009664 -89.446028 0.999953 0.553723
85500.0 0.999954 0.550485 0.009608 -89.449267 0.009608 -89.449267 0.999954 0.550485
86000.0 0.999954 0.547285 0.009552 -89.452469 0.009552 -89.452469 0.999954 0.547285
86500.0 0.999955 0.544122 0.009497 -89.455634 0.009497 -89.455634 0.999955 0.544122
87000.0 0.999955 0.540995 0.009442 -89.458762 0.009442 -89.458762 0.999955 0.540995
87500.0 0.999956 0.537904 0.009388 -89.461855 0.009388 -89.461855 0.999956 0.537904
88000.0 0.999956 0.534848 0.009335 -89.464912 0.009335 -89.464912 0.999956 0.534848
88500.0 0.999957 0.531826 0.009282 -89.467935 0.009282 -89.467935 0.999957 0.531826
89000.0 0.999957 0.528838 0.00923 -89.470924 0.00923 -89.470924 0.999957 0.528838
89500.0 0.999958 0.525884 0.009178 -89.47388 0.009178 -89.47388 0.999958 0.525884
90000.0 0.999958 0.522963 0.009127 -89.476803 0.009127 -89.476803 0.999958 0.522963
90500.0 0.999959 0.520074 0.009077 -89.479693 0.009077 -89.479693 0.999959 0.520074
91000.0 0.999959 0.517216 0.009027 -89.482552 0.009027 -89.482552 0.999959 0.517216
91500.0 0.99996 0.51439 0.008978 -89.485379 0.008978 -89.485379 0.99996 0.51439
92000.0 0.99996 0.511595 0.008929 -89.488176 0.008929 -89.488176 0.99996 0.511595
92500.0 0.999961 0.508829 0.008881 -89.490942 0.008881 -89.490942 0.999961 0.508829
93000.0 0.999961 0.506094 0.008833 -89.493679 0.008833 -89.493679 0.999961 0.506094
93500.0 0.999961 0.503388 0.008786 -89.496386 0.008786 -89.496386 0.999961 0.503388
94000.0 0.999962 0.50071 0.008739 -89.499065 0.008739 -89.499065 0.999962 0.50071
94500.0 0.999962 0.498061 0.008693 -89.501715 0.008693 -89.501715 0.999962 0.498061
95000.0 0.999963 0.49544 0.008647 -89.504338 0.008647 -89.504338 0.999963 0.49544
95500.0 0.999963 0.492846 0.008602 -89.506933 0.008602 -89.506933 0.999963 0.492846
96000.0 0.999963 0.490279 0.008557 -89.509501 0.008557 -89.509501 0.999963 0.490279
96500.0 0.999964 0.487739 0.008513 -89.512042 0.008513 -89.512042 0.999964 0.487739
97000.0 0.999964 0.485225 0.008469 -89.514557 0.008469 -89.514557 0.999964 0.485225
97500.0 0.999964 0.482737 0.008425 -89.517047 0.008425 -89.517047 0.999964 0.482737
98000.0 0.999965 0.480274 0.008382 -89.51951 0.008382 -89.51951 0.999965 0.480274
98500.0 0.999965 0.477836 0.00834 -89.521949 0.00834 -89.521949 0.999965 0.477836
99000.0 0.999966 0.475423 0.008298 -89.524364 0.008298 -89.524364 0.999966 0.475423
99500.0 0.999966 0.473034 0.008256 -89.526754 0.008256 -89.526754 0.999966 0.473034
100000.0 0.999966 0.470669 0.008215 -89.52912 0.008215 -89.52912 0.999966 0.470669
