! File created by SignalIntegrity v1.3.2: Signal and Power Integrity Tools
! https://github.com/TeledyneLeCroy/SignalIntegrity

! the calculations of this model are from:
!     https://www.allaboutcircuits.com/tools/wire-self-inductance-calculator/
# MHz S MA R 50.0
0.0 2e-06 0.0 0.999998 0.0 0.999998 0.0 2e-06 0.0
500.0 0.192992 78.871972 0.981198 -11.127445 0.981198 -11.127445 0.192992 78.871972
1000.0 0.366073 68.526056 0.930584 -21.473653 0.930584 -21.473653 0.366073 68.526056
1500.0 0.508193 59.456266 0.861242 -30.54354 0.861242 -30.54354 0.508193 59.456266
2000.0 0.618329 51.805646 0.785918 -38.194208 0.785918 -38.194208 0.618329 51.805646
2500.0 0.701182 45.477997 0.712981 -44.521887 0.712981 -44.521887 0.701182 45.477997
3000.0 0.762933 40.276458 0.646476 -49.723444 0.646476 -49.723444 0.762933 40.276458
3500.0 0.809108 35.991092 0.587659 -54.008824 0.587659 -54.008824 0.809108 35.991092
4000.0 0.843984 32.436654 0.536367 -57.563273 0.536367 -57.563273 0.843984 32.436654
4500.0 0.870679 29.462285 0.491851 -60.53765 0.491851 -60.53765 0.870679 29.462285
5000.0 0.891407 26.949411 0.453204 -63.05053 0.453204 -63.05053 0.891407 26.949411
5500.0 0.907732 24.806115 0.419549 -65.193832 0.419549 -65.193832 0.907732 24.806115
6000.0 0.920768 22.961316 0.39011 -67.038636 0.39011 -67.038636 0.920768 22.961316
6500.0 0.931311 21.359852 0.364224 -68.640103 0.364224 -68.640103 0.931311 21.359852
7000.0 0.939939 19.958632 0.341342 -70.041326 0.341342 -70.041326 0.939939 19.958632
7500.0 0.947077 18.72371 0.321005 -71.276251 0.321005 -71.276251 0.947077 18.72371
8000.0 0.953042 17.628108 0.302837 -72.371855 0.302837 -72.371855 0.953042 17.628108
8500.0 0.958072 16.65019 0.286528 -73.349775 0.286528 -73.349775 0.958072 16.65019
9000.0 0.962349 15.77245 0.271818 -74.227518 0.271818 -74.227518 0.962349 15.77245
9500.0 0.966013 14.980599 0.258492 -75.01937 0.258492 -75.01937 0.966013 14.980599
10000.0 0.969175 14.262882 0.246371 -75.737089 0.246371 -75.737089 0.969175 14.262882
10500.0 0.971922 13.60955 0.235304 -76.390422 0.235304 -76.390422 0.971922 13.60955
11000.0 0.974321 13.012461 0.225163 -76.987513 0.225163 -76.987513 0.974321 13.012461
11500.0 0.976429 12.464765 0.215839 -77.535209 0.215839 -77.535209 0.976429 12.464765
12000.0 0.97829 11.960667 0.20724 -78.039308 0.20724 -78.039308 0.97829 11.960667
12500.0 0.979941 11.49523 0.199286 -78.504747 0.199286 -78.504747 0.979941 11.49523
13000.0 0.981413 11.064225 0.191909 -78.935753 0.191909 -78.935753 0.981413 11.064225
13500.0 0.982729 10.664011 0.185049 -79.335967 0.185049 -79.335967 0.982729 10.664011
14000.0 0.983912 10.291438 0.178655 -79.708541 0.178655 -79.708541 0.983912 10.291438
14500.0 0.984978 9.943766 0.172682 -80.056213 0.172682 -80.056213 0.984978 9.943766
15000.0 0.985942 9.618604 0.167089 -80.381377 0.167089 -80.381377 0.985942 9.618604
15500.0 0.986817 9.313851 0.161842 -80.68613 0.161842 -80.68613 0.986817 9.313851
16000.0 0.987613 9.027662 0.156911 -80.97232 0.156911 -80.97232 0.987613 9.027662
16500.0 0.988339 8.758403 0.152268 -81.241579 0.152268 -81.241579 0.988339 8.758403
17000.0 0.989004 8.504626 0.147889 -81.495357 0.147889 -81.495357 0.989004 8.504626
17500.0 0.989614 8.265041 0.143752 -81.734942 0.143752 -81.734942 0.989614 8.265041
18000.0 0.990174 8.0385 0.139838 -81.961484 0.139838 -81.961484 0.990174 8.0385
18500.0 0.990691 7.82397 0.13613 -82.176014 0.13613 -82.176014 0.990691 7.82397
19000.0 0.991168 7.620528 0.132612 -82.379457 0.132612 -82.379457 0.991168 7.620528
19500.0 0.99161 7.42734 0.129269 -82.572645 0.129269 -82.572645 0.99161 7.42734
20000.0 0.992019 7.243653 0.126089 -82.756332 0.126089 -82.756332 0.992019 7.243653
20500.0 0.992399 7.068788 0.123061 -82.931197 0.123061 -82.931197 0.992399 7.068788
21000.0 0.992753 6.902127 0.120174 -83.097859 0.120174 -83.097859 0.992753 6.902127
21500.0 0.993083 6.743108 0.117418 -83.256879 0.117418 -83.256879 0.993083 6.743108
22000.0 0.99339 6.591219 0.114785 -83.408768 0.114785 -83.408768 0.99339 6.591219
22500.0 0.993678 6.445994 0.112267 -83.553993 0.112267 -83.553993 0.993678 6.445994
23000.0 0.993948 6.307006 0.109856 -83.692982 0.109856 -83.692982 0.993948 6.307006
23500.0 0.9942 6.173861 0.107546 -83.826126 0.107546 -83.826126 0.9942 6.173861
24000.0 0.994437 6.046202 0.10533 -83.953786 0.10533 -83.953786 0.994437 6.046202
24500.0 0.99466 5.923697 0.103204 -84.076291 0.103204 -84.076291 0.99466 5.923697
25000.0 0.99487 5.80604 0.101161 -84.193948 0.101161 -84.193948 0.99487 5.80604
25500.0 0.995068 5.692952 0.099197 -84.307037 0.099197 -84.307037 0.995068 5.692952
26000.0 0.995254 5.58417 0.097308 -84.415818 0.097308 -84.415818 0.995254 5.58417
26500.0 0.99543 5.479456 0.095489 -84.520533 0.095489 -84.520533 0.99543 5.479456
27000.0 0.995597 5.378585 0.093736 -84.621404 0.093736 -84.621404 0.995597 5.378585
27500.0 0.995755 5.281351 0.092046 -84.718638 0.092046 -84.718638 0.995755 5.281351
28000.0 0.995904 5.18756 0.090416 -84.812429 0.090416 -84.812429 0.995904 5.18756
28500.0 0.996046 5.097034 0.088843 -84.902956 0.088843 -84.902956 0.996046 5.097034
29000.0 0.99618 5.009605 0.087323 -84.990385 0.087323 -84.990385 0.99618 5.009605
29500.0 0.996308 4.925118 0.085854 -85.074872 0.085854 -85.074872 0.996308 4.925118
30000.0 0.996429 4.843426 0.084433 -85.156564 0.084433 -85.156564 0.996429 4.843426
30500.0 0.996545 4.764395 0.083059 -85.235596 0.083059 -85.235596 0.996545 4.764395
31000.0 0.996655 4.687895 0.081728 -85.312096 0.081728 -85.312096 0.996655 4.687895
31500.0 0.99676 4.613808 0.080439 -85.386183 0.080439 -85.386183 0.99676 4.613808
32000.0 0.99686 4.542021 0.07919 -85.45797 0.07919 -85.45797 0.99686 4.542021
32500.0 0.996955 4.472429 0.077979 -85.527562 0.077979 -85.527562 0.996955 4.472429
33000.0 0.997046 4.404934 0.076805 -85.595057 0.076805 -85.595057 0.997046 4.404934
33500.0 0.997133 4.339442 0.075665 -85.66055 0.075665 -85.66055 0.997133 4.339442
34000.0 0.997217 4.275865 0.074559 -85.724127 0.074559 -85.724127 0.997217 4.275865
34500.0 0.997296 4.214121 0.073484 -85.785871 0.073484 -85.785871 0.997296 4.214121
35000.0 0.997373 4.154131 0.07244 -85.84586 0.07244 -85.84586 0.997373 4.154131
35500.0 0.997446 4.095823 0.071425 -85.904169 0.071425 -85.904169 0.997446 4.095823
36000.0 0.997516 4.039126 0.070438 -85.960866 0.070438 -85.960866 0.997516 4.039126
36500.0 0.997584 3.983975 0.069477 -86.016017 0.069477 -86.016017 0.997584 3.983975
37000.0 0.997648 3.930307 0.068543 -86.069685 0.068543 -86.069685 0.997648 3.930307
37500.0 0.99771 3.878064 0.067633 -86.121928 0.067633 -86.121928 0.99771 3.878064
38000.0 0.99777 3.82719 0.066747 -86.172803 0.066747 -86.172803 0.99777 3.82719
38500.0 0.997827 3.777631 0.065884 -86.222362 0.065884 -86.222362 0.997827 3.777631
39000.0 0.997882 3.729337 0.065043 -86.270655 0.065043 -86.270655 0.997882 3.729337
39500.0 0.997936 3.682261 0.064223 -86.317732 0.064223 -86.317732 0.997936 3.682261
40000.0 0.997987 3.636357 0.063424 -86.363636 0.063424 -86.363636 0.997987 3.636357
40500.0 0.998036 3.591582 0.062644 -86.408411 0.062644 -86.408411 0.998036 3.591582
41000.0 0.998083 3.547895 0.061883 -86.452098 0.061883 -86.452098 0.998083 3.547895
41500.0 0.998129 3.505256 0.06114 -86.494737 0.06114 -86.494737 0.998129 3.505256
42000.0 0.998173 3.463629 0.060415 -86.536364 0.060415 -86.536364 0.998173 3.463629
42500.0 0.998216 3.422978 0.059707 -86.577015 0.059707 -86.577015 0.998216 3.422978
43000.0 0.998257 3.383269 0.059015 -86.616724 0.059015 -86.616724 0.998257 3.383269
43500.0 0.998297 3.34447 0.058339 -86.655524 0.058339 -86.655524 0.998297 3.34447
44000.0 0.998335 3.306549 0.057678 -86.693444 0.057678 -86.693444 0.998335 3.306549
44500.0 0.998372 3.269478 0.057032 -86.730515 0.057032 -86.730515 0.998372 3.269478
45000.0 0.998408 3.233228 0.056401 -86.766766 0.056401 -86.766766 0.998408 3.233228
45500.0 0.998443 3.197772 0.055783 -86.802221 0.055783 -86.802221 0.998443 3.197772
46000.0 0.998477 3.163085 0.055178 -86.836909 0.055178 -86.836909 0.998477 3.163085
46500.0 0.998509 3.129141 0.054587 -86.870853 0.054587 -86.870853 0.998509 3.129141
47000.0 0.998541 3.095917 0.054008 -86.904076 0.054008 -86.904076 0.998541 3.095917
47500.0 0.998571 3.063391 0.053441 -86.936603 0.053441 -86.936603 0.998571 3.063391
48000.0 0.998601 3.031541 0.052886 -86.968453 0.052886 -86.968453 0.998601 3.031541
48500.0 0.998629 3.000345 0.052342 -86.999649 0.052342 -86.999649 0.998629 3.000345
49000.0 0.998657 2.969784 0.051809 -87.03021 0.051809 -87.03021 0.998657 2.969784
49500.0 0.998684 2.93984 0.051287 -87.060155 0.051287 -87.060155 0.998684 2.93984
50000.0 0.99871 2.910492 0.050776 -87.089502 0.050776 -87.089502 0.99871 2.910492
50500.0 0.998735 2.881724 0.050274 -87.11827 0.050274 -87.11827 0.998735 2.881724
51000.0 0.99876 2.853519 0.049783 -87.146476 0.049783 -87.146476 0.99876 2.853519
51500.0 0.998784 2.82586 0.049301 -87.174135 0.049301 -87.174135 0.998784 2.82586
52000.0 0.998807 2.798731 0.048828 -87.201263 0.048828 -87.201263 0.998807 2.798731
52500.0 0.99883 2.772119 0.048364 -87.227876 0.048364 -87.227876 0.99883 2.772119
53000.0 0.998852 2.746007 0.047909 -87.253988 0.047909 -87.253988 0.998852 2.746007
53500.0 0.998873 2.720382 0.047462 -87.279613 0.047462 -87.279613 0.998873 2.720382
54000.0 0.998894 2.695231 0.047023 -87.304764 0.047023 -87.304764 0.998894 2.695231
54500.0 0.998914 2.67054 0.046593 -87.329455 0.046593 -87.329455 0.998914 2.67054
55000.0 0.998934 2.646297 0.04617 -87.353698 0.04617 -87.353698 0.998934 2.646297
55500.0 0.998953 2.62249 0.045755 -87.377505 0.045755 -87.377505 0.998953 2.62249
56000.0 0.998971 2.599107 0.045347 -87.400888 0.045347 -87.400888 0.998971 2.599107
56500.0 0.998989 2.576137 0.044947 -87.423858 0.044947 -87.423858 0.998989 2.576137
57000.0 0.999007 2.553569 0.044553 -87.446426 0.044553 -87.446426 0.999007 2.553569
57500.0 0.999024 2.531393 0.044167 -87.468602 0.044167 -87.468602 0.999024 2.531393
58000.0 0.999041 2.509599 0.043787 -87.490396 0.043787 -87.490396 0.999041 2.509599
58500.0 0.999057 2.488176 0.043413 -87.511819 0.043413 -87.511819 0.999057 2.488176
59000.0 0.999073 2.467116 0.043046 -87.532879 0.043046 -87.532879 0.999073 2.467116
59500.0 0.999089 2.44641 0.042685 -87.553585 0.042685 -87.553585 0.999089 2.44641
60000.0 0.999104 2.426047 0.04233 -87.573948 0.04233 -87.573948 0.999104 2.426047
60500.0 0.999118 2.406021 0.041981 -87.593974 0.041981 -87.593974 0.999118 2.406021
61000.0 0.999133 2.386322 0.041637 -87.613673 0.041637 -87.613673 0.999133 2.386322
61500.0 0.999147 2.366944 0.041299 -87.633052 0.041299 -87.633052 0.999147 2.366944
62000.0 0.999161 2.347877 0.040967 -87.652118 0.040967 -87.652118 0.999161 2.347877
62500.0 0.999174 2.329115 0.04064 -87.670881 0.04064 -87.670881 0.999174 2.329115
63000.0 0.999187 2.31065 0.040318 -87.689346 0.040318 -87.689346 0.999187 2.31065
63500.0 0.9992 2.292475 0.040001 -87.70752 0.040001 -87.70752 0.9992 2.292475
64000.0 0.999212 2.274584 0.039689 -87.725411 0.039689 -87.725411 0.999212 2.274584
64500.0 0.999224 2.25697 0.039381 -87.743026 0.039381 -87.743026 0.999224 2.25697
65000.0 0.999236 2.239626 0.039079 -87.760369 0.039079 -87.760369 0.999236 2.239626
65500.0 0.999248 2.222547 0.038781 -87.777448 0.038781 -87.777448 0.999248 2.222547
66000.0 0.999259 2.205726 0.038488 -87.794269 0.038488 -87.794269 0.999259 2.205726
66500.0 0.99927 2.189158 0.038199 -87.810838 0.038199 -87.810838 0.99927 2.189158
67000.0 0.999281 2.172837 0.037914 -87.827159 0.037914 -87.827159 0.999281 2.172837
67500.0 0.999292 2.156757 0.037634 -87.843239 0.037634 -87.843239 0.999292 2.156757
68000.0 0.999302 2.140913 0.037357 -87.859082 0.037357 -87.859082 0.999302 2.140913
68500.0 0.999312 2.125301 0.037085 -87.874695 0.037085 -87.874695 0.999312 2.125301
69000.0 0.999322 2.109914 0.036817 -87.890082 0.036817 -87.890082 0.999322 2.109914
69500.0 0.999332 2.094748 0.036552 -87.905248 0.036552 -87.905248 0.999332 2.094748
70000.0 0.999341 2.079799 0.036291 -87.920197 0.036291 -87.920197 0.999341 2.079799
70500.0 0.999351 2.065061 0.036034 -87.934935 0.036034 -87.934935 0.999351 2.065061
71000.0 0.99936 2.050531 0.035781 -87.949465 0.035781 -87.949465 0.99936 2.050531
71500.0 0.999369 2.036204 0.035531 -87.963792 0.035531 -87.963792 0.999369 2.036204
72000.0 0.999377 2.022075 0.035285 -87.977921 0.035285 -87.977921 0.999377 2.022075
72500.0 0.999386 2.008141 0.035042 -87.991855 0.035042 -87.991855 0.999386 2.008141
73000.0 0.999394 1.994398 0.034802 -88.005598 0.034802 -88.005598 0.999394 1.994398
73500.0 0.999402 1.980842 0.034565 -88.019154 0.034565 -88.019154 0.999402 1.980842
74000.0 0.99941 1.967468 0.034332 -88.032528 0.034332 -88.032528 0.99941 1.967468
74500.0 0.999418 1.954274 0.034102 -88.045722 0.034102 -88.045722 0.999418 1.954274
75000.0 0.999426 1.941255 0.033875 -88.058741 0.033875 -88.058741 0.999426 1.941255
75500.0 0.999434 1.928409 0.033651 -88.071587 0.033651 -88.071587 0.999434 1.928409
76000.0 0.999441 1.915732 0.03343 -88.084264 0.03343 -88.084264 0.999441 1.915732
76500.0 0.999448 1.90322 0.033211 -88.096776 0.033211 -88.096776 0.999448 1.90322
77000.0 0.999455 1.89087 0.032996 -88.109126 0.032996 -88.109126 0.999455 1.89087
77500.0 0.999462 1.87868 0.032783 -88.121316 0.032783 -88.121316 0.999462 1.87868
78000.0 0.999469 1.866646 0.032573 -88.133351 0.032573 -88.133351 0.999469 1.866646
78500.0 0.999476 1.854765 0.032366 -88.145232 0.032366 -88.145232 0.999476 1.854765
79000.0 0.999483 1.843034 0.032161 -88.156963 0.032161 -88.156963 0.999483 1.843034
79500.0 0.999489 1.83145 0.031959 -88.168546 0.031959 -88.168546 0.999489 1.83145
80000.0 0.999496 1.820011 0.03176 -88.179985 0.03176 -88.179985 0.999496 1.820011
80500.0 0.999502 1.808714 0.031563 -88.191282 0.031563 -88.191282 0.999502 1.808714
81000.0 0.999508 1.797557 0.031368 -88.20244 0.031368 -88.20244 0.999508 1.797557
81500.0 0.999514 1.786536 0.031176 -88.21346 0.031176 -88.21346 0.999514 1.786536
82000.0 0.99952 1.77565 0.030986 -88.224347 0.030986 -88.224347 0.99952 1.77565
82500.0 0.999526 1.764895 0.030798 -88.235102 0.030798 -88.235102 0.999526 1.764895
83000.0 0.999531 1.75427 0.030613 -88.245727 0.030613 -88.245727 0.999531 1.75427
83500.0 0.999537 1.743772 0.03043 -88.256225 0.03043 -88.256225 0.999537 1.743772
84000.0 0.999542 1.733398 0.030249 -88.266598 0.030249 -88.266598 0.999542 1.733398
84500.0 0.999548 1.723148 0.03007 -88.276849 0.03007 -88.276849 0.999548 1.723148
85000.0 0.999553 1.713018 0.029893 -88.286979 0.029893 -88.286979 0.999553 1.713018
85500.0 0.999558 1.703006 0.029719 -88.296991 0.029719 -88.296991 0.999558 1.703006
86000.0 0.999563 1.69311 0.029546 -88.306886 0.029546 -88.306886 0.999563 1.69311
86500.0 0.999568 1.683329 0.029375 -88.316667 0.029375 -88.316667 0.999568 1.683329
87000.0 0.999573 1.673661 0.029207 -88.326336 0.029207 -88.326336 0.999573 1.673661
87500.0 0.999578 1.664102 0.02904 -88.335894 0.02904 -88.335894 0.999578 1.664102
88000.0 0.999583 1.654652 0.028875 -88.345344 0.028875 -88.345344 0.999583 1.654652
88500.0 0.999588 1.645309 0.028712 -88.354688 0.028712 -88.354688 0.999588 1.645309
89000.0 0.999592 1.636071 0.028551 -88.363926 0.028551 -88.363926 0.999592 1.636071
89500.0 0.999597 1.626936 0.028392 -88.373061 0.028392 -88.373061 0.999597 1.626936
90000.0 0.999601 1.617902 0.028234 -88.382095 0.028234 -88.382095 0.999601 1.617902
90500.0 0.999606 1.608968 0.028078 -88.391029 0.028078 -88.391029 0.999606 1.608968
91000.0 0.99961 1.600132 0.027924 -88.399865 0.027924 -88.399865 0.99961 1.600132
91500.0 0.999614 1.591393 0.027771 -88.408604 0.027771 -88.408604 0.999614 1.591393
92000.0 0.999618 1.582748 0.027621 -88.417248 0.027621 -88.417248 0.999618 1.582748
92500.0 0.999623 1.574197 0.027471 -88.4258 0.027471 -88.4258 0.999623 1.574197
93000.0 0.999627 1.565738 0.027324 -88.434259 0.027324 -88.434259 0.999627 1.565738
93500.0 0.999631 1.557369 0.027178 -88.442628 0.027178 -88.442628 0.999631 1.557369
94000.0 0.999635 1.549089 0.027033 -88.450907 0.027033 -88.450907 0.999635 1.549089
94500.0 0.999638 1.540897 0.02689 -88.4591 0.02689 -88.4591 0.999638 1.540897
95000.0 0.999642 1.532791 0.026749 -88.467206 0.026749 -88.467206 0.999642 1.532791
95500.0 0.999646 1.52477 0.026609 -88.475227 0.026609 -88.475227 0.999646 1.52477
96000.0 0.99965 1.516832 0.026471 -88.483165 0.026471 -88.483165 0.99965 1.516832
96500.0 0.999653 1.508976 0.026334 -88.491021 0.026334 -88.491021 0.999653 1.508976
97000.0 0.999657 1.501202 0.026198 -88.498795 0.026198 -88.498795 0.999657 1.501202
97500.0 0.99966 1.493507 0.026064 -88.50649 0.026064 -88.50649 0.99966 1.493507
98000.0 0.999664 1.48589 0.025931 -88.514107 0.025931 -88.514107 0.999664 1.48589
98500.0 0.999667 1.478351 0.025799 -88.521646 0.025799 -88.521646 0.999667 1.478351
99000.0 0.99967 1.470888 0.025669 -88.529109 0.025669 -88.529109 0.99967 1.470888
99500.0 0.999674 1.4635 0.02554 -88.536497 0.02554 -88.536497 0.999674 1.4635
100000.0 0.999677 1.456185 0.025412 -88.543812 0.025412 -88.543812 0.999677 1.456185
