! File created by SignalIntegrity v1.3.1: Signal and Power Integrity Tools
! https://github.com/TeledyneLeCroy/SignalIntegrity

! the calculations of this model are from:
!     https://www.allaboutcircuits.com/tools/wire-self-inductance-calculator/
# MHz S MA R 50.0
0.0 0.000449 0.0 0.999551 0.0 0.999551 0.0 0.000449 0.0
250.0 0.291022 72.996369 0.956287 -16.919144 0.956287 -16.919144 0.291022 72.996369
500.0 0.519748 58.642409 0.853936 -31.315348 0.853936 -31.315348 0.519748 58.642409
750.0 0.674077 47.589363 0.73833 -42.382475 0.73833 -42.382475 0.674077 47.589363
1000.0 0.772563 39.394279 0.634653 -50.584599 0.634653 -50.584599 0.772563 39.394279
1250.0 0.835573 33.307527 0.549133 -56.675576 0.549133 -56.675576 0.835573 33.307527
1500.0 0.87699 28.704533 0.480293 -61.281386 0.480293 -61.281386 0.87699 28.704533
1750.0 0.905151 25.144277 0.424899 -64.843654 0.424899 -64.843654 0.905151 25.144277
2000.0 0.92495 22.328658 0.379919 -67.660781 0.379919 -67.660781 0.92495 22.328658
2250.0 0.939299 20.05639 0.342945 -69.934223 0.342945 -69.934223 0.939299 20.05639
2500.0 0.949983 18.189511 0.312161 -71.802041 0.312161 -71.802041 0.949983 18.189511
2750.0 0.958127 16.631516 0.286215 -73.360804 0.286215 -73.360804 0.958127 16.631516
3000.0 0.964463 15.313434 0.264099 -74.679526 0.264099 -74.679526 0.964463 15.313434
3250.0 0.969482 14.184936 0.245052 -75.808565 0.245052 -75.808565 0.969482 14.184936
3500.0 0.973521 13.20858 0.228497 -76.785385 0.228497 -76.785385 0.973521 13.20858
3750.0 0.976816 12.35601 0.213985 -77.638358 0.213985 -77.638358 0.976816 12.35601
4000.0 0.979538 11.605405 0.20117 -78.389315 0.20117 -78.389315 0.979538 11.605405
4250.0 0.981811 10.939722 0.189776 -79.055309 0.189776 -79.055309 0.981811 10.939722
4500.0 0.983728 10.345474 0.179583 -79.649833 0.179583 -79.649833 0.983728 10.345474
4750.0 0.985359 9.811857 0.170413 -80.183696 0.170413 -80.183696 0.985359 9.811857
5000.0 0.986759 9.330124 0.162123 -80.665652 0.162123 -80.665652 0.986759 9.330124
5250.0 0.987968 8.893116 0.154592 -81.102861 0.154592 -81.102861 0.987968 8.893116
5500.0 0.989019 8.494927 0.147722 -81.501233 0.147722 -81.501233 0.989019 8.494927
5750.0 0.989939 8.130637 0.141431 -81.86569 0.141431 -81.86569 0.989939 8.130637
6000.0 0.990749 7.796121 0.135648 -82.200359 0.135648 -82.200359 0.990749 7.796121
6250.0 0.991465 7.487892 0.130317 -82.508728 0.130317 -82.508728 0.991465 7.487892
6500.0 0.992101 7.202985 0.125385 -82.793766 0.125385 -82.793766 0.992101 7.202985
6750.0 0.992669 6.938861 0.12081 -83.05801 0.12081 -83.05801 0.992669 6.938861
7000.0 0.993178 6.693337 0.116555 -83.303645 0.116555 -83.303645 0.993178 6.693337
7250.0 0.993636 6.464523 0.112588 -83.532563 0.112588 -83.532563 0.993636 6.464523
7500.0 0.99405 6.250776 0.10888 -83.746407 0.10888 -83.746407 0.99405 6.250776
7750.0 0.994424 6.050661 0.105408 -83.946614 0.105408 -83.946614 0.994424 6.050661
8000.0 0.994764 5.862918 0.102149 -84.134442 0.102149 -84.134442 0.994764 5.862918
8250.0 0.995075 5.686438 0.099084 -84.311002 0.099084 -84.311002 0.995075 5.686438
8500.0 0.995358 5.520239 0.096197 -84.477276 0.096197 -84.477276 0.995358 5.520239
8750.0 0.995618 5.363453 0.093473 -84.634133 0.093473 -84.634133 0.995618 5.363453
9000.0 0.995856 5.215302 0.090899 -84.782351 0.090899 -84.782351 0.995856 5.215302
9250.0 0.996076 5.075095 0.088461 -84.922621 0.088461 -84.922621 0.996076 5.075095
9500.0 0.996279 4.942211 0.086151 -85.055565 0.086151 -85.055565 0.996279 4.942211
9750.0 0.996466 4.816093 0.083958 -85.181741 0.083958 -85.181741 0.996466 4.816093
10000.0 0.99664 4.696237 0.081873 -85.301651 0.081873 -85.301651 0.99664 4.696237
10250.0 0.996801 4.582189 0.079889 -85.415751 0.079889 -85.415751 0.996801 4.582189
10500.0 0.996951 4.473538 0.077999 -85.524451 0.077999 -85.524451 0.996951 4.473538
10750.0 0.99709 4.36991 0.076195 -85.628125 0.076195 -85.628125 0.99709 4.36991
11000.0 0.997221 4.270966 0.074473 -85.727113 0.074473 -85.727113 0.997221 4.270966
11250.0 0.997342 4.176396 0.072827 -85.821726 0.072827 -85.821726 0.997342 4.176396
11500.0 0.997456 4.085916 0.071252 -85.912247 0.071252 -85.912247 0.997456 4.085916
11750.0 0.997563 3.999267 0.069744 -85.998935 0.069744 -85.998935 0.997563 3.999267
12000.0 0.997663 3.916212 0.068298 -86.082028 0.068298 -86.082028 0.997663 3.916212
12250.0 0.997757 3.83653 0.06691 -86.161745 0.06691 -86.161745 0.997757 3.83653
12500.0 0.997846 3.760022 0.065578 -86.238288 0.065578 -86.238288 0.997846 3.760022
12750.0 0.997929 3.686502 0.064297 -86.311841 0.064297 -86.311841 0.997929 3.686502
13000.0 0.998008 3.615798 0.063066 -86.382577 0.063066 -86.382577 0.998008 3.615798
13250.0 0.998082 3.547752 0.06188 -86.450654 0.06188 -86.450654 0.998082 3.547752
13500.0 0.998152 3.482216 0.060739 -86.51622 0.060739 -86.51622 0.998152 3.482216
13750.0 0.998218 3.419055 0.059638 -86.579409 0.059638 -86.579409 0.998218 3.419055
14000.0 0.998281 3.358141 0.058577 -86.64035 0.058577 -86.64035 0.998281 3.358141
14250.0 0.998341 3.299358 0.057553 -86.69916 0.057553 -86.69916 0.998341 3.299358
14500.0 0.998398 3.242595 0.056564 -86.755948 0.056564 -86.755948 0.998398 3.242595
14750.0 0.998451 3.18775 0.055608 -86.810818 0.055608 -86.810818 0.998451 3.18775
15000.0 0.998502 3.134728 0.054684 -86.863864 0.054684 -86.863864 0.998502 3.134728
15250.0 0.998551 3.083439 0.05379 -86.915176 0.05379 -86.915176 0.998551 3.083439
15500.0 0.998597 3.0338 0.052925 -86.964837 0.052925 -86.964837 0.998597 3.0338
15750.0 0.998641 2.985733 0.052087 -87.012926 0.052087 -87.012926 0.998641 2.985733
16000.0 0.998683 2.939163 0.051276 -87.059517 0.051276 -87.059517 0.998683 2.939163
16250.0 0.998723 2.894023 0.050489 -87.104677 0.050489 -87.104677 0.998723 2.894023
16500.0 0.998762 2.850247 0.049726 -87.148473 0.049726 -87.148473 0.998762 2.850247
16750.0 0.998798 2.807775 0.048985 -87.190964 0.048985 -87.190964 0.998798 2.807775
17000.0 0.998833 2.766549 0.048267 -87.232209 0.048267 -87.232209 0.998833 2.766549
17250.0 0.998867 2.726515 0.047569 -87.272261 0.047569 -87.272261 0.998867 2.726515
17500.0 0.998899 2.687622 0.046891 -87.311171 0.046891 -87.311171 0.998899 2.687622
17750.0 0.99893 2.649823 0.046232 -87.348987 0.046232 -87.348987 0.99893 2.649823
18000.0 0.998959 2.613071 0.045591 -87.385756 0.045591 -87.385756 0.998959 2.613071
18250.0 0.998988 2.577324 0.044968 -87.421518 0.044968 -87.421518 0.998988 2.577324
18500.0 0.999015 2.542542 0.044361 -87.456317 0.044361 -87.456317 0.999015 2.542542
18750.0 0.999041 2.508685 0.043771 -87.490189 0.043771 -87.490189 0.999041 2.508685
19000.0 0.999066 2.475717 0.043196 -87.523171 0.043196 -87.523171 0.999066 2.475717
19250.0 0.99909 2.443604 0.042636 -87.555299 0.042636 -87.555299 0.99909 2.443604
19500.0 0.999113 2.412313 0.04209 -87.586604 0.04209 -87.586604 0.999113 2.412313
19750.0 0.999135 2.381813 0.041559 -87.617118 0.041559 -87.617118 0.999135 2.381813
20000.0 0.999157 2.352074 0.04104 -87.64687 0.04104 -87.64687 0.999157 2.352074
20250.0 0.999177 2.323068 0.040534 -87.675889 0.040534 -87.675889 0.999177 2.323068
20500.0 0.999197 2.294769 0.040041 -87.704201 0.040041 -87.704201 0.999197 2.294769
20750.0 0.999217 2.26715 0.039559 -87.731832 0.039559 -87.731832 0.999217 2.26715
21000.0 0.999235 2.240188 0.039089 -87.758807 0.039089 -87.758807 0.999235 2.240188
21250.0 0.999253 2.213859 0.03863 -87.785147 0.03863 -87.785147 0.999253 2.213859
21500.0 0.99927 2.188142 0.038181 -87.810876 0.038181 -87.810876 0.99927 2.188142
21750.0 0.999287 2.163015 0.037743 -87.836014 0.037743 -87.836014 0.999287 2.163015
22000.0 0.999303 2.138458 0.037314 -87.860582 0.037314 -87.860582 0.999303 2.138458
22250.0 0.999319 2.114452 0.036896 -87.884599 0.036896 -87.884599 0.999319 2.114452
22500.0 0.999334 2.090979 0.036486 -87.908082 0.036486 -87.908082 0.999334 2.090979
22750.0 0.999348 2.068022 0.036086 -87.93105 0.036086 -87.93105 0.999348 2.068022
23000.0 0.999362 2.045562 0.035694 -87.953519 0.035694 -87.953519 0.999362 2.045562
23250.0 0.999376 2.023585 0.035311 -87.975506 0.035311 -87.975506 0.999376 2.023585
23500.0 0.999389 2.002076 0.034936 -87.997026 0.034936 -87.997026 0.999389 2.002076
23750.0 0.999402 1.981018 0.034568 -88.018093 0.034568 -88.018093 0.999402 1.981018
24000.0 0.999414 1.960399 0.034209 -88.038721 0.034209 -88.038721 0.999414 1.960399
24250.0 0.999426 1.940204 0.033856 -88.058925 0.033856 -88.058925 0.999426 1.940204
24500.0 0.999438 1.920421 0.033511 -88.078717 0.033511 -88.078717 0.999438 1.920421
24750.0 0.999449 1.901037 0.033173 -88.09811 0.033173 -88.09811 0.999449 1.901037
25000.0 0.99946 1.88204 0.032842 -88.117115 0.032842 -88.117115 0.99946 1.88204
25250.0 0.999471 1.863419 0.032517 -88.135744 0.032517 -88.135744 0.999471 1.863419
25500.0 0.999481 1.845163 0.032199 -88.154008 0.032199 -88.154008 0.999481 1.845163
25750.0 0.999491 1.827261 0.031886 -88.171918 0.031886 -88.171918 0.999491 1.827261
26000.0 0.999501 1.809703 0.03158 -88.189484 0.03158 -88.189484 0.999501 1.809703
26250.0 0.99951 1.792479 0.03128 -88.206716 0.03128 -88.206716 0.99951 1.792479
26500.0 0.999519 1.77558 0.030985 -88.223623 0.030985 -88.223623 0.999519 1.77558
26750.0 0.999528 1.758996 0.030695 -88.240214 0.030695 -88.240214 0.999528 1.758996
27000.0 0.999537 1.742719 0.030412 -88.256498 0.030412 -88.256498 0.999537 1.742719
27250.0 0.999545 1.726741 0.030133 -88.272484 0.030133 -88.272484 0.999545 1.726741
27500.0 0.999554 1.711053 0.029859 -88.288179 0.029859 -88.288179 0.999554 1.711053
27750.0 0.999562 1.695647 0.02959 -88.303592 0.02959 -88.303592 0.999562 1.695647
28000.0 0.99957 1.680516 0.029326 -88.31873 0.029326 -88.31873 0.99957 1.680516
28250.0 0.999577 1.665652 0.029067 -88.3336 0.029067 -88.3336 0.999577 1.665652
28500.0 0.999584 1.65105 0.028812 -88.348209 0.028812 -88.348209 0.999584 1.65105
28750.0 0.999592 1.6367 0.028562 -88.362565 0.028562 -88.362565 0.999592 1.6367
29000.0 0.999599 1.622599 0.028316 -88.376673 0.028316 -88.376673 0.999599 1.622599
29250.0 0.999605 1.608738 0.028074 -88.39054 0.028074 -88.39054 0.999605 1.608738
29500.0 0.999612 1.595111 0.027836 -88.404173 0.027836 -88.404173 0.999612 1.595111
29750.0 0.999619 1.581714 0.027603 -88.417576 0.027603 -88.417576 0.999619 1.581714
30000.0 0.999625 1.568539 0.027373 -88.430756 0.027373 -88.430756 0.999625 1.568539
30250.0 0.999631 1.555583 0.027147 -88.443719 0.027147 -88.443719 0.999631 1.555583
30500.0 0.999637 1.542838 0.026924 -88.456469 0.026924 -88.456469 0.999637 1.542838
30750.0 0.999643 1.530301 0.026706 -88.469012 0.026706 -88.469012 0.999643 1.530301
31000.0 0.999649 1.517966 0.02649 -88.481353 0.02649 -88.481353 0.999649 1.517966
31250.0 0.999654 1.505827 0.026279 -88.493497 0.026279 -88.493497 0.999654 1.505827
31500.0 0.99966 1.493882 0.02607 -88.505448 0.02607 -88.505448 0.99966 1.493882
31750.0 0.999665 1.482124 0.025865 -88.51721 0.025865 -88.51721 0.999665 1.482124
32000.0 0.99967 1.47055 0.025663 -88.52879 0.025663 -88.52879 0.99967 1.47055
32250.0 0.999675 1.459156 0.025464 -88.540189 0.025464 -88.540189 0.999675 1.459156
32500.0 0.99968 1.447936 0.025269 -88.551414 0.025269 -88.551414 0.99968 1.447936
32750.0 0.999685 1.436888 0.025076 -88.562467 0.025076 -88.562467 0.999685 1.436888
33000.0 0.99969 1.426007 0.024886 -88.573353 0.024886 -88.573353 0.99969 1.426007
33250.0 0.999695 1.415289 0.024699 -88.584075 0.024699 -88.584075 0.999695 1.415289
33500.0 0.999699 1.404732 0.024515 -88.594638 0.024515 -88.594638 0.999699 1.404732
33750.0 0.999704 1.394331 0.024333 -88.605044 0.024333 -88.605044 0.999704 1.394331
34000.0 0.999708 1.384082 0.024154 -88.615297 0.024154 -88.615297 0.999708 1.384082
34250.0 0.999712 1.373983 0.023978 -88.6254 0.023978 -88.6254 0.999712 1.373983
34500.0 0.999716 1.364031 0.023805 -88.635357 0.023805 -88.635357 0.999716 1.364031
34750.0 0.99972 1.354221 0.023633 -88.645171 0.023633 -88.645171 0.99972 1.354221
35000.0 0.999724 1.344552 0.023465 -88.654845 0.023465 -88.654845 0.999724 1.344552
35250.0 0.999728 1.335019 0.023298 -88.664382 0.023298 -88.664382 0.999728 1.335019
35500.0 0.999732 1.325621 0.023134 -88.673784 0.023134 -88.673784 0.999732 1.325621
35750.0 0.999736 1.316354 0.022973 -88.683055 0.022973 -88.683055 0.999736 1.316354
36000.0 0.99974 1.307216 0.022813 -88.692197 0.022813 -88.692197 0.99974 1.307216
36250.0 0.999743 1.298204 0.022656 -88.701213 0.022656 -88.701213 0.999743 1.298204
36500.0 0.999747 1.289315 0.022501 -88.710106 0.022501 -88.710106 0.999747 1.289315
36750.0 0.99975 1.280547 0.022348 -88.718878 0.022348 -88.718878 0.99975 1.280547
37000.0 0.999753 1.271898 0.022197 -88.727531 0.022197 -88.727531 0.999753 1.271898
37250.0 0.999757 1.263364 0.022048 -88.736069 0.022048 -88.736069 0.999757 1.263364
37500.0 0.99976 1.254945 0.021901 -88.744492 0.021901 -88.744492 0.99976 1.254945
37750.0 0.999763 1.246636 0.021756 -88.752804 0.021756 -88.752804 0.999763 1.246636
38000.0 0.999766 1.238437 0.021613 -88.761007 0.021613 -88.761007 0.999766 1.238437
38250.0 0.999769 1.230345 0.021472 -88.769102 0.021472 -88.769102 0.999769 1.230345
38500.0 0.999772 1.222359 0.021333 -88.777093 0.021333 -88.777093 0.999772 1.222359
38750.0 0.999775 1.214475 0.021195 -88.78498 0.021195 -88.78498 0.999775 1.214475
39000.0 0.999778 1.206692 0.021059 -88.792766 0.021059 -88.792766 0.999778 1.206692
39250.0 0.999781 1.199008 0.020925 -88.800453 0.020925 -88.800453 0.999781 1.199008
39500.0 0.999784 1.191422 0.020793 -88.808043 0.020793 -88.808043 0.999784 1.191422
39750.0 0.999786 1.183931 0.020662 -88.815538 0.020662 -88.815538 0.999786 1.183931
40000.0 0.999789 1.176533 0.020533 -88.822939 0.020533 -88.822939 0.999789 1.176533
40250.0 0.999792 1.169228 0.020405 -88.830247 0.020405 -88.830247 0.999792 1.169228
40500.0 0.999794 1.162012 0.02028 -88.837466 0.02028 -88.837466 0.999794 1.162012
40750.0 0.999797 1.154885 0.020155 -88.844596 0.020155 -88.844596 0.999797 1.154885
41000.0 0.999799 1.147845 0.020032 -88.85164 0.020032 -88.85164 0.999799 1.147845
41250.0 0.999802 1.14089 0.019911 -88.858598 0.019911 -88.858598 0.999802 1.14089
41500.0 0.999804 1.134019 0.019791 -88.865472 0.019791 -88.865472 0.999804 1.134019
41750.0 0.999806 1.127231 0.019673 -88.872263 0.019673 -88.872263 0.999806 1.127231
42000.0 0.999809 1.120523 0.019556 -88.878974 0.019556 -88.878974 0.999809 1.120523
42250.0 0.999811 1.113894 0.01944 -88.885606 0.01944 -88.885606 0.999811 1.113894
42500.0 0.999813 1.107343 0.019326 -88.89216 0.019326 -88.89216 0.999813 1.107343
42750.0 0.999815 1.100869 0.019213 -88.898637 0.019213 -88.898637 0.999815 1.100869
43000.0 0.999817 1.09447 0.019101 -88.905038 0.019101 -88.905038 0.999817 1.09447
43250.0 0.99982 1.088146 0.018991 -88.911366 0.018991 -88.911366 0.99982 1.088146
43500.0 0.999822 1.081893 0.018881 -88.917621 0.018881 -88.917621 0.999822 1.081893
43750.0 0.999824 1.075712 0.018774 -88.923805 0.018774 -88.923805 0.999824 1.075712
44000.0 0.999826 1.069602 0.018667 -88.929918 0.018667 -88.929918 0.999826 1.069602
44250.0 0.999828 1.06356 0.018562 -88.935962 0.018562 -88.935962 0.999828 1.06356
44500.0 0.999829 1.057587 0.018457 -88.941939 0.018457 -88.941939 0.999829 1.057587
44750.0 0.999831 1.05168 0.018354 -88.947848 0.018354 -88.947848 0.999831 1.05168
45000.0 0.999833 1.045838 0.018252 -88.953692 0.018252 -88.953692 0.999833 1.045838
45250.0 0.999835 1.040061 0.018152 -88.959472 0.018152 -88.959472 0.999835 1.040061
45500.0 0.999837 1.034348 0.018052 -88.965188 0.018052 -88.965188 0.999837 1.034348
45750.0 0.999839 1.028697 0.017953 -88.970841 0.017953 -88.970841 0.999839 1.028697
46000.0 0.99984 1.023108 0.017856 -88.976433 0.017856 -88.976433 0.99984 1.023108
46250.0 0.999842 1.017578 0.017759 -88.981965 0.017759 -88.981965 0.999842 1.017578
46500.0 0.999844 1.012109 0.017664 -88.987437 0.017664 -88.987437 0.999844 1.012109
46750.0 0.999846 1.006698 0.017569 -88.992851 0.017569 -88.992851 0.999846 1.006698
47000.0 0.999847 1.001344 0.017476 -88.998207 0.017476 -88.998207 0.999847 1.001344
47250.0 0.999849 0.996047 0.017383 -89.003506 0.017383 -89.003506 0.999849 0.996047
47500.0 0.99985 0.990806 0.017292 -89.00875 0.017292 -89.00875 0.99985 0.990806
47750.0 0.999852 0.985619 0.017201 -89.013939 0.017201 -89.013939 0.999852 0.985619
48000.0 0.999853 0.980487 0.017112 -89.019073 0.017112 -89.019073 0.999853 0.980487
48250.0 0.999855 0.975407 0.017023 -89.024155 0.017023 -89.024155 0.999855 0.975407
48500.0 0.999856 0.97038 0.016936 -89.029184 0.016936 -89.029184 0.999856 0.97038
48750.0 0.999858 0.965405 0.016849 -89.034162 0.016849 -89.034162 0.999858 0.965405
49000.0 0.999859 0.960481 0.016763 -89.039088 0.016763 -89.039088 0.999859 0.960481
49250.0 0.999861 0.955606 0.016678 -89.043965 0.016678 -89.043965 0.999861 0.955606
49500.0 0.999862 0.95078 0.016593 -89.048793 0.016593 -89.048793 0.999862 0.95078
49750.0 0.999864 0.946004 0.01651 -89.053572 0.01651 -89.053572 0.999864 0.946004
50000.0 0.999865 0.941274 0.016428 -89.058303 0.016428 -89.058303 0.999865 0.941274
50250.0 0.999866 0.936592 0.016346 -89.062987 0.016346 -89.062987 0.999866 0.936592
50500.0 0.999868 0.931956 0.016265 -89.067625 0.016265 -89.067625 0.999868 0.931956
50750.0 0.999869 0.927366 0.016185 -89.072217 0.016185 -89.072217 0.999869 0.927366
51000.0 0.99987 0.922821 0.016106 -89.076765 0.016106 -89.076765 0.99987 0.922821
51250.0 0.999871 0.91832 0.016027 -89.081267 0.016027 -89.081267 0.999871 0.91832
51500.0 0.999873 0.913863 0.015949 -89.085727 0.015949 -89.085727 0.999873 0.913863
51750.0 0.999874 0.909449 0.015872 -89.090143 0.015872 -89.090143 0.999874 0.909449
52000.0 0.999875 0.905078 0.015796 -89.094516 0.015796 -89.094516 0.999875 0.905078
52250.0 0.999876 0.900748 0.01572 -89.098848 0.01572 -89.098848 0.999876 0.900748
52500.0 0.999877 0.896459 0.015646 -89.103138 0.015646 -89.103138 0.999877 0.896459
52750.0 0.999879 0.892211 0.015571 -89.107388 0.015571 -89.107388 0.999879 0.892211
53000.0 0.99988 0.888004 0.015498 -89.111598 0.015498 -89.111598 0.99988 0.888004
53250.0 0.999881 0.883835 0.015425 -89.115768 0.015425 -89.115768 0.999881 0.883835
53500.0 0.999882 0.879706 0.015353 -89.119899 0.015353 -89.119899 0.999882 0.879706
53750.0 0.999883 0.875615 0.015282 -89.123992 0.015282 -89.123992 0.999883 0.875615
54000.0 0.999884 0.871562 0.015211 -89.128047 0.015211 -89.128047 0.999884 0.871562
54250.0 0.999885 0.867546 0.015141 -89.132065 0.015141 -89.132065 0.999885 0.867546
54500.0 0.999886 0.863567 0.015072 -89.136046 0.015072 -89.136046 0.999886 0.863567
54750.0 0.999887 0.859624 0.015003 -89.13999 0.015003 -89.13999 0.999887 0.859624
55000.0 0.999888 0.855717 0.014935 -89.143899 0.014935 -89.143899 0.999888 0.855717
55250.0 0.999889 0.851846 0.014867 -89.147772 0.014867 -89.147772 0.999889 0.851846
55500.0 0.99989 0.848009 0.0148 -89.15161 0.0148 -89.15161 0.99989 0.848009
55750.0 0.999891 0.844207 0.014734 -89.155414 0.014734 -89.155414 0.999891 0.844207
56000.0 0.999892 0.840439 0.014668 -89.159184 0.014668 -89.159184 0.999892 0.840439
56250.0 0.999893 0.836704 0.014603 -89.16292 0.014603 -89.16292 0.999893 0.836704
56500.0 0.999894 0.833002 0.014538 -89.166624 0.014538 -89.166624 0.999894 0.833002
56750.0 0.999895 0.829333 0.014474 -89.170294 0.014474 -89.170294 0.999895 0.829333
57000.0 0.999896 0.825696 0.014411 -89.173933 0.014411 -89.173933 0.999896 0.825696
57250.0 0.999897 0.822091 0.014348 -89.17754 0.014348 -89.17754 0.999897 0.822091
57500.0 0.999898 0.818517 0.014285 -89.181115 0.014285 -89.181115 0.999898 0.818517
57750.0 0.999899 0.814975 0.014224 -89.18466 0.014224 -89.18466 0.999899 0.814975
58000.0 0.9999 0.811462 0.014162 -89.188174 0.014162 -89.188174 0.9999 0.811462
58250.0 0.9999 0.80798 0.014101 -89.191657 0.014101 -89.191657 0.9999 0.80798
58500.0 0.999901 0.804528 0.014041 -89.195111 0.014041 -89.195111 0.999901 0.804528
58750.0 0.999902 0.801104 0.013981 -89.198536 0.013981 -89.198536 0.999902 0.801104
59000.0 0.999903 0.79771 0.013922 -89.201932 0.013922 -89.201932 0.999903 0.79771
