! File created by SignalIntegrity v1.4.3: Signal and Power Integrity Tools
! https://github.com/Nubis-Communications/SignalIntegrity
! 
! the calculations of this model are from:
! https://www.allaboutcircuits.com/tools/wire-self-inductance-calculator/
# MHz S MA R 50.0
0.0 2e-06 0.0 0.999998 0.0 0.999998 0.0 2e-06 0.0
500.0 0.019665 88.867362 0.999805 -1.126804 0.999805 -1.126804 0.019665 88.867362
1000.0 0.039308 87.744346 0.999225 -2.252736 0.999225 -2.252736 0.039308 87.744346
1500.0 0.058904 86.621124 0.998262 -3.376931 0.998262 -3.376931 0.058904 86.621124
2000.0 0.078434 85.500012 0.996917 -4.498529 0.996917 -4.498529 0.078434 85.500012
2500.0 0.097873 84.38215 0.995197 -5.616683 0.995197 -5.616683 0.097873 84.38215
3000.0 0.1172 83.268465 0.993106 -6.730562 0.993106 -6.730562 0.1172 83.268465
3500.0 0.136396 82.159812 0.990652 -7.839354 0.990652 -7.839354 0.136396 82.159812
4000.0 0.155439 81.057001 0.987843 -8.94227 0.987843 -8.94227 0.155439 81.057001
4500.0 0.174311 79.960807 0.984689 -10.038545 0.984689 -10.038545 0.174311 79.960807
5000.0 0.192992 78.871972 0.981198 -11.127445 0.981198 -11.127445 0.192992 78.871972
5500.0 0.211466 77.791204 0.977383 -12.208265 0.977383 -12.208265 0.211466 77.791204
6000.0 0.229716 76.719178 0.973256 -13.280335 0.973256 -13.280335 0.229716 76.719178
6500.0 0.247727 75.656531 0.968828 -14.343021 0.968828 -14.343021 0.247727 75.656531
7000.0 0.265484 74.603861 0.964113 -15.395722 0.964113 -15.395722 0.265484 74.603861
7500.0 0.282976 73.561732 0.959125 -16.437879 0.959125 -16.437879 0.282976 73.561732
8000.0 0.300189 72.530664 0.953878 -17.468971 0.953878 -17.468971 0.300189 72.530664
8500.0 0.317115 71.511141 0.948385 -18.488516 0.948385 -18.488516 0.317115 71.511141
9000.0 0.333742 70.503603 0.942662 -19.496073 0.942662 -19.496073 0.333742 70.503603
9500.0 0.350064 69.508454 0.936724 -20.491239 0.936724 -20.491239 0.350064 69.508454
10000.0 0.366073 68.526056 0.930584 -21.473653 0.930584 -21.473653 0.366073 68.526056
10500.0 0.381764 67.556731 0.924258 -22.442991 0.924258 -22.442991 0.381764 67.556731
11000.0 0.397131 66.600764 0.91776 -23.39897 0.91776 -23.39897 0.397131 66.600764
11500.0 0.412172 65.658403 0.911104 -24.341343 0.911104 -24.341343 0.412172 65.658403
12000.0 0.426883 64.729858 0.904305 -25.269899 0.904305 -25.269899 0.426883 64.729858
12500.0 0.441263 63.815304 0.897376 -26.184463 0.897376 -26.184463 0.441263 63.815304
13000.0 0.45531 62.914883 0.890331 -27.084893 0.890331 -27.084893 0.45531 62.914883
13500.0 0.469026 62.028704 0.883183 -27.97108 0.883183 -27.97108 0.469026 62.028704
14000.0 0.48241 61.156847 0.875944 -28.842945 0.875944 -28.842945 0.48241 61.156847
14500.0 0.495465 60.29936 0.868626 -29.700439 0.868626 -29.700439 0.495465 60.29936
15000.0 0.508193 59.456266 0.861242 -30.54354 0.861242 -30.54354 0.508193 59.456266
15500.0 0.520596 58.627562 0.853801 -31.37225 0.853801 -31.37225 0.520596 58.627562
16000.0 0.532678 57.813219 0.846316 -32.186598 0.846316 -32.186598 0.532678 57.813219
16500.0 0.544443 57.01319 0.838796 -32.986633 0.838796 -32.986633 0.544443 57.01319
17000.0 0.555896 56.227403 0.83125 -33.772426 0.83125 -33.772426 0.555896 56.227403
17500.0 0.56704 55.455769 0.823689 -34.544064 0.823689 -34.544064 0.56704 55.455769
18000.0 0.577881 54.698182 0.816119 -35.301656 0.816119 -35.301656 0.577881 54.698182
18500.0 0.588425 53.954519 0.80855 -36.045324 0.80855 -36.045324 0.588425 53.954519
19000.0 0.598677 53.224643 0.800989 -36.775203 0.800989 -36.775203 0.598677 53.224643
19500.0 0.608643 52.508406 0.793443 -37.491444 0.793443 -37.491444 0.608643 52.508406
20000.0 0.618329 51.805646 0.785918 -38.194208 0.785918 -38.194208 0.618329 51.805646
20500.0 0.627741 51.116191 0.778421 -38.883667 0.778421 -38.883667 0.627741 51.116191
21000.0 0.636886 50.439862 0.770957 -39.559999 0.770957 -39.559999 0.636886 50.439862
21500.0 0.645769 49.77647 0.763531 -40.223394 0.763531 -40.223394 0.645769 49.77647
22000.0 0.654398 49.125821 0.756148 -40.874046 0.756148 -40.874046 0.654398 49.125821
22500.0 0.662779 48.487714 0.748814 -41.512157 0.748814 -41.512157 0.662779 48.487714
23000.0 0.670918 47.861943 0.74153 -42.13793 0.74153 -42.13793 0.670918 47.861943
23500.0 0.678821 47.248299 0.734302 -42.751577 0.734302 -42.751577 0.678821 47.248299
24000.0 0.686495 46.646571 0.727133 -43.353308 0.727133 -43.353308 0.686495 46.646571
24500.0 0.693947 46.056542 0.720025 -43.943339 0.720025 -43.943339 0.693947 46.056542
25000.0 0.701182 45.477997 0.712981 -44.521887 0.712981 -44.521887 0.701182 45.477997
25500.0 0.708206 44.910718 0.706004 -45.089168 0.706004 -45.089168 0.708206 44.910718
26000.0 0.715027 44.354487 0.699096 -45.6454 0.699096 -45.6454 0.715027 44.354487
26500.0 0.721649 43.809087 0.692258 -46.190803 0.692258 -46.190803 0.721649 43.809087
27000.0 0.728079 43.274301 0.685492 -46.725591 0.685492 -46.725591 0.728079 43.274301
27500.0 0.734322 42.749911 0.6788 -47.249983 0.6788 -47.249983 0.734322 42.749911
28000.0 0.740385 42.235703 0.672182 -47.764193 0.672182 -47.764193 0.740385 42.235703
28500.0 0.746272 41.731464 0.66564 -48.268434 0.66564 -48.268434 0.746272 41.731464
29000.0 0.751988 41.236982 0.659175 -48.762917 0.659175 -48.762917 0.751988 41.236982
29500.0 0.757541 40.752049 0.652787 -49.247852 0.652787 -49.247852 0.757541 40.752049
30000.0 0.762933 40.276458 0.646476 -49.723444 0.646476 -49.723444 0.762933 40.276458
30500.0 0.768171 39.810006 0.640244 -50.189898 0.640244 -50.189898 0.768171 39.810006
31000.0 0.773259 39.352491 0.63409 -50.647415 0.63409 -50.647415 0.773259 39.352491
31500.0 0.778201 38.903716 0.628014 -51.096191 0.628014 -51.096191 0.778201 38.903716
32000.0 0.783004 38.463487 0.622016 -51.536422 0.622016 -51.536422 0.783004 38.463487
32500.0 0.78767 38.031611 0.616096 -51.968299 0.616096 -51.968299 0.78767 38.031611
33000.0 0.792205 37.607902 0.610254 -52.39201 0.610254 -52.39201 0.792205 37.607902
33500.0 0.796612 37.192175 0.60449 -52.807738 0.60449 -52.807738 0.796612 37.192175
34000.0 0.800895 36.784248 0.598803 -53.215666 0.598803 -53.215666 0.800895 36.784248
34500.0 0.805059 36.383945 0.593193 -53.61597 0.593193 -53.61597 0.805059 36.383945
35000.0 0.809108 35.991092 0.587659 -54.008824 0.587659 -54.008824 0.809108 35.991092
35500.0 0.813044 35.605519 0.582201 -54.394399 0.582201 -54.394399 0.813044 35.605519
36000.0 0.816872 35.227059 0.576818 -54.77286 0.576818 -54.77286 0.816872 35.227059
36500.0 0.820595 34.85555 0.571509 -55.14437 0.571509 -55.14437 0.820595 34.85555
37000.0 0.824216 34.490831 0.566274 -55.50909 0.566274 -55.50909 0.824216 34.490831
37500.0 0.827739 34.132748 0.561112 -55.867175 0.561112 -55.867175 0.827739 34.132748
38000.0 0.831167 33.781147 0.556022 -56.218776 0.556022 -56.218776 0.831167 33.781147
38500.0 0.834502 33.435881 0.551003 -56.564043 0.551003 -56.564043 0.834502 33.435881
39000.0 0.837748 33.096805 0.546055 -56.903121 0.546055 -56.903121 0.837748 33.096805
39500.0 0.840908 32.763775 0.541177 -57.236151 0.541177 -57.236151 0.840908 32.763775
40000.0 0.843984 32.436654 0.536367 -57.563273 0.536367 -57.563273 0.843984 32.436654
40500.0 0.846979 32.115307 0.531625 -57.884621 0.531625 -57.884621 0.846979 32.115307
41000.0 0.849896 31.799602 0.52695 -58.200327 0.52695 -58.200327 0.849896 31.799602
41500.0 0.852736 31.48941 0.522341 -58.510519 0.522341 -58.510519 0.852736 31.48941
42000.0 0.855503 31.184607 0.517797 -58.815324 0.517797 -58.815324 0.855503 31.184607
42500.0 0.858198 30.885068 0.513318 -59.114863 0.513318 -59.114863 0.858198 30.885068
43000.0 0.860824 30.590676 0.508901 -59.409256 0.508901 -59.409256 0.860824 30.590676
43500.0 0.863383 30.301313 0.504547 -59.69862 0.504547 -59.69862 0.863383 30.301313
44000.0 0.865878 30.016867 0.500255 -59.983066 0.500255 -59.983066 0.865878 30.016867
44500.0 0.868309 29.737227 0.496023 -60.262707 0.496023 -60.262707 0.868309 29.737227
45000.0 0.870679 29.462285 0.491851 -60.53765 0.491851 -60.53765 0.870679 29.462285
45500.0 0.87299 29.191936 0.487737 -60.808 0.487737 -60.808 0.87299 29.191936
46000.0 0.875244 28.926077 0.483681 -61.07386 0.483681 -61.07386 0.875244 28.926077
46500.0 0.877442 28.664609 0.479682 -61.335328 0.479682 -61.335328 0.877442 28.664609
47000.0 0.879586 28.407435 0.475738 -61.592503 0.475738 -61.592503 0.879586 28.407435
47500.0 0.881678 28.154459 0.47185 -61.845479 0.47185 -61.845479 0.881678 28.154459
48000.0 0.883719 27.90559 0.468016 -62.094349 0.468016 -62.094349 0.883719 27.90559
48500.0 0.885711 27.660737 0.464235 -62.339202 0.464235 -62.339202 0.885711 27.660737
49000.0 0.887656 27.419813 0.460507 -62.580127 0.460507 -62.580127 0.887656 27.419813
49500.0 0.889554 27.182732 0.45683 -62.817209 0.45683 -62.817209 0.889554 27.182732
50000.0 0.891407 26.949411 0.453204 -63.05053 0.453204 -63.05053 0.891407 26.949411
50500.0 0.893216 26.719769 0.449627 -63.280173 0.449627 -63.280173 0.893216 26.719769
51000.0 0.894983 26.493726 0.4461 -63.506216 0.4461 -63.506216 0.894983 26.493726
51500.0 0.896709 26.271206 0.442621 -63.728737 0.442621 -63.728737 0.896709 26.271206
52000.0 0.898394 26.052133 0.439189 -63.947811 0.439189 -63.947811 0.898394 26.052133
52500.0 0.900041 25.836434 0.435804 -64.16351 0.435804 -64.16351 0.900041 25.836434
53000.0 0.901651 25.624038 0.432464 -64.375907 0.432464 -64.375907 0.901651 25.624038
53500.0 0.903223 25.414875 0.42917 -64.58507 0.42917 -64.58507 0.903223 25.414875
54000.0 0.904761 25.208877 0.425919 -64.791069 0.425919 -64.791069 0.904761 25.208877
54500.0 0.906263 25.005979 0.422713 -64.993968 0.422713 -64.993968 0.906263 25.005979
55000.0 0.907732 24.806115 0.419549 -65.193832 0.419549 -65.193832 0.907732 24.806115
55500.0 0.909169 24.609223 0.416427 -65.390724 0.416427 -65.390724 0.909169 24.609223
56000.0 0.910573 24.415242 0.413347 -65.584705 0.413347 -65.584705 0.910573 24.415242
56500.0 0.911947 24.224112 0.410307 -65.775836 0.410307 -65.775836 0.911947 24.224112
57000.0 0.913291 24.035775 0.407307 -65.964174 0.407307 -65.964174 0.913291 24.035775
57500.0 0.914606 23.850174 0.404346 -66.149775 0.404346 -66.149775 0.914606 23.850174
58000.0 0.915892 23.667253 0.401424 -66.332697 0.401424 -66.332697 0.915892 23.667253
58500.0 0.91715 23.486959 0.39854 -66.512991 0.39854 -66.512991 0.91715 23.486959
59000.0 0.918382 23.309239 0.395694 -66.690712 0.395694 -66.690712 0.918382 23.309239
59500.0 0.919588 23.134041 0.392884 -66.86591 0.392884 -66.86591 0.919588 23.134041
60000.0 0.920768 22.961316 0.39011 -67.038636 0.39011 -67.038636 0.920768 22.961316
60500.0 0.921924 22.791014 0.387371 -67.208938 0.387371 -67.208938 0.921924 22.791014
61000.0 0.923055 22.623088 0.384667 -67.376864 0.384667 -67.376864 0.923055 22.623088
61500.0 0.924163 22.457491 0.381998 -67.542461 0.381998 -67.542461 0.924163 22.457491
62000.0 0.925248 22.294178 0.379362 -67.705775 0.379362 -67.705775 0.925248 22.294178
62500.0 0.926311 22.133105 0.37676 -67.866849 0.37676 -67.866849 0.926311 22.133105
63000.0 0.927352 21.974228 0.374189 -68.025726 0.374189 -68.025726 0.927352 21.974228
63500.0 0.928372 21.817505 0.371651 -68.182449 0.371651 -68.182449 0.928372 21.817505
64000.0 0.929372 21.662894 0.369145 -68.33706 0.369145 -68.33706 0.929372 21.662894
64500.0 0.930351 21.510357 0.366669 -68.489598 0.366669 -68.489598 0.930351 21.510357
65000.0 0.931311 21.359852 0.364224 -68.640103 0.364224 -68.640103 0.931311 21.359852
65500.0 0.932252 21.211343 0.361809 -68.788612 0.361809 -68.788612 0.932252 21.211343
66000.0 0.933174 21.064791 0.359423 -68.935165 0.359423 -68.935165 0.933174 21.064791
66500.0 0.934079 20.92016 0.357067 -69.079796 0.357067 -69.079796 0.934079 20.92016
67000.0 0.934965 20.777415 0.354738 -69.222542 0.354738 -69.222542 0.934965 20.777415
67500.0 0.935835 20.636519 0.352438 -69.363438 0.352438 -69.363438 0.935835 20.636519
68000.0 0.936688 20.49744 0.350166 -69.502517 0.350166 -69.502517 0.936688 20.49744
68500.0 0.937524 20.360144 0.34792 -69.639813 0.34792 -69.639813 0.937524 20.360144
69000.0 0.938344 20.224598 0.345701 -69.775359 0.345701 -69.775359 0.938344 20.224598
69500.0 0.939149 20.090771 0.343508 -69.909187 0.343508 -69.909187 0.939149 20.090771
70000.0 0.939939 19.958632 0.341342 -70.041326 0.341342 -70.041326 0.939939 19.958632
70500.0 0.940714 19.82815 0.3392 -70.171808 0.3392 -70.171808 0.940714 19.82815
71000.0 0.941474 19.699296 0.337084 -70.300663 0.337084 -70.300663 0.941474 19.699296
71500.0 0.942221 19.57204 0.334992 -70.427919 0.334992 -70.427919 0.942221 19.57204
72000.0 0.942953 19.446355 0.332924 -70.553605 0.332924 -70.553605 0.942953 19.446355
72500.0 0.943673 19.322212 0.33088 -70.677748 0.33088 -70.677748 0.943673 19.322212
73000.0 0.944379 19.199585 0.32886 -70.800375 0.32886 -70.800375 0.944379 19.199585
73500.0 0.945072 19.078447 0.326862 -70.921514 0.326862 -70.921514 0.945072 19.078447
74000.0 0.945752 18.958772 0.324888 -71.041189 0.324888 -71.041189 0.945752 18.958772
74500.0 0.946421 18.840534 0.322935 -71.159427 0.322935 -71.159427 0.946421 18.840534
75000.0 0.947077 18.72371 0.321005 -71.276251 0.321005 -71.276251 0.947077 18.72371
75500.0 0.947722 18.608275 0.319096 -71.391686 0.319096 -71.391686 0.947722 18.608275
76000.0 0.948356 18.494205 0.317209 -71.505757 0.317209 -71.505757 0.948356 18.494205
76500.0 0.948978 18.381477 0.315342 -71.618485 0.315342 -71.618485 0.948978 18.381477
77000.0 0.949589 18.270068 0.313496 -71.729895 0.313496 -71.729895 0.949589 18.270068
77500.0 0.95019 18.159956 0.311671 -71.840007 0.311671 -71.840007 0.95019 18.159956
78000.0 0.95078 18.051119 0.309865 -71.948843 0.309865 -71.948843 0.95078 18.051119
78500.0 0.95136 17.943537 0.30808 -72.056426 0.30808 -72.056426 0.95136 17.943537
79000.0 0.951931 17.837188 0.306313 -72.162775 0.306313 -72.162775 0.951931 17.837188
79500.0 0.952491 17.732051 0.304566 -72.267912 0.304566 -72.267912 0.952491 17.732051
80000.0 0.953042 17.628108 0.302837 -72.371855 0.302837 -72.371855 0.953042 17.628108
80500.0 0.953584 17.525339 0.301128 -72.474625 0.301128 -72.474625 0.953584 17.525339
81000.0 0.954116 17.423723 0.299436 -72.576241 0.299436 -72.576241 0.954116 17.423723
81500.0 0.95464 17.323243 0.297762 -72.676721 0.297762 -72.676721 0.95464 17.323243
82000.0 0.955155 17.223881 0.296106 -72.776084 0.296106 -72.776084 0.955155 17.223881
82500.0 0.955661 17.125618 0.294468 -72.874347 0.294468 -72.874347 0.955661 17.125618
83000.0 0.956159 17.028437 0.292846 -72.971528 0.292846 -72.971528 0.956159 17.028437
83500.0 0.956649 16.93232 0.291242 -73.067645 0.291242 -73.067645 0.956649 16.93232
84000.0 0.957131 16.837251 0.289654 -73.162714 0.289654 -73.162714 0.957131 16.837251
84500.0 0.957605 16.743213 0.288083 -73.256752 0.288083 -73.256752 0.957605 16.743213
85000.0 0.958072 16.65019 0.286528 -73.349775 0.286528 -73.349775 0.958072 16.65019
85500.0 0.958531 16.558167 0.284989 -73.441799 0.284989 -73.441799 0.958531 16.558167
86000.0 0.958982 16.467127 0.283465 -73.532839 0.283465 -73.532839 0.958982 16.467127
86500.0 0.959427 16.377055 0.281957 -73.622911 0.281957 -73.622911 0.959427 16.377055
87000.0 0.959864 16.287937 0.280465 -73.71203 0.280465 -73.71203 0.959864 16.287937
87500.0 0.960295 16.199757 0.278987 -73.800209 0.278987 -73.800209 0.960295 16.199757
88000.0 0.960718 16.112502 0.277524 -73.887464 0.277524 -73.887464 0.960718 16.112502
88500.0 0.961136 16.026158 0.276076 -73.973809 0.276076 -73.973809 0.961136 16.026158
89000.0 0.961546 15.94071 0.274642 -74.059257 0.274642 -74.059257 0.961546 15.94071
89500.0 0.961951 15.856145 0.273223 -74.143822 0.273223 -74.143822 0.961951 15.856145
90000.0 0.962349 15.77245 0.271818 -74.227518 0.271818 -74.227518 0.962349 15.77245
90500.0 0.962741 15.689612 0.270426 -74.310356 0.270426 -74.310356 0.962741 15.689612
91000.0 0.963127 15.607617 0.269048 -74.39235 0.269048 -74.39235 0.963127 15.607617
91500.0 0.963507 15.526455 0.267683 -74.473513 0.267683 -74.473513 0.963507 15.526455
92000.0 0.963881 15.446112 0.266332 -74.553857 0.266332 -74.553857 0.963881 15.446112
92500.0 0.96425 15.366576 0.264994 -74.633393 0.264994 -74.633393 0.96425 15.366576
93000.0 0.964613 15.287835 0.263668 -74.712134 0.263668 -74.712134 0.964613 15.287835
93500.0 0.964971 15.209878 0.262356 -74.79009 0.262356 -74.79009 0.964971 15.209878
94000.0 0.965324 15.132694 0.261055 -74.867275 0.261055 -74.867275 0.965324 15.132694
94500.0 0.965671 15.056271 0.259768 -74.943698 0.259768 -74.943698 0.965671 15.056271
95000.0 0.966013 14.980599 0.258492 -75.01937 0.258492 -75.01937 0.966013 14.980599
95500.0 0.966351 14.905666 0.257228 -75.094303 0.257228 -75.094303 0.966351 14.905666
96000.0 0.966683 14.831463 0.255977 -75.168507 0.255977 -75.168507 0.966683 14.831463
96500.0 0.96701 14.757978 0.254737 -75.241992 0.254737 -75.241992 0.96701 14.757978
97000.0 0.967333 14.685202 0.253508 -75.314768 0.253508 -75.314768 0.967333 14.685202
97500.0 0.967651 14.613125 0.252291 -75.386845 0.252291 -75.386845 0.967651 14.613125
98000.0 0.967965 14.541736 0.251085 -75.458234 0.251085 -75.458234 0.967965 14.541736
98500.0 0.968274 14.471027 0.24989 -75.528943 0.24989 -75.528943 0.968274 14.471027
99000.0 0.968579 14.400988 0.248707 -75.598983 0.248707 -75.598983 0.968579 14.400988
99500.0 0.968879 14.331609 0.247534 -75.668362 0.247534 -75.668362 0.968879 14.331609
100000.0 0.969175 14.262882 0.246371 -75.737089 0.246371 -75.737089 0.969175 14.262882
