! File created by SignalIntegrity v1.3.2: Signal and Power Integrity Tools
! https://github.com/TeledyneLeCroy/SignalIntegrity

! the calculations of this model are from:
!     https://www.allaboutcircuits.com/tools/wire-self-inductance-calculator/
# MHz S MA R 50.0
0.0 1e-06 0.0 0.999999 0.0 0.999999 0.0 1e-06 0.0
500.0 0.117107 83.27429 0.993118 -6.725162 0.993118 -6.725162 0.117107 83.27429
1000.0 0.22954 76.729764 0.973298 -13.269962 0.973298 -13.269962 0.22954 76.729764
1500.0 0.333502 70.518342 0.942748 -19.481475 0.942748 -19.481475 0.333502 70.518342
2000.0 0.4266 64.747877 0.904439 -25.251987 0.904439 -25.251987 0.4266 64.747877
2500.0 0.507888 59.476661 0.861422 -30.52323 0.861422 -30.52323 0.507888 59.476661
3000.0 0.577569 54.720139 0.816341 -35.27977 0.816341 -35.27977 0.577569 54.720139
3500.0 0.636579 50.46271 0.77121 -39.537211 0.77121 -39.537211 0.636579 50.46271
4000.0 0.686201 46.669791 0.727411 -43.33014 0.727411 -43.33014 0.686201 46.669791
4500.0 0.727802 43.297513 0.685787 -46.702426 0.685787 -46.702426 0.727802 43.297513
5000.0 0.762675 40.299394 0.646782 -49.700551 0.646782 -49.700551 0.762675 40.299394
5500.0 0.791965 37.630381 0.610565 -52.369569 0.610565 -52.369569 0.791965 37.630381
6000.0 0.816652 35.248967 0.57713 -54.750987 0.57713 -54.750987 0.816652 35.248967
6500.0 0.837546 33.118073 0.546366 -56.881885 0.546366 -56.881885 0.837546 33.118073
7000.0 0.855317 31.205201 0.518105 -58.79476 0.518105 -58.79476 0.855317 31.205201
7500.0 0.870508 29.482194 0.492153 -60.51777 0.492153 -60.51777 0.870508 29.482194
8000.0 0.883563 27.924818 0.468313 -62.075148 0.468313 -62.075148 0.883563 27.924818
8500.0 0.894838 26.512286 0.44639 -63.487681 0.44639 -63.487681 0.894838 26.512286
9000.0 0.904628 25.226791 0.426202 -64.773178 0.426202 -64.773178 0.904628 25.226791
9500.0 0.913168 24.053067 0.407583 -65.946904 0.407583 -65.946904 0.913168 24.053067
10000.0 0.920655 22.978013 0.390378 -67.021959 0.390378 -67.021959 0.920655 22.978013
10500.0 0.927247 21.990358 0.374451 -68.009616 0.374451 -68.009616 0.927247 21.990358
11000.0 0.933077 21.080382 0.359677 -68.919593 0.359677 -68.919593 0.933077 21.080382
11500.0 0.938254 20.239677 0.345948 -69.760299 0.345948 -69.760299 0.938254 20.239677
12000.0 0.942869 19.460948 0.333164 -70.539029 0.333164 -70.539029 0.942869 19.460948
12500.0 0.946998 18.737842 0.321239 -71.262136 0.321239 -71.262136 0.946998 18.737842
13000.0 0.950706 18.064814 0.310093 -71.935165 0.310093 -71.935165 0.950706 18.064814
13500.0 0.954047 17.437003 0.299657 -72.562976 0.299657 -72.562976 0.954047 17.437003
14000.0 0.957066 16.850138 0.289869 -73.149842 0.289869 -73.149842 0.957066 16.850138
14500.0 0.959803 16.300451 0.280674 -73.69953 0.280674 -73.69953 0.959803 16.300451
15000.0 0.962291 15.784609 0.272022 -74.215373 0.272022 -74.215373 0.962291 15.784609
15500.0 0.964559 15.299657 0.263867 -74.700325 0.263867 -74.700325 0.964559 15.299657
16000.0 0.966631 14.842965 0.256171 -75.157018 0.256171 -75.157018 0.966631 14.842965
16500.0 0.96853 14.412185 0.248896 -75.587798 0.248896 -75.587798 0.96853 14.412185
17000.0 0.970274 14.005218 0.24201 -75.994766 0.24201 -75.994766 0.970274 14.005218
17500.0 0.971878 13.62018 0.235484 -76.379804 0.235484 -76.379804 0.971878 13.62018
18000.0 0.973358 13.255378 0.229292 -76.744607 0.229292 -76.744607 0.973358 13.255378
18500.0 0.974725 12.909284 0.223408 -77.090701 0.223408 -77.090701 0.974725 12.909284
19000.0 0.975991 12.580519 0.217811 -77.419467 0.217811 -77.419467 0.975991 12.580519
19500.0 0.977165 12.267833 0.212482 -77.732153 0.212482 -77.732153 0.977165 12.267833
20000.0 0.978256 11.970091 0.207401 -78.029895 0.207401 -78.029895 0.978256 11.970091
20500.0 0.979271 11.686264 0.202553 -78.313723 0.202553 -78.313723 0.979271 11.686264
21000.0 0.980218 11.41541 0.197921 -78.584577 0.197921 -78.584577 0.980218 11.41541
21500.0 0.981102 11.156671 0.193492 -78.843316 0.193492 -78.843316 0.981102 11.156671
22000.0 0.981928 10.909262 0.189254 -79.090725 0.189254 -79.090725 0.981928 10.909262
22500.0 0.982702 10.672464 0.185194 -79.327524 0.185194 -79.327524 0.982702 10.672464
23000.0 0.983427 10.445616 0.181302 -79.554373 0.181302 -79.554373 0.983427 10.445616
23500.0 0.984109 10.228109 0.177568 -79.771879 0.177568 -79.771879 0.984109 10.228109
24000.0 0.984749 10.019386 0.173981 -79.980603 0.173981 -79.980603 0.984749 10.019386
24500.0 0.985352 9.818929 0.170535 -80.18106 0.170535 -80.18106 0.985352 9.818929
25000.0 0.985919 9.626261 0.167221 -80.373728 0.167221 -80.373728 0.985919 9.626261
25500.0 0.986455 9.440942 0.164031 -80.559047 0.164031 -80.559047 0.986455 9.440942
26000.0 0.986961 9.262562 0.160959 -80.737427 0.160959 -80.737427 0.986961 9.262562
26500.0 0.987439 9.090742 0.157999 -80.909247 0.157999 -80.909247 0.987439 9.090742
27000.0 0.987892 8.92513 0.155144 -81.074859 0.155144 -81.074859 0.987892 8.92513
27500.0 0.988321 8.765398 0.152389 -81.234592 0.152389 -81.234592 0.988321 8.765398
28000.0 0.988727 8.611241 0.149729 -81.38875 0.149729 -81.38875 0.988727 8.611241
28500.0 0.989113 8.462373 0.14716 -81.537618 0.14716 -81.537618 0.989113 8.462373
29000.0 0.989479 8.318529 0.144676 -81.681462 0.144676 -81.681462 0.989479 8.318529
29500.0 0.989827 8.179461 0.142274 -81.82053 0.142274 -81.82053 0.989827 8.179461
30000.0 0.990159 8.044936 0.13995 -81.955055 0.13995 -81.955055 0.990159 8.044936
30500.0 0.990474 7.914737 0.137699 -82.085254 0.137699 -82.085254 0.990474 7.914737
31000.0 0.990775 7.788659 0.135519 -82.211332 0.135519 -82.211332 0.990775 7.788659
31500.0 0.991061 7.666512 0.133407 -82.33348 0.133407 -82.33348 0.991061 7.666512
32000.0 0.991335 7.548114 0.131359 -82.451877 0.131359 -82.451877 0.991335 7.548114
32500.0 0.991596 7.433298 0.129372 -82.566693 0.129372 -82.566693 0.991596 7.433298
33000.0 0.991846 7.321904 0.127444 -82.678088 0.127444 -82.678088 0.991846 7.321904
33500.0 0.992085 7.213781 0.125572 -82.78621 0.125572 -82.78621 0.992085 7.213781
34000.0 0.992313 7.10879 0.123754 -82.891202 0.123754 -82.891202 0.992313 7.10879
34500.0 0.992532 7.006795 0.121987 -82.993197 0.121987 -82.993197 0.992532 7.006795
35000.0 0.992741 6.907672 0.12027 -83.09232 0.12027 -83.09232 0.992741 6.907672
35500.0 0.992942 6.811302 0.1186 -83.188691 0.1186 -83.188691 0.992942 6.811302
36000.0 0.993135 6.717571 0.116975 -83.282422 0.116975 -83.282422 0.993135 6.717571
36500.0 0.99332 6.626373 0.115394 -83.373619 0.115394 -83.373619 0.99332 6.626373
37000.0 0.993497 6.537608 0.113855 -83.462385 0.113855 -83.462385 0.993497 6.537608
37500.0 0.993668 6.45118 0.112357 -83.548813 0.112357 -83.548813 0.993668 6.45118
38000.0 0.993832 6.366997 0.110897 -83.632995 0.110897 -83.632995 0.993832 6.366997
38500.0 0.99399 6.284975 0.109474 -83.715018 0.109474 -83.715018 0.99399 6.284975
39000.0 0.994141 6.205031 0.108087 -83.794962 0.108087 -83.794962 0.994141 6.205031
39500.0 0.994288 6.127088 0.106734 -83.872905 0.106734 -83.872905 0.994288 6.127088
40000.0 0.994428 6.051071 0.105415 -83.948922 0.105415 -83.948922 0.994428 6.051071
40500.0 0.994564 5.97691 0.104128 -84.023083 0.104128 -84.023083 0.994564 5.97691
41000.0 0.994695 5.904539 0.102871 -84.095454 0.102871 -84.095454 0.994695 5.904539
41500.0 0.994821 5.833894 0.101645 -84.166099 0.101645 -84.166099 0.994821 5.833894
42000.0 0.994942 5.764913 0.100447 -84.23508 0.100447 -84.23508 0.994942 5.764913
42500.0 0.99506 5.69754 0.099277 -84.302454 0.099277 -84.302454 0.99506 5.69754
43000.0 0.995173 5.631718 0.098134 -84.368276 0.098134 -84.368276 0.995173 5.631718
43500.0 0.995283 5.567394 0.097017 -84.432599 0.097017 -84.432599 0.995283 5.567394
44000.0 0.995389 5.504519 0.095924 -84.495474 0.095924 -84.495474 0.995389 5.504519
44500.0 0.995491 5.443044 0.094856 -84.55695 0.094856 -84.55695 0.995491 5.443044
45000.0 0.99559 5.382923 0.093812 -84.617071 0.093812 -84.617071 0.99559 5.382923
45500.0 0.995686 5.324112 0.09279 -84.675882 0.09279 -84.675882 0.995686 5.324112
46000.0 0.995778 5.266568 0.09179 -84.733426 0.09179 -84.733426 0.995778 5.266568
46500.0 0.995868 5.210252 0.090811 -84.789742 0.090811 -84.789742 0.995868 5.210252
47000.0 0.995955 5.155124 0.089853 -84.84487 0.089853 -84.84487 0.995955 5.155124
47500.0 0.996039 5.101147 0.088914 -84.898847 0.088914 -84.898847 0.996039 5.101147
48000.0 0.996121 5.048286 0.087995 -84.951708 0.087995 -84.951708 0.996121 5.048286
48500.0 0.9962 4.996507 0.087095 -85.003487 0.087095 -85.003487 0.9962 4.996507
49000.0 0.996277 4.945777 0.086213 -85.054218 0.086213 -85.054218 0.996277 4.945777
49500.0 0.996351 4.896063 0.085348 -85.103931 0.085348 -85.103931 0.996351 4.896063
50000.0 0.996423 4.847337 0.084501 -85.152657 0.084501 -85.152657 0.996423 4.847337
50500.0 0.996493 4.799569 0.08367 -85.200426 0.08367 -85.200426 0.996493 4.799569
51000.0 0.996562 4.752731 0.082856 -85.247264 0.082856 -85.247264 0.996562 4.752731
51500.0 0.996628 4.706796 0.082057 -85.293198 0.082057 -85.293198 0.996628 4.706796
52000.0 0.996692 4.661739 0.081273 -85.338256 0.081273 -85.338256 0.996692 4.661739
52500.0 0.996754 4.617534 0.080504 -85.38246 0.080504 -85.38246 0.996754 4.617534
53000.0 0.996815 4.574159 0.079749 -85.425836 0.079749 -85.425836 0.996815 4.574159
53500.0 0.996874 4.531588 0.079009 -85.468407 0.079009 -85.468407 0.996874 4.531588
54000.0 0.996931 4.489801 0.078282 -85.510193 0.078282 -85.510193 0.996931 4.489801
54500.0 0.996987 4.448777 0.077568 -85.551218 0.077568 -85.551218 0.996987 4.448777
55000.0 0.997041 4.408494 0.076867 -85.591502 0.076867 -85.591502 0.997041 4.408494
55500.0 0.997094 4.368932 0.076178 -85.631063 0.076178 -85.631063 0.997094 4.368932
56000.0 0.997146 4.330073 0.075502 -85.669923 0.075502 -85.669923 0.997146 4.330073
56500.0 0.997196 4.291897 0.074838 -85.708098 0.074838 -85.708098 0.997196 4.291897
57000.0 0.997245 4.254388 0.074185 -85.745607 0.074185 -85.745607 0.997245 4.254388
57500.0 0.997292 4.217527 0.073543 -85.782468 0.073543 -85.782468 0.997292 4.217527
58000.0 0.997338 4.181299 0.072913 -85.818697 0.072913 -85.818697 0.997338 4.181299
58500.0 0.997383 4.145686 0.072293 -85.854309 0.072293 -85.854309 0.997383 4.145686
59000.0 0.997427 4.110674 0.071683 -85.889321 0.071683 -85.889321 0.997427 4.110674
59500.0 0.99747 4.076248 0.071084 -85.923748 0.071084 -85.923748 0.99747 4.076248
60000.0 0.997512 4.042392 0.070495 -85.957603 0.070495 -85.957603 0.997512 4.042392
60500.0 0.997553 4.009093 0.069915 -85.990902 0.069915 -85.990902 0.997553 4.009093
61000.0 0.997593 3.976338 0.069344 -86.023658 0.069344 -86.023658 0.997593 3.976338
61500.0 0.997632 3.944112 0.068783 -86.055883 0.068783 -86.055883 0.997632 3.944112
62000.0 0.99767 3.912404 0.068231 -86.087592 0.068231 -86.087592 0.99767 3.912404
62500.0 0.997707 3.881201 0.067688 -86.118795 0.067688 -86.118795 0.997707 3.881201
63000.0 0.997743 3.850491 0.067153 -86.149505 0.067153 -86.149505 0.997743 3.850491
63500.0 0.997778 3.820262 0.066627 -86.179734 0.066627 -86.179734 0.997778 3.820262
64000.0 0.997812 3.790503 0.066109 -86.209492 0.066109 -86.209492 0.997812 3.790503
64500.0 0.997846 3.761204 0.065598 -86.238791 0.065598 -86.238791 0.997846 3.761204
65000.0 0.997879 3.732354 0.065096 -86.267642 0.065096 -86.267642 0.997879 3.732354
65500.0 0.997911 3.703943 0.064601 -86.296053 0.064601 -86.296053 0.997911 3.703943
66000.0 0.997943 3.67596 0.064114 -86.324036 0.064114 -86.324036 0.997943 3.67596
66500.0 0.997973 3.648396 0.063633 -86.3516 0.063633 -86.3516 0.997973 3.648396
67000.0 0.998003 3.621242 0.063161 -86.378754 0.063161 -86.378754 0.998003 3.621242
67500.0 0.998033 3.594488 0.062695 -86.405508 0.062695 -86.405508 0.998033 3.594488
68000.0 0.998061 3.568127 0.062235 -86.431869 0.062235 -86.431869 0.998061 3.568127
68500.0 0.99809 3.542148 0.061783 -86.457848 0.061783 -86.457848 0.99809 3.542148
69000.0 0.998117 3.516545 0.061337 -86.483451 0.061337 -86.483451 0.998117 3.516545
69500.0 0.998144 3.491309 0.060897 -86.508687 0.060897 -86.508687 0.998144 3.491309
70000.0 0.99817 3.466432 0.060464 -86.533564 0.060464 -86.533564 0.99817 3.466432
70500.0 0.998196 3.441907 0.060036 -86.558089 0.060036 -86.558089 0.998196 3.441907
71000.0 0.998221 3.417726 0.059615 -86.58227 0.059615 -86.58227 0.998221 3.417726
71500.0 0.998246 3.393882 0.0592 -86.606114 0.0592 -86.606114 0.998246 3.393882
72000.0 0.99827 3.370368 0.05879 -86.629628 0.05879 -86.629628 0.99827 3.370368
72500.0 0.998294 3.347177 0.058386 -86.652819 0.058386 -86.652819 0.998294 3.347177
73000.0 0.998317 3.324303 0.057987 -86.675694 0.057987 -86.675694 0.998317 3.324303
73500.0 0.99834 3.301738 0.057594 -86.698258 0.057594 -86.698258 0.99834 3.301738
74000.0 0.998362 3.279478 0.057206 -86.720518 0.057206 -86.720518 0.998362 3.279478
74500.0 0.998384 3.257516 0.056824 -86.74248 0.056824 -86.74248 0.998384 3.257516
75000.0 0.998406 3.235845 0.056446 -86.764151 0.056446 -86.764151 0.998406 3.235845
75500.0 0.998427 3.214461 0.056074 -86.785535 0.056074 -86.785535 0.998427 3.214461
76000.0 0.998447 3.193357 0.055706 -86.806639 0.055706 -86.806639 0.998447 3.193357
76500.0 0.998467 3.172528 0.055343 -86.827468 0.055343 -86.827468 0.998467 3.172528
77000.0 0.998487 3.151969 0.054984 -86.848027 0.054984 -86.848027 0.998487 3.151969
77500.0 0.998507 3.131675 0.054631 -86.868322 0.054631 -86.868322 0.998507 3.131675
78000.0 0.998526 3.111639 0.054282 -86.888357 0.054282 -86.888357 0.998526 3.111639
78500.0 0.998544 3.091859 0.053937 -86.908138 0.053937 -86.908138 0.998544 3.091859
79000.0 0.998563 3.072327 0.053597 -86.927669 0.053597 -86.927669 0.998563 3.072327
79500.0 0.998581 3.053041 0.05326 -86.946955 0.05326 -86.946955 0.998581 3.053041
80000.0 0.998598 3.033996 0.052928 -86.966001 0.052928 -86.966001 0.998598 3.033996
80500.0 0.998616 3.015186 0.052601 -86.984811 0.052601 -86.984811 0.998616 3.015186
81000.0 0.998633 2.996607 0.052277 -87.003389 0.052277 -87.003389 0.998633 2.996607
81500.0 0.998649 2.978257 0.051957 -87.02174 0.051957 -87.02174 0.998649 2.978257
82000.0 0.998666 2.960129 0.051641 -87.039868 0.051641 -87.039868 0.998666 2.960129
82500.0 0.998682 2.94222 0.051329 -87.057776 0.051329 -87.057776 0.998682 2.94222
83000.0 0.998698 2.924527 0.05102 -87.07547 0.05102 -87.07547 0.998698 2.924527
83500.0 0.998713 2.907045 0.050716 -87.092952 0.050716 -87.092952 0.998713 2.907045
84000.0 0.998728 2.889771 0.050415 -87.110226 0.050415 -87.110226 0.998728 2.889771
84500.0 0.998743 2.8727 0.050117 -87.127297 0.050117 -87.127297 0.998743 2.8727
85000.0 0.998758 2.85583 0.049823 -87.144167 0.049823 -87.144167 0.998758 2.85583
85500.0 0.998773 2.839157 0.049532 -87.16084 0.049532 -87.16084 0.998773 2.839157
86000.0 0.998787 2.822677 0.049245 -87.17732 0.049245 -87.17732 0.998787 2.822677
86500.0 0.998801 2.806387 0.048961 -87.19361 0.048961 -87.19361 0.998801 2.806387
87000.0 0.998814 2.790284 0.04868 -87.209713 0.04868 -87.209713 0.998814 2.790284
87500.0 0.998828 2.774364 0.048403 -87.225633 0.048403 -87.225633 0.998828 2.774364
88000.0 0.998841 2.758625 0.048128 -87.241372 0.048128 -87.241372 0.998841 2.758625
88500.0 0.998854 2.743063 0.047857 -87.256933 0.047857 -87.256933 0.998854 2.743063
89000.0 0.998867 2.727676 0.047589 -87.272321 0.047589 -87.272321 0.998867 2.727676
89500.0 0.99888 2.712461 0.047324 -87.287536 0.047324 -87.287536 0.99888 2.712461
90000.0 0.998892 2.697414 0.047061 -87.302583 0.047061 -87.302583 0.998892 2.697414
90500.0 0.998904 2.682533 0.046802 -87.317464 0.046802 -87.317464 0.998904 2.682533
91000.0 0.998916 2.667815 0.046545 -87.332182 0.046545 -87.332182 0.998916 2.667815
91500.0 0.998928 2.653258 0.046292 -87.346739 0.046292 -87.346739 0.998928 2.653258
92000.0 0.99894 2.638858 0.04604 -87.361139 0.04604 -87.361139 0.99894 2.638858
92500.0 0.998951 2.624614 0.045792 -87.375383 0.045792 -87.375383 0.998951 2.624614
93000.0 0.998962 2.610523 0.045546 -87.389474 0.045546 -87.389474 0.998962 2.610523
93500.0 0.998973 2.596582 0.045303 -87.403415 0.045303 -87.403415 0.998973 2.596582
94000.0 0.998984 2.582789 0.045063 -87.417208 0.045063 -87.417208 0.998984 2.582789
94500.0 0.998995 2.569142 0.044825 -87.430855 0.044825 -87.430855 0.998995 2.569142
95000.0 0.999005 2.555638 0.04459 -87.444359 0.04459 -87.444359 0.999005 2.555638
95500.0 0.999016 2.542275 0.044357 -87.457722 0.044357 -87.457722 0.999016 2.542275
96000.0 0.999026 2.529052 0.044126 -87.470945 0.044126 -87.470945 0.999026 2.529052
96500.0 0.999036 2.515965 0.043898 -87.484033 0.043898 -87.484033 0.999036 2.515965
97000.0 0.999046 2.503012 0.043672 -87.496985 0.043672 -87.496985 0.999046 2.503012
97500.0 0.999056 2.490193 0.043448 -87.509805 0.043448 -87.509805 0.999056 2.490193
98000.0 0.999065 2.477503 0.043227 -87.522494 0.043227 -87.522494 0.999065 2.477503
98500.0 0.999075 2.464943 0.043008 -87.535054 0.043008 -87.535054 0.999075 2.464943
99000.0 0.999084 2.452509 0.042791 -87.547488 0.042791 -87.547488 0.999084 2.452509
99500.0 0.999093 2.4402 0.042577 -87.559798 0.042577 -87.559798 0.999093 2.4402
100000.0 0.999102 2.428013 0.042364 -87.571984 0.042364 -87.571984 0.999102 2.428013
