! File created by SignalIntegrity v1.1.13: Signal and Power Integrity Tools
! https://github.com/TeledyneLeCroy/SignalIntegrity
# MHz S MA R 50.0
0.0 0.071359 0.0 0.035909 0.0 0.013335 180.0 0.981046 0.0
0.02711 0.0 0.059337 0.0 0.995743 0.0 0.001044 180.0
0.030502 180.0 0.986895 0.0 0.10934 0.0 0.00321 0.0
0.979797 0.0 0.002522 180.0 0.029483 0.0 0.091014 0.0
10.0 0.100109 18.852554 0.053609 28.146301 0.025075 -164.993096 0.961006 -34.274011
0.050967 34.826178 0.099442 28.258948 0.982536 -33.851358 0.027253 -142.845173
0.034542 169.344296 0.953145 -34.702952 0.117018 3.710921 0.04918 55.454
0.964531 -33.998968 0.027093 -146.213555 0.04639 28.459448 0.103057 8.393277
20.0 0.126154 10.513025 0.075624 27.125367 0.048278 158.922425 0.9194 -66.711651
0.074614 30.647665 0.145327 16.133916 0.945618 -66.62871 0.053395 163.701422
0.049033 146.370122 0.914344 -65.987564 0.115694 1.68737 0.07146 34.687668
0.926235 -66.728183 0.051948 163.022792 0.061615 29.326232 0.113337 6.224925
30.0 0.123485 0.605755 0.092095 18.789553 0.064855 106.83817 0.889429 -97.325501
0.092426 19.919838 0.148196 -1.922521 0.91025 -97.37591 0.070021 107.112293
0.065155 105.109364 0.903629 -97.045512 0.10966 6.392666 0.077736 25.009061
0.890955 -97.510705 0.068235 108.032186 0.078304 25.368671 0.112225 2.565906
40.0 0.10662 -2.131937 0.09261 4.897854 0.064662 51.762091 0.879802 -127.438302
0.089288 4.04767 0.117142 -13.647345 0.899818 -127.171101 0.069517 50.941175
0.067642 54.593514 0.885562 -127.736066 0.117886 11.04423 0.081446 16.272147
0.878753 -127.32241 0.068288 51.800739 0.083895 12.561301 0.103794 3.468339
50.0 0.091904 2.72969 0.068169 -2.75471 0.046034 -0.842084 0.889064 -157.818277
0.062593 -0.954606 0.073722 -9.142862 0.912207 -157.422285 0.049692 -0.545488
0.049165 4.607367 0.895304 -157.333683 0.124759 8.340804 0.070157 6.089544
0.891492 -157.546959 0.048276 -0.880237 0.067596 2.358276 0.099667 4.967676
60.0 0.083886 18.07458 0.048375 25.788164 0.017055 -12.203737 0.909764 170.146983
0.047863 31.430756 0.071183 35.141132 0.934491 170.589934 0.020927 -9.462173
0.021329 -5.087474 0.924996 170.594551 0.108595 6.574786 0.043936 19.225728
0.914644 170.265311 0.019252 -8.245831 0.041567 22.633875 0.082688 13.321351
70.0 0.112593 33.580821 0.084492 49.072456 0.044575 12.075555 0.901411 136.389186
0.086685 50.824079 0.133904 41.121585 0.92599 136.887062 0.049181 8.258389
0.047251 10.499948 0.914824 136.887507 0.103022 26.81727 0.070197 58.477447
0.90548 136.346513 0.048285 9.168094 0.073978 58.268787 0.102003 36.217295
80.0 0.157325 25.396929 0.129863 35.479065 0.08436 -41.544054 0.84919 104.18963
0.130954 35.647197 0.179631 24.272374 0.87105 104.758963 0.089919 -42.631286
0.085686 -40.721266 0.865148 104.871043 0.155901 31.192869 0.122365 44.700269
0.85133 104.061584 0.088329 -42.790834 0.123813 43.90147 0.152289 32.181384
90.0 0.164702 8.102416 0.142456 14.527485 0.104964 -102.054037 0.809866 75.937645
0.140985 14.115615 0.18005 5.442584 0.829384 76.675085 0.109608 -101.546688
0.104818 -100.913476 0.821983 76.385569 0.185898 15.384729 0.140377 21.062945
0.809662 75.836078 0.10812 -102.356256 0.141819 21.59544 0.174755 15.122479
100.0 0.131287 -1.973383 0.119927 -3.668038 0.096636 -163.248157 0.833244 48.106137
0.115913 -4.002017 0.140865 -8.388503 0.853331 48.974482 0.098735 -161.542023
0.094788 -162.638116 0.840261 49.047489 0.166258 0.209631 0.11971 -0.866551
0.833138 48.158077 0.097332 -162.959752 0.123408 0.377487 0.149399 -0.304992
110.0 0.097696 6.355334 0.071268 -9.319104 0.057487 139.215024 0.881035 16.463413
0.067195 -8.065127 0.084085 0.16161 0.901586 17.384996 0.057724 142.426478
0.054992 138.745738 0.893585 17.63236 0.113205 -3.889483 0.064818 -12.829108
0.882937 16.473817 0.055992 140.70535 0.069914 -12.472671 0.099263 -1.01523
120.0 0.105141 30.696944 0.061039 39.575278 0.01588 173.50681 0.891326 -17.810031
0.060264 43.289325 0.105372 39.507839 0.911302 -16.79649 0.017654 174.89799
0.014316 -178.339271 0.90346 -16.900702 0.093819 33.568595 0.050364 56.992545
0.892423 -17.90606 0.017358 179.890234 0.049286 55.029345 0.087933 38.384201
130.0 0.157106 32.266366 0.115738 41.667112 0.070207 164.369409 0.850039 -51.29112
0.117227 44.076013 0.173281 34.528079 0.869107 -50.206715 0.070689 164.831992
0.069682 166.171271 0.856956 -50.3059 0.172921 41.386574 0.121605 55.004368
0.850306 -51.337815 0.071819 165.381994 0.124538 55.414563 0.167043 43.713072
140.0 0.187716 18.615134 0.144756 25.563349 0.110016 106.426004 0.795014 -81.170496
0.147822 26.365026 0.207131 17.810493 0.812971 -79.971938 0.110256 107.110436
0.108758 106.828625 0.802048 -79.823737 0.22709 24.336837 0.164823 32.780567
0.795989 -81.241031 0.111638 107.24026 0.169863 32.370601 0.216226 25.021507
150.0 0.183626 4.263303 0.147297 8.743073 0.116299 47.430691 0.786982 -108.279346
0.147338 8.305056 0.200076 0.299577 0.808172 -107.017567 0.11704 48.195638
0.114423 47.464746 0.800505 -106.923449 0.228665 5.852888 0.166756 8.952648
0.786525 -108.403361 0.117842 47.652817 0.17023 8.50667 0.21553 6.173523
160.0 0.147487 -6.992434 0.118476 -8.141041 0.090608 -7.960934 0.831235 -137.693624
0.115235 -8.077973 0.150716 -14.323541 0.854118 -136.751203 0.092378 -6.658342
0.088989 -7.372351 0.845615 -136.824736 0.183193 -9.69914 0.123922 -12.475945
0.829512 -137.680871 0.091252 -8.194366 0.125991 -12.208425 0.167742 -10.888088
170.0 0.096601 0.564212 0.062579 -5.968402 0.046963 -47.580253 0.865848 -170.918984
0.060441 -3.234443 0.081183 -2.263543 0.882241 -169.898978 0.050062 -45.050386
0.046791 -44.832322 0.872386 -169.952929 0.108918 -8.025479 0.055384 -10.203309
0.86503 -170.770493 0.046998 -47.221138 0.057983 -8.700308 0.089888 -4.429274
180.0 0.108801 33.849856 0.073418 47.741248 0.036158 -22.601361 0.852947 155.003066
0.075741 49.32215 0.115216 41.077878 0.868217 156.7594 0.039914 -25.555694
0.039149 -22.861038 0.858469 156.654241 0.107095 34.239796 0.073026 55.028384
0.853668 155.191234 0.037577 -22.338388 0.075484 53.683786 0.108972 41.925554
190.0 0.174937 32.025695 0.135537 41.150907 0.073795 -49.062706 0.80898 123.015557
0.138513 41.220828 0.191886 32.035961 0.833286 125.176197 0.077479 -50.869738
0.07562 -50.598308 0.819986 125.064271 0.186438 36.914264 0.142481 44.352333
0.810275 123.185924 0.076621 -49.488844 0.146858 43.800086 0.190996 38.120638
200.0 0.203823 14.593538 0.160177 21.277699 0.097347 -98.705664 0.776948 93.968322
0.161886 20.255969 0.220436 12.12624 0.807596 95.759681 0.101678 -99.087714
0.097127 -99.238887 0.793461 96.07594 0.233888 20.454257 0.17055 21.849906
0.778547 94.145517 0.102001 -99.431681 0.175831 21.008264 0.231785 18.856205
210.0 0.183807 -0.916807 0.146303 3.88466 0.096989 -149.392255 0.786735 65.592882
0.143711 2.230773 0.192593 -6.622207 0.814637 66.865994 0.101618 -148.514037
0.095417 -148.570892 0.805739 67.204754 0.224039 3.371093 0.153835 1.624097
0.788723 65.681285 0.102238 -150.715564 0.157119 0.775746 0.212261 0.617846
220.0 0.131853 -9.223358 0.104716 -7.623256 0.076304 164.872908 0.821973 34.787742
0.099071 -8.169066 0.123569 -15.950532 0.841209 36.125977 0.081076 166.984694
0.074601 167.197054 0.829867 36.135581 0.171521 -6.812167 0.103919 -11.584426
0.821797 34.801252 0.08042 163.170395 0.105767 -11.894463 0.150791 -10.101549
230.0 0.087321 17.593397 0.05908 15.681484 0.047022 139.139138 0.838841 1.506207
0.056634 19.726587 0.07704 22.873454 0.854339 3.513902 0.052834 141.113479
0.047166 143.640134 0.83921 3.693016 0.116563 6.079367 0.056625 18.655841
0.837104 1.644957 0.050036 137.259613 0.058011 18.735494 0.093372 14.769139
240.0 0.145604 39.394815 0.100463 49.634875 0.051622 145.911365 0.817018 -31.726503
0.102049 51.119587 0.152218 43.451747 0.837691 -29.249794 0.056093 142.145029
0.05399 147.019912 0.82537 -29.05344 0.146466 32.074336 0.107691 47.592045
0.816742 -31.543765 0.054362 142.740258 0.11108 47.541804 0.155136 40.367257
250.0 0.203915 27.611395 0.155941 38.203958 0.086344 114.798821 0.778924 -62.641024
0.156146 38.57857 0.216545 28.308296 0.804759 -60.302455 0.088155 112.64853
0.087174 114.677686 0.79108 -60.357182 0.208253 27.652049 0.159082 33.286429
0.779044 -62.598818 0.090087 112.347368 0.164463 32.884841 0.22284 28.534153
260.0 0.220531 11.240504 0.176531 19.36988 0.107265 67.325194 0.761619 -91.37943
0.174386 19.884325 0.230588 10.267688 0.786846 -89.487862 0.109037 67.04444
0.107119 67.199723 0.771154 -89.398468 0.232841 14.62382 0.172447 14.650773
0.760646 -91.408186 0.112888 65.343161 0.17743 13.999441 0.241044 11.590922
270.0 0.194165 -4.669645 0.155242 0.612513 0.103287 18.850671 0.779532 -120.439591
0.153241 1.877465 0.197996 -6.237301 0.797863 -118.71648 0.106988 19.63762
0.103227 18.588785 0.783952 -118.617275 0.21738 2.213759 0.148702 -2.558529
0.778337 -120.492383 0.11018 16.719194 0.152263 -3.009199 0.210632 -3.437741
280.0 0.128683 -11.360774 0.097357 -7.713503 0.078462 -22.717286 0.809668 -152.041855
0.097809 -6.033991 0.126063 -11.314483 0.822556 -149.772638 0.084266 -21.871637
0.078827 -23.2129 0.807704 -149.731131 0.168985 -3.353576 0.09523 -7.998648
0.808136 -152.134286 0.084443 -25.874058 0.097816 -8.135472 0.146179 -7.630818
290.0 0.09295 22.958199 0.068041 32.50343 0.053782 -39.270095 0.813323 174.458873
0.068714 32.510039 0.09849 26.556181 0.830374 177.40945 0.059797 -41.721123
0.054384 -40.10193 0.816781 177.508287 0.131889 12.805428 0.075763 27.239637
0.811583 174.399898 0.056368 -44.155536 0.078161 26.865597 0.117217 18.993661
300.0 0.163065 38.46681 0.126745 48.068875 0.070219 -44.872303 0.780664 141.777911
0.126637 48.425886 0.174071 38.271902 0.806105 144.908428 0.072714 -48.872987
0.071085 -45.739458 0.79341 144.851839 0.173762 29.983717 0.126456 37.112636
0.779917 141.785753 0.071046 -48.031984 0.130547 36.721348 0.17545 31.627983
310.0 0.221599 23.527457 0.17489 34.043863 0.102687 -80.988529 0.743614 111.911754
0.174818 34.120246 0.233973 23.487586 0.773866 114.650034 0.104378 -82.74399
0.10435 -81.614326 0.759163 114.699285 0.231393 22.743283 0.160972 22.927775
0.744444 111.951208 0.104135 -83.031764 0.166592 22.297446 0.225462 21.343369
320.0 0.22183 5.385755 0.183589 17.510461 0.117154 -126.922579 0.740498 83.604107
0.18178 17.335171 0.239362 5.46118 0.766096 85.76169 0.120088 -127.261451
0.119077 -127.266848 0.753999 86.061777 0.243681 9.581416 0.157081 7.802271
0.74294 83.605608 0.119292 -128.453852 0.162331 6.794083 0.231009 8.067614
330.0 0.176619 -7.751333 0.159618 4.132858 0.107327 -171.262871 0.76847 53.500106
0.156158 4.32623 0.194975 -9.459538 0.782131 55.92191 0.112088 -171.014759
0.10827 -170.956948 0.772804 56.127438 0.218133 -0.529586 0.130101 -1.996604
0.771135 53.379625 0.110098 -172.756136 0.133436 -3.417743 0.202216 -1.38955
340.0 0.109786 -3.867318 0.112137 2.423981 0.083177 155.28629 0.788345 20.663509
0.108996 3.756739 0.12095 -8.739416 0.798547 24.228147 0.088718 154.431721
0.083638 157.339075 0.78977 24.304845 0.169427 -2.044349 0.090482 0.29609
0.788811 20.511769 0.085978 153.004027 0.090818 -0.843431 0.15683 -0.533552
350.0 0.11357 34.910069 0.101837 28.900036 0.074311 141.364724 0.771854 -12.756296
0.10221 31.283324 0.112853 29.745231 0.792427 -8.343583 0.07643 138.267527
0.077401 144.196056 0.783001 -8.431585 0.150517 15.990242 0.08624 30.823201
0.770316 -12.759718 0.075439 137.605657 0.088044 31.494208 0.150161 17.526529
360.0 0.185038 36.455772 0.148145 34.976432 0.097627 119.480349 0.733394 -43.890588
0.151272 35.896186 0.189509 35.546867 0.766725 -39.73668 0.096696 118.465569
0.101736 120.842231 0.754777 -39.776413 0.198881 24.615561 0.132536 36.148391
0.731884 -43.717501 0.096787 116.409554 0.137468 35.69792 0.196807 21.391355
370.0 0.225283 23.562354 0.180871 25.119194 0.119345 81.148247 0.716561 -72.50936
0.183212 24.789741 0.243186 21.490384 0.749977 -69.503999 0.119934 81.549321
0.122513 82.062463 0.739696 -69.296691 0.242555 16.824929 0.163619 24.79394
0.716062 -72.262213 0.119301 78.777459 0.168135 23.635964 0.225728 12.450482
380.0 0.224435 9.967744 0.187291 12.206727 0.120968 40.407153 0.734098 -101.813456
0.185973 11.543456 0.244787 5.240431 0.751631 -99.272178 0.123956 40.442366
0.122396 40.853712 0.744735 -99.149022 0.249145 5.034235 0.166745 11.01222
0.73448 -101.602072 0.123079 37.461315 0.169162 10.145998 0.219673 1.196803
390.0 0.185117 1.750802 0.161199 0.542483 0.109125 5.328131 0.755767 -133.492353
0.157544 0.438185 0.200715 -6.502597 0.760635 -129.879095 0.111742 3.879464
0.107981 5.564101 0.754185 -129.920898 0.2159 -4.474074 0.139299 0.042531
0.756567 -133.370926 0.111165 0.595064 0.142012 -0.067398 0.174749 -4.964097
400.0 0.146414 11.067317 0.116321 2.600623 0.100883 -21.391008 0.754506 -166.325862
0.113301 3.874451 0.141246 -1.967129 0.766248 -161.33602 0.100079 -23.35878
0.098653 -20.592139 0.75926 -161.477661 0.165157 -1.763168 0.099775 5.448924
0.75549 -166.339184 0.09901 -27.302026 0.103302 4.753311 0.139032 9.875575
410.0 0.170049 26.693934 0.113689 25.355827 0.107655 -47.014 0.729833 161.841005
0.114088 26.754278 0.144877 22.722865 0.760089 167.088072 0.105496 -47.27215
0.105545 -46.246032 0.751352 166.964599 0.160219 16.203929 0.104724 29.178737
0.729841 161.648359 0.102129 -50.984285 0.106485 27.86123 0.174355 25.163076
420.0 0.220007 23.79525 0.157309 29.678156 0.119568 -79.05374 0.708244 132.101474
0.157028 30.033136 0.206658 25.376673 0.74973 136.23635 0.119979 -78.560017
0.117293 -78.582757 0.741028 136.298326 0.204892 22.344252 0.146638 31.672728
0.705954 131.849525 0.115507 -80.806266 0.14879 30.970083 0.223361 21.059255
430.0 0.24175 12.819726 0.186784 19.504301 0.124633 -113.999485 0.711182 102.901346
0.184419 20.032742 0.245834 13.085986 0.744726 105.795168 0.127378 -114.46229
0.122686 -113.904283 0.737067 105.896904 0.245314 16.415317 0.173764 21.428
0.707597 102.767107 0.124579 -115.633137 0.17678 20.553902 0.242458 11.475887
440.0 0.226728 1.6419 0.185071 7.358888 0.12396 -148.064253 0.728333 72.219106
0.18232 8.470795 0.235521 -1.002572 0.745363 75.306068 0.125817 -149.869581
0.122251 -148.422686 0.736739 75.4931 0.258161 6.275803 0.174838 9.676554
0.725356 72.231439 0.125737 -151.039551 0.175926 8.668278 0.234182 2.699753
450.0 0.179773 -3.041961 0.156079 -1.267049 0.12047 179.297471 0.735799 39.983474
0.154673 0.441681 0.185621 -9.020691 0.749103 44.35801 0.119426 177.236217
0.119017 178.631706 0.741343 44.727803 0.234538 -3.258529 0.151885 0.318606
0.735021 40.057254 0.120404 175.091036 0.151323 0.346376 0.201172 -2.186266
460.0 0.148311 10.486525 0.117421 3.558332 0.115694 149.12476 0.721475 7.738652
0.118611 5.691844 0.136004 1.984496 0.747589 12.962196 0.113117 148.266197
0.114303 148.274097 0.741323 13.331071 0.18508 -4.040097 0.114829 2.576942
0.722646 7.695183 0.112316 145.427964 0.117316 4.047921 0.170416 5.757279
470.0 0.175272 23.423577 0.118452 23.793641 0.115389 121.897108 0.698584 -22.963869
0.121934 24.383846 0.156148 23.995886 0.739619 -18.289938 0.115005 122.27322
0.114471 121.282091 0.733461 -17.949789 0.167376 12.530544 0.112091 22.841631
0.699134 -23.175315 0.11244 120.178328 0.118492 21.906156 0.190663 17.576317
480.0 0.216346 23.06751 0.157255 28.938041 0.124333 93.89307 0.689463 -52.453977
0.158665 28.485988 0.21502 24.499846 0.728882 -49.217693 0.127341 93.556257
0.124764 93.025109 0.72276 -48.921534 0.218592 21.334306 0.151779 27.962117
0.688371 -52.690536 0.124939 92.280414 0.153796 25.477335 0.236029 16.70107
490.0 0.248428 15.593442 0.190981 21.498336 0.136332 61.315496 0.697588 -82.429976
0.189667 21.386189 0.254523 13.876929 0.7186 -79.62242 0.139915 59.601211
0.136708 59.850034 0.711431 -79.352239 0.270739 13.112397 0.184143 18.648207
0.695478 -82.642448 0.138082 58.562079 0.181166 17.588424 0.264833 7.233601
500.0 0.247325 4.630991 0.199342 9.414824 0.140679 26.179891 0.707643 -113.791825
0.197201 9.929528 0.252944 0.62708 0.716298 -109.749093 0.142795 23.735292
0.13988 24.583814 0.709089 -109.403581 0.27618 0.109925 0.186799 5.227284
0.704364 -113.974711 0.141088 22.694143 0.18471 5.955837 0.251292 -4.08723
510.0 0.208818 -0.98106 0.173304 -0.796095 0.136848 -7.145636 0.703713 -145.872159
0.172072 0.264046 0.207801 -8.675743 0.719963 -140.349324 0.136919 -9.745166
0.134741 -8.384487 0.713632 -140.061838 0.235687 -9.314367 0.156614 -4.6759
0.699547 -145.968795 0.134651 -10.602731 0.158798 -3.267148 0.205355 -7.843285
520.0 0.178704 7.05955 0.132321 1.820612 0.13391 -37.076671 0.685934 -177.235162
0.133241 3.27725 0.153955 -0.669402 0.72181 -171.441921 0.132151 -39.019432
0.131501 -37.375005 0.714991 -171.235018 0.181973 -6.490095 0.119697 -1.16853
0.681728 -177.207914 0.129967 -39.236117 0.123565 -0.580797 0.179842 1.281341
530.0 0.199066 17.930659 0.130344 20.63331 0.137721 -66.453116 0.671014 152.762135
0.133252 20.879536 0.172226 20.114221 0.719015 157.297913 0.136332 -67.22765
0.136862 -66.168739 0.712076 157.467083 0.175226 10.318864 0.113353 15.442473
0.668087 152.940742 0.135498 -67.115862 0.11673 15.477846 0.19646 10.07262
540.0 0.243235 17.075413 0.174624 25.416682 0.143586 -97.777552 0.671695 123.041283
0.175292 24.850915 0.23668 19.789089 0.711494 126.207994 0.144646 -98.156659
0.143847 -97.709164 0.703994 126.310013 0.222321 16.403404 0.142068 24.103646
0.671771 123.239383 0.145119 -98.323034 0.146576 23.70583 0.227957 10.484261
550.0 0.272574 8.838892 0.210332 15.814663 0.147047 -129.409302 0.680107 92.296414
0.208189 15.595851 0.275483 7.525426 0.702796 95.55582 0.14965 -130.510744
0.147035 -129.646221 0.694971 95.689287 0.264191 9.516268 0.175951 18.793311
0.682023 92.281453 0.150482 -131.241251 0.180042 17.908122 0.252455 4.93312
560.0 0.269493 -1.692914 0.212047 2.91071 0.152437 -160.590055 0.681614 60.688482
0.208801 3.379276 0.26323 -6.225733 0.697884 65.279853 0.152982 -162.448225
0.151158 -160.866646 0.690973 65.3613 0.269028 -1.275301 0.187348 7.090473
0.682441 60.508347 0.153061 -163.546457 0.189878 6.451605 0.253644 -3.651324
570.0 0.232392 -8.461447 0.181081 -6.947747 0.159068 166.380575 0.6717 29.240276
0.179326 -5.689836 0.212091 -14.028128 0.699774 34.939616 0.156289 165.168908
0.156549 166.565424 0.692267 34.92039 0.23442 -9.440853 0.166362 -3.809557
0.671427 29.082609 0.155898 164.055699 0.169332 -4.190513 0.223728 -9.926438
580.0 0.194862 -5.344775 0.136973 -5.008493 0.158261 132.35279 0.659363 -1.159291
0.138625 -3.491738 0.161316 -6.364598 0.703985 3.963379 0.155453 132.518136
0.156171 133.113492 0.696281 3.953014 0.185832 -6.534965 0.126297 -4.032441
0.659244 -1.31117 0.155186 131.31735 0.127893 -5.234349 0.188314 -6.881738
590.0 0.188753 4.985153 0.129309 13.602591 0.151369 101.361354 0.659244 -31.002035
0.13219 13.319469 0.174066 11.955258 0.701007 -27.454641 0.151631 102.088683
0.15075 102.070008 0.693744 -27.525197 0.18045 8.664683 0.113659 14.597289
0.65856 -31.23953 0.151416 100.712402 0.112118 14.713428 0.182548 3.730503
600.0 0.222483 10.031999 0.169253 20.332771 0.151968 73.903924 0.66804 -61.749817
0.168212 19.60703 0.226943 12.064434 0.690355 -58.496641 0.154517 73.758212
0.151222 73.972372 0.682838 -58.558256 0.221154 14.619028 0.148972 24.321041
0.665215 -62.015878 0.154223 72.168432 0.151159 25.520226 0.2125 9.597758
610.0 0.253305 3.513676 0.205495 12.245132 0.164207 44.397705 0.669356 -93.381855
0.201939 12.457173 0.253161 1.737175 0.680422 -88.832 0.165679 43.198996
0.161695 44.355963 0.67432 -88.818861 0.259913 10.004575 0.187241 17.83563
0.664366 -93.478659 0.164758 41.408947 0.192587 18.212747 0.244325 5.437258
620.0 0.24648 -5.097632 0.209741 -0.921249 0.175271 10.707783 0.65946 -124.704083
0.207333 0.215222 0.236848 -9.256644 0.678254 -118.800584 0.174292 9.264855
0.172217 11.017329 0.673927 -118.82587 0.271434 1.103809 0.200454 5.2158
0.655275 -124.503063 0.172079 7.560559 0.205161 5.123233 0.249882 -1.760146
630.0 0.216265 -8.900363 0.173952 -11.673501 0.1761 -23.982442 0.649165 -155.062739
0.175527 -10.297713 0.188388 -13.311926 0.685533 -149.193717 0.173309 -25.303853
0.173926 -23.613198 0.682324 -149.269846 0.245599 -6.21608 0.17669 -6.996952
