! File created by SignalIntegrity v1.1.13: Signal and Power Integrity Tools
! https://github.com/TeledyneLeCroy/SignalIntegrity
# MHz S MA R 50.0
0.0 0.002791 0.0 0.992822 0.0 0.996393 0.0 0.00379 0.0
100.0 0.011787 60.621072 0.992461 -14.426635 0.995958 -14.442189 0.013085 61.766047
200.0 0.022706 51.6474 0.991403 -28.844518 0.994682 -28.876034 0.024849 58.541875
300.0 0.033018 38.254712 0.989693 -43.245687 0.99262 -43.293936 0.035871 49.854013
400.0 0.042278 23.785542 0.987421 -57.622955 0.989874 -57.688984 0.045549 39.745128
500.0 0.050155 8.92232 0.984688 -71.971278 0.986566 -72.05629 0.053496 28.972472
600.0 0.056319 -6.074049 0.981616 -86.28691 0.982842 -86.392121 0.059314 17.833864
700.0 0.060515 -21.07456 0.978329 -100.568949 0.978851 -100.695439 0.062774 6.401177
800.0 0.062496 -35.990442 0.974943 -114.817843 0.974736 -114.966415 0.063622 -5.290139
900.0 0.062112 -50.715441 0.971564 -129.036662 0.970631 -129.207718 0.061807 -17.25967
1000.0 0.059256 -65.130545 0.968267 -143.229342 0.966637 -143.422784 0.057272 -29.587272
1100.0 0.053943 -78.994287 0.96511 -157.401355 0.962838 -157.616519 0.050175 -42.406933
1200.0 0.046291 -91.883166 0.962112 -171.558215 0.959272 -171.79384 0.040704 -56.127969
1300.0 0.036605 -102.724841 0.959276 174.294527 0.955961 174.040301 0.029272 -71.770759
1400.0 0.025562 -108.440387 0.956574 160.151971 0.952887 159.881575 0.016553 -94.129436
1500.0 0.015309 -96.970703 0.953974 146.010417 0.950026 145.726808 0.006479 -166.419414
1600.0 0.014357 -52.491362 0.951427 131.866948 0.94733 131.573536 0.015631 108.592356
1700.0 0.025251 -35.048025 0.948896 117.720345 0.944756 117.420921 0.029929 84.245396
1800.0 0.039021 -38.999409 0.946341 103.569704 0.942254 103.26834 0.043993 67.754046
1900.0 0.052669 -49.133846 0.943737 89.415609 0.939785 89.116567 0.056861 53.215566
2000.0 0.065014 -61.58008 0.941071 75.258325 0.937316 74.965942 0.067841 39.437757
2100.0 0.075267 -75.065565 0.938331 61.099133 0.934817 60.817717 0.076421 25.954135
2200.0 0.082785 -89.085937 0.935522 46.938748 0.932272 46.672459 0.082109 12.594277
2300.0 0.087075 -103.360273 0.932643 32.778566 0.929656 32.531318 0.084637 -0.764918
2400.0 0.087801 -117.736802 0.929706 18.619741 0.926964 18.395096 0.083767 -14.203039
2500.0 0.084789 -132.067801 0.926714 4.463909 0.92418 4.264987 0.079522 -27.796513
2600.0 0.078077 -146.212438 0.923687 -9.687036 0.921313 -9.857625 0.071981 -41.675669
2700.0 0.067874 -159.926834 0.920639 -23.831183 0.918368 -23.971407 0.061485 -56.017329
2800.0 0.054634 -172.734663 0.917609 -37.966285 0.915378 -38.074724 0.048462 -71.314598
2900.0 0.039021 176.681318 0.914636 -52.091077 0.912381 -52.166957 0.03359 -88.834235
3000.0 0.02228 173.742954 0.911773 -66.204492 0.909439 -66.247688 0.017975 -114.72997
3100.0 0.010184 -143.745329 0.909076 -80.307567 0.906615 -80.318601 0.007979 160.974538
3200.0 0.020658 -92.578318 0.906594 -94.402083 0.903968 -94.382097 0.019592 88.477317
3300.0 0.037534 -93.668699 0.904362 -108.492187 0.901551 -108.442909 0.03482 64.18828
3400.0 0.053508 -103.644201 0.902382 -122.582452 0.89938 -122.506133 0.048841 46.709398
3500.0 0.067124 -115.966524 0.90063 -136.678526 0.897447 -136.577878 0.060672 31.036841
3600.0 0.077552 -129.139518 0.899033 -150.785076 0.895694 -150.663176 0.069626 16.026162
3700.0 0.084197 -142.578519 0.897497 -164.905453 0.894043 -164.76565 0.075297 1.202278
3800.0 0.086735 -155.976611 0.895897 -179.040435 0.892377 -178.886239 0.077342 -13.688387
3900.0 0.085051 -169.065102 0.894115 166.812456 0.890587 166.977488 0.075712 -28.857719
4000.0 0.079329 178.47258 0.892046 152.658441 0.888571 152.830823 0.070455 -44.598887
4100.0 0.069988 167.149632 0.889634 138.505784 0.886272 138.682225 0.061939 -61.341959
4200.0 0.057816 157.98565 0.886876 124.363265 0.883681 124.540777 0.050734 -80.080226
4300.0 0.044104 153.321002 0.883837 110.240033 0.880854 110.416056 0.037908 -103.116024
4400.0 0.031571 158.965893 0.880637 96.142132 0.877897 96.314623 0.025767 -137.265218
4500.0 0.026383 -178.40055 0.877431 82.072744 0.874949 82.240279 0.020576 166.681834
4600.0 0.033427 -157.96087 0.874387 68.029655 0.872164 68.191491 0.028041 114.291133
4700.0 0.046793 -154.257971 0.871643 54.006762 0.869663 54.162895 0.041296 82.794389
4800.0 0.060948 -159.495045 0.869294 39.993798 0.867526 40.144965 0.055025 60.538568
4900.0 0.073479 -168.53989 0.867352 25.978906 0.865755 26.126574 0.067256 41.824244
5000.0 0.083196 -179.301321 0.865763 11.950453 0.864285 12.096744 0.076923 24.668526
5100.0 0.089371 169.183473 0.864389 -2.100709 0.862973 -1.953117 0.083418 8.169348
5200.0 0.091663 157.470122 0.863054 -16.17881 0.861644 -16.026836 0.086267 -8.147647
5300.0 0.089983 145.968313 0.861562 -30.283018 0.860104 -30.123356 0.085346 -24.635924
5400.0 0.084566 135.117966 0.859748 -44.406167 0.858195 -44.235482 0.080664 -41.683268
5500.0 0.075907 125.499223 0.857506 -58.537627 0.855823 -58.352771 0.072617 -59.796958
5600.0 0.064879 118.123321 0.854815 -72.663763 0.852979 -72.461973 0.061883 -79.962907
5700.0 0.052895 114.828939 0.851748 -86.772574 0.849751 -86.551668 0.049742 -104.041987
5800.0 0.042503 118.784154 0.848446 -100.854525 0.846293 -100.61305 0.038624 -135.86479
5900.0 0.037917 131.590127 0.8451 -114.906119 0.842813 -114.643484 0.033077 -178.831624
6000.0 0.042261 145.000715 0.841895 -128.929312 0.839505 -128.64585 0.037271 136.496958
6100.0 0.053071 149.842757 0.838989 -142.931975 0.836538 -142.628982 0.048462 102.504151
6200.0 0.066126 147.218132 0.836457 -156.925683 0.833994 -156.605372 0.061831 77.256306
6300.0 0.07871 140.361376 0.834304 -170.923247 0.831883 -170.588678 0.074575 56.506058
6400.0 0.089308 131.277775 0.832439 175.06363 0.830111 175.408696 0.085141 38.059966
6500.0 0.096985 121.02441 0.830717 161.02784 0.828532 161.379117 0.092627 20.784775
6600.0 0.101205 110.238624 0.828956 146.967206 0.826959 147.320092 0.096366 4.09787
6700.0 0.101706 99.331821 0.826995 132.886581 0.825221 133.236393 0.096085 -12.390418
6800.0 0.098485 88.682256 0.824724 118.794848 0.823198 119.137036 0.091664 -29.010204
6900.0 0.091787 78.6861 0.822116 104.704582 0.820851 105.034951 0.083378 -46.123591
7000.0 0.082115 69.946173 0.819241 90.626959 0.818238 90.941816 0.071708 -64.374536
7100.0 0.070356 63.439884 0.816236 76.570584 0.815484 76.866866 0.05758 -84.969258
7200.0 0.057984 60.948939 0.813287 62.537767 0.81277 62.813083 0.042562 -110.977178
7300.0 0.047655 65.118939 0.810567 48.524919 0.810258 48.777554 0.03014 -149.649388
7400.0 0.043387 76.66697 0.808212 34.522635 0.808083 34.751479 0.027866 155.583489
7500.0 0.047788 88.333825 0.806268 20.517949 0.806286 20.722403 0.037961 110.712046
7600.0 0.058466 92.764322 0.804697 6.497691 0.80483 6.677537 0.052803 81.775506
7700.0 0.071405 90.517454 0.803363 -7.549246 0.803579 -7.393981 0.067659 60.073375
7800.0 0.083884 84.292785 0.802077 -21.627743 0.802345 -21.496905 0.080496 41.544374
7900.0 0.094331 75.865464 0.800619 -35.736557 0.800911 -35.629969 0.090257 24.509442
8000.0 0.101768 66.259908 0.798805 -49.866099 0.79909 -49.783605 0.096182 8.242099
8100.0 0.105605 56.06373 0.796521 -64.002213 0.796774 -63.943697 0.097927 -7.667842
8200.0 0.105483 45.711181 0.793758 -78.126997 0.793952 -78.092326 0.095291 -23.502909
8300.0 0.101336 35.587977 0.790627 -92.224726 0.790734 -92.213667 0.088474 -39.51508
8400.0 0.093336 26.192674 0.787317 -106.283788 0.787311 -106.295863 0.077824 -56.110964
8500.0 0.082083 18.293639 0.784083 -120.30072 0.783937 -120.335061 0.064047 -73.964582
8600.0 0.068691 13.274662 0.781161 -134.280346 0.780846 -134.335521 0.048143 -94.835427
8700.0 0.055333 13.663054 0.778744 -148.235182 0.778234 -148.309052 0.031987 -123.772856
8800.0 0.045944 22.676319 0.776919 -162.183283 0.776188 -162.272897 0.021147 -175.831437
8900.0 0.045651 37.756447 0.775674 -176.143802 0.774699 -176.24534 0.026159 120.807954
9000.0 0.054907 47.750166 0.774872 169.865394 0.773635 169.756595 0.041085 84.773251
9100.0 0.068967 49.020778 0.774299 155.833083 0.772791 155.72244 0.057202 61.63877
9200.0 0.083674 44.636502 0.773693 141.754755 0.771912 141.64825 0.071689 43.024286
9300.0 0.096707 37.212949 0.772798 127.635812 0.770754 127.53976 0.083348 26.272779
9400.0 0.106669 28.196047 0.771419 113.488019 0.769133 113.408742 0.091351 10.426377
9500.0 0.112738 18.380536 0.76945 99.329202 0.766957 99.272697 0.095301 -4.984709
9600.0 0.114385 8.287482 0.766914 85.177521 0.764258 85.149071 0.094923 -20.243232
9700.0 0.111469 -1.640991 0.763925 71.049292 0.761158 71.053115 0.090336 -35.566394
9800.0 0.104146 -10.906521 0.760687 56.954838 0.757868 56.993743 0.081774 -51.273994
9900.0 0.093074 -18.774213 0.757419 42.897244 0.754608 42.972366 0.069805 -67.816044
10000.0 0.079468 -24.040238 0.754342 28.872538 0.751597 28.98315 0.055191 -86.297096
10100.0 0.065564 -24.625154 0.751603 14.870222 0.748978 15.013662 0.039189 -109.451164
10200.0 0.055158 -18.005936 0.749286 0.877328 0.746824 1.049069 0.024724 -146.556072
10300.0 0.053203 -5.520711 0.747376 -13.120669 0.745108 -12.926835 0.020771 149.015136
10400.0 0.061077 4.212984 0.745792 -27.134497 0.743732 -26.926105 0.032048 99.376782
10500.0 0.074778 6.423751 0.744397 -41.171697 0.742546 -40.957187 0.047806 71.862096
10600.0 0.089802 2.862129 0.74304 -55.232772 0.741377 -55.020939 0.063006 52.046487
10700.0 0.10336 -4.053872 0.741593 -69.314225 0.740083 -69.11368 0.075967 35.151665
10800.0 0.113751 -12.836388 0.739963 -83.407638 0.738554 -83.226232 0.08569 19.665033
10900.0 0.119991 -22.613647 0.738135 -97.503942 0.736766 -97.348291 0.091671 4.938637
11000.0 0.121503 -32.843215 0.736134 -111.594512 0.734738 -111.469577 0.09351 -9.329676
11100.0 0.118145 -43.077687 0.734045 -125.673812 0.732555 -125.582643 0.091204 -23.302525
11200.0 0.110119 -52.878592 0.731951 -139.740556 0.730306 -139.684153 0.084807 -37.13102
11300.0 0.09806 -61.61363 0.729942 -153.796746 0.728091 -153.774082 0.074704 -50.903594
11400.0 0.083079 -68.274318 0.728058 -167.848234 0.725965 -167.856425 0.061332 -64.858514
11500.0 0.067052 -70.937121 0.726307 178.099272 0.723957 178.06468 0.045355 -79.329632
11600.0 0.053274 -66.424053 0.724647 164.039312 0.722044 163.983922 0.027546 -95.844601
11700.0 0.047033 -53.099709 0.723007 149.969404 0.720177 149.899499 0.009199 -127.193742
11800.0 0.051849 -39.481268 0.721307 135.888692 0.718298 135.810679 0.01186 88.185099
11900.0 0.064146 -34.617021 0.719475 121.801144 0.716352 121.721037 0.029995 62.568128
12000.0 0.078401 -37.32782 0.71748 107.711757 0.714323 107.634651 0.046961 46.956385
12100.0 0.091256 -44.333882 0.71532 93.62738 0.712218 93.557038 0.061735 33.095559
12200.0 0.100878 -53.698503 0.713058 79.553152 0.710099 79.491682 0.073534 19.953185
12300.0 0.106283 -64.361055 0.710762 65.491823 0.708032 65.43953 0.081932 7.212188
12400.0 0.106995 -75.747783 0.708538 51.442797 0.706109 51.398176 0.086498 -5.22225
12500.0 0.102932 -87.436507 0.706454 37.401213 0.704384 37.361116 0.087179 -17.358775
12600.0 0.094367 -99.090073 0.704569 23.360571 0.702894 23.320531 0.083925 -29.197607
12700.0 0.081851 -110.236962 0.702882 9.311709 0.701612 9.266355 0.077031 -40.61634
12800.0 0.066278 -120.092369 0.701356 -4.75219 0.70048 -4.808616 0.066813 -51.484518
12900.0 0.048891 -126.748007 0.699915 -18.837576 0.699395 -18.91071 0.053868 -61.300892
13000.0 0.032001 -124.60042 0.69846 -32.945525 0.69824 -33.040356 0.038891 -68.982897
13100.0 0.021799 -99.101598 0.696902 -47.075182 0.696907 -47.195628 0.023039 -69.845623
13200.0 0.027518 -67.554965 0.695161 -61.220698 0.695303 -61.369229 0.010501 -35.03192
13300.0 0.041439 -61.839142 0.693211 -75.375359 0.693397 -75.552773 0.017463 26.195479
13400.0 0.055516 -68.055463 0.691048 -89.530937 0.691183 -89.736226 0.032516 31.967246
13500.0 0.067255 -78.693553 0.688731 -103.680553 0.688726 -103.910927 0.047176 26.488346
13600.0 0.075706 -91.41831 0.686321 -117.819728 0.686097 -118.070746 0.059932 18.229148
13700.0 0.080454 -105.298555 0.683918 -131.946176 0.68341 -132.212008 0.070256 9.013619
13800.0 0.081462 -119.965429 0.681591 -146.061811 0.680752 -146.335605 0.077641 -0.517187
13900.0 0.078892 -135.210491 0.679409 -160.169214 0.678214 -160.443533 0.081978 -10.041901
14000.0 0.073183 -150.955846 0.677401 -174.274451 0.675843 -174.541787 0.083088 -19.388408
14100.0 0.064829 -167.159358 0.675572 171.61843 0.673662 171.365162 0.081149 -28.332521
14200.0 0.054503 176.192883 0.673898 157.503737 0.671668 157.270682 0.076278 -36.701742
14300.0 0.042823 159.064273 0.672332 143.37959 0.669825 143.171549 0.068913 -44.085613
14400.0 0.030457 141.452342 0.67083 129.243886 0.668101 129.063948 0.059496 -49.967715
14500.0 0.017937 123.126383 0.669329 115.098018 0.666439 114.947379 0.048837 -53.079724
14600.0 0.005726 102.786631 0.667803 100.94362 0.664815 100.821462 0.038113 -51.15457
14700.0 0.005885 -89.643376 0.66621 86.783698 0.663185 86.687261 0.029739 -39.800337
14800.0 0.01669 -110.577081 0.664555 72.62151 0.661551 72.546229 0.027592 -18.713627
14900.0 0.026606 -129.9695 0.662828 58.459003 0.659894 58.398767 0.033379 -1.193467
15000.0 0.03566 -149.113763 0.661056 44.298639 0.658235 44.246113 0.043577 5.414554
15100.0 0.043795 -167.948657 0.659248 30.139541 0.656573 30.086513 0.055084 4.980647
15200.0 0.051021 173.686335 0.657428 15.982119 0.654925 15.919897 0.06609 0.873083
15300.0 0.057179 155.924944 0.655602 1.822809 0.65329 1.742566 0.075811 -5.182625
15400.0 0.062133 138.962659 0.653764 -12.339544 0.651656 -12.446369 0.083476 -12.394264
15500.0 0.065641 122.888439 0.651903 -26.509057 0.650007 -26.650471 0.088744 -20.268904
15600.0 0.067499 107.895101 0.649975 -40.686358 0.648295 -40.869463 0.091105 -28.585422
15700.0 0.067552 94.097105 0.647955 -54.872826 0.646491 -55.103596 0.090399 -37.063079
15800.0 0.065722 81.777742 0.645787 -69.066234 0.644536 -69.349253 0.086361 -45.562534
15900.0 0.062151 71.251977 0.643466 -83.263112 0.64242 -83.601414 0.079067 -53.694229
16000.0 0.057136 63.137314 0.640971 -97.458504 0.640122 -97.853418 0.068634 -61.061472
16100.0 0.05143 58.284636 0.638359 -111.646014 0.63769 -112.097078 0.055577 -66.465818
16200.0 0.046208 57.839369 0.635684 -125.822255 0.635176 -126.327185 0.040883 -67.354366
16300.0 0.043413 62.179026 0.63306 -139.98383 0.632687 -140.538518 0.027339 -55.326336
16400.0 0.044909 69.119091 0.630589 -154.134798 0.630321 -154.733408 0.023383 -19.885142
16500.0 0.051291 74.289522 0.628374 -168.279822 0.628172 -168.914882 0.034764 5.161469
16600.0 0.061305 75.408657 0.62648 177.568257 0.626303 176.905638 0.052169 9.153006
16700.0 0.073296 72.811676 0.624903 163.398425 0.624703 162.718362 0.070399 4.946077
16800.0 0.08574 67.708012 0.623592 149.196077 0.62332 148.509594 0.08717 -2.603325
16900.0 0.097583 61.028937 0.622395 134.953202 0.621998 134.271936 0.101424 -11.749272
17000.0 0.107872 53.461432 0.621155 120.665695 0.620585 120.001512 0.11197 -21.829926
17100.0 0.115994 45.432627 0.61965 106.339029 0.618863 105.703624 0.118204 -32.403075
17200.0 0.121308 37.283777 0.617745 91.987276 0.616705 91.391753 0.119379 -43.310954
17300.0 0.123504 29.301363 0.615325 77.629947 0.61401 77.084351 0.115315 -54.249082
17400.0 0.122258 21.809732 0.612438 63.292162 0.610839 62.805057 0.105897 -65.101726
17500.0 0.117733 15.258245 0.609204 48.992669 0.60733 48.570662 0.091492 -75.381724
17600.0 0.110371 10.270916 0.605865 34.747711 0.603742 34.395122 0.072742 -84.543976
17700.0 0.101595 7.751153 0.602698 20.55597 0.600367 20.27446 0.050704 -90.369626
17800.0 0.093698 8.577611 0.599958 6.409525 0.597475 6.197985 0.027906 -84.282296
17900.0 0.090163 12.796336 0.597848 -7.717853 0.595278 -7.863437 0.018202 -26.61807
18000.0 0.093798 18.250623 0.596407 -21.853923 0.593826 -21.940245 0.037807 5.845337
18100.0 0.104987 21.729075 0.595585 -36.0336 0.593073 -36.069857 0.0635 4.903731
18200.0 0.121147 21.624606 0.595116 -50.28285 0.592755 -50.280174 0.088152 -2.995844
18300.0 0.139219 18.303838 0.59471 -64.618695 0.592582 -64.589702 0.11011 -13.117664
18400.0 0.156341 12.688371 0.593937 -79.042545 0.592119 -79.000591 0.127634 -24.300005
18500.0 0.170636 5.634989 0.592498 -93.536901 0.591057 -93.495499 0.139956 -35.908119
18600.0 0.18047 -2.2708 0.590119 -108.075331 0.589113 -108.047475 0.145995 -47.806455
18700.0 0.18496 -10.515268 0.586779 -122.61645 0.58625 -122.614074 0.145566 -59.615915
18800.0 0.183385 -18.702103 0.582583 -137.129423 0.582557 -137.162993 0.13852 -71.331106
18900.0 0.175862 -26.2708 0.577822 -151.580019 0.578311 -151.658149 0.125308 -82.470716
19000.0 0.163053 -32.61294 0.572871 -165.961333 0.573873 -166.090734 0.106769 -92.883155
19100.0 0.146918 -36.698669 0.568066 179.732293 0.569567 179.546993 0.08384 -101.332769
19200.0 0.130712 -37.450249 0.563755 165.478937 0.565731 165.234929 0.058582 -105.657561
19300.0 0.119438 -34.00941 0.56004 151.261116 0.562457 150.957383 0.034575 -95.323616
19400.0 0.118 -28.005278 0.557064 137.049292 0.559883 136.686131 0.027567 -50.494744
19500.0 0.127945 -23.134712 0.554624 122.824992 0.557795 122.40382 0.047028 -24.669386
19600.0 0.145519 -22.332361 0.552714 108.58072 0.556183 108.103523 0.072272 -25.085531
19700.0 0.165731 -25.361899 0.550993 94.313477 0.554696 93.782521 0.096675 -32.442996
19800.0 0.183834 -31.376892 0.549541 80.055731 0.553413 79.473097 0.116403 -43.181372
19900.0 0.197165 -39.022014 0.548153 65.807141 0.552123 65.174427 0.131474 -54.697752
20000.0 0.203185 -48.236845 0.547261 51.665264 0.55126 50.983427 0.139575 -69.211992
