! File created by SignalIntegrity v1.4.3: Signal and Power Integrity Tools
! https://github.com/Nubis-Communications/SignalIntegrity
# MHz S MA R 50.0
0.0 0.080268 0.0 0.034007 0.0 0.013599 180.0 1.005376 0.0
0.024977 0.0 0.068099 0.0 1.02042 0.0 0.001038 180.0
0.031226 180.0 1.011362 0.0 0.118521 0.0 0.000761 0.0
1.004091 0.0 0.00252 180.0 0.027231 0.0 0.100221 0.0
10.0 0.107483 17.213157 0.052523 29.656565 0.02567 -164.787095 0.985275 -34.22289
0.050013 36.730592 0.106361 26.157759 1.007345 -33.79955 0.027907 -142.662641
0.035343 169.42269 0.977202 -34.651032 0.124761 2.940978 0.049077 57.937272
0.988888 -33.94789 0.027767 -146.010208 0.04497 30.348182 0.110789 7.296448
20.0 0.133946 10.120731 0.0752 28.132039 0.049481 159.135952 0.943056 -66.652079
0.074252 31.767793 0.153598 15.621698 0.969954 -66.568807 0.054729 163.913467
0.050211 146.570891 0.93788 -65.92747 0.122608 1.58681 0.071352 35.856594
0.950066 -66.668705 0.053258 163.226217 0.060722 30.737127 0.120675 5.953402
30.0 0.132223 0.841346 0.091851 19.282103 0.066492 107.079285 0.91237 -97.253988
0.092206 20.438978 0.157685 -1.61269 0.933731 -97.304756 0.071794 107.338832
0.066795 105.348515 0.926936 -96.974362 0.117361 6.422138 0.077474 25.707475
0.913937 -97.439337 0.069965 108.263056 0.077638 26.224267 0.120491 2.730931
40.0 0.116005 -2.034652 0.092054 5.058891 0.066283 52.041556 0.9027 -127.351273
0.088642 4.179358 0.126838 -12.930402 0.923224 -127.084152 0.071252 51.196936
0.06935 54.855821 0.908596 -127.64883 0.126762 10.513513 0.080967 16.805926
0.901624 -127.235537 0.07 52.068648 0.082982 13.037519 0.112892 3.242492
50.0 0.100607 1.568461 0.067123 -2.713277 0.047161 -0.502889 0.912316 -157.722949
0.061394 -0.832269 0.082436 -9.657836 0.936054 -157.325678 0.050903 -0.226693
0.050383 4.929194 0.918708 -157.237112 0.133431 7.245453 0.06947 6.478226
0.91481 -157.451676 0.049457 -0.549795 0.066359 2.627336 0.108297 3.771401
60.0 0.089631 15.825619 0.047187 27.323822 0.01744 -11.649664 0.933733 170.257236
0.046806 33.279719 0.075488 31.695942 0.959129 170.701751 0.021418 -8.973679
0.021842 -4.601957 0.94938 170.706479 0.114908 5.213161 0.042788 20.422133
0.938743 170.375548 0.019706 -7.725795 0.03997 24.342539 0.088495 11.259855
70.0 0.117894 32.589301 0.085078 50.537723 0.045809 12.614144 0.925436 136.501425
0.087401 52.281032 0.139467 40.159904 0.950699 136.999159 0.050515 8.75729
0.048542 11.013595 0.939236 136.999566 0.107578 26.030007 0.070926 60.222445
0.929614 136.458846 0.049603 9.67386 0.07455 60.241817 0.106755 35.114939
80.0 0.166102 25.164865 0.131128 36.070898 0.086675 -41.065326 0.871872 104.295975
0.132258 36.234003 0.189105 24.117744 0.894323 104.864182 0.092369 -42.179652
0.088042 -40.249951 0.888261 104.97614 0.16388 30.949638 0.123874 45.394116
0.874068 104.168052 0.090738 -42.333225 0.124994 44.728747 0.160628 31.785796
90.0 0.175512 8.081784 0.143084 14.734289 0.107735 -101.598437 0.831412 76.046613
0.141575 14.309824 0.191434 5.542086 0.85144 76.782547 0.112509 -101.110622
0.107606 -100.461664 0.843845 76.493066 0.196542 15.207959 0.141302 21.375776
0.831201 75.945117 0.110968 -101.915247 0.142342 21.986746 0.185571 14.879366
100.0 0.142038 -2.310301 0.11995 -3.535151 0.099064 -162.772713 0.85534 48.228012
0.115824 -3.879483 0.152158 -8.355893 0.87591 49.096177 0.101245 -161.080158
0.097188 -162.167347 0.862493 49.168981 0.177273 -0.122681 0.120019 -0.657622
0.855228 48.280004 0.099778 -162.487654 0.123349 0.613271 0.160406 -0.672359
110.0 0.105485 4.196463 0.070653 -9.437921 0.058847 139.699115 0.904535 16.604869
0.066465 -8.150149 0.092179 -2.020285 0.925604 17.53062 0.059119 142.897167
0.056292 139.216691 0.917392 17.77795 0.121466 -5.356899 0.064325 -13.031623
0.906484 16.615288 0.057323 141.20496 0.069102 -12.734062 0.107375 -2.773425
120.0 0.108766 29.034096 0.060613 41.258879 0.016205 174.793398 0.915476 -17.664814
0.059932 45.119378 0.108457 37.706214 0.936045 -16.648264 0.01802 176.069172
0.01463 -176.886819 0.927991 -16.752557 0.096241 31.802534 0.050432 59.369458
0.916601 -17.760953 0.017763 -178.897428 0.048992 57.861456 0.090478 36.389005
130.0 0.163851 32.141495 0.117074 42.470189 0.072227 165.111077 0.873227 -51.165074
0.11867 44.907615 0.180411 34.385763 0.89286 -50.08218 0.072721 165.566158
0.071702 166.91133 0.880377 -50.181327 0.179292 41.323051 0.123694 55.849921
0.873497 -51.212022 0.073899 166.100968 0.126443 56.41729 0.173746 43.489469
140.0 0.198245 18.725342 0.1458 25.793579 0.113034 107.052516 0.816469 -81.057501
0.148961 26.608914 0.218223 17.963185 0.834907 -79.861743 0.11328 107.730373
0.111741 107.455605 0.82369 -79.713534 0.237957 24.402679 0.166775 33.063141
0.817467 -81.128025 0.114709 107.852855 0.171527 32.719749 0.227344 24.988724
150.0 0.195835 4.285895 0.147612 8.983759 0.11926 48.054988 0.807935 -108.157441
0.147661 8.532914 0.212914 0.513391 0.829637 -106.897425 0.120026 48.813771
0.117337 48.090741 0.821765 -106.803312 0.24142 5.883307 0.167894 9.16034
0.807468 -108.28163 0.120837 48.268814 0.170973 8.724566 0.228372 6.14113
160.0 0.159152 -7.546849 0.11876 -7.948434 0.092813 -7.260309 0.853224 -137.546126
0.115427 -7.883894 0.162949 -14.480761 0.876643 -136.600658 0.094651 -5.970876
0.09117 -6.674036 0.867915 -136.674129 0.195358 -10.055535 0.124604 -12.352814
0.851455 -137.533544 0.093466 -7.495854 0.126275 -12.128123 0.179847 -11.2109
170.0 0.103229 -1.886624 0.061909 -6.071709 0.048081 -46.883925 0.88907 -170.742864
0.059706 -3.220619 0.087879 -5.129466 0.905894 -169.717377 0.051285 -44.393962
0.047926 -44.153261 0.895774 -169.771366 0.115942 -10.00616 0.054824 -10.412348
0.888231 -170.594297 0.048123 -46.521628 0.057019 -8.949001 0.096529 -6.864634
180.0 0.111666 33.030791 0.073703 49.191674 0.036921 -21.537657 0.876394 155.169556
0.076151 50.747 0.117924 40.219959 0.892121 156.929283 0.040744 -24.605096
0.039982 -21.877322 0.882101 156.824112 0.109109 33.50529 0.073733 56.455227
0.877135 155.357803 0.038385 -21.316702 0.075928 55.350145 0.11142 41.187236
190.0 0.183021 32.21767 0.137064 41.678983 0.075744 -48.03493 0.831206 123.143743
0.140105 41.733999 0.200269 32.239273 0.856215 125.305624 0.079487 -49.897656
0.077583 -49.604209 0.84255 125.193713 0.193996 37.174932 0.144503 44.83072
0.832536 123.314508 0.078636 -48.508961 0.148659 44.383762 0.199379 38.234851
200.0 0.215775 14.815522 0.161075 21.491803 0.099937 -97.783297 0.79781 94.086532
0.16282 20.447493 0.232877 12.477641 0.82929 95.877199 0.104366 -98.210132
0.099699 -98.327193 0.814773 96.193354 0.245958 20.620727 0.17205 22.029385
0.799458 94.263895 0.104677 -98.555875 0.177014 21.218126 0.244315 18.956038
210.0 0.196922 -0.957734 0.146638 4.202498 0.099488 -148.485699 0.807481 65.733621
0.143958 2.504537 0.206246 -6.362772 0.836087 67.007943 0.104253 -147.648565
0.0979 -147.668629 0.826959 67.346826 0.237609 3.248191 0.15464 1.861925
0.809522 65.821765 0.104823 -149.846817 0.157532 0.999523 0.225893 0.533537
220.0 0.142811 -10.415201 0.104975 -7.369194 0.078267 165.763818 0.843695 34.969375
0.099141 -7.920039 0.134995 -16.801 0.863425 36.310725 0.083207 167.82475
0.076563 168.077184 0.851784 36.320081 0.182912 -7.835985 0.104369 -11.388054
0.843509 34.982809 0.082465 164.031783 0.105853 -11.766199 0.16209 -11.109111
230.0 0.090379 14.543865 0.058525 16.316618 0.048072 139.931757 0.861676 1.701823
0.056078 20.574715 0.079585 19.103399 0.877581 3.713112 0.054058 141.830314
0.04825 144.416898 0.862043 3.892244 0.120841 3.822558 0.056328 19.401974
0.859889 1.840645 0.051162 138.005177 0.057281 19.565881 0.096635 11.970273
240.0 0.149754 39.422884 0.101507 50.550298 0.052777 147.176462 0.839638 -31.572088
0.103192 52.034225 0.156235 43.413784 0.860887 -29.089018 0.057306 143.288069
0.055221 148.224342 0.848225 -28.892825 0.149687 32.162062 0.10912 48.313381
0.83935 -31.389358 0.055544 143.920151 0.112255 48.423478 0.159384 40.438906
250.0 0.213952 27.969844 0.157485 38.539767 0.08871 115.953573 0.800057 -62.52286
0.157705 38.918676 0.226764 28.693283 0.826668 -60.178117 0.090501 113.757791
0.089551 115.798782 0.812617 -60.232557 0.217434 28.145552 0.160946 33.488446
0.800182 -62.480398 0.092483 113.441401 0.166053 33.155567 0.233203 28.868647
260.0 0.233937 11.416832 0.177368 19.645101 0.110188 68.362409 0.781707 -91.254393
0.175189 20.167157 0.244388 10.542345 0.8077 -89.360652 0.111962 68.048332
0.110016 68.212677 0.7916 -89.271141 0.245873 14.798731 0.173481 14.801958
0.780716 -91.283254 0.115875 66.324597 0.178092 14.168646 0.254767 11.756213
270.0 0.208035 -4.93184 0.155915 1.030521 0.106044 19.872805 0.799756 -120.278359
0.153865 2.317747 0.212283 -6.354042 0.818654 -118.557117 0.109826 20.623894
0.105951 19.590522 0.804387 -118.458419 0.231087 1.784823 0.149455 -2.208724
0.798536 -120.331545 0.11304 17.687794 0.152636 -2.676262 0.224686 -3.724623
280.0 0.138567 -13.060304 0.097804 -7.437167 0.080553 -21.757878 0.830977 -151.835766
0.098258 -5.709221 0.136387 -13.003135 0.844232 -149.570329 0.086512 -20.960484
0.080903 -22.268628 0.828987 -149.529152 0.178937 -4.925208 0.09586 -7.686102
0.829407 -151.928453 0.086635 -24.966774 0.098078 -7.888742 0.156011 -9.285872
290.0 0.094436 20.918264 0.068042 33.367699 0.054956 -38.294027 0.835484 174.659567
0.068762 33.358139 0.099974 24.353251 0.852989 177.610204 0.061112 -40.839532
0.05557 -39.150556 0.839025 177.708882 0.134453 11.183238 0.076191 27.81993
0.8337 174.600525 0.057556 -43.249228 0.078198 27.56768 0.119404 17.407894
300.0 0.168868 38.869782 0.128227 48.623256 0.072018 -43.573391 0.802061 141.926141
0.128109 48.975012 0.179707 38.642238 0.828247 145.058964 0.074479 -47.63921
0.072886 -44.483862 0.815203 145.002472 0.178474 30.503787 0.128007 37.419081
0.801295 141.934172 0.07279 -46.76218 0.131824 37.135537 0.181273 32.085954
310.0 0.233236 23.886488 0.176235 34.286941 0.105584 -79.860546 0.763403 112.034258
0.176139 34.361688 0.245795 23.922575 0.794537 114.768986 0.107254 -81.643824
0.107257 -80.524893 0.779446 114.818378 0.24226 23.272733 0.162195 22.932532
0.764261 112.074002 0.107002 -81.923382 0.167524 22.34489 0.2369 21.772226
320.0 0.235999 5.527815 0.184323 17.932684 0.120317 -125.869689 0.759672 83.748075
0.182433 17.757859 0.254149 5.687327 0.785921 85.898454 0.1233 -126.246096
0.122259 -126.250047 0.773516 86.198565 0.257733 9.702046 0.157336 8.016867
0.762181 83.749266 0.12245 -127.420579 0.16225 6.995995 0.245177 8.135938
330.0 0.190025 -8.402788 0.160847 4.742876 0.110193 -170.181733 0.788258 53.687215
0.15728 4.960437 0.209291 -9.851553 0.802175 56.105818 0.115057 -169.985555
0.111144 -169.904928 0.792612 56.311257 0.231808 -1.224074 0.130722 -1.423864
0.790986 53.566434 0.112986 -171.69639 0.133684 -2.90823 0.215737 -2.191574
340.0 0.116666 -6.580949 0.113358 2.82605 0.085435 156.320626 0.809151 20.879489
0.110151 4.206926 0.129361 -11.027802 0.819523 24.448493 0.091081 155.409199
0.085927 158.353219 0.810519 24.525171 0.177588 -3.862545 0.091367 0.728271
0.809622 20.727888 0.088266 154.011634 0.091244 -0.479377 0.164367 -2.470179
350.0 0.114989 34.341345 0.102861 29.245378 0.0762 142.418706 0.792777 -12.566672
0.103307 31.671672 0.114146 28.721 0.813927 -8.145487 0.078301 139.286898
0.079418 145.209016 0.804247 -8.233472 0.152623 15.203439 0.087109 31.160107
0.791195 -12.569726 0.077285 138.631845 0.088508 31.974415 0.152912 17.008206
360.0 0.192738 36.921365 0.149529 35.103985 0.100221 120.595137 0.753102 -43.74782
0.152779 36.022786 0.196707 36.078018 0.787461 -39.594154 0.099214 119.584779
0.104464 121.905765 0.775193 -39.633894 0.205249 25.323126 0.133712 36.238572
0.751557 -43.574238 0.099256 117.522483 0.138339 35.894093 0.20426 22.049158
370.0 0.237887 23.771505 0.181624 25.304338 0.122534 82.244864 0.735255 -72.375406
0.184014 24.948533 0.256223 21.865775 0.769564 -69.38297 0.123126 82.641539
0.125799 83.123545 0.759015 -69.175716 0.254666 17.373649 0.164147 24.956179
0.734758 -72.128748 0.122375 79.87396 0.168327 23.841504 0.237964 12.986366
380.0 0.239028 9.634579 0.18814 12.710266 0.124238 41.563375 0.752843 -101.653215
0.186732 12.028455 0.26026 5.204598 0.770638 -99.122831 0.127289 41.579764
0.125713 41.98614 0.763571 -98.999923 0.26394 5.01722 0.167292 11.537315
0.753238 -101.443131 0.126267 38.614895 0.169314 10.675598 0.23417 1.197333
390.0 0.196992 0.303349 0.162828 1.126506 0.112357 6.486855 0.775163 -133.291536
0.159037 1.033133 0.214265 -7.406044 0.779833 -129.675976 0.114999 5.02043
0.111185 6.711095 0.773219 -129.71825 0.228918 -5.41423 0.140606 0.709484
0.775979 -133.170773 0.1143 1.766537 0.142959 0.577644 0.186786 -6.240375
400.0 0.150842 9.085313 0.118016 2.914516 0.103943 -20.436157 0.774445 -166.122428
0.114908 4.230247 0.147736 -4.066591 0.786224 -161.108874 0.103063 -22.399782
0.101642 -19.642935 0.779051 -161.250902 0.171425 -3.585713 0.101317 5.859514
0.775453 -166.136026 0.101903 -26.308412 0.10449 5.127921 0.143218 7.790943
410.0 0.173811 26.78553 0.114919 25.282168 0.110525 -46.115115 0.749274 161.999824
0.115372 26.707373 0.147423 22.481095 0.780409 167.279795 0.108289 -46.362625
0.108354 -45.33816 0.771438 167.15588 0.162484 16.009819 0.105999 29.110308
0.749281 161.80689 0.104775 -50.054706 0.107333 27.862413 0.178071 25.271109
420.0 0.229461 24.403464 0.158016 29.672236 0.122565 -78.006619 0.726648 132.231511
0.157736 30.020905 0.215194 26.108167 0.769525 136.378577 0.122989 -77.525278
0.120241 -77.529546 0.76059 136.440008 0.212487 23.197164 0.147338 31.657528
0.724295 131.979213 0.118339 -79.740387 0.1491 31.035568 0.232637 21.719298
430.0 0.255551 13.156653 0.187165 19.790665 0.127895 -112.815882 0.729124 103.040282
0.184735 20.329876 0.259832 13.551119 0.76368 105.926883 0.130645 -113.308207
0.125878 -112.72512 0.755825 106.02838 0.258597 16.818563 0.174143 21.749551
0.725443 102.905858 0.127755 -114.451163 0.176777 20.901546 0.256095 11.857616
440.0 0.241627 1.255818 0.186013 7.96272 0.127545 -146.839157 0.74642 72.395958
0.183215 9.100383 0.251093 -1.142449 0.763806 75.475354 0.129326 -148.641558
0.125728 -147.192623 0.754972 75.661731 0.273261 5.901701 0.17587 10.32785
0.743364 72.408146 0.129233 -149.811148 0.176497 9.31673 0.249043 2.28421
450.0 0.190304 -4.624645 0.158104 -0.641072 0.124244 -179.594585 0.754364 40.196957
0.156679 1.094024 0.197777 -10.255128 0.767781 44.579015 0.123098 178.383413
0.122695 179.756777 0.759829 44.947603 0.246563 -4.411456 0.154026 0.974019
0.75356 40.270642 0.124042 176.231623 0.15302 0.99414 0.211949 -3.618131
460.0 0.151734 9.06096 0.119508 3.639475 0.119211 150.05562 0.740176 7.942816
0.120728 5.802663 0.140379 0.035 0.766892 13.19544 0.116565 149.220631
0.117749 149.216766 0.760457 13.563068 0.190413 -5.429034 0.117066 2.684935
0.741375 7.899367 0.115668 146.396233 0.119154 4.14304 0.174564 4.53733
470.0 0.180074 23.851748 0.119328 23.507082 0.118554 122.827921 0.716743 -22.79932
0.122911 24.113764 0.1596 24.335112 0.759134 -18.100282 0.118158 123.193666
0.117574 122.212891 0.752802 -17.76073 0.170218 12.850882 0.113083 22.494115
0.717314 -23.011195 0.115482 121.121894 0.119182 21.632791 0.19558 18.003464
480.0 0.226878 23.659278 0.157403 29.000853 0.127662 94.946604 0.706975 -52.316306
0.158831 28.533857 0.225238 25.216764 0.747736 -49.08055 0.130677 94.591754
0.128042 94.076727 0.741453 -48.784426 0.227967 22.1691 0.152015 27.97078
0.705859 -52.554213 0.128197 93.328135 0.153657 25.496617 0.246631 17.395851
490.0 0.263102 15.569773 0.191295 21.993204 0.140133 62.451977 0.714727 -82.283322
0.189936 21.887734 0.269515 14.030541 0.736364 -79.487673 0.143693 60.74364
0.140444 60.992299 0.729025 -79.218198 0.285307 13.318614 0.184442 19.094285
0.71256 -82.49709 0.141777 59.704927 0.180925 18.047043 0.279714 7.486012
500.0 0.261724 3.843626 0.20103 10.153771 0.144906 27.342571 0.724776 -113.600719
0.198876 10.687215 0.268273 0.133287 0.733529 -109.562218 0.146989 24.923786
0.144023 25.757209 0.726147 -109.218477 0.291302 -0.320418 0.188299 5.967425
0.721409 -113.783972 0.145175 23.890791 0.185713 6.714803 0.266155 -4.565677
510.0 0.217971 -2.369979 0.176294 -0.239583 0.141272 -6.091336 0.721102 -145.647463
0.175069 0.82749 0.218887 -9.897152 0.737596 -140.106856 0.141293 -8.66319
0.139057 -7.320073 0.731095 -139.820649 0.246753 -10.401935 0.159393 -4.071109
0.716833 -145.743791 0.138926 -9.500215 0.161191 -2.683282 0.214965 -9.116712
520.0 0.182679 6.385064 0.134944 1.669369 0.138125 -36.212421 0.703303 -177.02538
0.135866 3.13261 0.157953 -1.915318 0.740238 -171.198497 0.136289 -38.133554
0.13562 -36.502714 0.733233 -170.991863 0.18629 -7.55497 0.122298 -1.329731
0.698996 -176.997832 0.134049 -38.341259 0.125788 -0.754014 0.183971 0.600491
530.0 0.205402 18.539028 0.13095 20.15973 0.141581 -65.616914 0.687963 152.936959
0.133926 20.422186 0.177058 20.779452 0.737647 157.486269 0.140155 -66.381263
0.140702 -65.330276 0.730521 157.655372 0.179063 11.028 0.113945 14.775179
0.684971 153.115801 0.139293 -66.272161 0.11694 14.869903 0.202328 10.74934
540.0 0.255273 17.627736 0.174441 25.577138 0.147366 -96.785538 0.688273 123.198237
0.175115 24.994197 0.248507 20.436322 0.729368 126.352527 0.148446 -97.175634
0.147638 -96.730678 0.72168 126.454795 0.232913 17.224338 0.141399 24.23539
0.688359 123.396061 0.148908 -97.340666 0.145559 23.883581 0.239253 11.249397
550.0 0.287986 8.763631 0.210983 16.401557 0.151192 -128.260356 0.696395 92.467171
0.208771 16.183687 0.291228 7.610077 0.719685 95.717409 0.153787 -129.373899
0.151146 -128.511893 0.711679 95.850699 0.278974 9.548108 0.176244 19.534539
0.698355 92.45163 0.154619 -130.098355 0.179941 18.656385 0.267386 4.975951
560.0 0.283555 -2.413275 0.214339 3.650301 0.15728 -159.467888 0.697756 60.904077
0.211023 4.134268 0.278214 -6.710089 0.714426 65.499874 0.157745 -161.304035
0.155921 -159.744956 0.707355 65.58056 0.283143 -1.932608 0.189532 7.953697
0.698593 60.723904 0.157813 -162.393163 0.191654 7.307711 0.267401 -4.383741
570.0 0.241255 -9.429439 0.184785 -6.478852 0.164338 167.321504 0.687927 29.489201
0.182986 -5.208567 0.222111 -15.096003 0.71683 35.202761 0.161455 166.145066
0.161718 167.512023 0.709135 35.183087 0.243807 -10.544962 0.169994 -3.284844
0.687642 29.331935 0.161054 165.037114 0.172612 -3.702626 0.232398 -10.940845
580.0 0.199554 -5.550545 0.139869 -5.486065 0.163218 133.136693 0.675696 -0.913948
0.141533 -3.940759 0.165116 -7.020318 0.721789 4.21395 0.160363 133.324888
0.161063 133.908438 0.713888 4.203533 0.189468 -7.133925 0.129169 -4.507364
0.675574 -1.065802 0.160082 132.116761 0.130385 -5.768569 0.192741 -7.124404
590.0 0.1954 5.924479 0.129202 12.981965 0.155604 102.157046 0.67573 -30.785917
0.132199 12.703148 0.179956 12.922344 0.71885 -27.253608 0.155936 102.890349
0.155014 102.875784 0.711404 -27.324252 0.185575 9.643874 0.113465 13.892595
0.675027 -31.023654 0.155657 101.501796 0.111371 14.028851 0.188838 4.703996
600.0 0.234883 10.667244 0.168622 20.648115 0.156097 74.877744 0.684469 -61.559986
0.167552 19.893567 0.23935 12.758404 0.707442 -58.32404 0.158736 74.714868
0.155378 74.935344 0.699739 -58.386437 0.232772 15.278473 0.148222 24.747646
0.681574 -61.826418 0.158338 73.132817 0.150023 26.050133 0.224532 10.263733
610.0 0.268261 3.295108 0.206304 13.009337 0.169079 45.463407 0.685413 -93.181466
0.202655 13.227814 0.268393 1.742156 0.696771 -88.641588 0.170527 44.261206
0.166486 45.410516 0.690512 -88.629515 0.274374 9.731747 0.188149 18.729053
0.680301 -93.278831 0.16951 42.496317 0.193201 19.131415 0.258884 5.119483
620.0 0.258837 -5.926535 0.212804 -0.129462 0.180913 11.715133 0.675203 -124.475381
0.210337 1.024619 0.250344 -9.897393 0.694457 -118.571774 0.179845 10.300076
0.177742 12.027013 0.690007 -118.597597 0.28415 0.250522 0.203713 6.063509
0.670913 -124.274553 0.177538 8.620626 0.208094 5.951357 0.261872 -2.683098
630.0 0.22367 -9.737114 0.17816 -11.407916 0.181931 -23.125324 0.664817 -154.815739
0.17977 -10.020237 0.196404 -14.459147 0.702246 -148.939228 0.179069 -24.412823
0.179684 -22.749324 0.69894 -149.01483 0.253509 -7.1868 0.181107 -6.70499
