! File created by SignalIntegrity v1.1.13: Signal and Power Integrity Tools
! https://github.com/TeledyneLeCroy/SignalIntegrity
# MHz S MA R 50.0
0.0 6e-06 0.0 0.999769 0.0 0.999769 0.0 6e-06 0.0
10.0 0.004127 66.400692 0.997779 -1.33608 0.997779 -1.33608 0.004127 66.400692
20.0 0.006915 69.865595 0.996821 -2.612496 0.996821 -2.612496 0.006915 69.865595
30.0 0.009507 71.321459 0.996029 -3.879028 0.996029 -3.879028 0.009507 71.321459
40.0 0.011999 71.924953 0.995319 -5.140406 0.995319 -5.140406 0.011999 71.924953
50.0 0.014425 72.061376 0.994661 -6.39846 0.994661 -6.39846 0.014425 72.061376
60.0 0.016802 71.905835 0.994038 -7.654122 0.994038 -7.654122 0.016802 71.905835
70.0 0.019139 71.55216 0.993442 -8.907945 0.993442 -8.907945 0.019139 71.55216
80.0 0.021442 71.056191 0.992865 -10.160284 0.992865 -10.160284 0.021442 71.056191
90.0 0.023714 70.453689 0.992303 -11.411383 0.992303 -11.411383 0.023714 70.453689
100.0 0.025957 69.768842 0.991753 -12.661419 0.991753 -12.661419 0.025957 69.768842
110.0 0.028174 69.018716 0.991214 -13.910523 0.991214 -13.910523 0.028174 69.018716
120.0 0.030365 68.21577 0.990683 -15.158793 0.990683 -15.158793 0.030365 68.21577
130.0 0.032531 67.369349 0.990159 -16.406308 0.990159 -16.406308 0.032531 67.369349
140.0 0.034671 66.486633 0.98964 -17.65313 0.98964 -17.65313 0.034671 66.486633
150.0 0.036786 65.573244 0.989127 -18.899307 0.989127 -18.899307 0.036786 65.573244
160.0 0.038876 64.633659 0.988618 -20.14488 0.988618 -20.14488 0.038876 64.633659
170.0 0.04094 63.671497 0.988113 -21.389883 0.988113 -21.389883 0.04094 63.671497
180.0 0.042979 62.689721 0.987611 -22.634342 0.987611 -22.634342 0.042979 62.689721
190.0 0.044992 61.690786 0.987112 -23.878281 0.987112 -23.878281 0.044992 61.690786
200.0 0.046978 60.676744 0.986616 -25.12172 0.986616 -25.12172 0.046978 60.676744
210.0 0.048936 59.649329 0.986122 -26.364675 0.986122 -26.364675 0.048936 59.649329
220.0 0.050868 58.610014 0.98563 -27.60716 0.98563 -27.60716 0.050868 58.610014
230.0 0.052771 57.560066 0.985141 -28.849188 0.985141 -28.849188 0.052771 57.560066
240.0 0.054645 56.500576 0.984653 -30.09077 0.984653 -30.09077 0.054645 56.500576
250.0 0.05649 55.432494 0.984167 -31.331914 0.984167 -31.331914 0.05649 55.432494
260.0 0.058305 54.356649 0.983684 -32.572631 0.983684 -32.572631 0.058305 54.356649
270.0 0.06009 53.273768 0.983202 -33.812927 0.983202 -33.812927 0.06009 53.273768
280.0 0.061844 52.184495 0.982721 -35.052809 0.982721 -35.052809 0.061844 52.184495
290.0 0.063566 51.0894 0.982243 -36.292285 0.982243 -36.292285 0.063566 51.0894
300.0 0.065256 49.98899 0.981767 -37.531359 0.981767 -37.531359 0.065256 49.98899
310.0 0.066913 48.883719 0.981292 -38.770039 0.981292 -38.770039 0.066913 48.883719
320.0 0.068536 47.773994 0.980819 -40.008329 0.980819 -40.008329 0.068536 47.773994
330.0 0.070126 46.660181 0.980349 -41.246235 0.980349 -41.246235 0.070126 46.660181
340.0 0.071681 45.542611 0.97988 -42.483762 0.97988 -42.483762 0.071681 45.542611
350.0 0.0732 44.421584 0.979414 -43.720917 0.979414 -43.720917 0.0732 44.421584
360.0 0.074685 43.297371 0.97895 -44.957703 0.97895 -44.957703 0.074685 43.297371
370.0 0.076132 42.170222 0.978488 -46.194127 0.978488 -46.194127 0.076132 42.170222
380.0 0.077544 41.040362 0.978029 -47.430195 0.978029 -47.430195 0.077544 41.040362
390.0 0.078918 39.907998 0.977572 -48.665911 0.977572 -48.665911 0.078918 39.907998
400.0 0.080254 38.773321 0.977118 -49.901283 0.977118 -49.901283 0.080254 38.773321
410.0 0.081552 37.636506 0.976667 -51.136314 0.976667 -51.136314 0.081552 37.636506
420.0 0.082811 36.497713 0.976219 -52.371013 0.976219 -52.371013 0.082811 36.497713
430.0 0.084031 35.357092 0.975773 -53.605386 0.975773 -53.605386 0.084031 35.357092
440.0 0.085211 34.214779 0.975331 -54.839438 0.975331 -54.839438 0.085211 34.214779
450.0 0.086352 33.070903 0.974892 -56.073177 0.974892 -56.073177 0.086352 33.070903
460.0 0.087452 31.925582 0.974456 -57.306611 0.974456 -57.306611 0.087452 31.925582
470.0 0.088511 30.778926 0.974024 -58.539745 0.974024 -58.539745 0.088511 30.778926
480.0 0.089528 29.631038 0.973595 -59.772589 0.973595 -59.772589 0.089528 29.631038
490.0 0.090505 28.482014 0.97317 -61.005149 0.97317 -61.005149 0.090505 28.482014
500.0 0.091439 27.331944 0.972749 -62.237435 0.972749 -62.237435 0.091439 27.331944
510.0 0.092331 26.180912 0.972332 -63.469453 0.972332 -63.469453 0.092331 26.180912
520.0 0.09318 25.028997 0.971918 -64.701213 0.971918 -64.701213 0.09318 25.028997
530.0 0.093987 23.876274 0.971509 -65.932724 0.971509 -65.932724 0.093987 23.876274
540.0 0.09475 22.722813 0.971104 -67.163994 0.971104 -67.163994 0.09475 22.722813
550.0 0.09547 21.56868 0.970703 -68.395033 0.970703 -68.395033 0.09547 21.56868
560.0 0.096146 20.413939 0.970306 -69.62585 0.970306 -69.62585 0.096146 20.413939
570.0 0.096779 19.258649 0.969914 -70.856455 0.969914 -70.856455 0.096779 19.258649
580.0 0.097367 18.102866 0.969526 -72.086858 0.969526 -72.086858 0.097367 18.102866
590.0 0.097911 16.946647 0.969143 -73.317069 0.969143 -73.317069 0.097911 16.946647
600.0 0.09841 15.790042 0.968764 -74.547098 0.968764 -74.547098 0.09841 15.790042
610.0 0.098865 14.633102 0.968391 -75.776956 0.968391 -75.776956 0.098865 14.633102
620.0 0.099275 13.475875 0.968021 -77.006652 0.968021 -77.006652 0.099275 13.475875
630.0 0.099641 12.318408 0.967657 -78.236199 0.967657 -78.236199 0.099641 12.318408
640.0 0.099961 11.160746 0.967298 -79.465605 0.967298 -79.465605 0.099961 11.160746
650.0 0.100236 10.002934 0.966943 -80.694883 0.966943 -80.694883 0.100236 10.002934
660.0 0.100467 8.845014 0.966593 -81.924044 0.966593 -81.924044 0.100467 8.845014
670.0 0.100652 7.68703 0.966249 -83.153098 0.966249 -83.153098 0.100652 7.68703
680.0 0.100791 6.529022 0.965909 -84.382057 0.965909 -84.382057 0.100791 6.529022
690.0 0.100886 5.371033 0.965574 -85.610932 0.965574 -85.610932 0.100886 5.371033
700.0 0.100935 4.213104 0.965244 -86.839734 0.965244 -86.839734 0.100935 4.213104
710.0 0.10094 3.055276 0.964919 -88.068475 0.964919 -88.068475 0.10094 3.055276
720.0 0.100899 1.897592 0.964599 -89.297165 0.964599 -89.297165 0.100899 1.897592
730.0 0.100813 0.740091 0.964284 -90.525816 0.964284 -90.525816 0.100813 0.740091
740.0 0.100682 -0.417182 0.963974 -91.75444 0.963974 -91.75444 0.100682 -0.417182
750.0 0.100507 -1.574186 0.963669 -92.983046 0.963669 -92.983046 0.100507 -1.574186
760.0 0.100286 -2.730875 0.963368 -94.211648 0.963368 -94.211648 0.100286 -2.730875
770.0 0.100021 -3.887204 0.963073 -95.440254 0.963073 -95.440254 0.100021 -3.887204
780.0 0.099712 -5.043128 0.962782 -96.668877 0.962782 -96.668877 0.099712 -5.043128
790.0 0.099358 -6.198597 0.962496 -97.897528 0.962496 -97.897528 0.099358 -6.198597
800.0 0.09896 -7.353562 0.962214 -99.126216 0.962214 -99.126216 0.09896 -7.353562
810.0 0.098519 -8.507971 0.961938 -100.354952 0.961938 -100.354952 0.098519 -8.507971
820.0 0.098033 -9.661769 0.961665 -101.583748 0.961665 -101.583748 0.098033 -9.661769
830.0 0.097505 -10.8149 0.961397 -102.812612 0.961397 -102.812612 0.097505 -10.8149
840.0 0.096933 -11.967304 0.961134 -104.041555 0.961134 -104.041555 0.096933 -11.967304
850.0 0.096318 -13.118916 0.960874 -105.270587 0.960874 -105.270587 0.096318 -13.118916
860.0 0.095661 -14.269672 0.960619 -106.499717 0.960619 -106.499717 0.095661 -14.269672
870.0 0.094961 -15.4195 0.960368 -107.728955 0.960368 -107.728955 0.094961 -15.4195
880.0 0.09422 -16.568325 0.96012 -108.95831 0.96012 -108.95831 0.09422 -16.568325
890.0 0.093437 -17.716067 0.959877 -110.18779 0.959877 -110.18779 0.093437 -17.716067
900.0 0.092613 -18.862642 0.959637 -111.417404 0.959637 -111.417404 0.092613 -18.862642
910.0 0.091748 -20.007959 0.959401 -112.64716 0.959401 -112.64716 0.091748 -20.007959
920.0 0.090843 -21.15192 0.959168 -113.877065 0.959168 -113.877065 0.090843 -21.15192
930.0 0.089898 -22.294421 0.958938 -115.107129 0.958938 -115.107129 0.089898 -22.294421
940.0 0.088913 -23.435351 0.958712 -116.337357 0.958712 -116.337357 0.088913 -23.435351
950.0 0.087889 -24.574588 0.958488 -117.567757 0.958488 -117.567757 0.087889 -24.574588
960.0 0.086827 -25.712002 0.958268 -118.798335 0.958268 -118.798335 0.086827 -25.712002
970.0 0.085726 -26.847454 0.95805 -120.029097 0.95805 -120.029097 0.085726 -26.847454
980.0 0.084588 -27.980791 0.957834 -121.260049 0.957834 -121.260049 0.084588 -27.980791
990.0 0.083413 -29.111848 0.957621 -122.491197 0.957621 -122.491197 0.083413 -29.111848
1000.0 0.082202 -30.240446 0.957411 -123.722545 0.957411 -123.722545 0.082202 -30.240446
1010.0 0.080954 -31.366392 0.957202 -124.954097 0.957202 -124.954097 0.080954 -31.366392
1020.0 0.079672 -32.489472 0.956995 -126.185859 0.956995 -126.185859 0.079672 -32.489472
1030.0 0.078354 -33.609454 0.95679 -127.417834 0.95679 -127.417834 0.078354 -33.609454
1040.0 0.077003 -34.726085 0.956586 -128.650025 0.956586 -128.650025 0.077003 -34.726085
1050.0 0.075617 -35.839086 0.956384 -129.882435 0.956384 -129.882435 0.075617 -35.839086
1060.0 0.074199 -36.948151 0.956183 -131.115066 0.956183 -131.115066 0.074199 -36.948151
1070.0 0.072749 -38.052942 0.955983 -132.347921 0.955983 -132.347921 0.072749 -38.052942
1080.0 0.071267 -39.153085 0.955783 -133.581 0.955783 -133.581 0.071267 -39.153085
1090.0 0.069755 -40.248169 0.955585 -134.814306 0.955585 -134.814306 0.069755 -40.248169
1100.0 0.068212 -41.337733 0.955387 -136.047838 0.955387 -136.047838 0.068212 -41.337733
1110.0 0.06664 -42.421266 0.955189 -137.281598 0.955189 -137.281598 0.06664 -42.421266
1120.0 0.06504 -43.498198 0.954991 -138.515584 0.954991 -138.515584 0.06504 -43.498198
1130.0 0.063411 -44.567887 0.954793 -139.749796 0.954793 -139.749796 0.063411 -44.567887
1140.0 0.061756 -45.629612 0.954595 -140.984234 0.954595 -140.984234 0.061756 -45.629612
1150.0 0.060074 -46.682562 0.954397 -142.218894 0.954397 -142.218894 0.060074 -46.682562
1160.0 0.058367 -47.725814 0.954198 -143.453776 0.954198 -143.453776 0.058367 -47.725814
1170.0 0.056635 -48.758321 0.953998 -144.688877 0.953998 -144.688877 0.056635 -48.758321
1180.0 0.05488 -49.778883 0.953797 -145.924194 0.953797 -145.924194 0.05488 -49.778883
1190.0 0.053101 -50.786126 0.953595 -147.159724 0.953595 -147.159724 0.053101 -50.786126
1200.0 0.051301 -51.778464 0.953392 -148.395463 0.953392 -148.395463 0.051301 -51.778464
1210.0 0.049479 -52.754055 0.953188 -149.631408 0.953188 -149.631408 0.049479 -52.754055
1220.0 0.047638 -53.710753 0.952982 -150.867552 0.952982 -150.867552 0.047638 -53.710753
1230.0 0.045777 -54.646038 0.952774 -152.103892 0.952774 -152.103892 0.045777 -54.646038
1240.0 0.043898 -55.556933 0.952564 -153.340423 0.952564 -153.340423 0.043898 -55.556933
1250.0 0.042003 -56.439895 0.952353 -154.577138 0.952353 -154.577138 0.042003 -56.439895
1260.0 0.040091 -57.290672 0.952139 -155.814032 0.952139 -155.814032 0.040091 -57.290672
1270.0 0.038164 -58.104123 0.951923 -157.051098 0.951923 -157.051098 0.038164 -58.104123
1280.0 0.036224 -58.873968 0.951704 -158.288329 0.951704 -158.288329 0.036224 -58.873968
1290.0 0.034271 -59.592457 0.951483 -159.525719 0.951483 -159.525719 0.034271 -59.592457
1300.0 0.032307 -60.249923 0.951259 -160.76326 0.951259 -160.76326 0.032307 -60.249923
1310.0 0.030334 -60.834143 0.951032 -162.000944 0.951032 -162.000944 0.030334 -60.834143
1320.0 0.028353 -61.329459 0.950803 -163.238764 0.950803 -163.238764 0.028353 -61.329459
1330.0 0.026365 -61.715484 0.95057 -164.476711 0.95057 -164.476711 0.026365 -61.715484
1340.0 0.024374 -61.965205 0.950335 -165.714778 0.950335 -165.714778 0.024374 -61.965205
1350.0 0.022382 -62.042115 0.950096 -166.952954 0.950096 -166.952954 0.022382 -62.042115
1360.0 0.020393 -61.895746 0.949854 -168.191231 0.949854 -168.191231 0.020393 -61.895746
1370.0 0.018409 -61.454517 0.949609 -169.4296 0.949609 -169.4296 0.018409 -61.454517
1380.0 0.016439 -60.6139 0.94936 -170.668052 0.94936 -170.668052 0.016439 -60.6139
1390.0 0.01449 -59.216164 0.949108 -171.906577 0.949108 -171.906577 0.01449 -59.216164
1400.0 0.012576 -57.014565 0.948852 -173.145166 0.948852 -173.145166 0.012576 -57.014565
1410.0 0.010718 -53.608746 0.948592 -174.383809 0.948592 -174.383809 0.010718 -53.608746
1420.0 0.008957 -48.330393 0.948329 -175.622496 0.948329 -175.622496 0.008957 -48.330393
1430.0 0.007362 -40.072416 0.948063 -176.861216 0.948063 -176.861216 0.007362 -40.072416
1440.0 0.006069 -27.239479 0.947792 -178.09996 0.947792 -178.09996 0.006069 -27.239479
1450.0 0.005306 -8.787028 0.947518 -179.338718 0.947518 -179.338718 0.005306 -8.787028
1460.0 0.005303 12.632534 0.947241 179.42252 0.947241 179.42252 0.005303 12.632534
1470.0 0.006061 31.084504 0.946959 178.183765 0.946959 178.183765 0.006061 31.084504
1480.0 0.007344 43.917181 0.946674 176.945027 0.946674 176.945027 0.007344 43.917181
1490.0 0.008926 52.175387 0.946385 175.706315 0.946385 175.706315 0.008926 52.175387
1500.0 0.010672 57.454416 0.946093 174.467641 0.946093 174.467641 0.010672 57.454416
1510.0 0.012508 60.861285 0.945796 173.229014 0.945796 173.229014 0.012508 60.861285
1520.0 0.014398 63.064259 0.945497 171.990444 0.945497 171.990444 0.014398 63.064259
1530.0 0.016319 64.463668 0.945193 170.751941 0.945193 170.751941 0.016319 64.463668
1540.0 0.018257 65.306239 0.944886 169.513515 0.944886 169.513515 0.018257 65.306239
1550.0 0.020204 65.749697 0.944576 168.275176 0.944576 168.275176 0.020204 65.749697
1560.0 0.022154 65.898563 0.944262 167.036932 0.944262 167.036932 0.022154 65.898563
1570.0 0.024102 65.824416 0.943945 165.798794 0.943945 165.798794 0.024102 65.824416
1580.0 0.026045 65.577724 0.943624 164.56077 0.943624 164.56077 0.026045 65.577724
1590.0 0.02798 65.194993 0.943301 163.32287 0.943301 163.32287 0.02798 65.194993
1600.0 0.029906 64.703236 0.942974 162.085102 0.942974 162.085102 0.029906 64.703236
1610.0 0.03182 64.122841 0.942644 160.847475 0.942644 160.847475 0.03182 64.122841
1620.0 0.033721 63.469469 0.942311 159.609997 0.942311 159.609997 0.033721 63.469469
1630.0 0.035607 62.755342 0.941976 158.372675 0.941976 158.372675 0.035607 62.755342
1640.0 0.037477 61.990131 0.941637 157.135519 0.941637 157.135519 0.037477 61.990131
1650.0 0.039331 61.181587 0.941296 155.898534 0.941296 155.898534 0.039331 61.181587
1660.0 0.041165 60.335992 0.940953 154.661729 0.940953 154.661729 0.041165 60.335992
1670.0 0.042981 59.45849 0.940607 153.425109 0.940607 153.425109 0.042981 59.45849
1680.0 0.044775 58.553335 0.940259 152.188683 0.940259 152.188683 0.044775 58.553335
1690.0 0.046549 57.624073 0.939909 150.952455 0.939909 150.952455 0.046549 57.624073
1700.0 0.0483 56.673685 0.939557 149.716431 0.939557 149.716431 0.0483 56.673685
1710.0 0.050028 55.704692 0.939203 148.480617 0.939203 148.480617 0.050028 55.704692
1720.0 0.051732 54.719246 0.938848 147.245018 0.938848 147.245018 0.051732 54.719246
1730.0 0.053411 53.719191 0.938491 146.009638 0.938491 146.009638 0.053411 53.719191
1740.0 0.055064 52.706115 0.938132 144.774483 0.938132 144.774483 0.055064 52.706115
1750.0 0.056691 51.681399 0.937772 143.539555 0.937772 143.539555 0.056691 51.681399
1760.0 0.05829 50.646245 0.937412 142.304858 0.937412 142.304858 0.05829 50.646245
1770.0 0.059861 49.601706 0.93705 141.070395 0.93705 141.070395 0.059861 49.601706
1780.0 0.061403 48.548706 0.936688 139.836169 0.936688 139.836169 0.061403 48.548706
1790.0 0.062916 47.488065 0.936325 138.602182 0.936325 138.602182 0.062916 47.488065
1800.0 0.064399 46.420507 0.935961 137.368437 0.935961 137.368437 0.064399 46.420507
1810.0 0.06585 45.346678 0.935597 136.134933 0.935597 136.134933 0.06585 45.346678
1820.0 0.06727 44.267155 0.935234 134.901673 0.935234 134.901673 0.06727 44.267155
1830.0 0.068658 43.182455 0.93487 133.668657 0.93487 133.668657 0.068658 43.182455
1840.0 0.070014 42.093043 0.934506 132.435884 0.934506 132.435884 0.070014 42.093043
1850.0 0.071335 40.999337 0.934143 131.203355 0.934143 131.203355 0.071335 40.999337
1860.0 0.072623 39.901719 0.93378 129.97107 0.93378 129.97107 0.072623 39.901719
1870.0 0.073877 38.800531 0.933418 128.739026 0.933418 128.739026 0.073877 38.800531
1880.0 0.075095 37.696088 0.933057 127.507222 0.933057 127.507222 0.075095 37.696088
1890.0 0.076278 36.588675 0.932697 126.275656 0.932697 126.275656 0.076278 36.588675
1900.0 0.077424 35.478553 0.932338 125.044327 0.932338 125.044327 0.077424 35.478553
1910.0 0.078534 34.365964 0.93198 123.81323 0.93198 123.81323 0.078534 34.365964
1920.0 0.079608 33.251127 0.931624 122.582363 0.931624 122.582363 0.079608 33.251127
1930.0 0.080643 32.134246 0.931269 121.351722 0.931269 121.351722 0.080643 32.134246
1940.0 0.081641 31.015509 0.930917 120.121304 0.930917 120.121304 0.081641 31.015509
1950.0 0.082601 29.89509 0.930566 118.891104 0.930566 118.891104 0.082601 29.89509
1960.0 0.083521 28.773151 0.930217 117.661117 0.930217 117.661117 0.083521 28.773151
1970.0 0.084403 27.649844 0.92987 116.431338 0.92987 116.431338 0.084403 27.649844
1980.0 0.085245 26.525309 0.929525 115.201762 0.929525 115.201762 0.085245 26.525309
1990.0 0.086048 25.399678 0.929183 113.972383 0.929183 113.972383 0.086048 25.399678
2000.0 0.08681 24.273075 0.928844 112.743194 0.928844 112.743194 0.08681 24.273075
2010.0 0.087533 23.145617 0.928507 111.514191 0.928507 111.514191 0.087533 23.145617
2020.0 0.088214 22.017415 0.928173 110.285364 0.928173 110.285364 0.088214 22.017415
2030.0 0.088855 20.888572 0.927842 109.056709 0.927842 109.056709 0.088855 20.888572
2040.0 0.089454 19.759189 0.927514 107.828217 0.927514 107.828217 0.089454 19.759189
2050.0 0.090012 18.62936 0.927189 106.599881 0.927189 106.599881 0.090012 18.62936
2060.0 0.090529 17.499176 0.926867 105.371693 0.926867 105.371693 0.090529 17.499176
2070.0 0.091004 16.368725 0.926549 104.143646 0.926549 104.143646 0.091004 16.368725
2080.0 0.091437 15.23809 0.926233 102.91573 0.926233 102.91573 0.091437 15.23809
2090.0 0.091828 14.107354 0.925922 101.687937 0.925922 101.687937 0.091828 14.107354
2100.0 0.092176 12.976594 0.925613 100.460259 0.925613 100.460259 0.092176 12.976594
2110.0 0.092483 11.84589 0.925309 99.232687 0.925309 99.232687 0.092483 11.84589
2120.0 0.092746 10.715316 0.925007 98.005211 0.925007 98.005211 0.092746 10.715316
2130.0 0.092968 9.584947 0.92471 96.777823 0.92471 96.777823 0.092968 9.584947
2140.0 0.093147 8.454857 0.924416 95.550514 0.924416 95.550514 0.093147 8.454857
2150.0 0.093283 7.325119 0.924126 94.323274 0.924126 94.323274 0.093283 7.325119
2160.0 0.093377 6.195806 0.92384 93.096093 0.92384 93.096093 0.093377 6.195806
2170.0 0.093428 5.066992 0.923558 91.868962 0.923558 91.868962 0.093428 5.066992
2180.0 0.093437 3.93875 0.923279 90.641871 0.923279 90.641871 0.093437 3.93875
2190.0 0.093403 2.811154 0.923004 89.414811 0.923004 89.414811 0.093403 2.811154
2200.0 0.093327 1.68428 0.922734 88.187772 0.922734 88.187772 0.093327 1.68428
2210.0 0.093208 0.558205 0.922467 86.960744 0.922467 86.960744 0.093208 0.558205
2220.0 0.093047 -0.566992 0.922203 85.733718 0.922203 85.733718 0.093047 -0.566992
2230.0 0.092844 -1.691232 0.921944 84.506683 0.921944 84.506683 0.092844 -1.691232
2240.0 0.092598 -2.814429 0.921688 83.279631 0.921688 83.279631 0.092598 -2.814429
2250.0 0.092311 -3.9365 0.921437 82.052552 0.921437 82.052552 0.092311 -3.9365
2260.0 0.091982 -5.057354 0.921189 80.825435 0.921189 80.825435 0.091982 -5.057354
2270.0 0.091611 -6.176898 0.920944 79.598273 0.920944 79.598273 0.091611 -6.176898
2280.0 0.0912 -7.295035 0.920704 78.371054 0.920704 78.371054 0.0912 -7.295035
2290.0 0.090746 -8.411664 0.920467 77.143771 0.920467 77.143771 0.090746 -8.411664
2300.0 0.090252 -9.526679 0.920233 75.916415 0.920233 75.916415 0.090252 -9.526679
2310.0 0.089718 -10.639966 0.920003 74.688975 0.920003 74.688975 0.089718 -10.639966
2320.0 0.089142 -11.751408 0.919776 73.461445 0.919776 73.461445 0.089142 -11.751408
2330.0 0.088527 -12.86088 0.919553 72.233814 0.919553 72.233814 0.088527 -12.86088
2340.0 0.087872 -13.968248 0.919333 71.006075 0.919333 71.006075 0.087872 -13.968248
