! File created by SignalIntegrity v1.1.13: Signal and Power Integrity Tools
! https://github.com/TeledyneLeCroy/SignalIntegrity
# MHz S MA R 50.0
0.0 0.02672 0.0 1.003052 0.0 0.011375 0.0 0.01354 180.0
1.007345 0.0 0.075482 0.0 0.010576 0.0 0.00449 0.0
0.00247 0.0 0.001237 180.0 0.089246 0.0 0.988664 0.0
0.017685 180.0 0.021968 180.0 0.974182 0.0 0.108467 0.0
5.0 0.03158 15.248149 0.999464 -16.549924 0.011522 -24.992171 0.013949 165.097546
1.000895 -16.903564 0.074247 -8.783872 0.013 -6.496368 0.004894 -51.43596
0.003377 -36.494037 0.005513 -139.323908 0.108221 21.667454 0.982757 -17.83615
0.016369 129.979061 0.021144 158.318856 0.96583 -18.052564 0.120311 13.065966
10.0 0.041905 16.125409 0.990302 -32.8616 0.011803 -52.412732 0.014629 146.555939
0.985545 -33.311042 0.070441 -17.436776 0.016597 -33.613546 0.005533 -95.079839
0.005728 -72.489843 0.009913 -168.905184 0.144737 27.203037 0.965238 -35.473398
0.012698 79.474873 0.018714 135.754933 0.943863 -35.617658 0.142382 17.033899
15.0 0.051866 7.090537 0.97948 -48.816725 0.011932 -83.227241 0.01459 124.615659
0.970277 -49.061579 0.064188 -25.482838 0.017738 -72.350758 0.005363 -132.847621
0.008595 -107.515378 0.012785 159.418786 0.177315 24.548229 0.937495 -52.653566
0.007489 26.275634 0.014825 110.97764 0.915478 -52.426729 0.158304 15.926467
20.0 0.05768 -6.982267 0.970982 -64.478472 0.011803 -117.198521 0.013277 101.893814
0.962144 -64.437902 0.056206 -32.376802 0.015831 -118.520647 0.003647 -167.32639
0.010945 -140.903022 0.013889 130.040364 0.19965 19.374878 0.903439 -69.089591
0.002312 -53.05778 0.009869 80.785326 0.887332 -68.510044 0.165705 14.485503
25.0 0.057107 -23.390426 0.966552 -80.043725 0.011572 -153.5534 0.010869 82.247681
0.96118 -79.899018 0.047113 -37.917251 0.012241 -173.108872 0.000332 177.578803
0.012149 -171.77223 0.013593 105.206381 0.21185 13.650486 0.869471 -84.594545
0.003458 154.017784 0.005014 30.981802 0.862227 -84.043227 0.170158 14.161043
30.0 0.049707 -40.127422 0.96493 -95.701835 0.011528 168.863205 0.008315 71.478039
0.961865 -95.669175 0.036714 -41.204632 0.00919 122.245556 0.003959 -55.783677
0.012279 160.686585 0.012773 86.31416 0.214756 7.902885 0.842443 -99.216153
0.005832 97.352471 0.004423 -63.583447 0.840336 -99.09173 0.175521 14.061793
35.0 0.037086 -54.732063 0.963198 -111.505958 0.011891 131.470219 0.007182 72.605364
0.959084 -111.610548 0.025507 -36.392806 0.007654 55.88734 0.00807 -84.120447
0.011982 136.123752 0.012344 72.310728 0.208221 2.464611 0.827165 -113.250024
0.005717 54.431253 0.00747 -114.744495 0.823451 -113.568747 0.180884 13.264683
40.0 0.022608 -61.929503 0.959172 -127.356809 0.012686 95.388138 0.008037 71.690199
0.952367 -127.437016 0.019467 -9.169887 0.006144 0.050089 0.011166 -109.631062
0.011858 111.735499 0.012563 59.689025 0.192271 -1.951123 0.825562 -127.126067
0.003447 25.71913 0.009499 -141.355174 0.817002 -127.523958 0.184126 11.675017
45.0 0.01143 -43.56673 0.953005 -143.098357 0.013757 60.963735 0.009502 60.161824
0.945206 -142.99695 0.026294 15.870094 0.003498 -42.266526 0.013175 -131.402675
0.011926 83.728079 0.013054 46.438511 0.168574 -4.034777 0.837256 -141.307521
0.00204 68.138276 0.010244 -157.350079 0.826396 -141.455408 0.183142 9.367507
50.0 0.011458 5.517521 0.946934 -158.647422 0.014847 27.932542 0.010527 43.181007
0.941155 -158.38024 0.037292 16.95189 0.000736 -7.689355 0.014622 -150.947737
0.011903 50.365876 0.013547 33.039872 0.141296 -1.472385 0.859401 -156.246385
0.004837 72.148932 0.010801 -166.98185 0.850611 -156.162116 0.174342 6.847791
55.0 0.017685 22.000707 0.943418 -174.064832 0.01569 -4.184659 0.010928 25.024632
0.940804 -173.793699 0.045196 9.251778 0.002979 36.616847 0.015625 -171.591738
0.011743 12.314939 0.014128 19.855634 0.119493 9.342993 0.885471 -172.277994
0.006851 44.693042 0.011697 -177.339337 0.88018 -172.185554 0.155099 6.410125
60.0 0.024371 23.842637 0.943128 170.488366 0.016059 -35.862964 0.010895 7.389443
0.942096 170.633403 0.04827 -0.170921 0.004624 16.70396 0.015425 164.66392
0.011639 -28.152003 0.014862 6.071256 0.119699 27.810693 0.905432 170.550577
0.006984 18.367595 0.011995 167.682587 0.901844 170.520175 0.131831 13.288539
65.0 0.030994 19.475969 0.944362 154.879022 0.015782 -67.466898 0.010622 -9.483793
0.9427 154.913565 0.046992 -8.701797 0.005513 4.451564 0.013222 138.282744
0.011661 -67.977941 0.015514 -9.023079 0.150832 41.327495 0.908747 152.568642
0.005931 3.747664 0.01065 150.156895 0.904857 152.461915 0.127933 30.475002
70.0 0.036336 10.913753 0.944369 139.10634 0.014766 -99.104331 0.01016 -25.617553
0.94153 139.128171 0.042589 -14.726634 0.006989 -4.22655 0.009094 111.109811
0.011579 -104.746584 0.01574 -24.995857 0.200149 43.767895 0.888804 134.433023
0.005775 3.98248 0.00767 135.215027 0.884578 134.3579 0.161827 43.975438
75.0 0.038962 0.193195 0.94147 123.299351 0.013055 -130.404603 0.009522 -40.366103
0.938535 123.350546 0.036982 -16.261107 0.00909 -20.684009 0.004116 87.248476
0.011061 -137.192671 0.015406 -40.673011 0.250515 38.880871 0.846453 117.015647
0.007192 -3.202757 0.004254 134.964397 0.843278 117.002243 0.216043 44.989969
80.0 0.038325 -10.981807 0.93633 107.616987 0.010917 -160.250205 0.008878 -52.538225
0.93405 107.637581 0.033013 -12.508154 0.010476 -43.693391 0.000638 173.881135
0.009991 -164.166621 0.014679 -54.904732 0.289102 30.341104 0.791449 101.244938
0.008293 -22.087238 0.002852 174.172022 0.789985 101.204118 0.267035 38.536307
85.0 0.034666 -21.677158 0.931446 92.124739 0.008881 173.231132 0.008576 -61.996763
0.928873 92.041976 0.032045 -7.858522 0.010172 -67.52031 0.003173 -156.954733
0.008741 176.152449 0.013911 -67.132724 0.30803 20.411075 0.741168 87.761171
0.008013 -42.297553 0.0041 -158.207357 0.740031 87.588122 0.30103 28.985739
90.0 0.028264 -31.205915 0.929165 76.738068 0.007632 150.771743 0.008847 -71.209408
0.924512 76.579477 0.031551 -6.455445 0.008317 -85.339519 0.004507 -166.835419
0.008177 163.111874 0.013441 -77.797577 0.30499 10.588523 0.715081 76.270165
0.006856 -54.42423 0.005899 -152.040252 0.712125 76.021277 0.312335 18.637007
95.0 0.019345 -36.528037 0.929726 61.288461 0.007558 127.800508 0.009505 -82.95643
0.922441 61.178884 0.029087 -4.643753 0.006526 -87.064913 0.005414 -174.062855
0.008692 148.149557 0.013415 -88.296624 0.282596 1.961276 0.724405 65.178909
0.006553 -55.225185 0.008105 -155.988207 0.719456 65.053501 0.301217 8.758693
100.0 0.010087 -18.587716 0.931059 45.667098 0.008334 98.422523 0.010154 -97.274104
0.922654 45.707418 0.026803 3.99834 0.007178 -80.150864 0.006201 174.427307
0.009425 124.061012 0.013711 -100.091683 0.245735 -4.521127 0.764152 52.556219
0.00785 -60.817285 0.010046 -168.302054 0.759343 52.628052 0.270874 0.13767
105.0 0.012254 39.229574 0.930598 29.916645 0.009367 62.949981 0.010589 -112.46316
0.923289 30.084703 0.029087 15.098288 0.009412 -88.918492 0.006086 158.236869
0.009388 90.928279 0.01404 -113.693811 0.199385 -7.205808 0.816992 37.518624
0.009307 -77.438885 0.010659 175.263951 0.814174 37.660551 0.224262 -6.165575
110.0 0.023051 46.686313 0.927534 14.187828 0.010228 24.812942 0.010918 -127.223769
0.922246 14.366069 0.034264 18.264837 0.011095 -107.861853 0.004704 145.623052
0.008414 49.504225 0.014163 -128.617562 0.152329 -1.558722 0.863675 20.335431
0.009857 -98.339469 0.009535 159.423081 0.862702 20.392985 0.165654 -6.476996
115.0 0.032631 38.92964 0.923475 -1.398607 0.01066 -12.929451 0.01136 -141.788139
0.919261 -1.310459 0.037794 16.47026 0.011487 -129.004723 0.003237 154.854806
0.007203 -0.478933 0.014021 -144.049077 0.129903 18.641032 0.889837 1.783583
0.009459 -118.349482 0.007254 149.57644 0.889133 1.694387 0.11595 11.399409
120.0 0.039239 29.22984 0.920892 -16.864415 0.010597 -48.11155 0.011921 -157.351201
0.916136 -16.867752 0.039476 15.828883 0.010765 -148.046304 0.003749 173.010674
0.006691 -54.652746 0.013693 -159.428871 0.159421 38.642152 0.888067 -17.268449
0.008636 -134.752735 0.005064 152.798947 0.886072 -17.472969 0.13247 44.887221
125.0 0.043357 20.30873 0.920707 -32.353277 0.010238 -79.440333 0.012323 -174.259714
0.914722 -32.372087 0.042484 16.64569 0.009643 -161.906 0.004581 165.109965
0.006891 -101.848714 0.013272 -174.504487 0.21778 42.903589 0.858031 -35.955343
0.007964 -147.12921 0.004081 171.544057 0.854178 -36.196343 0.206514 54.336259
130.0 0.045998 12.137652 0.921369 -47.987354 0.009967 -107.131874 0.01231 168.70242
0.91482 -47.956817 0.047379 14.303236 0.009126 -170.047393 0.004057 150.916083
0.00716 -136.663153 0.012839 171.062915 0.273536 38.24025 0.806377 -53.389232
0.007774 -156.943285 0.004549 -167.950343 0.801158 -53.587141 0.28449 49.119678
135.0 0.047436 3.817255 0.9204 -63.745166 0.010038 -133.456928 0.011993 153.406273
0.914392 -63.668907 0.050635 7.894997 0.009852 -178.349069 0.00264 153.445791
0.007392 -160.694797 0.012584 157.684355 0.313308 30.480806 0.746676 -68.711069
0.008261 -166.809727 0.006083 -160.218042 0.741107 -68.81658 0.344322 39.475123
140.0 0.047088 -5.054115 0.916819 -79.483684 0.010321 -161.023818 0.011861 140.459387
0.911819 -79.415363 0.049732 0.897443 0.01137 166.823511 0.002629 -174.404163
0.007912 -178.907688 0.012821 144.74868 0.33497 22.020487 0.698036 -81.467758
0.009465 179.586107 0.007747 -165.171969 0.693026 -81.478929 0.380099 28.772445
145.0 0.044331 -14.008537 0.912059 -95.075502 0.010492 169.403207 0.012282 127.604411
0.907613 -95.063044 0.046087 -2.956001 0.012683 145.607999 0.003802 -169.53525
0.008734 163.025551 0.013651 130.096265 0.340449 13.543891 0.679027 -92.364703
0.010983 160.150912 0.008469 -175.253797 0.674957 -92.328709 0.392357 18.018507
150.0 0.039075 -21.964223 0.908541 -110.527049 0.010384 138.498574 0.012933 112.111173
0.903776 -110.573729 0.043245 -3.159936 0.012997 120.841123 0.004406 -173.968788
0.00952 142.649602 0.014652 112.143902 0.330274 5.095238 0.696528 -103.404881
0.012078 136.093168 0.008006 177.772703 0.693143 -103.384117 0.381915 7.418643
155.0 0.031829 -26.975734 0.90738 -125.964365 0.010086 106.929195 0.013066 94.325919
0.901684 -126.029363 0.04218 -3.286037 0.011935 95.551509 0.005002 -173.255949
0.010001 119.627807 0.015118 91.658558 0.302753 -3.054399 0.740231 -116.439528
0.012107 110.339101 0.007558 -179.994367 0.736924 -116.461913 0.348109 -2.727703
160.0 0.023996 -24.705673 0.907533 -141.503253 0.009807 74.487644 0.012258 77.424556
0.900947 -141.530467 0.040544 -4.905653 0.009645 73.806602 0.006461 -177.337707
0.010045 93.315965 0.014581 71.239903 0.257317 -9.742441 0.790787 -131.916511
0.010892 86.767652 0.008576 -177.151582 0.787049 -131.968587 0.291782 -11.34194
165.0 0.019012 -8.234905 0.90714 -157.145059 0.00967 40.226227 0.01096 66.129817
0.900317 -157.097031 0.03723 -5.161996 0.00704 63.734495 0.008024 167.546539
0.009552 62.438812 0.013242 54.645864 0.19864 -11.942674 0.831086 -149.237451
0.009045 70.962975 0.010161 174.889466 0.826786 -149.291163 0.21934 -15.585894
170.0 0.021028 13.368887 0.905437 -172.801736 0.009647 3.530452 0.010641 62.444198
0.899263 -172.683346 0.034188 -1.388066 0.006266 72.078977 0.008636 146.735089
0.008548 25.599699 0.012234 45.163424 0.14291 -2.125252 0.851206 -167.525419
0.008145 66.80898 0.010662 159.766208 0.846572 -167.56367 0.148054 -7.633233
175.0 0.027726 21.337095 0.903227 171.595048 0.009637 -34.989053 0.012399 57.483876
0.898221 171.735013 0.03334 4.49275 0.008336 72.972748 0.008096 125.095425
0.007386 -18.031441 0.013011 39.220534 0.130279 25.393606 0.848364 174.019334
0.009286 62.888646 0.009568 143.109507 0.843671 173.991318 0.122786 23.447332
180.0 0.03483 19.634685 0.901634 156.02409 0.009558 -73.586372 0.015311 43.921049
0.897464 156.124603 0.033931 9.545412 0.011194 57.850797 0.006961 104.645242
0.00661 -66.127612 0.015493 28.048369 0.180122 43.361725 0.825289 156.062821
0.011241 49.570023 0.00736 128.548662 0.820465 156.027634 0.174609 46.43299
185.0 0.040741 14.028767 0.900655 140.413423 0.009404 -110.08195 0.017909 24.349283
0.896282 140.452384 0.035286 14.490909 0.013542 36.613459 0.005867 82.672008
0.006369 -111.122463 0.018263 10.520914 0.251002 43.811925 0.78872 139.158508
0.012646 31.822594 0.00476 118.213634 0.783265 139.11979 0.253879 48.144073
190.0 0.045102 6.578056 0.89913 124.736636 0.009318 -142.841016 0.019397 2.482725
0.893642 124.755863 0.038625 18.935607 0.015088 13.804353 0.004981 51.636926
0.006356 -146.39629 0.020235 -10.066587 0.312637 36.688405 0.748299 123.711697
0.013338 14.873553 0.002104 118.037655 0.741814 123.728605 0.325951 41.278926
195.0 0.047543 -2.187596 0.896064 109.056297 0.00957 -172.090819 0.019619 -19.439451
0.889541 109.12722 0.044022 19.713899 0.015866 -9.361203 0.004498 5.61021
0.006545 -171.504693 0.021058 -31.147446 0.35162 26.956432 0.715074 109.814396
0.013959 0.085232 0.001291 -138.424295 0.708067 109.983308 0.37581 31.406221
200.0 0.047461 -11.876224 0.891832 93.469811 0.010305 159.660947 0.018768 -40.178506
0.885329 93.622459 0.049086 16.208442 0.01583 -32.876146 0.005005 -46.863957
0.007192 167.909211 0.02085 -51.410792 0.364231 16.835095 0.698535 97.02436
0.014932 -14.841151 0.004024 -126.777619 0.692512 97.375546 0.39757 20.844235
205.0 0.044432 -21.841296 0.88801 78.015981 0.011279 129.953359 0.017141 -58.837394
0.882499 78.19889 0.051638 10.697658 0.014735 -56.529958 0.006245 -89.110116
0.008086 145.157899 0.019842 -70.263519 0.35327 7.405678 0.702733 84.395873
0.015763 -31.80093 0.006438 -137.591979 0.698927 84.812112 0.392279 10.762842
210.0 0.038456 -31.239464 0.88604 62.634253 0.012005 98.443928 0.01508 -74.080334
0.881276 62.756418 0.05143 5.505245 0.012375 -78.609873 0.007485 -119.184214
0.0086 118.642102 0.018223 -87.011988 0.323661 -0.853561 0.724436 70.94487
0.015689 -49.256052 0.008173 -148.389495 0.722397 71.251929 0.364458 1.760247
215.0 0.029796 -38.567766 0.886031 47.215093 0.012106 66.289101 0.013219 -83.767203
0.880579 47.238165 0.049509 1.751633 0.009092 -93.501632 0.008696 -141.091912
0.008339 89.773504 0.016365 -100.211963 0.278629 -7.458948 0.755211 56.139557
0.014759 -63.422607 0.009702 -157.170195 0.75303 56.267243 0.318128 -5.621914
220.0 0.01918 -38.119941 0.886788 31.690083 0.011521 35.04177 0.012668 -87.757505
0.879339 31.675739 0.046794 -0.449186 0.006764 -88.241078 0.01022 -160.488583
0.007403 59.987031 0.015117 -108.678515 0.220741 -10.585982 0.785259 39.975722
0.014264 -71.831216 0.011552 -167.596989 0.781167 39.993081 0.256922 -9.797748
225.0 0.011552 -2.943067 0.886911 16.07604 0.010515 6.01239 0.014152 -92.735692
0.877616 16.13518 0.043643 -0.906213 0.008358 -77.028613 0.011894 177.763811
0.006235 29.712465 0.015415 -115.134092 0.160473 -4.235219 0.806149 22.778169
0.015565 -79.38665 0.013303 176.934004 0.799825 22.80509 0.191396 -5.910382
230.0 0.019424 37.322866 0.885847 0.443386 0.009501 -20.512743 0.016913 -104.639791
0.87634 0.633192 0.040678 1.149157 0.012002 -88.527119 0.01306 152.558797
0.005306 -2.111868 0.017092 -125.210116 0.133561 20.427327 0.812158 5.024846
0.018039 -92.967868 0.013972 156.874324 0.80469 5.129915 0.15435 14.010045
235.0 0.033246 36.797834 0.884064 -15.149744 0.008718 -45.972096 0.019646 -122.364797
0.876112 -14.883043 0.039209 5.789792 0.014971 -110.775442 0.013245 124.900782
0.004882 -36.996428 0.018978 -140.34815 0.173715 42.557051 0.801117 -12.733255
0.019951 -111.886832 0.013001 134.088119 0.793846 -12.573633 0.184189 36.358001
240.0 0.045227 25.877244 0.882389 -30.698666 0.008051 -72.511174 0.021487 -143.009521
0.876446 -30.476479 0.040204 10.935054 0.016345 -135.473668 0.012516 95.831295
0.004972 -73.801309 0.020129 -158.362207 0.244081 46.151206 0.775066 -29.916496
0.020311 -132.3626 0.01064 109.776585 0.768379 -29.782262 0.252635 42.134895
245.0 0.052849 12.675667 0.881202 -46.241097 0.007212 -100.961399 0.022114 -164.499475
0.876228 -46.153382 0.043162 13.979482 0.01621 -159.05315 0.011365 65.695107
0.005358 -109.001491 0.02032 -176.93975 0.309646 41.063667 0.740322 -45.996053
0.019295 -151.155109 0.007707 83.036554 0.733423 -45.939445 0.319788 38.249566
250.0 0.055551 -0.179957 0.880175 -61.81208 0.006053 -130.625262 0.021561 174.464239
0.874752 -61.859869 0.046648 14.276437 0.015214 -179.849499 0.010374 34.123618
0.005744 -140.36938 0.019838 165.195928 0.357637 33.005292 0.706334 -60.655703
0.017875 -166.532834 0.005172 47.58385 0.69821 -60.630226 0.369316 30.844647
255.0 0.054189 -11.487431 0.878689 -77.40816 0.004667 -160.432121 0.020031 154.892883
0.872199 -77.533758 0.049471 12.757317 0.01402 162.102458 0.009924 0.856093
0.005952 -167.897774 0.01903 148.269911 0.384956 24.055918 0.683019 -74.012991
0.016937 -179.306958 0.004258 -6.369089 0.67372 -73.896193 0.396953 22.407828
260.0 0.050205 -20.826048 0.876475 -92.990332 0.003277 169.569347 0.017843 138.123043
0.869228 -93.14939 0.051226 10.640609 0.012772 145.886012 0.010075 -33.12797
0.005948 166.785105 0.018001 132.204983 0.391618 14.914171 0.67711 -86.72236
0.016528 168.391735 0.005742 -57.006797 0.667929 -86.445835 0.40311 13.899619
265.0 0.044703 -28.257414 0.873922 -108.519604 0.002078 135.139775 0.015612 126.260793
0.866321 -108.714717 0.052265 8.630932 0.011282 132.550021 0.010605 -66.050117
0.005674 141.008391 0.016761 117.678909 0.377285 5.879017 0.689389 -99.733563
0.016295 156.385156 0.008333 -90.501384 0.681581 -99.366393 0.388906 5.762144
270.0 0.038134 -33.655291 0.871797 -123.993467 0.001287 80.163935 0.014486 120.55008
0.863636 -124.239928 0.053065 6.542016 0.010003 126.472498 0.011165 -96.867346
0.005 111.884933 0.015657 106.100406 0.341189 -2.502675 0.714707 -113.817955
0.016494 145.763066 0.010842 -116.330949 0.708364 -113.482558 0.355166 -1.442124
275.0 0.030771 -35.652172 0.870627 -139.452399 0.001494 5.669054 0.015574 116.301868
0.861345 -139.725197 0.053348 3.759942 0.010573 126.764587 0.011451 -125.800681
0.003921 75.626033 0.015473 97.386999 0.284961 -8.796304 0.74445 -129.279079
0.017856 134.953818 0.012631 -139.206259 0.7388 -129.035234 0.304505 -6.416711
280.0 0.023638 -30.202484 0.87026 -154.95046 0.002436 -41.186357 0.018537 106.352162
0.859813 -155.181335 0.052059 0.37789 0.013565 119.787211 0.011225 -153.94393
0.002873 24.313544 0.016707 87.925266 0.216919 -9.472979 0.769422 -145.98662
0.020347 120.305889 0.013308 -160.958713 0.763818 -145.822993 0.2455 -6.344801
285.0 0.019821 -11.690286 0.869977 -170.514726 0.003416 -72.688443 0.022005 90.086648
0.859249 -170.647359 0.048442 -2.150061 0.017273 102.380012 0.010277 177.280523
0.002831 -40.887209 0.018869 74.372272 0.160025 3.176628 0.782032 -163.536192
0.022899 101.005698 0.012569 177.587513 0.776387 -163.427545 0.198413 3.249579
290.0 0.023224 9.372144 0.869024 173.87282 0.004163 -97.578684 0.024867 70.190476
0.859242 173.831274 0.04329 -1.167077 0.020021 79.961236 0.0085 146.309304
0.003754 -89.989385 0.021018 57.03629 0.157849 29.294024 0.77789 178.625756
0.024417 79.033538 0.010254 156.604933 0.772309 178.682055 0.193593 20.941545
295.0 0.032056 16.117926 0.867138 158.258764 0.004615 -117.669503 0.026593 48.875052
0.858896 158.247886 0.039487 5.683534 0.021077 56.743906 0.006085 110.402065
0.004634 -121.577289 0.02253 37.781517 0.214915 43.521772 0.756955 161.127607
0.024494 56.815494 0.006576 138.555675 0.751234 161.124411 0.235768 32.703005
300.0 0.042147 12.111707 0.864645 142.683953 0.004843 -133.231692 0.027079 27.440714
0.857576 142.649865 0.040557 15.883899 0.020614 35.318601 0.003742 61.196967
0.005034 -142.35636 0.02324 18.09517 0.288348 43.504329 0.724051 144.595715
0.02348 36.188542 0.002482 142.199741 0.717687 144.557263 0.295911 34.172177
305.0 0.050871 2.854273 0.86215 127.159271 0.005029 -144.374331 0.026414 6.609738
0.855529 127.099206 0.046817 22.323637 0.019389 16.943652 0.002941 -11.04017
0.005101 -153.003141 0.023213 -1.277721 0.351853 37.221013 0.688251 129.501824
0.022081 17.888488 0.00292 -135.030766 0.681043 129.508535 0.349573 29.70363
310.0 0.056706 -8.973077 0.860109 111.667143 0.005446 -152.710487 0.024704 -12.990452
0.853658 111.614891 0.055169 22.6282 0.018096 1.353596 0.00387 -66.181892
0.005548 -155.084625 0.022487 -19.970793 0.393691 28.607648 0.660488 115.899996
