! File created by SignalIntegrity v1.1.13: Signal and Power Integrity Tools
! https://github.com/TeledyneLeCroy/SignalIntegrity
# MHz S MA R 50.0
0.0 0.017774 0.0 0.997992 0.0 1.00159 0.0 0.005489 0.0
10.0 0.017764 -4.417398 0.998043 0.025013 1.001641 0.023469 0.005579 -10.256866
20.0 0.017736 -8.820677 0.998195 0.04897 1.001791 0.045881 0.005839 -19.805349
30.0 0.017689 -13.195885 0.998442 0.07086 1.002035 0.066226 0.006241 -28.174478
40.0 0.017625 -17.529423 0.998774 0.089769 1.002363 0.083589 0.006751 -35.195764
50.0 0.017546 -21.808264 0.999181 0.104916 1.002765 0.097189 0.007334 -40.918493
60.0 0.017454 -26.020214 0.999648 0.115687 1.003225 0.106412 0.007963 -45.493838
70.0 0.017353 -30.154231 1.000157 0.121661 1.003727 0.110836 0.008615 -49.095514
80.0 0.017246 -34.200785 1.000694 0.122625 1.004254 0.110249 0.009274 -51.882211
90.0 0.017137 -38.152258 1.00124 0.118578 1.00479 0.104647 0.00993 -53.985938
100.0 0.017029 -42.003356 1.001779 0.109721 1.005317 0.094233 0.010574 -55.512387
110.0 0.016927 -45.751485 1.002298 0.09644 1.005822 0.079391 0.011204 -56.545556
120.0 0.016835 -49.397064 1.002782 0.079278 1.006291 0.060664 0.011818 -57.153149
130.0 0.016757 -52.943685 1.003222 0.058897 1.006714 0.038713 0.012417 -57.391388
140.0 0.016697 -56.398108 1.003612 0.036037 1.007086 0.014279 0.013004 -57.308848
150.0 0.016657 -59.770024 1.003948 0.011471 1.007402 -0.011867 0.013583 -56.949255
160.0 0.01664 -63.071582 1.00423 -0.014039 1.007663 -0.038963 0.014158 -56.353312
170.0 0.016647 -66.316709 1.004461 -0.039787 1.007871 -0.066303 0.014734 -55.559668
180.0 0.01668 -69.520261 1.004646 -0.065158 1.008031 -0.093273 0.015314 -54.605187
190.0 0.016737 -72.697108 1.004792 -0.089653 1.008151 -0.119376 0.015902 -53.524673
200.0 0.016817 -75.861224 1.004909 -0.112917 1.008239 -0.144255 0.0165 -52.350269
210.0 0.016919 -79.024899 1.005005 -0.134742 1.008306 -0.167703 0.017108 -51.110721
220.0 0.017039 -82.198123 1.00509 -0.155066 1.008361 -0.189659 0.017727 -49.830706
230.0 0.017175 -85.388195 1.005173 -0.173969 1.008412 -0.210203 0.018354 -48.530333
240.0 0.017323 -88.599557 1.005262 -0.191649 1.008468 -0.229533 0.018987 -47.224934
250.0 0.01748 -91.833836 1.005362 -0.208399 1.008534 -0.247942 0.019622 -45.925116
260.0 0.017641 -95.090055 1.00548 -0.224578 1.008615 -0.26579 0.020255 -44.637087
270.0 0.017804 -98.364974 1.005615 -0.240577 1.008714 -0.283468 0.020881 -43.363163
280.0 0.017965 -101.653499 1.00577 -0.256791 1.00883 -0.301371 0.021496 -42.102415
290.0 0.018123 -104.949149 1.005941 -0.273584 1.008962 -0.319863 0.022096 -40.851367
300.0 0.018275 -108.244521 1.006126 -0.291266 1.009106 -0.339255 0.022676 -39.604723
310.0 0.01842 -111.531761 1.00632 -0.310072 1.009258 -0.359781 0.023235 -38.35605
320.0 0.018557 -114.803009 1.006517 -0.330147 1.009412 -0.381586 0.023771 -37.098435
330.0 0.018686 -118.050813 1.006712 -0.351539 1.009563 -0.40472 0.024281 -35.825056
340.0 0.018807 -121.268508 1.006899 -0.374202 1.009704 -0.429136 0.024768 -34.529698
350.0 0.018923 -124.450544 1.007072 -0.398 1.00983 -0.454698 0.02523 -33.207167
360.0 0.019033 -127.592752 1.007227 -0.422724 1.009938 -0.481199 0.02567 -31.853627
370.0 0.019141 -130.692544 1.007362 -0.448111 1.010023 -0.508373 0.026089 -30.466818
380.0 0.019247 -133.74902 1.007474 -0.473863 1.010085 -0.535925 0.026492 -29.046172
390.0 0.019354 -136.762989 1.007564 -0.499674 1.010123 -0.563549 0.026879 -27.592808
400.0 0.019464 -139.736878 1.007631 -0.525251 1.010138 -0.59095 0.027254 -26.109401
410.0 0.019579 -142.674544 1.00768 -0.550338 1.010133 -0.617874 0.027619 -24.599947
420.0 0.019699 -145.581 1.007714 -0.574728 1.010112 -0.644114 0.027976 -23.069436
430.0 0.019825 -148.462057 1.007735 -0.598283 1.010078 -0.669531 0.028327 -21.523456
440.0 0.019959 -151.323923 1.007751 -0.620935 1.010036 -0.694059 0.02867 -19.967766
450.0 0.020099 -154.172798 1.007764 -0.642693 1.009992 -0.717704 0.029007 -18.407875
460.0 0.020246 -157.014466 1.007779 -0.66363 1.009948 -0.740543 0.029337 -16.848664
470.0 0.020397 -159.853954 1.007801 -0.683884 1.00991 -0.76271 0.029657 -15.294075
480.0 0.020552 -162.695253 1.00783 -0.703635 1.009879 -0.784388 0.029966 -13.746891
490.0 0.020709 -165.541127 1.00787 -0.723095 1.009857 -0.805786 0.030261 -12.208618
500.0 0.020866 -168.393023 1.00792 -0.742483 1.009844 -0.827127 0.03054 -10.679472
510.0 0.021021 -171.251062 1.00798 -0.762013 1.009841 -0.848622 0.0308 -9.158448
520.0 0.021171 -174.114131 1.008048 -0.781874 1.009845 -0.870459 0.03104 -7.643484
530.0 0.021316 -176.98003 1.008121 -0.802213 1.009854 -0.892787 0.031257 -6.131677
540.0 0.021454 -179.845687 1.008197 -0.823127 1.009864 -0.915702 0.03145 -4.619544
550.0 0.021584 177.29259 1.008271 -0.844657 1.009872 -0.939246 0.031618 -3.103311
560.0 0.021704 174.438834 1.008341 -0.866783 1.009875 -0.963397 0.031762 -1.579201
570.0 0.021816 171.597138 1.008402 -0.889428 1.009868 -0.988079 0.031882 -0.043717
580.0 0.021918 168.771375 1.008453 -0.912467 1.009851 -1.013167 0.03198 1.506114
590.0 0.022012 165.964936 1.00849 -0.935736 1.009819 -1.038496 0.032056 3.072532
600.0 0.022099 163.18051 1.008514 -0.959045 1.009773 -1.063877 0.032112 4.656902
610.0 0.02218 160.41991 1.008523 -0.982194 1.009712 -1.089109 0.032151 6.259636
620.0 0.022256 157.683947 1.008519 -1.004991 1.009637 -1.114001 0.032175 7.880189
630.0 0.022328 154.972388 1.008502 -1.027262 1.009549 -1.138377 0.032185 9.517131
640.0 0.022399 152.283966 1.008476 -1.048869 1.009451 -1.162099 0.032182 11.168291
650.0 0.022469 149.616473 1.008443 -1.069712 1.009345 -1.185069 0.032168 12.830952
660.0 0.02254 146.966917 1.008406 -1.089744 1.009236 -1.207238 0.032143 14.502101
670.0 0.022611 144.331728 1.008368 -1.108967 1.009125 -1.228606 0.032107 16.178682
680.0 0.022684 141.707005 1.008333 -1.127428 1.009016 -1.249223 0.03206 17.857865
690.0 0.022758 139.088784 1.008303 -1.145222 1.008912 -1.269182 0.032 19.537281
700.0 0.022833 136.473304 1.008279 -1.162471 1.008814 -1.288605 0.031927 21.215215
710.0 0.022909 133.857247 1.008263 -1.179323 1.008724 -1.307639 0.031839 22.890752
720.0 0.022983 131.237943 1.008256 -1.195932 1.008641 -1.326438 0.031734 24.563844
730.0 0.023055 128.613522 1.008256 -1.212447 1.008566 -1.345151 0.03161 26.235322
740.0 0.023124 125.982998 1.008262 -1.229002 1.008498 -1.363911 0.031467 27.906832
750.0 0.023187 123.346294 1.008273 -1.245701 1.008433 -1.382822 0.031303 29.580722
760.0 0.023244 120.704205 1.008286 -1.262612 1.008371 -1.401951 0.031118 31.259873
770.0 0.023293 118.058296 1.008299 -1.279761 1.008308 -1.421325 0.030912 32.947502
780.0 0.023334 115.41076 1.00831 -1.29713 1.008242 -1.440924 0.030684 34.646938
790.0 0.023365 112.764236 1.008314 -1.314662 1.008171 -1.460692 0.030437 36.361402
800.0 0.023387 110.1216 1.008312 -1.332262 1.008093 -1.480531 0.03017 38.093786
810.0 0.023399 107.485754 1.008301 -1.349806 1.008006 -1.50032 0.029886 39.846472
820.0 0.023401 104.859407 1.008281 -1.367152 1.00791 -1.519914 0.029586 41.621181
830.0 0.023396 102.244878 1.008251 -1.384153 1.007804 -1.539167 0.029273 43.418882
840.0 0.023382 99.64393 1.008212 -1.400665 1.007689 -1.557933 0.028947 45.239758
850.0 0.023362 97.057634 1.008165 -1.416561 1.007566 -1.576086 0.02861 47.083246
860.0 0.023337 94.48629 1.008112 -1.431738 1.007438 -1.593523 0.028264 48.94814
870.0 0.023307 91.929398 1.008056 -1.446129 1.007306 -1.610175 0.02791 50.832753
880.0 0.023275 89.385684 1.007998 -1.459702 1.007174 -1.62601 0.027548 52.735127
890.0 0.02324 86.853184 1.007942 -1.472464 1.007042 -1.641034 0.027178 54.653285
900.0 0.023205 84.329379 1.007889 -1.484459 1.006914 -1.655291 0.0268 56.585476
910.0 0.023168 81.811363 1.007841 -1.495764 1.006792 -1.668857 0.026413 58.530427
920.0 0.02313 79.296049 1.0078 -1.506479 1.006677 -1.681832 0.026017 60.48756
930.0 0.023092 76.780375 1.007766 -1.516722 1.006569 -1.694333 0.02561 62.457155
940.0 0.023052 74.261509 1.00774 -1.526616 1.006469 -1.706483 0.025192 64.440467
950.0 0.02301 71.73704 1.007721 -1.536279 1.006377 -1.7184 0.024762 66.439763
960.0 0.022964 69.205117 1.007708 -1.545815 1.006291 -1.730185 0.024318 68.458301
970.0 0.022915 66.664564 1.0077 -1.555305 1.006211 -1.74192 0.023862 70.500235
980.0 0.022861 64.114927 1.007694 -1.564801 1.006133 -1.753656 0.023392 72.570468
990.0 0.0228 61.556476 1.007689 -1.574321 1.006056 -1.765411 0.022911 74.674455
1000.0 0.022732 58.990154 1.007683 -1.58385 1.005979 -1.777169 0.022417 76.817973
1010.0 0.022657 56.417477 1.007674 -1.59334 1.005899 -1.788882 0.021914 79.00687
1020.0 0.022573 53.840403 1.00766 -1.602716 1.005815 -1.800472 0.021402 81.246824
1030.0 0.022481 51.261163 1.00764 -1.611879 1.005726 -1.811844 0.020884 83.543115
1040.0 0.02238 48.682085 1.007614 -1.620721 1.005631 -1.822885 0.020362 85.900441
1050.0 0.022271 46.105407 1.007581 -1.629127 1.005531 -1.833481 0.019838 88.322799
1060.0 0.022155 43.533101 1.007543 -1.636988 1.005426 -1.843524 0.019313 90.813444
1070.0 0.022032 40.966715 1.007501 -1.644212 1.005316 -1.852919 0.018791 93.374936
1080.0 0.021904 38.407246 1.007455 -1.650726 1.005205 -1.861593 0.018272 96.0093
1090.0 0.02177 35.855046 1.007408 -1.656486 1.005093 -1.869502 0.017757 98.718271
1100.0 0.021634 33.309786 1.007362 -1.661478 1.004982 -1.876631 0.017247 101.503634
1110.0 0.021494 30.770452 1.007319 -1.66572 1.004875 -1.882999 0.016744 104.367621
1120.0 0.021353 28.235404 1.00728 -1.669261 1.004773 -1.888651 0.016247 107.313338
1130.0 0.021211 25.702474 1.007247 -1.672173 1.004678 -1.893661 0.015757 110.345186
1140.0 0.021069 23.169107 1.007221 -1.674549 1.00459 -1.898121 0.015273 113.469221
1150.0 0.020926 20.63253 1.007202 -1.676492 1.004511 -1.902133 0.014797 116.693418
1160.0 0.020783 18.089929 1.007191 -1.67811 1.00444 -1.905804 0.014328 120.027787
1170.0 0.020639 15.538645 1.007186 -1.679505 1.004376 -1.909236 0.013867 123.484299
1180.0 0.020494 12.976336 1.007188 -1.680765 1.00432 -1.912516 0.013417 127.076578
1190.0 0.020348 10.401128 1.007194 -1.68196 1.004269 -1.915712 0.01298 130.819337
1200.0 0.020199 7.811727 1.007204 -1.683132 1.004222 -1.918869 0.012557 134.727494
1210.0 0.020048 5.207477 1.007214 -1.684298 1.004178 -1.922 0.012153 138.814998
1220.0 0.019892 2.588384 1.007225 -1.685447 1.004134 -1.925095 0.011772 143.093347
1230.0 0.019732 -0.044916 1.007233 -1.686539 1.004089 -1.928114 0.011418 147.56989
1240.0 0.019567 -2.691236 1.007239 -1.687516 1.004042 -1.930996 0.011096 152.246037
1250.0 0.019398 -5.348945 1.007241 -1.688301 1.003993 -1.933666 0.01081 157.115633
1260.0 0.019222 -8.016113 1.007238 -1.688809 1.00394 -1.936036 0.010564 162.163782
1270.0 0.019042 -10.690672 1.007232 -1.688952 1.003884 -1.938021 0.010363 167.366475
1280.0 0.018857 -13.370586 1.007222 -1.68865 1.003826 -1.939537 0.010209 172.691272
1290.0 0.018669 -16.054019 1.00721 -1.687838 1.003767 -1.94052 0.010102 178.099141
1300.0 0.018476 -18.739482 1.007196 -1.686467 1.003707 -1.94092 0.010045 -176.452743
1310.0 0.018282 -21.425967 1.007183 -1.684515 1.003649 -1.940715 0.010035 -171.007683
1320.0 0.018085 -24.11304 1.007172 -1.681984 1.003594 -1.939906 0.010071 -165.606227
1330.0 0.017889 -26.800893 1.007165 -1.678904 1.003544 -1.938522 0.010151 -160.283588
1340.0 0.017692 -29.490354 1.007162 -1.675329 1.0035 -1.936617 0.01027 -155.068098
1350.0 0.017496 -32.182852 1.007166 -1.671331 1.003463 -1.934263 0.010427 -149.980761
1360.0 0.017302 -34.880328 1.007176 -1.667 1.003434 -1.931548 0.010616 -145.035761
1370.0 0.017111 -37.585119 1.007193 -1.662432 1.003413 -1.928568 0.010837 -140.241591
1380.0 0.016921 -40.299802 1.007218 -1.657724 1.0034 -1.925421 0.011085 -135.602456
1390.0 0.016734 -43.027018 1.007249 -1.652968 1.003395 -1.922196 0.011359 -131.119639
1400.0 0.016549 -45.769299 1.007285 -1.648242 1.003396 -1.918972 0.011656 -126.792642
1410.0 0.016367 -48.528893 1.007326 -1.643606 1.003403 -1.915808 0.011976 -122.620002
1420.0 0.016186 -51.307614 1.007369 -1.639098 1.003414 -1.912742 0.012315 -118.599753
1430.0 0.016006 -54.106722 1.007414 -1.634733 1.003427 -1.909788 0.012672 -114.729608
1440.0 0.015826 -56.92685 1.007459 -1.630501 1.003442 -1.906935 0.013046 -111.006916
1450.0 0.015647 -59.767963 1.007503 -1.626372 1.003456 -1.904154 0.013435 -107.428501
1460.0 0.015467 -62.629379 1.007544 -1.622297 1.003469 -1.901394 0.013836 -103.990463
1470.0 0.015287 -65.509823 1.007582 -1.618214 1.003481 -1.898594 0.014247 -100.688006
1480.0 0.015106 -68.407527 1.007618 -1.614055 1.003491 -1.895685 0.014666 -97.515336
1490.0 0.014923 -71.320357 1.00765 -1.609754 1.003498 -1.892599 0.015089 -94.465651
1500.0 0.01474 -74.245965 1.00768 -1.605249 1.003505 -1.889277 0.015515 -91.531234
1510.0 0.014556 -77.181958 1.007708 -1.600493 1.003511 -1.885669 0.01594 -88.703616
1520.0 0.014371 -80.126055 1.007736 -1.595457 1.003518 -1.881745 0.016363 -85.973814
1530.0 0.014187 -83.076252 1.007765 -1.59013 1.003528 -1.877496 0.016781 -83.3326
1540.0 0.014004 -86.030954 1.007797 -1.584526 1.00354 -1.872934 0.017193 -80.770786
1550.0 0.013822 -88.989085 1.007831 -1.57868 1.003558 -1.868094 0.017597 -78.279504
1560.0 0.013642 -91.950159 1.007871 -1.572647 1.003581 -1.863031 0.017991 -75.850457
1570.0 0.013465 -94.914311 1.007916 -1.566498 1.003611 -1.857815 0.018376 -73.476137
1580.0 0.013292 -97.88228 1.007967 -1.560316 1.003648 -1.852527 0.018751 -71.149988
1590.0 0.013122 -100.855347 1.008024 -1.554186 1.003692 -1.847256 0.019115 -68.866511
1600.0 0.012956 -103.835235 1.008087 -1.548196 1.003743 -1.842085 0.019469 -66.621315
1610.0 0.012794 -106.823969 1.008156 -1.542423 1.003801 -1.837094 0.019813 -64.411095
1620.0 0.012637 -109.823717 1.008228 -1.536935 1.003864 -1.832348 0.020147 -62.233563
1630.0 0.012483 -112.836612 1.008304 -1.531779 1.003931 -1.827897 0.020471 -60.08732
1640.0 0.012334 -115.86458 1.008382 -1.526987 1.004001 -1.823769 0.020786 -57.971685
1650.0 0.012187 -118.909184 1.00846 -1.522565 1.004073 -1.819972 0.021091 -55.8865
1660.0 0.012044 -121.97149 1.008538 -1.518502 1.004146 -1.816493 0.021386 -53.83192
1670.0 0.011902 -125.051972 1.008614 -1.514767 1.004217 -1.813303 0.021671 -51.808204
1680.0 0.011763 -128.150462 1.008687 -1.511315 1.004288 -1.810355 0.021945 -49.815524
1690.0 0.011624 -131.266145 1.008757 -1.50809 1.004356 -1.807594 0.022207 -47.853806
1700.0 0.011487 -134.3976 1.008824 -1.505033 1.004422 -1.80496 0.022456 -45.92261
1710.0 0.011349 -137.542879 1.008889 -1.502085 1.004486 -1.802394 0.022691 -44.021064
1720.0 0.011212 -140.699634 1.00895 -1.499196 1.004549 -1.799844 0.022911 -42.147835
1730.0 0.011075 -143.865254 1.00901 -1.496325 1.004611 -1.797272 0.023115 -40.301156
1740.0 0.010937 -147.037035 1.009069 -1.493449 1.004673 -1.794652 0.023301 -38.478892
1750.0 0.010799 -150.212351 1.009129 -1.490562 1.004737 -1.791981 0.023469 -36.678637
1760.0 0.010661 -153.388823 1.00919 -1.487679 1.004803 -1.789271 0.023619 -34.897836
1770.0 0.010524 -156.564474 1.009254 -1.484832 1.004873 -1.786554 0.02375 -33.13392
1780.0 0.010387 -159.737867 1.009321 -1.48207 1.004947 -1.783879 0.023862 -31.384444
1790.0 0.010251 -162.908202 1.009393 -1.479453 1.005026 -1.781307 0.023955 -29.647211
1800.0 0.010116 -166.075388 1.009468 -1.477051 1.00511 -1.778907 0.02403 -27.920392
1810.0 0.009983 -169.240058 1.009549 -1.474936 1.0052 -1.776751 0.024086 -26.202604
1820.0 0.009852 -172.403545 1.009633 -1.473177 1.005294 -1.774908 0.024125 -24.492972
1830.0 0.009723 -175.567819 1.00972 -1.471837 1.005393 -1.77344 0.024147 -22.791146
1840.0 0.009596 -178.735366 1.00981 -1.470964 1.005495 -1.772396 0.024153 -21.097287
1850.0 0.009472 178.090942 1.009901 -1.470591 1.005599 -1.771808 0.024143 -19.412015
1860.0 0.009349 174.908026 1.009993 -1.470734 1.005704 -1.771693 0.024117 -17.736328
1870.0 0.009227 171.712767 1.010083 -1.471389 1.005808 -1.772046 0.024077 -16.071493
1880.0 0.009107 168.502179 1.010172 -1.472535 1.005912 -1.772846 0.02402 -14.418924
1890.0 0.008988 165.273567 1.010257 -1.474134 1.006013 -1.774055 0.023949 -12.780049
1900.0 0.008869 162.024651 1.010339 -1.476135 1.006111 -1.775623 0.023862 -11.156185
1910.0 0.008751 158.753655 1.010416 -1.478482 1.006205 -1.777493 0.023758 -9.548427
1920.0 0.008631 155.459347 1.010489 -1.481114 1.006296 -1.779604 0.023638 -7.957555
1930.0 0.008511 152.141043 1.010558 -1.483972 1.006384 -1.781897 0.0235 -6.383978
1940.0 0.008389 148.798552 1.010624 -1.487004 1.006469 -1.784321 0.023344 -4.8277
1950.0 0.008266 145.432095 1.010686 -1.49017 1.006551 -1.786835 0.02317 -3.288336
1960.0 0.008141 142.042178 1.010747 -1.493445 1.006632 -1.789413 0.022976 -1.765148
1970.0 0.008013 138.629441 1.010806 -1.496817 1.006713 -1.792046 0.022763 -0.257119
1980.0 0.007885 135.194495 1.010866 -1.500295 1.006794 -1.79474 0.022531 1.236954
1990.0 0.007754 131.737745 1.010926 -1.503901 1.006876 -1.797519 0.022279 2.718341
2000.0 0.007622 128.259215 1.010988 -1.50767 1.006961 -1.800419 0.022009 4.188261
2010.0 0.007489 124.758389 1.011052 -1.511651 1.007047 -1.803485 0.021719 5.647749
2020.0 0.007355 121.234069 1.011118 -1.515895 1.007137 -1.806772 0.021412 7.097544
2030.0 0.007221 117.684264 1.011186 -1.520457 1.007229 -1.810333 0.021088 8.537978
2040.0 0.007087 114.106113 1.011256 -1.525386 1.007323 -1.814219 0.020748 9.968891
2050.0 0.006954 110.495857 1.011326 -1.530725 1.007418 -1.818471 0.020392 11.389572
2060.0 0.006822 106.848851 1.011397 -1.536505 1.007513 -1.823122 0.020021 12.798729
2070.0 0.006691 103.159629 1.011467 -1.542742 1.007609 -1.828186 0.019637 14.194486
2080.0 0.006563 99.422016 1.011535 -1.549434 1.007702 -1.833663 0.019239 15.574422
2090.0 0.006437 95.629274 1.0116 -1.556564 1.007793 -1.839537 0.018829 16.935621
2100.0 0.006313 91.774301 1.01166 -1.5641 1.00788 -1.845773 0.018406 18.274757
2110.0 0.006193 87.849836 1.011716 -1.571995 1.007962 -1.852326 0.017971 19.588181
2120.0 0.006075 83.848692 1.011766 -1.580191 1.008039 -1.859139 0.017524 20.872013
2130.0 0.005961 79.763997 1.011811 -1.588625 1.00811 -1.866148 0.017065 22.122229
2140.0 0.00585 75.589421 1.01185 -1.597233 1.008176 -1.87329 0.016593 23.334715
2150.0 0.005743 71.319406 1.011883 -1.605952 1.008237 -1.880502 0.016109 24.505301
2160.0 0.00564 66.949375 1.011911 -1.614728 1.008292 -1.887731 0.015612 25.62974
2170.0 0.005541 62.47593 1.011935 -1.623518 1.008344 -1.894932 0.015102 26.703641
2180.0 0.005448 57.897036 1.011955 -1.632289 1.008392 -1.902075 0.01458 27.722336
2190.0 0.005359 53.212189 1.011972 -1.641027 1.008437 -1.909144 0.014045 28.680685
2200.0 0.005277 48.42257 1.011988 -1.64973 1.00848 -1.91614 0.013499 29.572797
2210.0 0.005201 43.531189 1.012002 -1.658414 1.008522 -1.923076 0.012941 30.391667
2220.0 0.005133 38.542994 1.012016 -1.667102 1.008564 -1.929978 0.012373 31.128718
2230.0 0.005073 33.464953 1.01203 -1.675829 1.008606 -1.93688 0.011796 31.77322
2240.0 0.005023 28.306082 1.012044 -1.684634 1.008648 -1.943822 0.011211 32.311566
2250.0 0.004982 23.077401 1.012058 -1.693557 1.008689 -1.950844 0.010619 32.726363
2260.0 0.004952 17.791806 1.012072 -1.702634 1.00873 -1.957982 0.010023 32.995287
2270.0 0.004934 12.463831 1.012084 -1.711893 1.00877 -1.965265 0.009424 33.089608
2280.0 0.004928 7.109312 1.012095 -1.721352 1.008808 -1.97271 0.008826 32.9723
2290.0 0.004936 1.744941 1.012103 -1.731015 1.008843 -1.980322 0.008229 32.595577
2300.0 0.004957 -3.612246 1.012107 -1.74087 1.008874 -1.988092 0.007639 31.897707
2310.0 0.004992 -8.945435 1.012106 -1.750893 1.008901 -1.995993 0.007057 30.798976
2320.0 0.005042 -14.238582 1.0121 -1.761045 1.008921 -2.003987 0.006491 29.196843
2330.0 0.005106 -19.476921 1.012088 -1.771275 1.008936 -2.012025 0.005944 26.960869
2340.0 0.005185 -24.647371 1.01207 -1.781524 1.008943 -2.020047 0.005427 23.929425
2350.0 0.005278 -29.738815 1.012044 -1.79173 1.008944 -2.027992 0.00495 19.913276
2360.0 0.005385 -34.742247 1.012012 -1.801827 1.008937 -2.035795 0.004529 14.716865
2370.0 0.005505 -39.650771 1.011974 -1.811757 1.008924 -2.043398 0.004183 8.194644
2380.0 0.005639 -44.459494 1.01193 -1.821466 1.008905 -2.050747 0.003935 0.355521
