! File created by SignalIntegrity v1.4.3: Signal and Power Integrity Tools
! https://github.com/Nubis-Communications/SignalIntegrity
# MHz S MA R 50.0
0.0 0.012433 0.0 0.99441 0.0 0.99837 0.0 0.002117 0.0
500.0 0.063526 25.364653 0.984348 -63.036404 0.98591 -63.201094 0.05494 27.819084
1000.0 0.063126 -19.517774 0.966892 -125.168028 0.964844 -125.359859 0.055255 -32.413658
1500.0 0.020122 5.340167 0.954927 173.080378 0.951879 172.858922 0.005731 160.670272
2000.0 0.071361 20.738495 0.94176 111.186394 0.938481 110.886564 0.067813 36.01273
2500.0 0.076521 -31.158103 0.925204 49.491445 0.921471 49.265039 0.075561 -30.814419
3000.0 0.00581 -77.033825 0.912585 -12.036311 0.909751 -12.061145 0.010754 -121.869343
3500.0 0.068888 26.342561 0.902181 -73.71716 0.900137 -73.627767 0.06203 21.203191
4000.0 0.063085 -30.525181 0.889918 -135.322077 0.886887 -135.18258 0.060204 -52.498128
4500.0 0.018763 35.188144 0.878581 163.292898 0.875292 163.500138 0.016199 118.91945
5000.0 0.072156 13.070801 0.868074 101.913075 0.866342 102.10825 0.069743 11.770792
5500.0 0.054796 -31.180132 0.856118 40.556483 0.854806 40.690757 0.054481 -64.511319
6000.0 0.03015 30.131201 0.844172 -20.730756 0.841687 -20.507696 0.027171 105.493983
6500.0 0.078633 5.27818 0.832177 -82.030643 0.829966 -81.635004 0.074742 12.076178
7000.0 0.058213 -39.629756 0.819956 -143.256682 0.819454 -142.883894 0.050438 -57.156581
7500.0 0.027441 26.444445 0.809712 155.513461 0.809587 155.684918 0.022947 74.375175
8000.0 0.076505 1.084261 0.799184 94.105806 0.798581 94.14816 0.071999 6.751209
8500.0 0.054127 -45.383375 0.786565 32.798073 0.786584 32.788111 0.052108 -53.838539
9000.0 0.028846 37.531706 0.776796 -28.32102 0.776655 -28.42183 0.020822 63.769734
9500.0 0.079956 1.364901 0.76923 -89.682481 0.766577 -89.75924 0.076376 1.460766
10000.0 0.051901 -42.975884 0.757473 -151.18192 0.753656 -151.037489 0.054473 -64.727528
10500.0 0.040108 30.853386 0.744611 147.602657 0.742951 147.839566 0.027928 76.072387
11000.0 0.088936 -5.750584 0.735904 86.381404 0.735221 86.435057 0.086582 2.032955
11500.0 0.056027 -49.207569 0.727059 24.906621 0.724392 24.85001 0.0604 -65.675448
12000.0 0.044495 23.494835 0.715955 -36.440007 0.71263 -36.425984 0.035234 65.774743
12500.0 0.093399 -16.856884 0.706451 -97.643423 0.704835 -97.67064 0.097532 -9.191516
13000.0 0.047178 -61.001217 0.697542 -159.062378 0.696916 -159.241789 0.051848 -78.624609
13500.0 0.054349 19.255107 0.686874 139.361103 0.686365 139.135664 0.051219 40.660294
14000.0 0.091098 -23.480863 0.676719 77.765508 0.675998 77.552746 0.095116 -21.486966
14500.0 0.046718 -52.139702 0.668123 16.103861 0.66566 15.927824 0.044341 -64.804231
15000.0 0.056581 6.733447 0.660095 -45.585278 0.656303 -45.646468 0.053241 14.125983
15500.0 0.093516 -24.629879 0.651757 -107.357175 0.649654 -107.461643 0.096024 -27.497923
16000.0 0.058848 -48.942512 0.641216 -169.267305 0.641156 -169.698857 0.053575 -65.417285
16500.0 0.063313 -10.577038 0.629863 128.810594 0.629645 128.138516 0.054663 1.762347
17000.0 0.096522 -32.143563 0.621078 66.707823 0.620139 66.109227 0.101296 -31.342887
17500.0 0.076157 -55.631166 0.61223 4.267236 0.610536 3.870298 0.074775 -64.079812
18000.0 0.054791 -24.732199 0.601279 -58.150795 0.598546 -58.303215 0.047332 -19.513366
18500.0 0.118174 -34.884729 0.591221 -120.691397 0.58959 -120.652488 0.120911 -35.297239
19000.0 0.099118 -78.522756 0.57812 176.088748 0.579644 176.003547 0.102736 -83.006498
19500.0 0.056224 -33.402841 0.558585 112.961421 0.561881 112.535006 0.05105 -38.8332
20000.0 0.120586 -62.216748 0.547674 50.961224 0.551078 50.279387 0.115706 -66.516021
