! File created by SignalIntegrity v1.1.13: Signal and Power Integrity Tools
! https://github.com/TeledyneLeCroy/SignalIntegrity
# MHz S MA R 50.0
0.0 0.032942 0.0 1.00207 0.0 0.01129 0.0 0.01354 180.0
1.006359 0.0 0.081851 0.0 0.010549 0.0 0.004521 0.0
0.002405 0.0 0.00123 180.0 0.093612 0.0 0.987661 0.0
0.017662 180.0 0.021899 180.0 0.973193 0.0 0.112798 0.0
5.0 0.037682 13.005261 0.998487 -16.543324 0.011442 -25.159119 0.013949 165.088596
0.999917 -16.896968 0.080551 -7.95005 0.012973 -6.466591 0.004911 -51.117885
0.003325 -37.246765 0.005506 -139.258902 0.112367 20.913189 0.981757 -17.832787
0.016348 129.979645 0.02108 158.297332 0.964847 -18.049237 0.124597 12.68767
10.0 0.048101 14.434863 0.989339 -32.848445 0.011742 -52.703589 0.014626 146.54467
0.984587 -33.297898 0.076564 -15.702034 0.016568 -33.587498 0.005522 -94.7163
0.005708 -73.174712 0.009903 -168.863676 0.148866 26.520772 0.964251 -35.466303
0.01268 79.473768 0.018664 135.699546 0.942898 -35.610608 0.146742 16.648434
15.0 0.05837 6.817327 0.978533 -48.796926 0.011908 -83.564647 0.014584 124.60723
0.969338 -49.041794 0.070066 -22.717759 0.017709 -72.331846 0.005329 -132.551686
0.008614 -107.940217 0.012773 159.453374 0.181724 24.06524 0.936537 -52.642473
0.007477 26.263931 0.014793 110.867124 0.914542 -52.41566 0.162896 15.635523
20.0 0.06433 -5.669653 0.97005 -64.451689 0.011825 -117.474167 0.01327 101.890923
0.96122 -64.411125 0.06189 -28.392323 0.015808 -118.507016 0.003604 -167.123631
0.010996 -141.0808 0.013876 130.070148 0.204427 19.048565 0.90252 -69.074575
0.002309 -53.143237 0.009859 80.589797 0.886429 -68.495044 0.170584 14.23674
25.0 0.063507 -20.286647 0.965642 -80.00955 0.011632 -153.64675 0.010862 82.253766
0.960275 -79.864842 0.052769 -32.444216 0.012224 -173.095265 0.000296 179.07133
0.012216 -171.737664 0.01358 105.230593 0.216971 13.432441 0.86859 -84.575628
0.003457 154.059387 0.00503 30.731206 0.861353 -84.024343 0.175299 13.872503
30.0 0.055476 -34.747187 0.964056 -95.660194 0.011599 169.022398 0.008308 71.502382
0.960994 -95.62754 0.042649 -33.907179 0.009179 122.274317 0.003976 -55.512976
0.012346 160.898305 0.012758 86.335903 0.220143 7.758645 0.84159 -99.19284
0.005826 97.386836 0.004434 -63.331684 0.839486 -99.068469 0.180836 13.692918
35.0 0.042176 -46.024736 0.962376 -111.457375 0.01194 131.836516 0.007176 72.657933
0.958265 -111.561973 0.032388 -28.048526 0.007643 55.941101 0.008063 -83.942643
0.012036 136.473327 0.012326 72.343507 0.213772 2.36696 0.826336 -113.221637
0.005709 54.454079 0.007453 -114.589162 0.822626 -113.540405 0.186263 12.819842
40.0 0.027747 -48.128591 0.958413 -127.302289 0.012692 95.827528 0.008033 71.756341
0.951614 -127.382496 0.027537 -7.998719 0.006131 0.120919 0.011139 -109.501068
0.011888 112.180189 0.012544 59.748209 0.197879 -2.045802 0.824755 -127.092338
0.003438 25.730688 0.009469 -141.290188 0.816203 -127.49023 0.189466 11.166309
45.0 0.018308 -30.167576 0.952311 -143.038982 0.013715 61.348467 0.009499 60.233302
0.944517 -142.93758 0.033519 10.072332 0.003485 -42.162147 0.013135 -131.3143
0.011921 84.215867 0.013037 46.527248 0.174085 -4.226818 0.836467 -141.268224
0.002035 68.422324 0.01021 -157.348136 0.825619 -141.416091 0.188315 8.799957
50.0 0.018333 -1.91762 0.946293 -158.583898 0.01477 28.193596 0.010526 43.258429
0.940519 -158.316732 0.043725 12.100285 0.000735 -6.682315 0.014575 -150.907621
0.011859 50.811856 0.013536 33.148188 0.146386 -1.968741 0.858639 -156.200794
0.004838 72.317185 0.010763 -167.041689 0.849858 -156.116527 0.179139 6.214875
55.0 0.023049 12.210876 0.942819 -173.997258 0.015602 -4.062667 0.01093 25.103395
0.940206 -173.72614 0.051211 6.205633 0.002989 36.735872 0.015574 -171.610372
0.01167 12.606657 0.014124 19.962864 0.123551 8.289972 0.884777 -172.225909
0.006855 44.815499 0.011651 -177.455084 0.879491 -172.133492 0.159223 5.682218
60.0 0.028952 17.060823 0.942563 170.560315 0.015985 -35.861238 0.0109 7.457839
0.941532 170.705349 0.053864 -1.57148 0.004634 16.770818 0.015375 164.574087
0.011569 -28.074969 0.014865 6.155992 0.122286 26.500555 0.904869 170.606967
0.00699 18.453143 0.011942 167.513999 0.901284 170.576588 0.135024 12.427741
65.0 0.035518 15.934273 0.943833 154.955661 0.015741 -67.543974 0.010628 -9.43626
0.942172 154.990211 0.052155 -8.462545 0.005522 4.463092 0.013181 138.094871
0.011623 -68.04889 0.015519 -8.969136 0.152864 40.426345 0.908359 152.62442
0.005937 3.763135 0.010594 149.915369 0.904471 152.517785 0.130402 29.604862
70.0 0.041297 10.106734 0.943884 139.18768 0.014767 -99.199661 0.010163 -25.589184
0.941046 139.209526 0.047543 -12.708781 0.006993 -4.251641 0.009068 110.746219
0.011584 -104.829024 0.015741 -24.966111 0.202849 43.222097 0.888569 134.482299
0.005773 3.949255 0.007615 134.847478 0.884345 134.407237 0.164522 43.290977
75.0 0.044547 1.676394 0.941033 123.385192 0.013094 -130.440279 0.009521 -40.343259
0.938099 123.43641 0.042288 -12.567894 0.009088 -20.698767 0.004104 86.366726
0.0111 -137.175094 0.015401 -40.653176 0.254285 38.495717 0.846283 117.054311
0.007182 -3.186334 0.004192 134.474121 0.84311 117.040885 0.219592 44.437012
80.0 0.044537 -7.438172 0.935942 107.707232 0.010981 -160.137448 0.008873 -52.507263
0.933664 107.727849 0.039365 -8.239214 0.010467 -43.688491 0.000583 176.08348
0.010049 -163.985636 0.01467 -54.882199 0.293769 30.036842 0.791236 101.273061
0.008283 -22.038914 0.002791 174.68621 0.789772 101.232266 0.271409 38.067615
85.0 0.041439 -16.104721 0.931113 92.219515 0.008951 173.569748 0.008568 -61.952432
0.92854 92.136764 0.039637 -4.476936 0.010159 -67.498736 0.003152 -156.135889
0.008808 176.513271 0.013898 -67.103724 0.31325 20.179042 0.740835 87.78381
0.008005 -42.252786 0.004074 -157.516785 0.739698 87.610893 0.305978 28.602549
90.0 0.03552 -23.420541 0.928894 76.837404 0.007696 151.35587 0.008835 -71.140569
0.924243 76.678817 0.04005 -4.342562 0.008301 -85.288975 0.004492 -166.422281
0.00825 163.604332 0.013423 -77.759568 0.310534 10.441042 0.714605 76.295513
0.006844 -54.397415 0.00589 -151.639334 0.711651 76.046682 0.317677 18.350477
95.0 0.027145 -26.586795 0.929533 61.391782 0.007602 128.573325 0.009489 -82.835345
0.92225 61.28221 0.038005 -4.509186 0.006509 -86.905087 0.005404 -173.844157
0.008765 148.731832 0.013391 -88.22984 0.288431 1.886625 0.723804 65.214742
0.006535 -55.13348 0.008101 -155.776286 0.71886 65.089294 0.306914 8.556963
100.0 0.018633 -15.782147 0.930952 45.773123 0.008339 99.275672 0.010141 -97.081286
0.922548 45.813443 0.03528 0.042676 0.007175 -79.88737 0.006198 174.513953
0.00948 124.762432 0.013685 -99.968477 0.251823 -4.608391 0.763484 52.607639
0.007833 -60.614296 0.010046 -168.202575 0.758679 52.679492 0.276853 -0.042809
105.0 0.017597 16.533012 0.930574 30.023883 0.009321 63.727435 0.01059 -112.216579
0.923265 30.19192 0.035973 7.745138 0.009428 -88.691042 0.006096 158.178045
0.009403 91.759305 0.014023 -113.513234 0.205328 -7.516553 0.81637 37.586812
0.009303 -77.196953 0.01067 175.252268 0.813555 37.728791 0.230144 -6.462848
110.0 0.025824 32.270677 0.927574 14.29523 0.010142 25.3801 0.010939 -126.988788
0.922286 14.47344 0.039525 11.327707 0.011126 -107.697235 0.004728 145.235899
0.008374 50.368987 0.014165 -128.417794 0.157095 -2.463078 0.863258 20.416101
0.00987 -98.118611 0.009554 159.232842 0.862287 20.473623 0.170606 -7.16226
115.0 0.035085 30.930659 0.92356 -1.291368 0.010565 -12.6136 0.011396 -141.63919
0.919345 -1.203243 0.041975 11.325035 0.011526 -128.91413 0.003239 153.638182
0.007121 0.109961 0.01404 -143.887403 0.132164 17.199079 0.889753 1.866851
0.009483 -118.204787 0.007266 149.056156 0.889047 1.777579 0.118616 9.933242
120.0 0.042057 25.083568 0.921007 -16.757156 0.010528 -47.999713 0.011957 -157.304884
0.916249 -16.760513 0.043068 12.634003 0.010801 -148.043456 0.003688 171.9909
0.006619 -54.5877 0.013718 -159.345219 0.160311 37.827938 0.888319 -17.195443
0.008658 -134.723729 0.005035 151.85415 0.886322 -17.399989 0.133073 43.865454
125.0 0.046881 18.870273 0.920841 -32.24568 0.01021 -79.444598 0.012347 -174.274042
0.914855 -32.264519 0.046246 15.374476 0.009664 -161.984661 0.004499 164.44059
0.006866 -101.98292 0.013289 -174.493975 0.21958 42.586056 0.858475 -35.903764
0.007972 -147.183849 0.003997 170.878709 0.85462 -36.144768 0.207993 53.91704
130.0 0.050554 12.70797 0.921514 -47.879057 0.009978 -107.154913 0.01232 168.677155
0.914964 -47.84855 0.052118 14.596353 0.009128 -170.140848 0.003973 150.255069
0.007171 -136.684629 0.012841 171.042039 0.276813 38.061829 0.806787 -53.363751
0.007767 -156.981758 0.004455 -167.76282 0.801565 -53.561725 0.287524 48.835874
135.0 0.053239 5.833945 0.920547 -63.635561 0.010076 -133.392304 0.011992 153.398335
0.914539 -63.559316 0.056713 9.327478 0.00984 -178.375486 0.002549 153.079637
0.00742 -160.518619 0.012572 157.677954 0.317715 30.325408 0.746859 -68.707212
0.008247 -166.776994 0.006003 -159.767193 0.741288 -68.812822 0.348535 39.225786
140.0 0.054118 -2.018965 0.916967 -79.371854 0.010375 -160.769621 0.011852 140.477428
0.911966 -79.303529 0.057158 3.012389 0.011352 166.869973 0.002561 -173.104583
0.007946 -178.511085 0.012799 144.782533 0.340009 21.883834 0.697915 -81.473509
0.009449 179.668064 0.007678 -164.704123 0.692906 -81.48473 0.384994 28.563796
145.0 0.052354 -10.278913 0.912216 -94.960574 0.010548 169.907088 0.012267 127.65796
0.907771 -94.948111 0.054702 -1.051827 0.012664 145.711831 0.003775 -168.395785
0.008772 163.638411 0.013624 130.176217 0.345882 13.457961 0.678621 -92.366328
0.010964 160.261604 0.00842 -174.764213 0.674553 -92.330372 0.397692 17.880504
150.0 0.047728 -17.900711 0.908726 -110.408742 0.010426 139.245847 0.012913 112.2191
0.90396 -110.455429 0.052573 -2.667914 0.012978 121.002753 0.004415 -173.188797
0.009563 143.43474 0.014623 112.269937 0.336157 5.071244 0.695881 -103.391593
0.012056 136.238083 0.007994 178.262802 0.6925 -103.37092 0.387722 7.361999
155.0 0.040688 -23.317024 0.907609 -125.843207 0.0101 107.837424 0.013048 94.503756
0.901912 -125.908217 0.051432 -4.548539 0.011922 95.783324 0.005034 -173.010693
0.010042 120.517961 0.015092 91.831244 0.309115 -3.064799 0.739414 -116.403424
0.012085 110.533474 0.007585 -179.716825 0.736111 -116.425894 0.354404 -2.739126
160.0 0.032506 -23.591625 0.907814 -141.380253 0.009782 75.407 0.012252 77.673898
0.901226 -141.407476 0.048981 -7.544764 0.009645 74.125428 0.006487 -177.461616
0.010068 94.245574 0.014564 71.458018 0.263814 -9.865516 0.789955 -131.85379
0.010878 87.027939 0.008609 -177.21555 0.786221 -131.905868 0.298247 -11.408311
165.0 0.026004 -14.06408 0.907473 -157.021251 0.009602 40.98206 0.010976 66.411459
0.900647 -156.973229 0.044221 -9.018732 0.007062 64.107423 0.008042 167.327467
0.009539 63.348953 0.013242 54.895878 0.204408 -12.414918 0.830475 -149.152131
0.009048 71.283215 0.010181 174.66813 0.826179 -149.20578 0.225188 -15.911571
170.0 0.025203 3.570071 0.905815 -172.678 0.009546 3.992479 0.010677 62.645586
0.899638 -172.559618 0.039289 -6.018031 0.006305 72.241378 0.008665 146.468346
0.008492 26.398324 0.012253 45.393677 0.146602 -3.287322 0.851022 -167.430621
0.008169 67.075797 0.010678 159.447515 0.846391 -167.468842 0.152012 -8.612684
175.0 0.030265 15.273949 0.903639 171.71795 0.009529 -34.835623 0.012439 57.571959
0.89863 171.857912 0.03681 0.751783 0.00837 72.967948 0.00815 124.70867
0.007302 -17.509031 0.013041 39.36903 0.131199 24.181599 0.848655 174.104689
0.009316 63.015395 0.009589 142.616507 0.843962 174.076632 0.123789 22.174917
180.0 0.037408 17.600649 0.902064 156.145615 0.009467 -73.612707 0.015346 43.969302
0.897892 156.246144 0.036876 8.117943 0.01122 57.841097 0.00704 103.977756
0.006533 -65.949467 0.015523 28.131225 0.180911 42.947564 0.825893 156.120937
0.011267 49.632041 0.007377 127.677924 0.821065 156.085755 0.175304 45.997649
185.0 0.044298 14.697654 0.901084 140.53351 0.009343 -110.073239 0.017939 24.390095
0.896708 140.572508 0.039011 15.088692 0.013562 36.613899 0.005962 81.584461
0.006322 -110.997289 0.018288 10.571511 0.25327 43.664526 0.789342 139.1803
0.012668 31.858462 0.004752 116.544429 0.783883 139.141723 0.256082 47.966374
190.0 0.050069 8.944019 0.899538 124.855858 0.009284 -142.606035 0.019423 2.518242
0.894047 124.875131 0.044025 20.074917 0.0151 13.813923 0.005091 50.261408
0.006333 -145.981627 0.020251 -10.03367 0.316351 36.59718 0.74866 123.70111
0.013352 14.887201 0.002034 114.295385 0.742173 123.718137 0.329617 41.142666
195.0 0.05398 1.244218 0.896438 109.175758 0.009558 -171.560053 0.019635 -19.407934
0.889912 109.246725 0.051236 20.335386 0.015868 -9.328926 0.004632 4.556848
0.006543 -170.698291 0.021061 -31.120139 0.356355 26.894802 0.715023 109.786524
0.013962 0.088674 0.001246 -131.956525 0.708018 109.955375 0.380502 31.291987
200.0 0.055144 -7.726274 0.892167 93.59091 0.010303 160.413022 0.018772 -40.138064
0.885662 93.743608 0.057737 16.129398 0.015824 -32.798338 0.005136 -47.145314
0.007213 168.968671 0.020839 -51.370116 0.36965 16.817403 0.698064 96.998209
0.014923 -14.817877 0.004068 -125.001213 0.692043 97.349347 0.402948 20.769824
205.0 0.052965 -17.168436 0.888315 78.140156 0.011269 130.796761 0.017136 -58.764422
0.882803 78.323115 0.061137 9.874048 0.014729 -56.389588 0.00634 -89.110185
0.008115 146.314685 0.019822 -70.188853 0.359259 7.434985 0.701919 84.387481
0.015747 -31.737574 0.006502 -136.824845 0.698115 84.803864 0.398215 10.733997
210.0 0.047355 -26.214276 0.886336 62.762599 0.011966 99.26786 0.015075 -73.954679
0.88157 62.884782 0.061059 3.737428 0.012378 -78.403385 0.007543 -119.195859
0.008612 119.860223 0.018204 -86.894154 0.330181 -0.817723 0.723403 70.964919
0.015672 -49.149257 0.008241 -148.067859 0.721368 71.272104 0.370901 1.744156
215.0 0.038551 -33.54763 0.886346 47.347803 0.012024 67.010367 0.013223 -83.595746
0.880893 47.370848 0.058474 -1.153627 0.009111 -93.2516 0.008729 -141.131658
0.008312 91.068549 0.016354 -100.059896 0.285418 -7.523757 0.75415 56.192134
0.014746 -63.274065 0.009766 -157.114849 0.751973 56.319758 0.324824 -5.714071
220.0 0.027287 -35.106984 0.887153 31.826033 0.011398 35.607429 0.012685 -87.586653
0.879701 31.811644 0.054351 -4.3995 0.006794 -88.089247 0.010248 -160.544881
0.007332 61.373452 0.015115 -108.511325 0.227084 -10.960641 0.784416 40.055775
0.014261 -71.651545 0.011613 -167.705121 0.780326 40.073082 0.263184 -10.130858
225.0 0.017389 -15.251637 0.887337 16.212992 0.010366 6.420437 0.014176 -92.592521
0.878037 16.27209 0.04929 -5.384035 0.008383 -76.994478 0.011937 177.647686
0.006127 31.16698 0.01542 -114.96255 0.165053 -5.300012 0.805734 22.870947
0.015577 -79.205772 0.013368 176.702726 0.799412 22.897987 0.196031 -6.753497
230.0 0.020814 24.851456 0.88632 0.57894 0.009343 -20.195553 0.016944 -104.509396
0.876808 0.768694 0.044382 -2.827181 0.012028 -88.464254 0.013131 152.326525
0.005179 -0.714502 0.017106 -125.039504 0.134863 18.900869 0.812238 5.109756
0.018063 -92.806974 0.014046 156.499536 0.80477 5.214913 0.156041 12.763397
235.0 0.034501 32.757155 0.884547 -15.016918 0.008575 -45.644305 0.019687 -122.242993
0.876591 -14.750276 0.041711 3.711664 0.015007 -110.69685 0.013346 124.509352
0.004758 -35.86248 0.019006 -140.193798 0.173733 41.94429 0.801558 -12.67576
0.019988 -111.753433 0.013081 133.507268 0.794284 -12.51627 0.184421 35.788538
240.0 0.047789 25.516036 0.882842 -30.568127 0.007947 -72.093786 0.02154 -142.906346
0.876895 -30.345978 0.042954 11.326276 0.016391 -135.406005 0.012638 95.258525
0.004875 -72.944954 0.020167 -158.243382 0.245363 46.005039 0.775587 -29.897925
0.020355 -132.266203 0.010721 108.886875 0.768894 -29.763877 0.253963 42.01457
245.0 0.056949 14.463224 0.8816 -46.110961 0.007162 -100.378615 0.022173 -164.42655
0.876623 -46.023266 0.047461 15.899366 0.016259 -159.014925 0.011493 64.966617
0.005303 -108.187804 0.02036 -176.86753 0.312614 41.017393 0.740617 -46.015319
0.01934 -151.109454 0.007786 81.703753 0.733714 -45.958765 0.322756 38.23
250.0 0.06116 3.165224 0.880516 -61.680083 0.006058 -129.74841 0.021619 174.50049
0.875089 -61.727898 0.053041 16.434098 0.015259 -179.845468 0.010497 33.349789
0.005729 -139.406094 0.019868 165.228846 0.361935 32.965149 0.706202 -60.699207
0.017909 -166.543949 0.005269 45.820351 0.69808 -60.673801 0.373599 30.830182
255.0 0.061232 -7.009112 0.878987 -77.272606 0.00471 -159.037867 0.020082 154.890683
0.872494 -77.398229 0.057822 14.226034 0.014057 162.082012 0.010032 0.206625
0.005967 -166.724989 0.019046 148.287741 0.39013 24.019432 0.68241 -74.060377
0.016954 -179.355598 0.004398 -7.476073 0.67312 -73.943786 0.402103 22.39382
260.0 0.058515 -15.738964 0.876751 -92.850415 0.003329 171.895365 0.017883 138.078475
0.869501 -93.009478 0.060938 10.802393 0.012804 145.843402 0.010163 -33.541183
0.005973 168.182249 0.018007 132.228644 0.397418 14.900863 0.676083 -86.754505
0.016525 168.33862 0.005874 -57.085002 0.666914 -86.478139 0.408881 13.901316
265.0 0.053907 -23.21636 0.874197 -108.375218 0.002098 139.334458 0.015632 126.168806
0.866593 -108.570321 0.062436 7.144078 0.011306 132.457555 0.010674 -66.242394
0.005685 142.701277 0.016763 117.708959 0.383666 5.8879 0.688052 -99.736533
0.016276 156.354166 0.008441 -90.383529 0.680258 -99.369395 0.395253 5.771863
270.0 0.047626 -29.417212 0.872088 -123.844911 0.001193 86.471847 0.01448 120.447189
0.863924 -124.091367 0.062697 3.490541 0.010008 126.316225 0.011226 -96.935951
0.004971 114.049524 0.015655 106.127829 0.348051 -2.525197 0.713224 -113.783666
0.016462 145.783245 0.010938 -116.242236 0.706896 -113.4483 0.361979 -1.485953
275.0 0.039782 -33.302794 0.870948 -139.30023 0.001308 4.214062 0.015545 116.281824
0.861663 -139.573029 0.061616 -0.336356 0.010551 126.680139 0.01152 -125.871848
0.003822 78.456524 0.015463 97.425058 0.291834 -8.986614 0.74307 -129.208061
0.017821 135.043848 0.01273 -139.225383 0.737431 -128.964262 0.311267 -6.648579
280.0 0.031203 -31.804118 0.870625 -154.795539 0.002271 -44.687868 0.018506 106.434007
0.860173 -155.026405 0.058456 -4.076393 0.013537 119.849566 0.011313 -154.153311
0.002674 26.88183 0.016691 88.003453 0.222748 -10.099372 0.768417 -145.891126
0.020321 120.443954 0.013415 -161.159647 0.762821 -145.727477 0.251116 -6.966168
285.0 0.024621 -18.942832 0.870394 -170.358358 0.00326 -75.722248 0.021991 90.218918
0.859661 -170.490969 0.052787 -6.253566 0.017259 102.507451 0.010388 176.791855
0.002597 -41.758436 0.018858 74.487348 0.163139 1.847275 0.781571 -163.438394
0.022889 101.154475 0.012678 177.10555 0.775929 -163.3297 0.201471 2.190028
290.0 0.025229 3.366176 0.869493 174.028867 0.003996 -99.800784 0.024878 70.323358
0.859706 173.987342 0.045863 -3.95705 0.020029 80.091475 0.008635 145.377134
0.003563 -91.720734 0.021021 57.157381 0.157973 28.261518 0.777921 178.701007
0.024423 79.164584 0.010348 155.652788 0.772341 178.757305 0.194139 20.130547
295.0 0.033775 15.277295 0.86764 158.412644 0.004437 -118.846487 0.026623 48.97493
0.859394 158.401785 0.041458 5.393154 0.021103 56.84014 0.006254 108.822284
0.004466 -122.593216 0.022546 37.876467 0.215251 43.273515 0.757215 161.16207
0.024511 56.908244 0.006628 136.577517 0.751493 161.158899 0.236294 32.498916
300.0 0.045186 14.182189 0.865144 142.834622 0.00468 -133.188581 0.027115 27.49156
0.858071 142.800568 0.043842 17.646001 0.020645 35.35665 0.003971 59.263574
0.004881 -142.376839 0.023259 18.143291 0.290395 43.47072 0.724186 144.585232
0.023494 36.230545 0.002388 136.620949 0.717821 144.546893 0.297945 34.203359
305.0 0.055633 6.430604 0.862602 127.307414 0.004923 -143.259538 0.026438 6.61496
0.855977 127.247403 0.052495 24.101194 0.019408 16.921081 0.003197 -10.253983
0.004996 -151.92703 0.023221 -1.277988 0.355473 37.202301 0.687988 129.458562
0.022078 17.885952 0.002757 -131.147639 0.680783 129.465369 0.353137 29.765263
310.0 0.063054 -4.43405 0.860483 111.815376 0.005428 -151.154073 0.024706 -13.011013
0.854029 111.763193 0.06311 23.49773 0.018092 1.304422 0.00406 -64.310333
0.00554 -153.47409 0.022472 -20.00006 0.398384 28.584283 0.659731 115.846821
