! File created by SignalIntegrity v1.4.3: Signal and Power Integrity Tools
! https://github.com/Nubis-Communications/SignalIntegrity
# MHz S MA R 50.0
0.0 0.0365 0.0 1.02787 0.0 0.011559 0.0 0.013867 180.0
1.032269 0.0 0.086455 0.0 0.010841 0.0 0.004754 0.0
0.00243 0.0 0.00127 180.0 0.095174 0.0 1.013157 0.0
0.018126 180.0 0.022343 180.0 0.998317 0.0 0.114497 0.0
5.0 0.040986 11.434063 1.024198 -16.539918 0.011717 -25.21043 0.01429 165.13512
1.025665 -16.893554 0.084982 -8.116797 0.013323 -6.513016 0.005112 -50.128825
0.003379 -37.466025 0.005647 -139.334471 0.114063 20.836853 1.007119 -17.826808
0.016778 129.981565 0.021512 158.154886 0.989772 -18.043307 0.126296 12.577544
10.0 0.051095 12.900275 1.014822 -32.841876 0.012031 -52.79588 0.014994 146.609583
1.009947 -33.291323 0.080523 -15.962798 0.017006 -33.629004 0.005657 -93.584438
0.005837 -73.370493 0.010154 -168.888154 0.150911 26.502702 0.989207 -35.45536
0.013015 79.477708 0.01906 135.399084 0.9673 -35.599667 0.148429 16.550098
15.0 0.061244 5.860716 1.003744 -48.787507 0.012211 -83.67514 0.014959 124.66861
0.994313 -49.032386 0.07337 -22.951749 0.018174 -72.362842 0.005389 -131.700553
0.008833 -108.062511 0.013098 159.452297 0.184193 24.127392 0.960835 -52.628313
0.007676 26.271494 0.015135 110.366362 0.938269 -52.401452 0.164534 15.62169
20.0 0.067114 -6.017807 0.995044 -64.439502 0.012137 -117.566843 0.013615 101.939166
0.985986 -64.398961 0.064498 -28.432827 0.016222 -118.527911 0.003582 -166.812221
0.011289 -141.133703 0.014232 130.082552 0.207329 19.176175 0.925987 -69.059008
0.002373 -53.085205 0.010144 79.804844 0.909479 -68.479475 0.172234 14.348676
25.0 0.066058 -20.019972 0.990518 -79.994231 0.011947 -153.679815 0.011145 82.285146
0.985012 -79.849534 0.054784 -32.054602 0.012544 -173.103371 0.000181 177.089576
0.012544 -171.727322 0.013931 105.247307 0.220277 13.597721 0.891203 -84.559606
0.003545 154.10062 0.005286 29.945694 0.883779 -84.008375 0.177179 14.107527
30.0 0.057623 -33.733622 0.988886 -95.641035 0.011914 169.074891 0.008523 71.518941
0.985746 -95.608385 0.044305 -32.767296 0.009418 122.281008 0.004154 -54.113612
0.012676 160.969682 0.013091 86.345475 0.223753 7.929869 0.86351 -99.176049
0.005977 97.403751 0.00462 -61.748479 0.86135 -99.051719 0.18315 13.992377
35.0 0.04392 -43.886818 0.987171 -111.433749 0.012255 131.962415 0.00736 72.678764
0.982955 -111.538359 0.034156 -25.94092 0.007839 55.947405 0.008295 -83.119716
0.012352 136.603139 0.012647 72.340449 0.217503 2.517716 0.847862 -113.203262
0.005859 54.457116 0.007599 -113.584886 0.844055 -113.522033 0.189052 13.113066
40.0 0.029505 -44.231479 0.983131 -127.274096 0.013013 95.982818 0.008238 71.793372
0.976157 -127.354312 0.030077 -6.336479 0.006286 0.10708 0.0114 -108.943953
0.012193 112.355539 0.012866 59.743116 0.201511 -1.937369 0.846247 -127.072128
0.003528 25.686989 0.00962 -140.727979 0.837472 -127.470008 0.192641 11.400411
45.0 0.020909 -26.123063 0.976913 -143.006787 0.014049 61.487058 0.009743 60.279293
0.968918 -142.905381 0.036703 9.801285 0.003571 -42.22987 0.01341 -130.941855
0.012216 84.409491 0.013368 46.536654 0.177405 -4.193137 0.858266 -141.24616
0.002082 68.404477 0.010364 -157.023833 0.847135 -141.394034 0.191692 8.930478
50.0 0.021459 -2.520041 0.970787 -158.548642 0.015123 28.287955 0.010798 43.312938
0.964864 -158.281474 0.047166 11.118996 0.000746 -6.521031 0.014862 -150.690491
0.012138 50.984897 0.013879 33.182187 0.149163 -2.069465 0.881008 -156.175823
0.004959 72.399211 0.010927 -166.875901 0.871998 -156.091573 0.182377 6.196476
55.0 0.025877 9.262887 0.967266 -173.959726 0.015973 -4.019029 0.011214 25.167878
0.964586 -173.688612 0.054658 5.09403 0.003066 36.932393 0.015877 -171.548939
0.011935 12.715256 0.014486 20.019836 0.125509 8.035728 0.907831 -172.196046
0.00703 44.902943 0.011835 -177.445458 0.902406 -172.103634 0.161784 5.483874
60.0 0.031279 13.968025 0.967038 170.599844 0.016368 -35.859376 0.011186 7.528024
0.96598 170.744874 0.057053 -2.683179 0.004757 16.909101 0.015678 164.457477
0.011831 -28.052024 0.015252 6.222574 0.123526 26.380771 0.928494 170.642843
0.007173 18.543852 0.012137 167.333792 0.924814 170.612476 0.136389 12.159214
65.0 0.037469 13.621556 0.968372 154.997283 0.016127 -67.565741 0.01091 -9.370933
0.966667 155.031834 0.054852 -9.498607 0.005672 4.560414 0.013455 137.747422
0.011897 -68.083866 0.015929 -8.908359 0.154434 40.662332 0.932175 152.665116
0.006097 3.836375 0.010769 149.478658 0.928185 152.558527 0.131015 29.74847
70.0 0.0431 8.776372 0.968455 139.231476 0.015139 -99.222175 0.010435 -25.537621
0.965543 139.25333 0.049637 -13.511343 0.007183 -4.204649 0.009281 110.023833
0.011871 -104.868813 0.01616 -24.919501 0.205724 43.605699 0.911996 134.524478
0.005929 3.966778 0.007729 133.989784 0.907661 134.449463 0.166131 43.841389
75.0 0.046367 1.263033 0.965564 123.43103 0.013436 -130.438497 0.009775 -40.305706
0.962553 123.482265 0.04391 -12.856912 0.009331 -20.674984 0.004234 84.617863
0.011387 -137.178195 0.015811 -40.620681 0.258731 38.861249 0.868713 117.093849
0.007372 -3.17927 0.004205 132.859359 0.865456 117.080418 0.223032 44.977712
80.0 0.046474 -7.013779 0.960374 107.754923 0.011276 -160.08643 0.009109 -52.47778
0.958036 107.775561 0.040949 -7.808356 0.010745 -43.671143 0.000464 174.970718
0.010316 -163.929844 0.015059 -54.858797 0.299493 30.322388 0.812275 101.306749
0.0085 -22.019505 0.002709 174.370126 0.810771 101.265944 0.276463 38.477398
85.0 0.04356 -14.886065 0.955448 92.269062 0.009197 173.689348 0.008794 -61.927555
0.952809 92.18633 0.041648 -3.554388 0.010427 -67.487105 0.003122 -155.005258
0.009048 176.636135 0.014265 -67.08565 0.319645 20.374111 0.760539 87.810752
0.008215 -42.231439 0.004045 -156.574432 0.759372 87.6379 0.312025 28.883267
90.0 0.03787 -21.420802 0.953204 76.889002 0.007908 151.54726 0.009066 -71.118311
0.94843 76.730428 0.042631 -3.309182 0.008516 -85.287067 0.004496 -165.881816
0.008478 163.786422 0.013776 -77.746842 0.316961 10.558474 0.733565 76.317609
0.007024 -54.395179 0.005924 -150.849071 0.730533 76.068849 0.324046 18.528626
95.0 0.029789 -23.943079 0.953897 61.445509 0.007805 128.820267 0.009733 -82.802979
0.946423 61.33595 0.041056 -3.754754 0.006672 -86.884769 0.005434 -173.552174
0.009006 148.959238 0.013739 -88.217254 0.294434 1.941368 0.742933 65.23593
0.006701 -55.135193 0.008195 -155.262359 0.737858 65.110465 0.313084 8.653044
100.0 0.021665 -14.315909 0.9554 45.828667 0.008548 99.544921 0.010399 -97.018828
0.946776 45.868999 0.038573 -0.186378 0.007356 -79.789098 0.006254 174.56149
0.009734 125.034573 0.014035 -99.939644 0.257136 -4.627388 0.783588 52.632411
0.008029 -60.56558 0.010188 -167.942858 0.778655 52.704243 0.282455 -0.037146
105.0 0.020308 12.406399 0.955063 30.08061 0.009538 63.969262 0.010861 -112.113295
0.947561 30.248648 0.03911 6.171388 0.009675 -88.566407 0.006163 157.931122
0.009641 92.071762 0.014381 -113.453568 0.209662 -7.675255 0.837833 37.618724
0.00954 -77.104732 0.010834 175.280257 0.834944 37.760733 0.234763 -6.606514
110.0 0.027697 27.721267 0.952033 14.352478 0.010367 25.552698 0.011227 -126.858839
0.946605 14.530676 0.042206 9.139585 0.011426 -107.578209 0.004781 144.580154
0.008565 50.680677 0.014532 -128.329748 0.159953 -2.851947 0.885994 20.456384
0.010128 -98.005762 0.009706 159.003177 0.884997 20.513923 0.173569 -7.566191
115.0 0.036596 27.773639 0.947955 -1.234054 0.0108 -12.520514 0.011707 -141.519107
0.943629 -1.145947 0.044083 9.137281 0.011843 -128.814396 0.003247 152.574074
0.007266 0.297992 0.014413 -143.79181 0.133377 16.875373 0.913307 1.913572
0.009739 -118.098317 0.007371 148.47593 0.912583 1.824269 0.119248 9.458094
120.0 0.043435 23.060951 0.94537 -16.700026 0.01077 -47.967047 0.012288 -157.222548
0.940486 -16.703402 0.044583 10.822835 0.011103 -147.976072 0.00368 171.32124
0.006757 -54.615443 0.01409 -159.268706 0.161671 38.066016 0.912006 -17.147063
0.008897 -134.655352 0.005068 150.876721 0.909955 -17.35165 0.133522 44.380271
125.0 0.048273 17.791267 0.945228 -32.18889 0.010458 -79.440827 0.012688 -174.22923
0.939084 -32.207752 0.047462 14.342846 0.009934 -161.960162 0.004503 163.702743
0.007029 -102.0889 0.013652 -174.450959 0.222677 43.002913 0.88153 -35.859814
0.008191 -147.166305 0.003964 170.166935 0.87757 -36.100837 0.210916 54.575004
130.0 0.05216 12.43926 0.945942 -47.822705 0.010232 -107.149525 0.012656 168.700105
0.939218 -47.792228 0.053537 14.371503 0.009378 -170.149244 0.003969 149.078544
0.007356 -136.746793 0.013189 171.057008 0.281762 38.436563 0.828551 -53.329334
0.007975 -156.987248 0.004417 -167.560755 0.823188 -53.527325 0.292889 49.33623
135.0 0.055253 6.203633 0.944964 -63.579588 0.010343 -133.357807 0.012315 153.413773
0.938796 -63.503372 0.058615 9.6639 0.010103 -178.382904 0.002494 151.507373
0.007617 -160.506368 0.012907 157.681755 0.324021 30.60991 0.767012 -68.684275
0.008463 -166.771086 0.006009 -159.30701 0.761291 -68.789916 0.355654 39.576752
140.0 0.056631 -1.19737 0.941297 -79.315962 0.010654 -160.680361 0.012168 140.492251
0.936164 -79.247657 0.05959 3.700032 0.011651 166.880826 0.002491 -172.532079
0.008157 -178.416828 0.013135 144.790197 0.347052 22.080542 0.716677 -81.459904
0.009695 179.690089 0.007727 -164.355871 0.711534 -81.471158 0.393078 28.798217
145.0 0.055332 -9.169854 0.936427 -94.904305 0.010832 170.068885 0.012589 127.676933
0.931863 -94.891856 0.057658 -0.268572 0.012994 145.742255 0.00375 -167.667011
0.009005 163.816107 0.013978 130.195095 0.353164 13.585098 0.696754 -92.357134
0.011249 160.293293 0.00849 -174.54555 0.692578 -92.321209 0.406083 18.028333
150.0 0.051046 -16.667747 0.932853 -110.351703 0.010701 139.48186 0.013248 112.251455
0.927961 -110.398405 0.055994 -2.151286 0.013313 121.05488 0.00442 -172.657604
0.009816 143.686158 0.015 112.303426 0.343334 5.140844 0.71436 -103.381608
0.012367 136.280156 0.008065 178.424154 0.710888 -103.360974 0.395931 7.439694
155.0 0.044175 -22.215925 0.931721 -125.785249 0.010358 108.126407 0.013385 94.560457
0.925874 -125.850274 0.055108 -4.535918 0.012229 95.863688 0.005071 -172.635474
0.010306 120.82274 0.01548 91.882686 0.315861 -3.06698 0.758946 -116.388046
0.012395 110.59242 0.007664 -179.533615 0.755555 -116.410549 0.361989 -2.741229
160.0 0.035937 -23.221277 0.931952 -141.321481 0.01002 75.702308 0.012569 77.763739
0.92519 -141.348716 0.052588 -8.103279 0.009895 74.246247 0.006568 -177.353001
0.010328 94.57706 0.01494 71.531013 0.269663 -9.993412 0.810767 -131.829254
0.011157 87.114156 0.008727 -177.109336 0.806934 -131.881339 0.304674 -11.538271
165.0 0.028983 -15.632167 0.931626 -156.961922 0.009824 41.222297 0.011266 66.531955
0.924619 -156.913905 0.047387 -10.254215 0.00725 64.276784 0.008167 167.168591
0.009774 63.677006 0.013587 54.991461 0.2087 -12.766541 0.852383 -149.116949
0.009283 71.406413 0.010343 174.588009 0.847973 -149.170581 0.229774 -16.269193
170.0 0.027193 0.167905 0.929949 -172.618455 0.009758 4.127289 0.010969 62.759386
0.923609 -172.500073 0.041665 -7.948938 0.006484 72.374308 0.008825 146.076486
0.008686 26.678736 0.01258 45.498724 0.148626 -3.87713 0.873597 -167.387034
0.00839 67.208057 0.010862 159.154099 0.868843 -167.425241 0.15399 -9.263807
175.0 0.031423 12.539907 0.92774 171.777308 0.009739 -34.816754 0.012783 57.646967
0.922598 171.917272 0.038282 -1.310312 0.008606 73.024995 0.008333 124.083594
0.007456 -17.348727 0.013396 39.454757 0.131672 24.125382 0.871355 174.150743
0.009573 63.105351 0.009766 142.053297 0.866538 174.122681 0.12374 22.124018
180.0 0.038365 16.275387 0.926143 156.204377 0.009682 -73.669309 0.015768 44.021879
0.921861 156.304916 0.037747 6.799376 0.011531 57.877965 0.007241 103.086391
0.00667 -65.945899 0.015947 28.191735 0.182817 43.437165 0.848167 156.161731
0.011577 49.691094 0.007523 126.684729 0.843209 156.126554 0.176894 46.635925
185.0 0.045509 14.451833 0.92515 140.591392 0.009563 -110.132867 0.01843 24.434033
0.920658 140.630412 0.039859 14.860471 0.013934 36.643929 0.006185 80.435836
0.006463 -111.044507 0.018786 10.615669 0.257533 44.131993 0.810736 139.209444
0.013015 31.901442 0.004845 114.679457 0.805129 139.170925 0.26034 48.528943
190.0 0.051792 9.40216 0.923567 124.912818 0.009508 -142.597784 0.019952 2.556028
0.917929 124.932121 0.045434 20.564257 0.01551 13.838978 0.00535 49.155234
0.006482 -145.943239 0.0208 -10.00113 0.322568 36.948014 0.768945 123.716427
0.013716 14.916203 0.002043 109.502604 0.762283 123.733519 0.336082 41.550334
195.0 0.056309 2.134234 0.920378 109.232029 0.009792 -171.447229 0.020167 -19.376384
0.913678 109.303029 0.053493 20.97895 0.016293 -9.303654 0.00492 4.367199
0.006701 -170.511167 0.021627 -31.095972 0.363776 27.140627 0.734297 109.790915
0.014339 0.105834 0.001169 -125.156942 0.727104 109.959761 0.388394 31.573398
200.0 0.058035 -6.577746 0.91598 93.646983 0.010561 160.613555 0.019277 -40.109389
0.909301 93.799716 0.060797 16.64624 0.016244 -32.763135 0.005396 -46.201558
0.007394 169.275464 0.021394 -51.348118 0.377529 16.981341 0.716735 96.997786
0.01532 -14.802265 0.004105 -122.8417 0.710553 97.348903 0.411463 20.956224
205.0 0.056274 -15.875621 0.912009 78.196721 0.011551 131.037643 0.017592 -58.729872
0.90635 78.379717 0.064775 10.148941 0.015117 -56.334783 0.006549 -88.044316
0.008324 146.675447 0.020344 -70.160029 0.367023 7.532264 0.720544 84.388669
0.016162 -31.713134 0.006594 -135.71519 0.716639 84.805103 0.406702 10.844673
210.0 0.050883 -24.882159 0.909965 62.820396 0.012259 99.5047 0.015474 -73.903513
0.905072 62.942608 0.06498 3.6653 0.012705 -78.322449 0.007717 -118.424518
0.008828 120.243806 0.018682 -86.851451 0.337438 -0.792152 0.742478 70.973085
0.016083 -49.111299 0.008371 -147.415097 0.74039 71.280337 0.378882 1.778249
215.0 0.042064 -32.35376 0.909974 47.407348 0.012308 67.210175 0.013574 -83.524002
0.904375 47.430402 0.062351 -1.68801 0.009356 -93.143624 0.008895 -140.655884
0.008509 91.469023 0.016783 -100.002616 0.291778 -7.607435 0.773975 56.211146
0.015133 -63.220095 0.009932 -156.735867 0.771741 56.33876 0.331849 -5.78623
220.0 0.030515 -34.67859 0.910814 31.88733 0.011655 35.749018 0.013026 -87.506637
0.903163 31.872935 0.05784 -5.471716 0.006983 -87.992971 0.010435 -160.317028
0.007488 61.789801 0.015514 -108.444386 0.231987 -11.231719 0.805065 40.086761
0.014637 -71.581113 0.011826 -167.54428 0.800867 40.104031 0.268669 -10.371859
225.0 0.019774 -18.524297 0.911027 16.275462 0.010587 6.500505 0.014559 -92.517381
0.901478 16.334548 0.052068 -6.968309 0.008615 -76.944754 0.012171 177.646903
0.006239 31.588537 0.015829 -114.889621 0.167795 -5.821305 0.827069 22.911084
0.015992 -79.126921 0.013631 176.655383 0.820578 22.938153 0.199281 -7.211547
230.0 0.021504 20.289647 0.910008 0.641654 0.009533 -20.154121 0.017405 -104.436832
0.900242 0.831386 0.046233 -4.667925 0.012359 -88.412006 0.013421 152.109255
0.005259 -0.330511 0.017564 -124.961797 0.135597 18.653901 0.833931 5.152643
0.01855 -92.728985 0.014345 156.234343 0.826264 5.257852 0.15708 12.472643
235.0 0.035002 31.132845 0.908207 -14.954795 0.008746 -45.600319 0.020225 -122.171095
0.900037 -14.688186 0.042734 2.275892 0.01542 -110.638384 0.013689 124.098307
0.004827 -35.583157 0.019519 -140.116367 0.175284 42.364301 0.823146 -12.63802
0.020531 -111.680706 0.013391 132.990049 0.815677 -12.478555 0.18586 36.144882
240.0 0.048818 25.193163 0.906461 -30.506934 0.00811 -72.010385 0.022131 -142.83831
0.900354 -30.284818 0.043718 10.924894 0.016845 -135.348307 0.013024 94.702863
0.004956 -72.761844 0.020717 -158.174409 0.249232 46.494543 0.796583 -29.871878
0.020913 -132.203021 0.011019 108.051877 0.789709 -29.73791 0.257664 42.497327
245.0 0.058609 14.835067 0.905176 -46.050433 0.00732 -100.223797 0.022786 -164.367246
0.900066 -45.962766 0.048656 16.381666 0.016712 -158.965184 0.011909 64.371028
0.005409 -108.00401 0.020917 -176.814092 0.318634 41.415153 0.760668 -46.003667
0.019873 -151.062372 0.008067 80.484209 0.753577 -45.947157 0.328668 38.632528
250.0 0.063419 4.016201 0.904046 -61.619555 0.006202 -129.478171 0.022219 174.547355
0.898474 -61.6674 0.055047 17.279962 0.015684 -179.807949 0.010927 32.894527
0.00586 -139.149195 0.020411 165.265502 0.369505 33.260526 0.725222 -60.699739
0.018403 -166.51891 0.005556 44.492605 0.716881 -60.674356 0.381106 31.130852
255.0 0.064049 -5.814673 0.902458 -77.211342 0.004831 -158.584146 0.02064 154.923159
0.895791 -77.336999 0.060699 15.035871 0.014448 162.108589 0.010459 0.082166
0.006114 -166.376968 0.019563 148.314087 0.398587 24.227055 0.700634 -74.067169
0.017417 -179.35023 0.004699 -7.364695 0.691097 -73.950642 0.410508 22.605554
260.0 0.061839 -14.364439 0.900148 -92.787832 0.003419 172.644185 0.018378 138.094009
0.892705 -92.946923 0.064538 11.316553 0.01316 145.860773 0.010565 -33.288309
0.006125 168.615057 0.018493 132.253087 0.406188 15.03665 0.693973 -86.760637
0.016971 168.334471 0.006147 -55.943344 0.684561 -86.484345 0.417592 14.039912
265.0 0.057617 -21.870401 0.897518 -108.310946 0.002148 140.605284 0.016063 126.162494
0.889712 -108.506066 0.066478 7.189726 0.011621 132.456981 0.011033 -65.746313
0.005825 143.223842 0.017214 117.733785 0.392264 5.95644 0.706115 -99.735879
0.016708 156.350405 0.008701 -89.409674 0.698116 -99.36878 0.403802 5.842062
270.0 0.051504 -28.344418 0.895353 -123.778752 0.001187 88.176795 0.01487 120.425191
0.886973 -124.02522 0.066823 2.9907 0.010282 126.284912 0.011539 -96.384461
0.00508 114.698145 0.016074 106.149903 0.355983 -2.542589 0.731857 -113.771337
0.016893 145.791597 0.011206 -115.559572 0.725363 -113.435994 0.369916 -1.50165
275.0 0.043528 -32.845595 0.894192 -139.232138 0.001289 2.975944 0.015953 116.27772
0.884659 -139.504948 0.06546 -1.349077 0.010829 126.6555 0.011793 -125.418744
0.003878 79.261813 0.015873 97.447523 0.298494 -9.142879 0.762478 -129.181588
0.018284 135.075815 0.013009 -138.801388 0.756692 -128.937808 0.318043 -6.795255
280.0 0.034427 -32.601177 0.893877 -154.725661 0.002294 -46.237186 0.01899 106.46575
0.883147 -154.956533 0.061687 -5.502258 0.013889 119.873345 0.011557 -153.918674
0.002669 27.430782 0.017131 88.038592 0.227406 -10.480266 0.788593 -145.852276
0.020852 120.49743 0.013696 -160.987706 0.78285 -145.688618 0.256076 -7.296274
285.0 0.026779 -21.79688 0.893666 -170.287133 0.003312 -77.002386 0.022571 90.275115
0.882646 -170.419739 0.055133 -7.951576 0.017714 102.561997 0.010609 176.694727
0.00259 -42.553048 0.019357 74.538474 0.165221 1.316434 0.802282 -163.393492
0.023494 101.218102 0.012942 176.98791 0.796492 -163.284776 0.2042 1.774703
290.0 0.026066 0.356202 0.892772 174.100666 0.004061 -100.8015 0.025544 70.387293
0.882724 174.059153 0.04719 -5.600787 0.020565 80.155629 0.008842 144.811291
0.003603 -92.644111 0.021582 57.215776 0.158876 28.32514 0.798744 178.743007
0.025076 79.227531 0.010565 155.127297 0.793015 178.799306 0.195696 20.086575
295.0 0.034294 14.359706 0.890898 158.484051 0.004501 -119.502367 0.027345 49.032725
0.882431 158.473207 0.042063 4.576549 0.021676 56.89881 0.006465 107.627644
0.004533 -123.194017 0.023154 37.930046 0.217946 43.744907 0.77763 161.192849
0.025171 56.961245 0.006762 135.251141 0.771753 161.189685 0.23899 32.829915
300.0 0.046245 14.509318 0.888352 142.904836 0.004745 -133.406539 0.027854 27.534034
0.881089 142.870805 0.044657 18.054198 0.02121 35.397385 0.004224 57.820728
0.004957 -142.608029 0.02389 18.181959 0.295611 43.912754 0.743742 144.600371
0.024129 36.26588 0.002368 132.313234 0.737205 144.56208 0.302745 34.586853
305.0 0.057492 7.321111 0.885739 127.376252 0.005005 -143.039311 0.027159 6.639415
0.878936 127.316273 0.054287 24.959388 0.019938 16.93727 0.003469 -9.24451
0.005082 -151.727887 0.023849 -1.258639 0.362762 37.536837 0.70648 129.459459
0.022672 17.901388 0.002676 -128.06859 0.699083 129.466321 0.359797 30.080238
310.0 0.06569 -3.250153 0.883542 111.883495 0.005547 -150.687768 0.025373 -13.000551
0.876915 111.83135 0.066015 24.227077 0.018579 1.303159 0.004269 -62.16951
0.005667 -152.981763 0.023074 -19.996749 0.406983 28.821189 0.677308 115.839924
