! File created by SignalIntegrity v1.1.13: Signal and Power Integrity Tools
! https://github.com/TeledyneLeCroy/SignalIntegrity
# MHz S MA R 50.0
0.0 0.01499 180.0 0.994902 0.0 0.994893 0.0 0.001643 180.0
100.0 0.022567 107.382298 0.990552 -14.547113 0.990545 -14.547178 0.022471 76.586887
200.0 0.035063 73.93639 0.986029 -28.743802 0.986023 -28.74398 0.040698 63.102678
300.0 0.048505 50.679161 0.982606 -42.966539 0.982601 -42.9668 0.057745 51.605982
400.0 0.060021 30.071639 0.978343 -57.10419 0.97834 -57.104521 0.071678 39.724439
500.0 0.069612 11.279322 0.974873 -71.230073 0.974872 -71.230442 0.082569 28.228922
600.0 0.076541 -7.067826 0.970939 -85.321927 0.970939 -85.322305 0.089617 16.538713
700.0 0.08049 -24.713053 0.967807 -99.397472 0.967809 -99.397828 0.092706 5.111642
800.0 0.081397 -42.212859 0.964538 -113.475449 0.964542 -113.475752 0.091722 -6.386931
900.0 0.078884 -59.36208 0.961924 -127.546322 0.96193 -127.546548 0.086654 -17.619152
1000.0 0.073299 -76.416874 0.959306 -141.646152 0.959313 -141.646275 0.077914 -28.761908
1100.0 0.064427 -93.315326 0.957003 -155.748955 0.957011 -155.748966 0.065707 -39.439425
1200.0 0.052895 -110.132306 0.954654 -169.890932 0.954662 -169.89082 0.050855 -49.45079
1300.0 0.038804 -127.03997 0.952218 175.962365 0.952225 175.962593 0.033852 -57.400234
1400.0 0.022968 -144.186315 0.949651 161.784876 0.949658 161.78521 0.016132 -56.634765
1500.0 0.00588 -166.737264 0.946721 147.610548 0.946726 147.610967 0.007612 32.292532
1600.0 0.011759 9.146965 0.943678 133.426205 0.943681 133.426682 0.023673 61.523347
1700.0 0.028994 -9.023766 0.940244 119.255928 0.940245 119.256431 0.040789 56.713741
1800.0 0.045146 -25.551404 0.936859 105.096735 0.936858 105.097227 0.056124 47.739312
1900.0 0.059401 -41.462521 0.933277 90.956331 0.933274 90.956778 0.068974 37.696118
2000.0 0.071184 -57.171389 0.929965 76.837736 0.929959 76.838101 0.078696 27.13683
2100.0 0.079791 -72.598719 0.926722 62.731648 0.926715 62.731904 0.084942 16.463461
2200.0 0.08495 -87.81906 0.923883 48.644379 0.923875 48.644501 0.087472 5.690191
2300.0 0.086213 -102.77631 0.921289 34.555094 0.92128 34.555068 0.086191 -4.989471
2400.0 0.083641 -117.40618 0.919047 20.472671 0.919038 20.47249 0.081232 -15.579337
2500.0 0.077157 -131.611865 0.917048 6.373685 0.91704 6.373357 0.072757 -25.862714
2600.0 0.067172 -145.068617 0.915173 -7.730416 0.915167 -7.730879 0.061241 -35.659241
2700.0 0.054076 -157.241907 0.913388 -21.85705 0.913383 -21.85762 0.047125 -44.285371
2800.0 0.038755 -166.256608 0.911433 -35.993155 0.91143 -35.993801 0.031285 -49.837668
2900.0 0.022792 -165.384386 0.909379 -50.14525 0.909379 -50.145932 0.015216 -41.660791
3000.0 0.013497 -123.890625 0.906952 -64.301598 0.906954 -64.302273 0.010738 34.218512
3100.0 0.023855 -85.581755 0.904338 -78.458217 0.904342 -78.458844 0.025522 59.061541
3200.0 0.040356 -85.43584 0.901348 -92.609094 0.901355 -92.609628 0.041806 55.91601
3300.0 0.056275 -94.3239 0.898247 -106.744367 0.898255 -106.744774 0.056743 47.949984
3400.0 0.070113 -105.937425 0.89497 -120.867345 0.894979 -120.867594 0.069353 38.343114
3500.0 0.080879 -118.61477 0.891765 -134.967959 0.891776 -134.968031 0.079037 28.074601
3600.0 0.0881 -131.702497 0.888664 -149.059046 0.888675 -149.058931 0.085321 17.410258
3700.0 0.091318 -144.91655 0.885801 -163.133894 0.88581 -163.133596 0.087899 6.576433
3800.0 0.090466 -157.984729 0.88324 -177.210703 0.883247 -177.210237 0.08664 -4.391505
3900.0 0.085549 -170.728234 0.88094 168.713673 0.880946 168.714282 0.081521 -15.364564
4000.0 0.076897 177.258815 0.878954 154.622777 0.878957 154.623491 0.07276 -26.298451
4100.0 0.065031 166.54139 0.87708 140.518451 0.87708 140.519228 0.060632 -36.980362
4200.0 0.050843 158.636108 0.875347 126.392909 0.875344 126.393698 0.045708 -47.03287
4300.0 0.035989 157.282266 0.873479 112.249087 0.873473 112.24984 0.028605 -54.93541
4400.0 0.024602 172.823372 0.871518 98.091137 0.871509 98.091801 0.010699 -48.836687
4500.0 0.025483 -155.729282 0.869236 83.923113 0.869225 83.923645 0.011141 64.491066
4600.0 0.037715 -142.802164 0.866727 69.758549 0.866713 69.758911 0.02947 69.496852
4700.0 0.052683 -145.140362 0.86391 55.599463 0.863896 55.599629 0.047258 61.232927
4800.0 0.066781 -153.282683 0.860929 41.461491 0.860914 41.461446 0.063087 50.717111
4900.0 0.078459 -163.882129 0.857861 27.340508 0.857848 27.34025 0.076161 39.455355
5000.0 0.086943 -175.56083 0.854838 13.246615 0.854826 13.246157 0.085796 27.786517
5100.0 0.091727 172.244963 0.85202 -0.83165 0.85201 -0.832281 0.09151 15.914198
5200.0 0.092595 159.960484 0.849437 -14.893131 0.84943 -14.893897 0.092997 3.852279
5300.0 0.089551 147.833979 0.847228 -28.952804 0.847225 -28.953659 0.090112 -8.332999
5400.0 0.082788 136.261467 0.845274 -43.016143 0.845275 -43.017029 0.082965 -20.684086
5500.0 0.072799 125.729485 0.843626 -57.094296 0.843631 -57.095158 0.071773 -33.192281
5600.0 0.060292 117.301041 0.842047 -71.193514 0.842055 -71.194293 0.057062 -45.961492
5700.0 0.046624 113.157659 0.840508 -85.314392 0.840519 -85.315035 0.039415 -59.203831
5800.0 0.034338 118.350299 0.838762 -99.458914 0.838775 -99.459374 0.019738 -74.158257
5900.0 0.028993 137.846416 0.836773 -113.615584 0.836789 -113.615826 0.00204 151.112881
6000.0 0.034904 156.779355 0.834417 -127.781833 0.834433 -127.781834 0.022256 89.369877
6100.0 0.047378 161.313848 0.831725 -141.939764 0.831741 -141.939518 0.042294 74.625994
6200.0 0.061072 157.013413 0.828763 -156.087081 0.828778 -156.086596 0.060376 61.125273
6300.0 0.07352 148.618913 0.825631 -170.209336 0.825643 -170.208637 0.075615 47.965867
6400.0 0.083471 138.342703 0.822534 175.689979 0.822543 175.690854 0.08722 34.880079
6500.0 0.090255 127.136378 0.819559 161.614499 0.819565 161.615499 0.094619 21.839849
6600.0 0.093434 115.589961 0.816925 147.554147 0.816926 147.55521 0.097453 8.746489
6700.0 0.092911 104.054467 0.81461 133.501612 0.814607 133.502674 0.095539 -4.410307
6800.0 0.088691 92.913073 0.812726 119.445547 0.812719 119.446538 0.08899 -17.734469
6900.0 0.081145 82.612214 0.811116 105.374173 0.811105 105.375031 0.078039 -31.309642
7000.0 0.070792 73.904292 0.809748 91.282897 0.809733 91.283562 0.063264 -45.388593
7100.0 0.058728 68.167255 0.808393 77.163763 0.808376 77.16419 0.045326 -60.600316
7200.0 0.046728 68.018064 0.80694 63.02402 0.806921 63.024175 0.025322 -79.683497
7300.0 0.038324 77.031655 0.805217 48.863803 0.805198 48.863671 0.006601 -142.361778
7400.0 0.038043 92.623916 0.803147 34.699881 0.803128 34.699464 0.01966 104.714012
7500.0 0.046316 102.576139 0.800729 20.537569 0.800712 20.536885 0.040044 82.588495
7600.0 0.058682 103.325379 0.797984 6.393817 0.79797 6.392905 0.058707 66.639538
7700.0 0.071576 98.314801 0.795089 -7.728247 0.795079 -7.729336 0.074478 52.182286
7800.0 0.082945 90.334802 0.792129 -21.821511 0.792123 -21.82271 0.086513 38.253261
7900.0 0.091726 80.843354 0.789345 -35.889996 0.789344 -35.891233 0.094212 24.610714
8000.0 0.09718 70.654108 0.786783 -49.939891 0.786786 -49.941088 0.097243 11.068929
8100.0 0.099016 60.281342 0.784607 -63.980444 0.784615 -63.981524 0.095436 -2.425567
8200.0 0.097073 50.134023 0.782751 -78.026114 0.782763 -78.027006 0.088957 -15.983682
8300.0 0.09159 40.676226 0.781223 -92.084109 0.781239 -92.084753 0.078072 -29.693127
8400.0 0.083 32.507603 0.779859 -106.16765 0.779878 -106.167997 0.063406 -43.751895
8500.0 0.072271 26.646549 0.778539 -120.274805 0.77856 -120.274827 0.045646 -58.666302
8600.0 0.060947 24.674455 0.777101 -134.410079 0.777123 -134.409766 0.025856 -76.452492
8700.0 0.05174 28.700463 0.775404 -148.561132 0.775425 -148.560495 0.006359 -126.981679
8800.0 0.048257 38.554194 0.773406 -162.723361 0.773425 -162.722432 0.017534 103.044604
8900.0 0.052595 48.2945 0.771051 -176.880568 0.771067 -176.879396 0.037316 81.570913
9000.0 0.062627 52.167255 0.768465 168.974471 0.768477 168.975818 0.05524 66.007814
9100.0 0.074832 50.33464 0.765693 154.851655 0.765701 154.8531 0.070218 51.831336
9200.0 0.086524 44.851899 0.762959 140.753476 0.762963 140.75493 0.081513 38.167389
9300.0 0.096148 37.330051 0.760332 126.677414 0.760331 126.678791 0.088569 24.821044
9400.0 0.102676 28.726096 0.757998 112.619371 0.757992 112.620582 0.091152 11.651095
9500.0 0.105609 19.700213 0.755961 98.566589 0.755951 98.567559 0.089139 -1.362142
9600.0 0.1047 10.709825 0.754269 84.512991 0.754255 84.513655 0.082768 -14.24834
9700.0 0.100098 2.260182 0.752833 70.443879 0.752817 70.444191 0.072339 -26.987938
9800.0 0.092253 -5.09781 0.751559 56.358043 0.751542 56.357976 0.058499 -39.490792
9900.0 0.082097 -10.484325 0.750319 42.24733 0.750302 42.246881 0.041927 -51.541855
10000.0 0.071153 -12.70792 0.748956 28.118843 0.74894 28.118035 0.023585 -61.995421
10100.0 0.061819 -10.286559 0.747405 13.974087 0.747391 13.972959 0.004772 -52.466703
10200.0 0.057192 -3.205357 0.745551 -0.17473 0.745541 -0.176111 0.015035 78.374822
10300.0 0.05939 4.959118 0.74346 -14.320332 0.743453 -14.321889 0.032879 70.408524
10400.0 0.067369 9.41161 0.741114 -28.453385 0.741112 -28.455022 0.048752 59.091613
10500.0 0.078134 9.030407 0.73868 -42.567858 0.738683 -42.569479 0.061806 47.238007
10600.0 0.088934 4.977214 0.736208 -56.663902 0.736216 -56.665407 0.071494 35.253931
10700.0 0.097963 -1.327479 0.733865 -70.740809 0.733877 -70.742102 0.07737 23.352074
10800.0 0.104076 -8.939601 0.731691 -84.808395 0.731707 -84.809395 0.079328 11.618097
10900.0 0.106655 -17.146576 0.729759 -98.869695 0.729778 -98.870335 0.077328 0.171541
11000.0 0.10546 -25.465306 0.728053 -112.938206 0.728073 -112.93844 0.071683 -10.821423
11100.0 0.100605 -33.366638 0.72652 -127.015788 0.726541 -127.015595 0.062756 -21.087615
11200.0 0.092594 -40.304013 0.725106 -141.111983 0.725126 -141.111367 0.051242 -29.986923
11300.0 0.082321 -45.430486 0.723681 -155.223768 0.723699 -155.222759 0.03797 -36.045705
11400.0 0.071297 -47.627938 0.722208 -169.35249 0.722223 -169.351143 0.02444 -34.327222
11500.0 0.061712 -45.505113 0.720565 176.509015 0.720576 176.510625 0.014726 -7.66375
11600.0 0.056433 -38.909962 0.718786 162.366184 0.718792 162.367962 0.018147 35.760366
11700.0 0.05742 -30.910344 0.716816 148.225513 0.716817 148.227354 0.029331 46.858477
11800.0 0.063896 -26.140236 0.714757 134.094144 0.714753 134.095936 0.040797 44.310396
11900.0 0.073057 -26.056426 0.71262 119.972899 0.71261 119.974532 0.050486 37.608045
12000.0 0.082284 -29.742121 0.710518 105.86632 0.710503 105.867692 0.057733 29.393252
12100.0 0.08978 -35.822091 0.708483 91.768361 0.708465 91.769383 0.062151 20.684435
12200.0 0.094494 -43.355946 0.706573 77.680313 0.706552 77.680917 0.063733 12.008721
12300.0 0.095831 -51.617201 0.704804 63.592589 0.704782 63.59273 0.062549 3.732888
12400.0 0.093653 -60.120079 0.70315 49.505456 0.703128 49.505119 0.058975 -3.735759
12500.0 0.088071 -68.33871 0.701608 35.410936 0.701587 35.41013 0.053457 -9.934221
12600.0 0.079626 -75.7182 0.700088 21.31047 0.700069 21.309238 0.046721 -14.097675
12700.0 0.069098 -81.379671 0.698592 7.201151 0.698578 7.199558 0.039634 -15.200835
12800.0 0.057859 -84.005192 0.697022 -6.914481 0.697012 -6.916345 0.033418 -11.840753
12900.0 0.047834 -81.652013 0.695409 -21.034216 0.695404 -21.036244 0.029445 -3.5553
13000.0 0.041854 -73.295266 0.693684 -35.15661 0.693685 -35.158684 0.028757 7.204276
13100.0 0.042031 -62.616342 0.691907 -49.27676 0.691914 -49.278756 0.03096 15.76091
13200.0 0.04751 -56.319715 0.690052 -63.39644 0.690065 -63.398237 0.034717 20.114457
13300.0 0.055201 -56.177829 0.688175 -77.51056 0.688192 -77.512049 0.038708 20.994229
13400.0 0.062622 -60.593969 0.686282 -91.624069 0.686303 -91.625156 0.042246 19.780626
13500.0 0.068215 -67.774824 0.684393 -105.732754 0.684416 -105.733368 0.044979 17.46697
13600.0 0.071242 -76.653709 0.682534 -119.842474 0.682559 -119.842571 0.046912 14.717423
13700.0 0.071285 -86.512967 0.680681 -133.949865 0.680705 -133.94943 0.048113 11.852877
13800.0 0.068388 -96.926557 0.678874 -148.059055 0.678897 -148.058109 0.048778 9.042418
13900.0 0.062688 -107.51012 0.677064 -162.167718 0.677083 -162.166306 0.048995 6.254248
14000.0 0.054692 -117.865645 0.675306 -176.277082 0.675321 -176.275284 0.048838 3.444223
14100.0 0.044912 -127.38958 0.673548 169.613176 0.673557 169.615263 0.048212 0.513516
14200.0 0.034207 -134.805643 0.671849 155.504174 0.671853 155.506429 0.04701 -2.490465
14300.0 0.023581 -136.99157 0.670166 141.393348 0.670164 141.395642 0.045043 -5.440426
14400.0 0.015207 -125.035146 0.668542 127.283154 0.668533 127.285353 0.042242 -7.938047
14500.0 0.013449 -93.774725 0.666941 113.16865 0.666926 113.170625 0.038633 -9.378668
14600.0 0.018561 -77.089288 0.665366 99.053402 0.665347 99.055039 0.034561 -8.711088
14700.0 0.025023 -78.457102 0.663792 84.932239 0.663769 84.933438 0.030728 -4.643383
14800.0 0.030528 -87.498111 0.662182 70.810193 0.662157 70.810885 0.028396 3.648811
14900.0 0.03432 -100.166179 0.660532 56.684262 0.660506 56.684401 0.028869 14.184248
15000.0 0.036389 -115.162499 0.658791 42.560457 0.658765 42.560038 0.032524 22.450517
15100.0 0.036815 -132.034092 0.656995 28.438737 0.656972 28.437784 0.038345 25.845553
15200.0 0.036058 -150.603103 0.655104 14.323789 0.655084 14.322359 0.044997 24.830517
15300.0 0.034519 -170.889465 0.6532 0.217159 0.653185 0.215339 0.051288 20.734463
15400.0 0.032749 167.459992 0.651263 -13.880936 0.651254 -13.883037 0.056396 14.63722
15500.0 0.031091 144.813809 0.64939 -27.969432 0.649386 -27.971681 0.059649 7.278253
15600.0 0.029643 122.214955 0.64757 -42.05403 0.647573 -42.056291 0.060646 -0.828909
15700.0 0.028264 100.448177 0.645863 -56.134759 0.645872 -56.136886 0.059077 -9.283626
15800.0 0.02646 80.420944 0.644248 -70.221147 0.644262 -70.223004 0.054904 -17.66154
15900.0 0.023883 62.672346 0.642712 -84.312728 0.642731 -84.314192 0.048194 -25.407656
16000.0 0.020088 48.006297 0.641223 -98.417965 0.641245 -98.418933 0.039356 -31.408151
16100.0 0.015134 38.835315 0.639704 -112.533614 0.639729 -112.534013 0.029122 -33.04403
16200.0 0.009641 44.014841 0.638137 -126.662519 0.638162 -126.662306 0.019512 -22.397653
16300.0 0.007932 85.264106 0.636431 -140.798289 0.636455 -140.797457 0.016292 11.679362
16400.0 0.014128 110.561079 0.634616 -154.937307 0.634637 -154.935884 0.023686 36.832546
16500.0 0.023379 109.778688 0.632643 -169.072985 0.632661 -169.071033 0.035198 40.722386
16600.0 0.03318 101.958198 0.630603 176.80118 0.630616 176.803564 0.046859 36.106513
16700.0 0.042694 91.886366 0.628506 162.687272 0.628513 162.689972 0.057053 28.164682
16800.0 0.051102 81.158272 0.626466 148.589655 0.626467 148.59253 0.064994 18.63453
16900.0 0.057966 70.370541 0.624522 134.503195 0.624516 134.506095 0.070006 8.298521
17000.0 0.062684 59.892484 0.622747 120.42787 0.622734 120.430641 0.071814 -2.464869
17100.0 0.0651 50.055177 0.621157 106.353182 0.621139 106.355675 0.070115 -13.411293
17200.0 0.064966 41.160081 0.619741 92.27697 0.619719 92.279053 0.06502 -24.282282
17300.0 0.062572 33.75866 0.618468 78.188985 0.618442 78.190544 0.056608 -34.820308
17400.0 0.058291 28.464455 0.617242 64.089511 0.617214 64.090465 0.045378 -44.318578
17500.0 0.053233 26.355974 0.616013 49.974299 0.615985 49.97459 0.031901 -51.193182
17600.0 0.048887 28.212301 0.614656 35.848699 0.614629 35.848315 0.017609 -47.645016
17700.0 0.047441 33.825893 0.613159 21.716363 0.613135 21.715319 0.009884 8.369433
17800.0 0.050241 40.174898 0.611438 7.585234 0.611417 7.583585 0.021296 46.969345
17900.0 0.057146 43.953717 0.609558 -6.53648 0.609543 -6.538652 0.036419 46.299825
18000.0 0.066332 43.921881 0.607511 -20.644717 0.607502 -20.647303 0.050739 38.313915
18100.0 0.076182 40.904399 0.605421 -34.732585 0.605418 -34.735453 0.062833 28.181743
18200.0 0.085104 35.864749 0.603332 -48.805162 0.603337 -48.808177 0.072174 17.15699
18300.0 0.092302 29.77142 0.601349 -62.860589 0.60136 -62.863602 0.077976 5.725906
18400.0 0.096972 23.153499 0.599521 -76.912279 0.599537 -76.915156 0.080152 -5.804672
18500.0 0.098985 16.644114 0.597858 -90.962549 0.597879 -90.965159 0.078297 -17.358925
18600.0 0.098209 10.567869 0.596379 -105.026075 0.596403 -105.028315 0.072685 -28.58572
18700.0 0.095152 5.562693 0.594985 -119.10536 0.595012 -119.107145 0.063374 -39.40206
18800.0 0.090471 1.964505 0.593669 -133.207587 0.593696 -133.208869 0.050973 -48.852307
18900.0 0.085457 0.465958 0.592283 -147.331865 0.59231 -147.332622 0.036189 -55.56688
19000.0 0.081584 1.014931 0.590829 -161.473607 0.590854 -161.473853 0.020634 -51.322828
19100.0 0.080492 3.364796 0.589206 -175.628358 0.589228 -175.628137 0.012173 -1.618087
19200.0 0.083002 5.84647 0.58746 170.216603 0.587478 170.217221 0.023901 37.390807
19300.0 0.088964 7.301603 0.585597 156.065935 0.58561 156.066852 0.040288 38.204476
19400.0 0.097063 6.595734 0.583707 141.931552 0.583715 141.932667 0.056391 31.199644
19500.0 0.105904 4.141397 0.581876 127.814535 0.58188 127.815721 0.069943 21.720628
19600.0 0.114079 -0.022362 0.580207 113.71934 0.580207 113.720486 0.081069 11.669608
19700.0 0.120642 -4.937839 0.578768 99.642376 0.578764 99.643366 0.0882 1.115031
19800.0 0.12517 -10.623271 0.57765 85.58399 0.577643 85.584724 0.092099 -8.624902
19900.0 0.127192 -16.050287 0.576796 71.536741 0.576788 71.53715 0.091573 -18.350475
20000.0 0.128476 -21.668761 0.576351 57.530071 0.576343 57.530071 0.088274 -23.972088
