! File created by SignalIntegrity v1.1.13: Signal and Power Integrity Tools
! https://github.com/TeledyneLeCroy/SignalIntegrity
# MHz S MA R 50.0
0.0 0.07716 0.0 0.034921 0.0 0.013324 180.0 0.980017 0.0
0.026138 0.0 0.065271 0.0 0.994701 0.0 0.001039 180.0
0.030466 180.0 0.985867 0.0 0.114912 0.0 0.002142 0.0
0.978768 0.0 0.002524 180.0 0.028384 0.0 0.096804 0.0
10.0 0.105144 17.833455 0.052752 28.655861 0.025094 -164.911565 0.96023 -34.244906
0.050176 35.455046 0.104224 26.753528 0.981749 -33.822162 0.027273 -142.782709
0.034529 169.441704 0.952377 -34.673681 0.12216 3.496794 0.048562 56.494441
0.963752 -33.969891 0.027118 -146.170855 0.045442 29.123081 0.10835 7.910338
20.0 0.131684 10.257991 0.074761 27.432364 0.048317 159.026576 0.918883 -66.676276
0.073772 30.991551 0.150869 15.699363 0.945091 -66.593497 0.053437 163.803512
0.049054 146.499611 0.913838 -65.952222 0.121066 1.820556 0.070557 35.151455
0.925714 -66.692897 0.051989 163.115344 0.060676 29.783519 0.118916 6.139635
30.0 0.129724 0.677781 0.091054 18.952822 0.064908 106.986263 0.88897 -97.280901
0.091389 20.093794 0.154557 -1.743752 0.909779 -97.331557 0.070071 107.252013
0.065204 105.259692 0.90316 -97.001165 0.115713 6.168387 0.07663 25.316235
0.890496 -97.466198 0.068287 108.172903 0.077201 25.677232 0.118478 2.536058
40.0 0.113125 -2.304377 0.091487 5.017769 0.064708 51.956937 0.879488 -127.383943
0.088162 4.158666 0.123755 -13.180722 0.899489 -127.11641 0.069549 51.124498
0.067688 54.773779 0.885238 -127.681169 0.123965 10.209825 0.080264 16.578001
0.87844 -127.268135 0.068329 51.988607 0.082694 12.80709 0.110242 2.95659
50.0 0.097613 1.69977 0.067219 -2.669485 0.046051 -0.587499 0.888826 -157.758671
0.061645 -0.833742 0.079826 -9.556349 0.911964 -157.361541 0.049699 -0.302207
0.049185 4.843696 0.895066 -157.27294 0.130075 7.32837 0.069108 6.309787
0.891255 -157.487375 0.04829 -0.632028 0.066541 2.520536 0.105308 3.893078
60.0 0.087721 16.446482 0.047549 26.317488 0.017056 -11.753839 0.90965 170.214915
0.04709 32.063556 0.074189 32.353369 0.934394 170.658604 0.020933 -9.074455
0.021342 -4.711528 0.924898 170.663289 0.112613 5.712099 0.042974 19.739907
0.91453 170.33325 0.019262 -7.83912 0.040619 23.245778 0.086723 11.883846
70.0 0.116229 32.615509 0.083968 49.554593 0.044709 12.422894 0.901455 136.455686
0.086186 51.300172 0.137279 40.108893 0.926054 136.95295 0.049299 8.586978
0.047375 10.835399 0.914888 136.953376 0.106627 26.05306 0.069731 59.190285
0.905525 136.413073 0.048409 9.498555 0.073505 58.950485 0.105546 35.05555
80.0 0.162786 24.937087 0.129031 35.626164 0.08455 -41.224659 0.849208 104.252049
0.130126 35.791301 0.185226 23.914319 0.871069 104.820425 0.090098 -42.328371
0.085879 -40.407843 0.865166 104.932442 0.161022 30.591104 0.121515 44.955572
0.851347 104.124081 0.088509 -42.484275 0.122954 44.150286 0.157556 31.472814
90.0 0.171363 7.907062 0.141115 14.613665 0.105093 -101.732584 0.809805 76.004988
0.139645 14.194912 0.186895 5.376605 0.829309 76.741465 0.10974 -101.240298
0.104961 -100.597483 0.821911 76.451963 0.192271 14.989545 0.138964 21.224832
0.8096 75.903455 0.108242 -102.044538 0.140408 21.763246 0.181294 14.681302
100.0 0.138189 -2.349378 0.118756 -3.496677 0.096657 -162.894983 0.833158 48.184381
0.114738 -3.831083 0.148032 -8.415759 0.853207 49.05328 0.098773 -161.202393
0.094821 -162.290816 0.840138 49.126162 0.172985 -0.165872 0.118431 -0.670926
0.83305 48.236359 0.097353 -162.60898 0.122138 0.583606 0.156273 -0.707571
110.0 0.102696 4.685936 0.070537 -9.285165 0.057433 139.59195 0.881075 16.554495
0.066464 -8.018266 0.08958 -1.461903 0.901619 17.479487 0.057687 142.788388
0.054936 139.113729 0.893618 17.726803 0.118543 -4.925234 0.063976 -12.852359
0.882975 16.564919 0.055946 141.092861 0.069076 -12.486243 0.104614 -2.294445
120.0 0.107332 29.320833 0.060371 40.146965 0.015866 174.501226 0.891629 -17.719969
0.059633 43.909937 0.107116 37.903787 0.911658 -16.704782 0.017635 175.805271
0.014325 -177.238227 0.903813 -16.809023 0.095592 31.970999 0.049834 58.0001
0.892725 -17.816075 0.017374 -179.197538 0.048725 56.03176 0.089749 36.551872
130.0 0.160982 31.925202 0.115218 41.876084 0.070434 164.887487 0.850373 -51.216765
0.116725 44.295048 0.177125 34.171474 0.869478 -50.133964 0.070914 165.344999
0.069918 166.686402 0.857321 -50.233147 0.176344 40.94843 0.121137 55.311301
0.850637 -51.263598 0.072056 165.881713 0.12407 55.713759 0.170639 43.145789
140.0 0.193814 18.501586 0.143561 25.566464 0.110215 106.87222 0.795118 -81.102511
0.146632 26.376155 0.21331 17.753701 0.813069 -79.906006 0.110454 107.551697
0.108955 107.275253 0.802144 -79.757799 0.232901 24.139811 0.163562 32.8604
0.796091 -81.172993 0.111843 107.675497 0.168589 32.444241 0.222247 24.747802
150.0 0.190864 4.166441 0.145724 8.906799 0.11633 47.892419 0.786892 -108.201778
0.145771 8.462184 0.207518 0.388523 0.808038 -106.940778 0.117074 48.652314
0.114454 47.927644 0.800372 -106.846668 0.235743 5.759395 0.165075 9.10475
0.786437 -108.325913 0.117867 48.108583 0.168537 8.654033 0.222735 6.029777
160.0 0.15467 -7.419726 0.117515 -7.906109 0.090566 -7.433459 0.831076 -137.595797
0.114271 -7.839013 0.158269 -14.388027 0.85391 -136.650471 0.092351 -6.142647
0.088958 -6.847747 0.845409 -136.723969 0.190358 -9.944398 0.12281 -12.292471
0.829353 -137.583133 0.091204 -7.668014 0.124886 -12.022988 0.174992 -11.097045
170.0 0.100881 -1.141406 0.061955 -5.952872 0.046919 -47.054278 0.86596 -170.802512
0.05982 -3.179536 0.085801 -4.220275 0.88236 -169.778316 0.050033 -44.558697
0.04676 -44.322533 0.872504 -169.832287 0.113493 -9.275108 0.054656 -10.238856
0.865143 -170.653956 0.046959 -46.693857 0.05725 -8.727135 0.094427 -6.034008
180.0 0.11053 32.986729 0.072911 48.172304 0.036074 -21.782937 0.853442 155.10763
0.075255 49.737855 0.116639 40.093438 0.868754 156.866236 0.039804 -24.820008
0.039057 -22.103542 0.858998 156.761069 0.108483 33.349125 0.072533 55.578913
0.854164 155.295862 0.037498 -21.554321 0.074975 54.223557 0.110427 40.945527
190.0 0.179411 31.898625 0.134762 41.239381 0.073898 -48.304983 0.80937 123.091978
0.137726 41.304618 0.19628 31.943428 0.833715 125.253273 0.077551 -50.150905
0.075696 -49.863285 0.820409 125.141363 0.1905 36.754731 0.141652 44.488935
0.810665 123.262621 0.076715 -48.76644 0.146042 43.930576 0.195397 37.867992
200.0 0.210606 14.606157 0.158656 21.326484 0.097468 -98.026608 0.776952 94.040967
0.160363 20.295348 0.227324 12.268126 0.807606 95.831729 0.101784 -98.441297
0.097236 -98.5672 0.793469 96.147926 0.240433 20.368197 0.168953 21.911256
0.778555 94.218225 0.102092 -98.785552 0.174227 21.059813 0.238536 18.745588
210.0 0.191637 -1.00245 0.144803 4.131096 0.097041 -148.719419 0.786488 65.685069
0.142194 2.458384 0.200694 -6.431292 0.81436 66.959297 0.101678 -147.873019
0.095486 -147.902659 0.805468 67.298136 0.231732 3.190393 0.152196 1.825684
0.788476 65.773244 0.10225 -150.068593 0.155476 0.972911 0.220053 0.492301
220.0 0.13876 -10.048947 0.103985 -7.345212 0.076336 165.533169 0.821804 34.910045
0.098312 -7.880425 0.13098 -16.446946 0.84103 36.250722 0.081137 167.603815
0.074663 167.846219 0.82969 36.26015 0.178297 -7.540642 0.103011 -11.345425
0.821624 34.923509 0.080433 163.810045 0.104892 -11.662221 0.157721 -10.779355
230.0 0.089363 15.270117 0.058568 15.856523 0.046914 139.741693 0.839166 1.63448
0.056149 19.968337 0.07889 19.902501 0.854664 3.644968 0.052739 141.654911
0.047079 144.227796 0.839531 3.824075 0.119202 4.478422 0.056025 18.938499
0.837427 1.773294 0.049924 137.825945 0.057394 18.983781 0.095592 12.658307
240.0 0.147575 39.09696 0.099948 49.837067 0.051537 146.868274 0.817553 -31.631444
0.101553 51.31741 0.153912 43.075525 0.838251 -29.14997 0.05596 143.013323
0.053913 147.929161 0.825921 -28.953722 0.148079 31.859981 0.107116 47.817624
0.817274 -31.448687 0.05424 143.635949 0.110496 47.767293 0.157091 40.073665
250.0 0.209263 27.660516 0.154816 38.218976 0.0865 115.651951 0.779072 -62.570745
0.155025 38.594792 0.22181 28.385074 0.804974 -60.227935 0.088258 113.470626
0.087319 115.50602 0.791292 -60.282466 0.21319 27.773799 0.157898 33.291667
0.779194 -62.528329 0.090189 113.158023 0.163272 32.885117 0.228171 28.55632
260.0 0.228009 11.25371 0.174688 19.493329 0.107425 68.091509 0.761346 -91.300605
0.172558 20.008998 0.238212 10.366048 0.786641 -89.40792 0.109161 67.787243
0.107259 67.948594 0.770958 -89.318485 0.240111 14.595591 0.170522 14.729939
0.760379 -91.329452 0.112983 66.070458 0.175476 14.073344 0.248494 11.595151
270.0 0.202276 -4.873773 0.15383 0.951955 0.103393 19.607875 0.779045 -120.331936
0.151834 2.224815 0.206381 -6.320946 0.797429 -118.610684 0.10708 20.368291
0.103308 19.331718 0.78353 -118.511903 0.225245 1.826032 0.147141 -2.255138
0.777854 -120.385026 0.110226 17.438756 0.150701 -2.704931 0.218704 -3.668039
280.0 0.134836 -12.48866 0.096894 -7.414496 0.078531 -22.007788 0.809426 -151.902424
0.097346 -5.718146 0.132624 -12.443316 0.822328 -149.63617 0.084336 -21.198658
0.078877 -22.513617 0.807478 -149.59492 0.174764 -4.487356 0.094621 -7.702453
0.807896 -151.995042 0.084469 -25.201408 0.097227 -7.852572 0.152121 -8.769693
290.0 0.093876 21.306558 0.067628 32.649771 0.053636 -38.531318 0.813625 174.590264
0.068322 32.647371 0.099277 24.722399 0.830675 177.540937 0.059635 -41.054439
0.054234 -39.381926 0.817077 177.63966 0.133125 11.592169 0.075264 27.39334
0.811887 174.531229 0.056179 -43.466774 0.077646 27.014934 0.118332 17.732571
300.0 0.165941 38.450898 0.126053 48.117869 0.070246 -43.90139 0.780992 141.868827
0.125934 48.468638 0.176627 38.257846 0.806481 145.000823 0.072664 -47.946685
0.071094 -44.800382 0.79378 144.944305 0.176004 30.1247 0.125682 37.128017
0.780245 141.876796 0.071014 -47.07941 0.129782 36.738605 0.178311 31.721117
310.0 0.227774 23.614722 0.173302 34.047728 0.102901 -80.154928 0.743464 111.986265
0.173213 34.122729 0.240086 23.642479 0.773764 114.721462 0.104541 -81.929265
0.104536 -80.808878 0.759066 114.770817 0.237141 22.948726 0.159341 22.843334
0.744298 112.025883 0.104297 -82.210743 0.164967 22.209765 0.231578 21.492287
320.0 0.229823 5.423828 0.181576 17.760859 0.117281 -126.14094 0.739976 83.697207
0.179744 17.586952 0.247511 5.564815 0.765541 85.849363 0.120191 -126.507536
0.119177 -126.511851 0.753457 86.149452 0.251483 9.56483 0.154926 7.965578
0.742419 83.698421 0.119372 -127.685403 0.160172 6.943684 0.238961 8.025671
330.0 0.184671 -8.204639 0.158541 4.583511 0.107422 -170.458945 0.767882 53.625926
0.155073 4.794203 0.20338 -9.710343 0.781459 56.045734 0.112163 -170.249628
0.10835 -170.174636 0.772142 56.251183 0.225922 -1.079041 0.128822 -1.529866
0.770541 53.50521 0.110154 -171.966924 0.132161 -2.975233 0.21001 -2.012362
340.0 0.114161 -5.758385 0.111955 2.701404 0.083271 156.051707 0.788138 20.808529
0.10883 4.055907 0.126228 -10.291067 0.798268 24.376922 0.08878 155.155468
0.083745 158.088373 0.789496 24.453605 0.173911 -3.340811 0.090153 0.610635
0.788598 20.656907 0.086039 153.750868 0.09049 -0.555561 0.160942 -1.919183
350.0 0.114081 34.16577 0.101538 28.859063 0.074297 142.150617 0.772031 -12.634068
0.101938 31.251723 0.11331 28.741291 0.792631 -8.215011 0.07636 139.029955
0.077421 144.948879 0.783203 -8.303014 0.151169 15.350851 0.085826 30.803244
0.770492 -12.637194 0.07537 138.373329 0.087599 31.47386 0.151172 17.078141
360.0 0.188898 36.517598 0.147103 34.840919 0.097695 120.310345 0.733396 -43.803101
0.150248 35.757985 0.192953 35.679116 0.766825 -39.64997 0.096725 119.300456
0.10182 121.632449 0.754877 -39.689715 0.201926 24.963978 0.131361 36.028826
0.731891 -43.629645 0.096778 117.241255 0.136269 35.588091 0.200558 21.743027
370.0 0.232066 23.532289 0.17882 25.143898 0.119437 81.965471 0.716142 -72.426277
0.18115 24.79772 0.250006 21.614365 0.749545 -69.430854 0.120016 82.363494
0.122613 82.852283 0.739271 -69.223605 0.249038 17.099545 0.161441 24.835247
0.715655 -72.179537 0.119308 79.597344 0.165954 23.674787 0.232473 12.755214
380.0 0.232623 9.60956 0.185331 12.549853 0.121097 41.269572 0.733387 -101.709001
0.183973 11.877206 0.253293 5.148255 0.750758 -99.175262 0.124073 41.290813
0.12253 41.69782 0.743872 -99.052317 0.257366 4.955107 0.164648 11.39215
0.733771 -101.498594 0.123106 38.324899 0.167074 10.518497 0.22807 1.161347
390.0 0.191842 0.63268 0.160379 0.996801 0.109451 6.184015 0.755139 -133.357997
0.156697 0.902964 0.208408 -7.150197 0.759764 -129.741654 0.112035 4.723109
0.108307 6.41087 0.75332 -129.783819 0.223203 -5.158086 0.138349 0.559896
0.755934 -133.237034 0.111381 1.464662 0.141092 0.440781 0.18194 -5.888697
400.0 0.148395 9.566544 0.116398 2.811607 0.101217 -20.693855 0.754302 -166.192416
0.113375 4.104535 0.144803 -3.435009 0.765855 -161.183367 0.100373 -22.657027
0.098977 -19.899245 0.758867 -161.325306 0.16838 -3.032905 0.099739 5.704144
0.755284 -166.20593 0.099259 -26.572172 0.103283 4.982963 0.141128 8.3034
410.0 0.171307 26.607344 0.113315 25.068674 0.107707 -46.34919 0.729715 161.939743
0.113737 26.474583 0.14574 22.421025 0.760044 167.211652 0.105534 -46.598758
0.105593 -45.574297 0.751306 167.087851 0.160879 15.997555 0.104235 28.91579
0.729721 161.746871 0.102124 -50.294033 0.105972 27.586526 0.17564 25.086891
420.0 0.224624 24.102913 0.155631 29.503642 0.119496 -78.269449 0.707768 132.180047
0.155353 29.851069 0.210885 25.760315 0.749466 136.323045 0.119908 -77.785251
0.11723 -77.794059 0.740764 136.384614 0.208767 22.817864 0.14486 31.525892
0.705476 131.927824 0.115393 -80.006181 0.146999 30.827337 0.227943 21.417803
430.0 0.249166 12.976875 0.184401 19.648466 0.124677 -113.112269 0.71031 102.988731
0.182034 20.181288 0.253366 13.339109 0.743932 105.876421 0.12737 -113.596314
0.122715 -113.020074 0.73628 105.977987 0.252596 16.576816 0.171318 21.614043
0.706726 102.854338 0.12456 -114.74538 0.174331 20.730837 0.249894 11.670534
440.0 0.235083 1.312148 0.183252 7.807159 0.124264 -147.152637 0.727254 72.336018
0.180522 8.931453 0.244254 -1.12692 0.744203 75.417459 0.126029 -148.953073
0.122508 -147.50609 0.735595 75.603982 0.26638 5.917922 0.172959 10.155365
0.724277 72.348233 0.125941 -150.122506 0.174035 9.139563 0.242509 2.338459
450.0 0.185584 -4.196699 0.155655 -0.770095 0.120971 -179.888246 0.734947 40.126554
0.154266 0.946222 0.192538 -9.876458 0.748074 44.507722 0.119874 178.082198
0.119476 179.460272 0.740325 44.87659 0.240714 -4.101639 0.151303 0.819208
0.734165 40.200262 0.120807 175.933305 0.150773 0.848381 0.206897 -3.237275
460.0 0.149596 9.426875 0.117745 3.584689 0.116075 149.804542 0.721 7.872374
0.118935 5.720637 0.138179 0.621479 0.74706 13.118488 0.113498 148.963829
0.114659 148.963609 0.740792 13.486446 0.187253 -4.951191 0.11499 2.627519
0.722169 7.828922 0.112642 146.137902 0.117481 4.079736 0.171936 4.888525
470.0 0.177268 23.614711 0.117721 23.383039 0.115508 122.585731 0.698136 -22.860807
0.121205 23.985141 0.157522 24.109685 0.739376 -18.168689 0.115122 122.953873
0.114562 121.971537 0.733211 -17.828965 0.1684 12.752259 0.111266 22.434437
0.69869 -23.072596 0.112526 120.877662 0.117655 21.517385 0.192608 17.820586
480.0 0.22185 23.35534 0.155184 28.83135 0.124413 94.679356 0.6887 -52.369879
0.156582 28.372151 0.220348 24.871264 0.72833 -49.135228 0.127366 94.330068
0.124797 93.811216 0.722211 -48.839083 0.223539 21.800501 0.149586 27.865275
0.687612 -52.607467 0.124954 93.063937 0.151623 25.353402 0.241385 17.121349
490.0 0.256311 15.449984 0.188482 21.795299 0.136545 62.163536 0.696394 -82.337206
0.187163 21.688536 0.262582 13.882547 0.717444 -79.539157 0.140041 60.455966
0.136865 60.703913 0.710292 -79.269563 0.278466 13.157652 0.181461 18.948738
0.694282 -82.550617 0.138182 59.417755 0.178486 17.876597 0.272741 7.363427
500.0 0.254843 3.982589 0.197811 9.952532 0.141134 27.041992 0.706269 -113.664686
0.195705 10.477921 0.261105 0.226256 0.714821 -109.624716 0.143187 24.618993
0.140287 25.455305 0.707625 -109.28058 0.284031 -0.235173 0.185053 5.793584
0.702989 -113.847791 0.141433 23.585119 0.182988 6.529616 0.25923 -4.43787
510.0 0.21305 -1.990125 0.173251 -0.361306 0.137512 -6.374324 0.702626 -145.721087
0.17205 0.696783 0.213478 -9.515992 0.718743 -140.183918 0.137547 -8.95157
0.135365 -7.604681 0.712411 -139.897368 0.241088 -10.044406 0.156406 -4.192505
0.698466 -145.817464 0.135251 -9.792809 0.158612 -2.790728 0.210108 -8.706687
520.0 0.179864 6.597814 0.132726 1.689602 0.13445 -36.449914 0.685175 -177.097392
0.13363 3.139252 0.155543 -1.471543 0.721145 -171.278816 0.13267 -38.375577
0.132017 -36.741674 0.714323 -171.072089 0.183488 -7.111056 0.12001 -1.297837
0.680977 -177.069929 0.130488 -38.585597 0.123871 -0.70681 0.181215 0.868862
530.0 0.201795 18.314332 0.129176 20.136839 0.137915 -65.838093 0.670221 152.873345
0.132076 20.395811 0.174379 20.517281 0.718525 157.417798 0.136527 -66.604791
0.137059 -65.552087 0.711586 157.586946 0.176896 10.853528 0.112212 14.85599
0.667303 153.052085 0.135688 -66.494995 0.115584 14.908197 0.199054 10.577663
540.0 0.249372 17.387994 0.172 25.432553 0.143624 -97.036601 0.670604 123.140088
0.172662 24.857483 0.24282 20.149659 0.710567 126.296073 0.144677 -97.424057
0.143887 -96.978812 0.703077 126.398284 0.228153 16.900538 0.139431 24.129348
0.670686 123.337917 0.145133 -97.58902 0.143925 23.725306 0.234031 11.003105
550.0 0.280532 8.709125 0.207751 16.222469 0.147315 -128.551525 0.67864 92.407269
0.2056 16.005475 0.283688 7.525941 0.701319 95.659412 0.14986 -129.66098
0.147276 -128.799206 0.693515 95.792725 0.272204 9.451578 0.173466 19.317821
0.68055 92.391829 0.150676 -130.386448 0.177528 18.416508 0.260625 4.914327
560.0 0.276286 -2.238854 0.210732 3.485365 0.153125 -159.76331 0.680033 60.833883
0.2075 3.963455 0.270881 -6.568118 0.696279 65.428684 0.153603 -161.602856
0.151811 -160.039661 0.689386 65.509542 0.27623 -1.777551 0.18612 7.737596
0.68085 60.653726 0.153672 -162.693787 0.188649 7.092478 0.260674 -4.191138
570.0 0.235916 -9.090105 0.181389 -6.545399 0.159925 167.062508 0.670395 29.409733
0.179642 -5.285226 0.216839 -14.696606 0.698538 35.119491 0.157127 165.878341
0.15738 167.25206 0.69104 35.099941 0.238592 -10.164165 0.166594 -3.399566
0.670119 29.25238 0.156737 164.769156 0.169591 -3.788665 0.227416 -10.569379
580.0 0.196211 -5.34087 0.137444 -5.331816 0.158875 132.917869 0.658382 -0.99407
0.139079 -3.805751 0.162627 -6.653045 0.703218 4.131169 0.15609 133.100225
0.156779 133.687146 0.69552 4.120786 0.186832 -6.792233 0.126645 -4.384207
0.658264 -1.145926 0.155817 131.893841 0.128269 -5.593925 0.18973 -6.880639
590.0 0.191969 5.744498 0.127647 13.072416 0.151576 101.945565 0.658369 -30.859992
0.130557 12.794589 0.177045 12.669381 0.700303 -27.325489 0.151886 102.676455
0.150993 102.661306 0.693048 -27.396125 0.183034 9.413973 0.111918 14.011031
0.657684 -31.097646 0.151626 101.291638 0.110344 14.116067 0.18577 4.526903
600.0 0.229348 10.450878 0.166457 20.506496 0.15211 74.62918 0.666936 -61.627183
0.165417 19.763161 0.233761 12.5129 0.689286 -58.387741 0.154675 74.469771
0.151398 74.688475 0.68178 -58.449968 0.227788 14.99923 0.146167 24.582456
0.664115 -61.8935 0.154308 72.887593 0.148353 25.807684 0.219443 10.033787
610.0 0.261284 3.305979 0.203175 12.809389 0.164687 45.187061 0.667956 -93.250162
0.199621 13.025128 0.261412 1.712941 0.679013 -88.708058 0.166112 43.986665
0.162162 45.136779 0.672915 -88.695718 0.267732 9.699619 0.185026 18.482238
0.662975 -93.347359 0.16514 42.217231 0.190392 18.852848 0.252333 5.134239
620.0 0.252424 -5.689873 0.209065 -0.290825 0.176111 11.443973 0.658036 -124.550809
0.206665 0.853391 0.243869 -9.684968 0.676799 -118.647187 0.175088 10.023561
0.173029 11.755639 0.672466 -118.672824 0.277518 0.442942 0.199785 5.852467
0.653856 -124.349897 0.172851 8.338933 0.204508 5.744857 0.255646 -2.445632
630.0 0.219052 -9.400449 0.174738 -11.401258 0.177044 -23.36628 0.647887 -154.895981
0.176316 -10.025696 0.192127 -14.005538 0.684329 -149.021941 0.174259 -24.66168
0.174858 -22.991803 0.681111 -149.097585 0.248494 -6.851775 0.177274 -6.75896
