! File created by SignalIntegrity v1.1.13: Signal and Power Integrity Tools
! https://github.com/TeledyneLeCroy/SignalIntegrity
# MHz S MA R 50.0
0.0 0.014564 180.0 0.99537 0.0 0.995361 0.0 0.001054 180.0
100.0 0.024164 102.321104 0.990539 -14.598672 0.99053 -14.598733 0.024983 74.110189
200.0 0.03857 70.320915 0.985572 -28.805741 0.985565 -28.805918 0.044813 61.323937
300.0 0.053685 48.149496 0.981891 -43.042268 0.981886 -43.042528 0.06334 50.173248
400.0 0.066428 28.158627 0.977317 -57.183647 0.977313 -57.183978 0.078362 38.427385
500.0 0.076916 9.852375 0.973679 -71.311436 0.973678 -71.311807 0.090066 27.05486
600.0 0.084376 -8.15283 0.969571 -85.401231 0.969571 -85.401612 0.097555 15.425137
700.0 0.088464 -25.495505 0.966404 -99.472934 0.966406 -99.473295 0.100742 4.068224
800.0 0.089182 -42.756255 0.963121 -113.548042 0.963125 -113.54835 0.099513 -7.393206
900.0 0.086093 -59.68603 0.960594 -127.615973 0.9606 -127.616204 0.093853 -18.575943
1000.0 0.079659 -76.548189 0.958075 -141.717263 0.958083 -141.717393 0.084238 -29.688041
1100.0 0.069618 -93.261165 0.955908 -155.822663 0.955916 -155.822681 0.070864 -40.313542
1200.0 0.056733 -109.873157 0.953676 -169.972407 0.953684 -169.972302 0.054666 -50.258413
1300.0 0.041097 -126.524173 0.951325 175.872504 0.951333 175.872724 0.03615 -58.018222
1400.0 0.023649 -143.1317 0.948804 161.683485 0.94881 161.683812 0.016968 -56.354671
1500.0 0.004897 -163.307557 0.945849 147.498989 0.945854 147.499401 0.00876 34.308464
1600.0 0.014233 6.687168 0.942748 133.304772 0.942751 133.305243 0.026313 60.501455
1700.0 0.032895 -9.930768 0.939195 119.127893 0.939196 119.12839 0.044801 55.560205
1800.0 0.050269 -26.082932 0.935694 104.965076 0.935693 104.965565 0.0613 46.558761
1900.0 0.065474 -41.814233 0.931978 90.824542 0.931974 90.824987 0.075074 36.517604
2000.0 0.077933 -57.423783 0.928575 76.709262 0.92857 76.709627 0.085422 25.955518
2100.0 0.086882 -72.787023 0.925267 62.608112 0.92526 62.60837 0.091986 15.292724
2200.0 0.092082 -87.96548 0.922425 48.527576 0.922417 48.527701 0.094516 4.525759
2300.0 0.093049 -102.899248 0.919872 34.443724 0.919863 34.443703 0.09292 -6.133661
2400.0 0.089898 -117.512689 0.917719 20.366123 0.91771 20.365948 0.087359 -16.701194
2500.0 0.082547 -131.714791 0.915837 6.268389 0.915829 6.268067 0.078008 -26.937337
2600.0 0.071472 -145.156963 0.914086 -7.836597 0.91408 -7.837052 0.065409 -36.655945
2700.0 0.057101 -157.293496 0.912421 -21.967955 0.912416 -21.968518 0.050036 -45.105144
2800.0 0.040416 -166.105032 0.910547 -36.110602 0.910544 -36.111241 0.032893 -50.184994
2900.0 0.023218 -164.127218 0.908543 -50.271141 0.908543 -50.271817 0.015768 -39.81029
3000.0 0.01431 -118.231758 0.906105 -64.43589 0.906107 -64.436561 0.012463 36.099318
3100.0 0.026618 -83.418342 0.90345 -78.599819 0.903454 -78.600443 0.028586 57.762812
3200.0 0.044477 -84.635253 0.900374 -92.755981 0.90038 -92.756515 0.046009 54.362066
3300.0 0.061462 -93.975024 0.897181 -106.893247 0.89719 -106.893656 0.061911 46.385488
3400.0 0.076114 -105.801561 0.893809 -121.015614 0.893818 -121.015867 0.075247 36.803481
3500.0 0.087399 -118.61162 0.890538 -135.112203 0.890548 -135.112281 0.085394 26.583101
3600.0 0.094848 -131.789251 0.887406 -149.197963 0.887415 -149.197857 0.091858 15.973758
3700.0 0.097985 -145.079448 0.884556 -163.265928 0.884565 -163.26564 0.09433 5.213932
3800.0 0.09676 -158.208987 0.882058 -177.336911 0.882065 -177.336455 0.092694 -5.667578
3900.0 0.091194 -171.013235 0.879855 168.592312 0.87986 168.592909 0.086936 -16.524662
4000.0 0.081646 176.92561 0.877996 154.503318 0.877999 154.504022 0.077317 -27.305785
4100.0 0.068694 166.176763 0.876248 140.398301 0.876248 140.399068 0.064138 -37.753548
4200.0 0.053293 158.327135 0.874637 126.268998 0.874634 126.269779 0.048043 -47.397421
4300.0 0.037272 157.36488 0.872852 112.119133 0.872846 112.119879 0.029724 -54.313362
4400.0 0.025315 174.523052 0.87094 97.953959 0.870931 97.95462 0.011003 -43.153188
4500.0 0.027215 -153.167617 0.868652 83.778406 0.868641 83.778939 0.013323 61.394849
4600.0 0.040893 -141.429086 0.866099 69.607949 0.866086 69.608315 0.032648 66.710631
4700.0 0.057055 -144.487003 0.863204 55.444838 0.86319 55.445012 0.051441 58.937914
4800.0 0.072097 -152.997841 0.860132 41.306367 0.860119 41.306333 0.068112 48.716127
4900.0 0.084452 -163.820068 0.856981 27.187473 0.856968 27.18723 0.081812 37.674375
5000.0 0.093331 -175.644719 0.853898 13.098882 0.853887 13.098442 0.091824 26.187135
5100.0 0.098222 172.050271 0.851063 -0.972775 0.851053 -0.973387 0.097651 14.488022
5200.0 0.098903 159.679233 0.848504 -15.026716 0.848498 -15.027462 0.098989 2.596754
5300.0 0.095404 147.477119 0.84637 -29.079925 0.846368 -29.080759 0.095692 -9.402077
5400.0 0.087928 135.839923 0.844522 -43.138622 0.844523 -43.13949 0.087895 -21.540912
5500.0 0.077021 125.25869 0.843007 -57.215023 0.843012 -57.215869 0.075829 -33.77716
5600.0 0.063436 116.825845 0.841556 -71.315777 0.841564 -71.316543 0.060065 -46.153138
5700.0 0.048657 112.837481 0.840133 -85.440955 0.840144 -85.44159 0.041212 -58.678743
5800.0 0.035493 118.712256 0.838461 -99.592251 0.838475 -99.592707 0.020227 -71.569616
5900.0 0.030213 139.530774 0.836506 -113.75625 0.836521 -113.756494 0.001996 104.936915
6000.0 0.037239 158.452213 0.834133 -127.929759 0.834149 -127.929769 0.024215 84.69298
6100.0 0.050952 162.306212 0.831385 -142.092626 0.831401 -142.092393 0.045449 71.740442
6200.0 0.06569 157.538533 0.828343 -156.242415 0.828358 -156.241948 0.064549 58.912233
6300.0 0.078949 148.853329 0.825123 -170.363346 0.825135 -170.362669 0.080602 46.147244
6400.0 0.089444 138.384346 0.821958 175.54021 0.821967 175.541058 0.092785 33.344698
6500.0 0.096504 127.038426 0.818944 161.471731 0.81895 161.472702 0.100504 20.543869
6600.0 0.099674 115.381326 0.81632 147.419545 0.816322 147.420579 0.103393 7.669374
6700.0 0.098875 103.753285 0.814058 133.375101 0.814055 133.376134 0.101263 -5.265703
6800.0 0.094118 92.527516 0.812273 119.325671 0.812266 119.326636 0.09424 -18.35073
6900.0 0.085813 82.155855 0.810786 105.258109 0.810775 105.258944 0.082563 -31.637766
7000.0 0.074517 73.399927 0.809556 91.167598 0.809542 91.168245 0.066844 -45.324513
7100.0 0.061417 67.701652 0.808325 77.045573 0.808309 77.045988 0.047755 -59.880623
7200.0 0.04845 67.83897 0.806968 62.900585 0.80695 62.900735 0.0264 -77.404907
7300.0 0.039547 77.678835 0.805299 48.73316 0.80528 48.733029 0.005548 -136.831885
7400.0 0.039714 94.079136 0.803231 34.562308 0.803212 34.561899 0.020525 99.503931
7500.0 0.049071 103.907831 0.800774 20.394109 0.800757 20.39344 0.042338 79.704609
7600.0 0.062541 104.215413 0.797955 6.24739 0.797941 6.246499 0.062169 64.568529
7700.0 0.076363 98.841662 0.79498 -7.87454 0.79497 -7.875602 0.078901 50.563165
7800.0 0.088419 90.592723 0.791943 -21.96414 0.791937 -21.965309 0.091669 36.947747
7900.0 0.097632 80.899592 0.789116 -36.026208 0.789115 -36.027412 0.099847 23.561844
8000.0 0.103244 70.544547 0.786547 -50.068034 0.786551 -50.069197 0.103093 10.250048
8100.0 0.10497 60.031017 0.784416 -64.100082 0.784424 -64.10113 0.101225 -3.016298
8200.0 0.102656 49.752598 0.782644 -78.138614 0.782656 -78.139477 0.094422 -16.331766
8300.0 0.096563 40.176106 0.781235 -92.191548 0.781251 -92.192166 0.082946 -29.75303
8400.0 0.087162 31.902888 0.780004 -106.273488 0.780023 -106.273815 0.067456 -43.423732
8500.0 0.075486 25.990321 0.778813 -120.381985 0.778834 -120.381993 0.048649 -57.692901
8600.0 0.063206 24.106584 0.777481 -134.52178 0.777502 -134.521461 0.027608 -73.926358
8700.0 0.053284 28.548165 0.77585 -148.678824 0.775871 -148.678188 0.006072 -114.770053
8800.0 0.049731 39.108901 0.773876 -162.84774 0.773895 -162.846819 0.017817 98.216152
8900.0 0.054749 49.232322 0.771499 -177.010377 0.771516 -177.009221 0.039012 79.050006
9000.0 0.065789 52.974163 0.768864 168.84137 0.768877 168.842696 0.058138 64.282139
9100.0 0.078967 50.850948 0.766024 154.718349 0.766033 154.719768 0.074141 50.544464
9200.0 0.091449 45.084354 0.76323 140.623204 0.763234 140.62463 0.086256 37.183202
9300.0 0.101629 37.321419 0.76056 126.552794 0.760559 126.554141 0.093897 24.082368
9400.0 0.108456 28.506952 0.75822 112.502387 0.758215 112.50357 0.096816 11.130023
9500.0 0.11142 19.29375 0.756215 98.457499 0.756206 98.458442 0.094874 -1.670413
9600.0 0.11028 10.126203 0.754596 84.41128 0.754583 84.41192 0.088315 -14.335068
9700.0 0.105196 1.507651 0.753263 70.347255 0.753247 70.347548 0.077441 -26.818503
9800.0 0.096654 -6.010384 0.752106 56.264093 0.752089 56.264014 0.062929 -38.990596
9900.0 0.085632 -11.524597 0.750985 42.152784 0.750968 42.152328 0.045485 -50.522702
10000.0 0.073766 -13.780323 0.74972 28.021321 0.749705 28.020513 0.02615 -59.86571
10100.0 0.063637 -11.160317 0.748241 13.87158 0.748228 13.870459 0.006548 -47.204135
10200.0 0.058675 -3.577638 0.74642 -0.282733 0.74641 -0.284102 0.015272 73.114899
10300.0 0.061205 5.074214 0.744329 -14.433284 0.744322 -14.434823 0.034177 68.213217
10400.0 0.069984 9.649122 0.741953 -28.569615 0.74195 -28.571232 0.051157 57.74923
10500.0 0.081659 9.131309 0.739477 -42.684857 0.739479 -42.686456 0.065216 46.331779
10600.0 0.093272 4.856453 0.73696 -56.779211 0.736967 -56.780692 0.075754 34.632502
10700.0 0.102919 -1.677319 0.734588 -70.851844 0.7346 -70.853115 0.082283 22.949815
10800.0 0.10942 -9.509695 0.73241 -84.913793 0.732425 -84.914774 0.084675 11.396481
10900.0 0.11213 -17.928359 0.730505 -98.96849 0.730523 -98.969114 0.082872 0.110593
11000.0 0.110814 -26.455949 0.728856 -113.0311 0.728876 -113.031324 0.077188 -10.740563
11100.0 0.105583 -34.56971 0.727406 -127.10382 0.727426 -127.103623 0.067987 -20.882316
11200.0 0.096975 -41.722247 0.72609 -141.197396 0.726109 -141.196782 0.055992 -29.700627
11300.0 0.085914 -47.056625 0.724763 -155.308603 0.72478 -155.307602 0.042056 -35.813102
11400.0 0.073999 -49.399816 0.723381 -169.43896 0.723396 -169.437627 0.027724 -34.798401
11500.0 0.063568 -47.235376 0.721806 176.419442 0.721817 176.421032 0.016883 -11.806938
11600.0 0.057779 -40.259909 0.720073 162.2728 0.720079 162.274554 0.01906 31.210161
11700.0 0.058853 -31.72988 0.71812 148.12839 0.71812 148.130205 0.030501 44.844962
11800.0 0.065938 -26.683538 0.716058 133.994424 0.716053 133.99619 0.042773 43.342854
11900.0 0.075904 -26.618527 0.713901 119.871909 0.713891 119.873517 0.053345 37.136297
12000.0 0.085912 -30.463941 0.711776 105.766129 0.711762 105.767479 0.061418 29.194225
12100.0 0.094042 -36.753742 0.709724 91.670393 0.709706 91.671399 0.066531 20.647902
12200.0 0.099199 -44.511294 0.70781 77.586181 0.70779 77.586775 0.068643 12.05219
12300.0 0.100751 -53.007703 0.706057 63.502744 0.706036 63.502882 0.067791 3.78387
12400.0 0.098557 -61.757037 0.704437 49.42018 0.704415 49.419847 0.064341 -3.771324
12500.0 0.092722 -70.248396 0.702949 35.329434 0.702928 35.328641 0.058717 -10.18149
12600.0 0.083805 -77.932677 0.701492 21.231767 0.701474 21.230555 0.051648 -14.749138
12700.0 0.072601 -83.948735 0.70007 7.123799 0.700055 7.122232 0.043982 -16.519733
12800.0 0.060526 -86.952779 0.698567 -6.991916 0.698558 -6.993749 0.036955 -14.085031
12900.0 0.049586 -84.88249 0.697018 -21.112877 0.697014 -21.11487 0.032014 -6.561046
13000.0 0.042855 -76.341666 0.695342 -35.237486 0.695343 -35.239523 0.030516 4.404108
13100.0 0.042826 -64.950893 0.693601 -49.360007 0.693608 -49.361967 0.032425 14.05957
13200.0 0.048717 -58.094547 0.691766 -63.48216 0.691778 -63.483925 0.036437 19.498693
13300.0 0.05711 -57.817307 0.689897 -77.597901 0.689914 -77.599362 0.041018 21.058766
13400.0 0.065275 -62.325981 0.688004 -91.712412 0.688025 -91.713477 0.045287 20.135197
13500.0 0.071528 -69.699121 0.68611 -105.820761 0.686134 -105.821361 0.048748 17.820752
13600.0 0.075082 -78.806766 0.68425 -119.929322 0.684274 -119.929414 0.051316 14.841239
13700.0 0.075484 -88.926324 0.682399 -134.03443 0.682422 -134.034001 0.052975 11.582985
13800.0 0.072769 -99.623798 0.680606 -148.140817 0.680628 -148.139885 0.053878 8.273473
13900.0 0.067068 -110.539557 0.678817 -162.246286 0.678836 -162.244897 0.05408 4.965959
14000.0 0.058889 -121.294218 0.677095 -176.352497 0.67711 -176.35073 0.053676 1.697097
14100.0 0.048753 -131.360624 0.675379 169.540428 0.675388 169.542478 0.052601 -1.551737
14200.0 0.037511 -139.607791 0.673732 155.433542 0.673736 155.435755 0.050821 -4.682134
14300.0 0.02614 -143.365885 0.672103 141.323714 0.672101 141.325964 0.048215 -7.53211
14400.0 0.016637 -134.531343 0.670533 127.213777 0.670525 127.215933 0.044805 -9.683188
14500.0 0.013492 -103.615811 0.66898 113.098315 0.668966 113.100249 0.040698 -10.509342
14600.0 0.018471 -83.17166 0.667445 98.981642 0.667427 98.983242 0.036356 -8.962445
14700.0 0.025578 -83.28454 0.665899 84.858356 0.665877 84.859525 0.032604 -3.905573
14800.0 0.031919 -92.035277 0.664303 70.734384 0.664278 70.735055 0.030785 4.924853
14900.0 0.036591 -104.661411 0.662657 56.606748 0.662631 56.606876 0.032028 14.925911
15000.0 0.039524 -119.585522 0.660906 42.482159 0.660881 42.481739 0.036388 22.022441
15100.0 0.040758 -136.238432 0.659098 28.360695 0.659075 28.35975 0.042691 24.479927
15200.0 0.040686 -154.301234 0.657193 14.24721 0.657173 14.245798 0.049626 22.96733
15300.0 0.03964 -173.689028 0.655283 0.143275 0.655268 0.14148 0.056032 18.693078
15400.0 0.038065 165.979473 0.653349 -13.951398 0.65334 -13.953466 0.061114 12.607112
15500.0 0.03624 144.979454 0.651496 -28.035859 0.651492 -28.038071 0.064199 5.37422
15600.0 0.034241 124.050764 0.649711 -42.116792 0.649714 -42.119013 0.064903 -2.527509
15700.0 0.032001 103.721837 0.648053 -56.194297 0.648062 -56.196384 0.062917 -10.708217
15800.0 0.02915 84.744604 0.646497 -70.278899 0.646511 -70.280719 0.058234 -18.728535
15900.0 0.025466 67.758172 0.645023 -84.369884 0.645042 -84.371315 0.050944 -25.993008
16000.0 0.020611 53.900237 0.643593 -98.476232 0.643616 -98.477174 0.041529 -31.28079
16100.0 0.014777 46.551899 0.64212 -112.594004 0.642144 -112.594385 0.030856 -31.760855
16200.0 0.009085 58.535875 0.640584 -126.725859 0.640609 -126.725636 0.021316 -19.547903
16300.0 0.009399 103.339278 0.638886 -140.864498 0.63891 -140.863664 0.018935 12.545881
16400.0 0.017154 118.868765 0.637063 -155.005627 0.637085 -155.004212 0.026907 34.605005
16500.0 0.027136 114.939384 0.635066 -169.1421 0.635084 -169.140163 0.038877 38.144201
16600.0 0.037394 105.875421 0.632998 176.733235 0.63301 176.735598 0.050998 33.757732
16700.0 0.047169 95.116513 0.630873 162.622173 0.63088 162.624847 0.061566 26.109871
16800.0 0.055658 83.910063 0.628818 148.529288 0.628819 148.532133 0.069757 16.869712
16900.0 0.062424 72.753126 0.626877 134.448297 0.626871 134.451167 0.07485 6.813109
17000.0 0.066879 61.970552 0.625126 120.378963 0.625114 120.381705 0.076565 -3.667619
17100.0 0.068871 51.88005 0.623582 106.309347 0.623564 106.311815 0.074586 -14.316728
17200.0 0.068184 42.785702 0.622226 92.237022 0.622204 92.239087 0.069041 -24.847758
17300.0 0.065134 35.256787 0.621023 78.150812 0.620997 78.152359 0.060023 -34.963569
17400.0 0.060167 29.959426 0.619862 64.05111 0.619835 64.05206 0.048081 -43.855656
17500.0 0.054493 28.052781 0.61869 49.933785 0.618662 49.934081 0.033876 -49.679466
17600.0 0.049798 30.39359 0.617367 35.804789 0.61734 35.804419 0.019165 -43.851641
17700.0 0.04847 36.60653 0.615882 21.668833 0.615859 21.66781 0.012193 8.510726
17800.0 0.051881 43.225245 0.614148 7.53455 0.614128 7.532928 0.023882 43.284671
17900.0 0.059621 46.78514 0.612239 -6.588577 0.612224 -6.590717 0.039622 43.545702
18000.0 0.069611 46.316515 0.610154 -20.696367 0.610145 -20.698918 0.054641 36.210376
18100.0 0.080097 42.84609 0.608027 -34.78123 0.608025 -34.784065 0.067334 26.521868
18200.0 0.089455 37.413214 0.605917 -48.849043 0.605921 -48.852028 0.077125 15.84599
18300.0 0.096864 30.98349 0.603931 -62.898091 0.603941 -62.90108 0.083174 4.711425
18400.0 0.101535 24.086158 0.602128 -76.943175 0.602144 -76.946034 0.08539 -6.540352
18500.0 0.103335 17.337438 0.600512 -90.987222 0.600533 -90.989824 0.08335 -17.816496
18600.0 0.102173 11.073598 0.599103 -105.046089 0.599127 -105.048331 0.077345 -28.7396
18700.0 0.098582 5.930832 0.597786 -119.122727 0.597812 -119.124526 0.067447 -39.192302
18800.0 0.093305 2.285337 0.596549 -133.224504 0.596576 -133.225811 0.054318 -48.147001
18900.0 0.087727 0.848676 0.595227 -147.350451 0.595254 -147.351242 0.038756 -54.057163
19000.0 0.083486 1.60585 0.593818 -161.494901 0.593843 -161.495191 0.022669 -48.377385
19100.0 0.082352 4.230751 0.592213 -175.653011 0.592235 -175.652841 0.014519 -1.966122
19200.0 0.085204 6.937231 0.590459 170.189751 0.590477 170.190315 0.026428 34.378454
19300.0 0.091775 8.436233 0.588569 156.038097 0.588582 156.038958 0.043505 36.101232
19400.0 0.100588 7.636142 0.586638 141.905434 0.586646 141.906495 0.060438 29.711116
19500.0 0.110087 4.986075 0.58477 127.792136 0.584774 127.793272 0.074727 20.633873
19600.0 0.118794 0.618561 0.583068 113.702911 0.583067 113.704015 0.086459 10.891511
19700.0 0.125695 -4.519882 0.581621 99.633132 0.581617 99.634091 0.093983 0.590213
19800.0 0.13038 -10.378852 0.580506 85.581612 0.5805 85.582325 0.098083 -8.927822
19900.0 0.132354 -15.985649 0.579686 71.540937 0.579678 71.541339 0.097528 -18.444035
20000.0 0.133473 -21.639685 0.579276 57.534897 0.579268 57.534897 0.094044 -23.901739
