! File created by SignalIntegrity v1.4.3: Signal and Power Integrity Tools
! https://github.com/Nubis-Communications/SignalIntegrity
# MHz S MA R 50.0
0.0 0.018652 0.0 1.010263 0.0 1.013905 0.0 0.005859 0.0
10.0 0.018652 -5.494514 1.010324 0.035374 1.013965 0.033827 0.006017 -13.195237
20.0 0.018654 -10.965461 1.010505 0.069508 1.014144 0.066412 0.006465 -25.029577
30.0 0.018657 -16.389613 1.010798 0.101215 1.014434 0.096571 0.007137 -34.807085
40.0 0.018661 -21.744428 1.011193 0.129418 1.014826 0.123225 0.007961 -42.507639
50.0 0.018667 -27.00841 1.011677 0.153194 1.015305 0.145451 0.008875 -48.436908
60.0 0.018676 -32.161494 1.012232 0.171814 1.015854 0.16252 0.009834 -52.956521
70.0 0.018688 -37.185464 1.012839 0.184774 1.016453 0.173927 0.010806 -56.37487
80.0 0.018707 -42.064392 1.013478 0.191812 1.017083 0.179411 0.01177 -58.926662
90.0 0.018733 -46.785106 1.014129 0.192913 1.017723 0.178955 0.012713 -60.783233
100.0 0.018769 -51.337673 1.014771 0.188303 1.018354 0.172786 0.013625 -62.068684
110.0 0.018819 -55.715844 1.015388 0.178429 1.018958 0.161349 0.014503 -62.874079
120.0 0.018886 -59.917439 1.015965 0.163922 1.019519 0.145276 0.015347 -63.268301
130.0 0.018973 -63.9446 1.016488 0.145562 1.020026 0.125344 0.01616 -63.305924
140.0 0.019084 -67.803848 1.016951 0.12422 1.02047 0.102427 0.016946 -63.032777
150.0 0.019223 -71.50589 1.017349 0.100814 1.020848 0.077439 0.017713 -62.489738
160.0 0.019393 -75.065138 1.017681 0.076248 1.021158 0.051286 0.018468 -61.715123
170.0 0.019595 -78.498948 1.01795 0.051366 1.021404 0.024809 0.019217 -60.745974
180.0 0.019832 -81.82661 1.018164 0.026905 1.021593 -0.001252 0.019969 -59.618426
190.0 0.020103 -85.068208 1.01833 0.003463 1.021732 -0.026302 0.020729 -58.367401
200.0 0.020406 -88.243424 1.018459 -0.018527 1.021833 -0.049909 0.0215 -57.02585
210.0 0.020741 -91.370458 1.018562 -0.038809 1.021908 -0.071817 0.022285 -55.623799
220.0 0.021103 -94.465124 1.018652 -0.057306 1.021967 -0.091947 0.023085 -54.187407
230.0 0.021488 -97.540226 1.018739 -0.074104 1.022021 -0.110387 0.023896 -52.738241
240.0 0.021891 -100.605219 1.018833 -0.089434 1.022081 -0.127369 0.024717 -51.292864
250.0 0.022308 -103.666147 1.01894 -0.103642 1.022154 -0.143238 0.025542 -49.862761
260.0 0.022732 -106.725813 1.019067 -0.117154 1.022245 -0.158421 0.026365 -48.454599
270.0 0.023158 -109.784123 1.019217 -0.130439 1.022357 -0.173386 0.02718 -47.070733
280.0 0.023581 -112.838548 1.01939 -0.143969 1.022491 -0.188607 0.02798 -45.70988
290.0 0.023997 -115.884642 1.019583 -0.158186 1.022644 -0.204524 0.028761 -44.367887
300.0 0.024402 -118.916589 1.019794 -0.173468 1.022814 -0.221517 0.029516 -43.038521
310.0 0.024792 -121.927743 1.020016 -0.190104 1.022993 -0.239875 0.030241 -41.714242
320.0 0.025166 -124.911146 1.020243 -0.20828 1.023177 -0.259784 0.030935 -40.386922
330.0 0.025522 -127.860012 1.020468 -0.228065 1.023357 -0.281312 0.031594 -39.048498
340.0 0.025862 -130.768168 1.020683 -0.249415 1.023527 -0.304416 0.032219 -37.691541
350.0 0.026185 -133.630439 1.020884 -0.272179 1.02368 -0.328946 0.032812 -36.309738
360.0 0.026493 -136.442979 1.021063 -0.296117 1.023811 -0.35466 0.033374 -34.898277
370.0 0.026788 -139.203515 1.021218 -0.320919 1.023916 -0.381251 0.033908 -33.454109
380.0 0.027074 -141.911506 1.021346 -0.346234 1.023992 -0.408368 0.034419 -31.976093
390.0 0.027353 -144.568195 1.021447 -0.371699 1.024041 -0.435646 0.034911 -30.46501
400.0 0.027628 -147.176555 1.021521 -0.396962 1.024062 -0.462734 0.035386 -28.923436
410.0 0.027902 -149.741111 1.021573 -0.421713 1.024059 -0.489322 0.035849 -27.355488
420.0 0.028177 -152.267666 1.021605 -0.4457 1.024036 -0.515161 0.036303 -25.766462
430.0 0.028454 -154.76293 1.021624 -0.468753 1.023998 -0.540076 0.03675 -24.162392
440.0 0.028735 -157.234102 1.021634 -0.490783 1.023951 -0.563983 0.037189 -22.549562
450.0 0.02902 -159.688413 1.021642 -0.511793 1.0239 -0.586881 0.037622 -20.934032
460.0 0.029308 -162.132692 1.021652 -0.531867 1.02385 -0.608857 0.038046 -19.321196
470.0 0.029597 -164.572978 1.02167 -0.551162 1.023807 -0.630067 0.03846 -17.715423
480.0 0.029886 -167.014203 1.021697 -0.569894 1.023774 -0.650725 0.038861 -16.119806
490.0 0.030171 -169.459975 1.021737 -0.588311 1.023751 -0.671083 0.039245 -14.53602
500.0 0.030451 -171.912462 1.021791 -0.60668 1.023741 -0.691404 0.039608 -12.964298
510.0 0.030722 -174.37238 1.021856 -0.625259 1.023743 -0.711948 0.039948 -11.403515
520.0 0.03098 -176.839072 1.021932 -0.644276 1.023754 -0.732942 0.040261 -9.851362
530.0 0.031224 -179.310678 1.022016 -0.663915 1.023772 -0.754571 0.040544 -8.30459
540.0 0.031451 178.215648 1.022103 -0.684301 1.023793 -0.776958 0.040796 -6.759303
550.0 0.03166 175.743456 1.022189 -0.705488 1.023812 -0.800159 0.041017 -5.211279
560.0 0.031849 173.27671 1.02227 -0.727461 1.023825 -0.824157 0.041205 -3.656295
570.0 0.032018 170.819471 1.022342 -0.750134 1.023829 -0.848868 0.041361 -2.090438
580.0 0.032167 168.375594 1.022402 -0.773364 1.023819 -0.874146 0.041488 -0.510385
590.0 0.032298 165.948454 1.022446 -0.796956 1.023794 -0.899799 0.041588 1.086368
600.0 0.032412 163.540692 1.022474 -0.820686 1.023751 -0.925601 0.041662 2.701343
610.0 0.032511 161.154034 1.022485 -0.844315 1.02369 -0.951313 0.041715 4.334993
620.0 0.032597 158.789156 1.022479 -0.86761 1.023613 -0.976702 0.041748 5.9867
630.0 0.032672 156.445634 1.022459 -0.89036 1.02352 -1.001557 0.041765 7.654854
640.0 0.03274 154.121965 1.022427 -0.912393 1.023416 -1.025706 0.041767 9.337015
650.0 0.032801 151.815667 1.022387 -0.933587 1.023302 -1.049026 0.041756 11.030141
660.0 0.032857 149.523449 1.022342 -0.953877 1.023184 -1.071452 0.041732 12.730858
670.0 0.03291 147.241442 1.022296 -0.97326 1.023064 -1.09298 0.041696 14.435756
680.0 0.03296 144.965466 1.022254 -0.991789 1.022947 -1.113665 0.041646 16.141683
690.0 0.033006 142.691317 1.022217 -1.009571 1.022836 -1.133611 0.041581 17.846009
700.0 0.033049 140.41505 1.022189 -1.026752 1.022732 -1.152965 0.0415 19.546837
710.0 0.033087 138.133234 1.022171 -1.043505 1.022638 -1.1719 0.0414 21.24316
720.0 0.033118 135.843159 1.022163 -1.060017 1.022555 -1.190602 0.041278 22.934932
730.0 0.03314 133.542991 1.022165 -1.076468 1.02248 -1.20925 0.041133 24.623069
740.0 0.033151 131.23185 1.022175 -1.093021 1.022414 -1.228007 0.040962 26.309378
750.0 0.03315 128.909823 1.022191 -1.109804 1.022354 -1.247001 0.040765 27.99642
760.0 0.033134 126.577904 1.022211 -1.126902 1.022297 -1.266318 0.04054 29.687322
770.0 0.033102 124.23788 1.022231 -1.144353 1.022241 -1.285992 0.040287 31.38555
780.0 0.033052 121.892163 1.022248 -1.16214 1.022181 -1.306008 0.040007 33.094666
790.0 0.032985 119.543582 1.02226 -1.180196 1.022115 -1.326299 0.0397 34.81808
800.0 0.032899 117.195159 1.022263 -1.198411 1.022041 -1.346752 0.039369 36.558811
810.0 0.032795 114.849871 1.022255 -1.216637 1.021957 -1.367221 0.039015 38.319286
820.0 0.032675 112.510415 1.022237 -1.234705 1.021862 -1.387537 0.038641 40.101184
830.0 0.032539 110.179005 1.022207 -1.252437 1.021755 -1.407519 0.03825 41.905337
840.0 0.03239 107.85719 1.022167 -1.269657 1.021638 -1.426992 0.037843 43.731706
850.0 0.032228 105.545729 1.022117 -1.28621 1.021511 -1.445801 0.037424 45.579426
860.0 0.032057 103.244512 1.02206 -1.301969 1.021378 -1.463818 0.036993 47.446933
870.0 0.031877 100.952549 1.021999 -1.316848 1.02124 -1.480956 0.036552 49.332143
880.0 0.031691 98.668025 1.021936 -1.330803 1.021101 -1.497172 0.036102 51.232699
890.0 0.0315 96.388404 1.021874 -1.343839 1.020963 -1.512468 0.035642 53.146232
900.0 0.031306 94.110599 1.021816 -1.356005 1.020829 -1.526895 0.035172 55.070644
910.0 0.031107 91.831176 1.021765 -1.367389 1.020703 -1.540539 0.034691 57.004368
920.0 0.030906 89.546582 1.021722 -1.378111 1.020585 -1.553519 0.034197 58.946595
930.0 0.0307 87.253379 1.021688 -1.388309 1.020476 -1.565975 0.033689 60.897443
940.0 0.03049 84.948474 1.021664 -1.398132 1.020377 -1.578052 0.033166 62.858062
950.0 0.030273 82.629299 1.021648 -1.407721 1.020287 -1.589892 0.032626 64.830664
960.0 0.03005 80.293972 1.021641 -1.417203 1.020205 -1.601622 0.032069 66.818477
970.0 0.029818 77.941382 1.021638 -1.426677 1.02013 -1.613339 0.031493 68.82563
980.0 0.029577 75.571226 1.02164 -1.436207 1.020058 -1.625108 0.030899 70.85698
990.0 0.029324 73.183985 1.021642 -1.445818 1.019988 -1.636952 0.030288 72.917886
1000.0 0.029058 70.780837 1.021644 -1.455493 1.019917 -1.648854 0.029661 75.01396
1010.0 0.02878 68.363527 1.021641 -1.465177 1.019844 -1.660758 0.029019 77.15079
1020.0 0.028489 65.934196 1.021633 -1.474778 1.019764 -1.672573 0.028366 79.333688
1030.0 0.028185 63.495184 1.021618 -1.484181 1.019679 -1.684182 0.027703 81.567448
1040.0 0.027869 61.048811 1.021595 -1.493253 1.019587 -1.695451 0.027033 83.856161
1050.0 0.027541 58.59717 1.021564 -1.501855 1.019487 -1.706241 0.02636 86.203106
1060.0 0.027203 56.141927 1.021527 -1.509855 1.019381 -1.71642 0.025685 88.610719
1070.0 0.026857 53.684141 1.021483 -1.517137 1.01927 -1.725872 0.025011 91.080668
1080.0 0.026504 51.224135 1.021436 -1.523613 1.019156 -1.734506 0.024339 93.614041
1090.0 0.026146 48.761409 1.021387 -1.529226 1.019041 -1.742266 0.023672 96.211621
1100.0 0.025785 46.294604 1.021339 -1.533956 1.018927 -1.749132 0.023009 98.874267
1110.0 0.025422 43.821534 1.021293 -1.537823 1.018817 -1.755121 0.022351 101.603339
1120.0 0.025059 41.33927 1.021253 -1.540881 1.018712 -1.760288 0.021699 104.401161
1130.0 0.024695 38.844279 1.021219 -1.543215 1.018616 -1.764719 0.021051 107.271472
1140.0 0.024333 36.332607 1.021194 -1.544936 1.018528 -1.768521 0.020408 110.219821
1150.0 0.023972 33.800091 1.021177 -1.546167 1.01845 -1.771819 0.01977 113.25387
1160.0 0.023612 31.24258 1.021169 -1.547036 1.018381 -1.774739 0.019137 116.383576
1170.0 0.023253 28.656158 1.02117 -1.547667 1.018322 -1.777404 0.01851 119.621198
1180.0 0.022894 26.037339 1.021177 -1.548164 1.018271 -1.779919 0.01789 122.981122
1190.0 0.022534 23.383227 1.02119 -1.548612 1.018225 -1.782367 0.017279 126.479456
1200.0 0.022173 20.691629 1.021206 -1.549064 1.018185 -1.784801 0.016682 130.133378
1210.0 0.021809 17.961109 1.021224 -1.54954 1.018146 -1.78724 0.016101 133.960215
1220.0 0.021443 15.190987 1.021241 -1.550027 1.018108 -1.78967 0.015543 137.976233
1230.0 0.021074 12.381279 1.021255 -1.550477 1.018068 -1.792045 0.015012 142.195177
1240.0 0.020702 9.532593 1.021266 -1.550821 1.018026 -1.794292 0.014514 146.626602
1250.0 0.020327 6.645974 1.021271 -1.550965 1.017979 -1.796318 0.014056 151.274156
1260.0 0.019949 3.722729 1.021271 -1.550806 1.017928 -1.79802 0.013645 156.134001
1270.0 0.01957 0.764224 1.021265 -1.550238 1.017872 -1.799291 0.013284 161.193678
1280.0 0.01919 -2.228314 1.021255 -1.549165 1.017813 -1.800034 0.012979 166.431707
1290.0 0.018811 -5.253992 1.021241 -1.547504 1.017752 -1.800165 0.012734 171.818161
1300.0 0.018435 -8.312425 1.021225 -1.545197 1.017689 -1.799628 0.012549 177.316308
1310.0 0.018062 -11.403869 1.021209 -1.542215 1.017628 -1.79839 0.012427 -177.114875
1320.0 0.017696 -14.529312 1.021195 -1.53856 1.017569 -1.796455 0.012365 -171.517694
1330.0 0.017337 -17.69051 1.021185 -1.534266 1.017516 -1.793854 0.012363 -165.932789
1340.0 0.016986 -20.889963 1.02118 -1.529395 1.017468 -1.790651 0.012417 -160.396763
1350.0 0.016647 -24.130826 1.021182 -1.524035 1.017429 -1.786933 0.012525 -154.940709
1360.0 0.016318 -27.416756 1.021191 -1.518291 1.017399 -1.782803 0.012682 -149.589721
1370.0 0.016003 -30.751712 1.021209 -1.512279 1.017377 -1.778377 0.012887 -144.363219
1380.0 0.015701 -34.13971 1.021235 -1.506114 1.017365 -1.773771 0.013136 -139.275798
1390.0 0.015413 -37.584545 1.021267 -1.499907 1.017361 -1.769093 0.013427 -134.338255
1400.0 0.015139 -41.089514 1.021306 -1.493749 1.017364 -1.764435 0.013756 -129.558541
1410.0 0.014879 -44.657142 1.021349 -1.487714 1.017373 -1.75987 0.014122 -124.94247
1420.0 0.014634 -48.28894 1.021395 -1.481847 1.017386 -1.755443 0.014522 -120.494118
1430.0 0.014403 -51.985211 1.021443 -1.476165 1.017401 -1.751169 0.014954 -116.215954
1440.0 0.014186 -55.744902 1.021489 -1.470656 1.017417 -1.747038 0.015415 -112.108784
1450.0 0.013983 -59.565538 1.021533 -1.465283 1.017432 -1.74301 0.015901 -108.171614
1460.0 0.013794 -63.443209 1.021574 -1.459986 1.017444 -1.739027 0.016411 -104.40152
1470.0 0.013619 -67.372641 1.021611 -1.454692 1.017454 -1.735014 0.016938 -100.793604
1480.0 0.013458 -71.347318 1.021643 -1.449319 1.01746 -1.730889 0.017481 -97.341061
1490.0 0.013312 -75.359668 1.021671 -1.443786 1.017463 -1.726569 0.018034 -94.035377
1500.0 0.013179 -79.401298 1.021696 -1.438019 1.017464 -1.721983 0.018594 -90.866624
1510.0 0.013061 -83.463257 1.021717 -1.431961 1.017463 -1.717071 0.019157 -87.823843
1520.0 0.012958 -87.536327 1.021738 -1.425576 1.017463 -1.711798 0.01972 -84.895457
1530.0 0.012871 -91.611322 1.02176 -1.418853 1.017464 -1.706151 0.020279 -82.069706
1540.0 0.012799 -95.679369 1.021783 -1.411807 1.017469 -1.700145 0.020832 -79.335049
1550.0 0.012743 -99.732178 1.02181 -1.404479 1.017478 -1.693822 0.021377 -76.680536
1560.0 0.012704 -103.762265 1.021842 -1.396936 1.017494 -1.687247 0.021913 -74.096116
1570.0 0.012681 -107.763128 1.02188 -1.389262 1.017516 -1.680504 0.022438 -71.572875
1580.0 0.012674 -111.72936 1.021925 -1.381554 1.017547 -1.67369 0.022953 -69.1032
1590.0 0.012685 -115.656695 1.021977 -1.373917 1.017585 -1.66691 0.023457 -66.680862
1600.0 0.012711 -119.541983 1.022035 -1.366453 1.017631 -1.660264 0.023951 -64.301019
1610.0 0.012753 -123.383107 1.022099 -1.359255 1.017684 -1.653846 0.024434 -61.960146
1620.0 0.012811 -127.178836 1.022167 -1.352401 1.017743 -1.647734 0.024908 -59.655889
1630.0 0.012883 -130.928647 1.022239 -1.34595 1.017806 -1.641985 0.025372 -57.386879
1640.0 0.012968 -134.632516 1.022312 -1.339936 1.017872 -1.636634 0.025827 -55.152487
1650.0 0.013064 -138.290704 1.022386 -1.334367 1.017939 -1.631689 0.026272 -52.95257
1660.0 0.013172 -141.903562 1.022458 -1.329229 1.018006 -1.627135 0.026707 -50.787214
1670.0 0.013288 -145.471358 1.022527 -1.324484 1.018071 -1.622934 0.02713 -48.656489
1680.0 0.013412 -148.994146 1.022593 -1.320077 1.018134 -1.61903 0.027542 -46.56024
1690.0 0.013542 -152.471684 1.022655 -1.315942 1.018193 -1.615358 0.027939 -44.497934
1700.0 0.013676 -155.903401 1.022712 -1.312008 1.01825 -1.611845 0.028322 -42.468547
1710.0 0.013812 -159.288414 1.022766 -1.308204 1.018303 -1.608422 0.028687 -40.470529
1720.0 0.01395 -162.625587 1.022816 -1.30447 1.018354 -1.605028 0.029034 -38.501813
1730.0 0.014088 -165.913629 1.022863 -1.300759 1.018404 -1.601614 0.029361 -36.559881
1740.0 0.014225 -169.151214 1.022909 -1.297043 1.018453 -1.598154 0.029667 -34.64187
1750.0 0.01436 -172.337123 1.022956 -1.293316 1.018504 -1.594642 0.029951 -32.744711
1760.0 0.014492 -175.470382 1.023004 -1.289595 1.018557 -1.591093 0.030212 -30.865282
1770.0 0.014621 -178.550401 1.023055 -1.285918 1.018614 -1.587546 0.030451 -29.000565
1780.0 0.014747 178.422905 1.02311 -1.282345 1.018675 -1.58406 0.030666 -27.147804
1790.0 0.01487 175.449025 1.023169 -1.278948 1.018743 -1.580708 0.030858 -25.30463
1800.0 0.014989 172.526792 1.023234 -1.275808 1.018816 -1.57757 0.031029 -23.46917
1810.0 0.015104 169.654359 1.023303 -1.273013 1.018895 -1.574733 0.031178 -21.640118
1820.0 0.015216 166.829222 1.023377 -1.270642 1.01898 -1.572278 0.031307 -19.816759
1830.0 0.015326 164.048289 1.023455 -1.26877 1.019069 -1.570278 0.031416 -17.99896
1840.0 0.015432 161.307981 1.023536 -1.267452 1.019162 -1.56879 0.031506 -16.187113
1850.0 0.015534 158.604375 1.023618 -1.266729 1.019257 -1.567851 0.031578 -14.382042
1860.0 0.015634 155.933368 1.023701 -1.266616 1.019353 -1.56748 0.031632 -12.584887
1870.0 0.015729 153.290857 1.023782 -1.267109 1.019448 -1.567671 0.031668 -10.796953
1880.0 0.01582 150.672913 1.02386 -1.26818 1.019542 -1.568396 0.031685 -9.019567
1890.0 0.015907 148.075948 1.023935 -1.269784 1.019633 -1.569611 0.031684 -7.253927
1900.0 0.015987 145.496855 1.024005 -1.271861 1.019719 -1.571255 0.031664 -5.500972
1910.0 0.01606 142.933111 1.02407 -1.274343 1.019802 -1.57326 0.031623 -3.761275
1920.0 0.016126 140.382837 1.02413 -1.277156 1.01988 -1.575553 0.03156 -2.03497
1930.0 0.016184 137.844818 1.024186 -1.280233 1.019955 -1.578065 0.031476 -0.32172
1940.0 0.016232 135.318477 1.024237 -1.283511 1.020025 -1.580735 0.031368 1.37928
1950.0 0.016269 132.803802 1.024285 -1.286944 1.020094 -1.583516 0.031237 3.069257
1960.0 0.016296 130.301245 1.024331 -1.2905 1.02016 -1.586378 0.03108 4.749786
1970.0 0.016312 127.811594 1.024376 -1.29417 1.020227 -1.589308 0.030899 6.422685
1980.0 0.016316 125.335825 1.024421 -1.297961 1.020294 -1.592317 0.030694 8.089889
1990.0 0.016309 122.874943 1.024468 -1.301902 1.020363 -1.595432 0.030463 9.753322
2000.0 0.01629 120.429833 1.024517 -1.306035 1.020434 -1.598696 0.030209 11.414763
2010.0 0.01626 118.001118 1.024568 -1.310416 1.020509 -1.602164 0.029931 13.075719
2020.0 0.016218 115.589033 1.024623 -1.315107 1.020587 -1.605899 0.029631 14.737329
2030.0 0.016167 113.193335 1.02468 -1.320171 1.020668 -1.609964 0.02931 16.400277
2040.0 0.016106 110.813239 1.024739 -1.325667 1.020753 -1.614417 0.028969 18.064749
2050.0 0.016035 108.447399 1.024801 -1.331645 1.020839 -1.61931 0.028609 19.730423
2060.0 0.015955 106.093922 1.024862 -1.338139 1.020926 -1.624675 0.028231 21.396496
2070.0 0.015867 103.750427 1.024923 -1.345167 1.021013 -1.630532 0.027836 23.061751
2080.0 0.015771 101.414133 1.024983 -1.352728 1.021098 -1.636879 0.027424 24.724649
2090.0 0.015668 99.081984 1.025039 -1.360798 1.02118 -1.643694 0.026995 26.383459
2100.0 0.015556 96.750783 1.02509 -1.36934 1.021258 -1.650937 0.02655 28.03639
2110.0 0.015436 94.417345 1.025137 -1.378295 1.021332 -1.658552 0.026088 29.68174
2120.0 0.015308 92.078636 1.025177 -1.387597 1.021399 -1.666472 0.025609 31.318034
2130.0 0.015171 89.731908 1.025212 -1.39717 1.021461 -1.674622 0.025113 32.944141
2140.0 0.015024 87.374802 1.02524 -1.406938 1.021516 -1.682926 0.024598 34.559373
2150.0 0.014868 85.005416 1.025262 -1.416829 1.021566 -1.691311 0.024065 36.163538
2160.0 0.014702 82.622347 1.025279 -1.426777 1.021611 -1.699714 0.023513 37.756966
2170.0 0.014526 80.224679 1.025291 -1.436731 1.021651 -1.708082 0.022941 39.340485
2180.0 0.014338 77.811938 1.0253 -1.446657 1.021688 -1.71638 0.02235 40.91536
2190.0 0.014139 75.384008 1.025306 -1.456535 1.021723 -1.724592 0.021739 42.483203
2200.0 0.013929 72.941023 1.025311 -1.466366 1.021756 -1.732717 0.021109 44.045836
2210.0 0.013707 70.48322 1.025316 -1.476165 1.021789 -1.740771 0.020462 45.605152
2220.0 0.013475 68.010788 1.025321 -1.485965 1.021822 -1.748787 0.019796 47.162943
2230.0 0.013232 65.523701 1.025326 -1.495804 1.021856 -1.756803 0.019115 48.720732
2240.0 0.012978 63.021547 1.025333 -1.505729 1.02189 -1.764867 0.018418 50.279602
2250.0 0.012716 60.503373 1.02534 -1.515787 1.021926 -1.773025 0.017708 51.840041
2260.0 0.012444 57.967532 1.025348 -1.526019 1.021961 -1.78132 0.016985 53.401799
2270.0 0.012165 55.411558 1.025355 -1.536458 1.021996 -1.789785 0.01625 54.963772
2280.0 0.011878 52.832058 1.025361 -1.547125 1.02203 -1.798441 0.015506 56.52392
2290.0 0.011585 50.224642 1.025364 -1.558023 1.022061 -1.807291 0.014752 58.079202
2300.0 0.011287 47.583874 1.025364 -1.569139 1.022088 -1.816323 0.01399 59.625543
2310.0 0.010983 44.903252 1.025359 -1.580443 1.02211 -1.825508 0.013219 61.157798
2320.0 0.010674 42.175212 1.025349 -1.591889 1.022127 -1.834798 0.01244 62.669717
2330.0 0.010362 39.391145 1.025332 -1.603416 1.022137 -1.844135 0.011654 64.153843
2340.0 0.010045 36.541414 1.025308 -1.614956 1.022139 -1.85345 0.010859 65.601313
2350.0 0.009725 33.615367 1.025277 -1.626433 1.022135 -1.862669 0.010057 67.00146
2360.0 0.009402 30.601317 1.02524 -1.637773 1.022123 -1.871717 0.009245 68.341074
2370.0 0.009076 27.486487 1.025195 -1.648906 1.022104 -1.880525 0.008426 69.603072
2380.0 0.008747 24.256903 1.025144 -1.65977 1.022079 -1.889031 0.007597 70.764122
