! File created by SignalIntegrity v1.4.3: Signal and Power Integrity Tools
! https://github.com/Nubis-Communications/SignalIntegrity
# MHz S MA R 50.0
0.0 0.015486 180.0 0.982825 0.0 0.982818 0.0 0.001869 180.0
100.0 0.024791 103.036227 0.977765 -14.62763 0.977759 -14.627666 0.025396 75.198174
200.0 0.038891 70.643397 0.972643 -28.83728 0.972638 -28.837413 0.045127 61.589551
300.0 0.0539 48.320308 0.968947 -43.080623 0.968942 -43.080823 0.063624 50.270349
400.0 0.06647 28.216972 0.964345 -57.224327 0.964342 -57.224585 0.078505 38.435109
500.0 0.076822 9.914351 0.96076 -71.355293 0.960759 -71.355582 0.090096 27.07868
600.0 0.08415 -8.098806 0.956689 -85.447264 0.95669 -85.447559 0.09745 15.463423
700.0 0.088113 -25.389984 0.95361 -99.52079 0.953612 -99.521067 0.100525 4.174887
800.0 0.088749 -42.601733 0.950397 -113.598284 0.950401 -113.598515 0.099206 -7.218888
900.0 0.085579 -59.439104 0.947967 -127.667481 0.947972 -127.667648 0.093481 -18.28275
1000.0 0.079123 -76.184777 0.945531 -141.771095 0.945537 -141.771176 0.083849 -29.252474
1100.0 0.069062 -92.721743 0.943454 -155.877172 0.94346 -155.877161 0.070486 -39.643323
1200.0 0.056215 -109.053968 0.941309 -170.028492 0.941315 -170.02838 0.054369 -49.22225
1300.0 0.040623 -125.201992 0.939045 175.816665 0.939051 175.816869 0.036001 -56.210367
1400.0 0.023269 -140.500416 0.936618 161.627381 0.936623 161.627671 0.01724 -52.346787
1500.0 0.004649 -149.217422 0.933757 147.444143 0.93376 147.444498 0.00991 30.834536
1600.0 0.014432 1.784352 0.930766 133.250974 0.930769 133.251373 0.026752 57.857682
1700.0 0.032952 -12.085634 0.927321 119.075939 0.927321 119.076352 0.044963 53.940069
1800.0 0.050202 -27.472582 0.923946 104.914884 0.923945 104.915282 0.061261 45.406217
1900.0 0.065279 -42.810609 0.920348 90.77603 0.920345 90.776383 0.074878 35.657489
2000.0 0.077637 -58.17464 0.917076 76.66241 0.917072 76.662687 0.085091 25.293676
2100.0 0.08649 -73.350649 0.913887 62.562167 0.913881 62.562347 0.091552 14.799578
2200.0 0.091634 -88.371843 0.911166 48.482662 0.911159 48.482724 0.094009 4.174584
2300.0 0.092561 -103.159958 0.908719 34.398855 0.908712 34.398791 0.092372 -6.336688
2400.0 0.089413 -117.619786 0.906666 20.321685 0.906659 20.32149 0.086811 -16.752485
2500.0 0.082093 -131.652399 0.904874 6.223614 0.904868 6.223296 0.077496 -26.798456
2600.0 0.071099 -144.871647 0.903204 -7.881046 0.903199 -7.881475 0.064984 -36.27079
2700.0 0.056856 -156.696686 0.901619 -22.012377 0.901615 -22.012891 0.049748 -44.326886
2800.0 0.040392 -164.966732 0.899819 -36.154225 0.899818 -36.154796 0.032849 -48.670687
2900.0 0.023626 -162.034442 0.897901 -50.31382 0.897901 -50.314414 0.016261 -36.68306
3000.0 0.015385 -118.408549 0.895549 -64.477054 0.895551 -64.477633 0.013404 33.458687
3100.0 0.027241 -85.499974 0.892996 -78.639124 0.893001 -78.639651 0.028944 55.496717
3200.0 0.044757 -86.138529 0.890029 -92.793337 0.890035 -92.793776 0.046059 52.821265
3300.0 0.061515 -95.090054 0.88696 -106.928363 0.886968 -106.928685 0.061747 45.247461
3400.0 0.076011 -106.65782 0.883716 -121.048942 0.883724 -121.049121 0.074911 35.918823
3500.0 0.087173 -119.280758 0.880581 -135.143594 0.880589 -135.143617 0.084926 25.892202
3600.0 0.094542 -132.301404 0.877582 -149.228189 0.87759 -149.228049 0.091294 15.437687
3700.0 0.09763 -145.455383 0.874862 -163.294882 0.87487 -163.294584 0.093708 4.823747
3800.0 0.096397 -158.447258 0.872487 -177.36529 0.872493 -177.364849 0.092056 -5.91825
3900.0 0.09086 -171.110303 0.870395 168.564732 0.870398 168.565291 0.08632 -16.618881
4000.0 0.081383 176.998032 0.86864 154.476258 0.868641 154.476901 0.07677 -27.217479
4100.0 0.068554 166.458844 0.866981 140.372175 0.86698 140.372863 0.063697 -37.412483
4200.0 0.053343 158.904222 0.865458 126.24405 0.865454 126.244739 0.047763 -46.657416
4300.0 0.037637 158.305674 0.863753 112.095842 0.863747 112.096489 0.029679 -52.729673
4400.0 0.026129 175.211965 0.861926 97.932905 0.861917 97.933466 0.011531 -39.023954
4500.0 0.028066 -154.219765 0.859725 83.759854 0.859715 83.760292 0.013803 57.220189
4600.0 0.041405 -142.729841 0.857271 69.592445 0.857259 69.592727 0.032649 64.60644
4700.0 0.057302 -145.556357 0.854481 55.432187 0.854468 55.432294 0.051201 57.562256
4800.0 0.072158 -153.847284 0.851525 41.296789 0.851513 41.296709 0.067693 47.702735
4900.0 0.08438 -164.500876 0.848496 27.180315 0.848484 27.18005 0.081261 36.8972
5000.0 0.093164 -176.182837 0.845536 13.094019 0.845526 13.093583 0.09118 25.582092
5100.0 0.097999 171.633936 0.842824 -0.976155 0.842817 -0.976738 0.096956 14.030165
5200.0 0.098657 159.380767 0.840381 -15.028858 0.840377 -15.029551 0.098285 2.270414
5300.0 0.095173 147.29527 0.83836 -29.081375 0.838358 -29.082136 0.095018 -9.592627
5400.0 0.087743 135.787419 0.836609 -43.13947 0.836611 -43.140249 0.087291 -21.583839
5500.0 0.076926 125.355794 0.835188 -57.215257 0.835193 -57.216004 0.075325 -33.632323
5600.0 0.063477 117.109034 0.83382 -71.315207 0.833828 -71.31587 0.059693 -45.738466
5700.0 0.04891 113.336502 0.83248 -85.439024 0.832491 -85.439558 0.040991 -57.764915
5800.0 0.036044 119.274787 0.83089 -99.588624 0.830903 -99.588988 0.020178 -69.17865
5900.0 0.030992 139.351375 0.829023 -113.750146 0.829037 -113.750313 0.001992 76.086364
6000.0 0.037874 157.531411 0.826746 -127.920997 0.82676 -127.920949 0.023953 82.107244
6100.0 0.051345 161.363416 0.824103 -142.080634 0.824117 -142.080368 0.045038 70.313831
6200.0 0.06589 156.744079 0.821175 -156.227388 0.821188 -156.226914 0.064013 57.918647
6300.0 0.079013 148.20145 0.818075 -170.345167 0.818086 -170.344509 0.079976 45.400966
6400.0 0.089407 137.85615 0.815036 175.561033 0.815044 175.561837 0.092103 32.766134
6500.0 0.096403 126.616794 0.812144 161.494944 0.812149 161.495847 0.099806 20.100334
6600.0 0.099535 115.057484 0.809641 147.444637 0.809641 147.445584 0.102716 7.341549
6700.0 0.098733 103.523992 0.807487 133.401734 0.807484 133.402667 0.100641 -5.479247
6800.0 0.093997 92.394567 0.805805 119.35367 0.805798 119.354528 0.093706 -18.444524
6900.0 0.085749 82.128666 0.804407 105.287316 0.804397 105.288044 0.082137 -31.585446
7000.0 0.074544 73.490236 0.803261 91.198309 0.803247 91.198855 0.066544 -45.071251
7100.0 0.061583 67.921618 0.802106 77.077871 0.80209 77.078198 0.047579 -59.279839
7200.0 0.048807 68.140547 0.800826 62.935082 0.800809 62.935163 0.026317 -75.925243
7300.0 0.040113 77.80045 0.799234 48.770011 0.799217 48.769835 0.004997 -129.938689
7400.0 0.040326 93.678365 0.797251 34.602081 0.797234 34.601653 0.020032 97.152311
7500.0 0.049543 103.240594 0.794887 20.436787 0.794872 20.436127 0.041822 78.457928
7600.0 0.06284 103.561139 0.792168 6.29318 0.792156 6.292326 0.061597 63.709443
7700.0 0.076527 98.27455 0.789302 -7.825918 0.789293 -7.826918 0.078294 49.917089
7800.0 0.088479 90.115604 0.786375 -21.912889 0.78637 -21.913974 0.091056 36.442496
7900.0 0.097621 80.505837 0.783663 -35.972713 0.783662 -35.973816 0.09926 23.167599
8000.0 0.103188 70.224806 0.781203 -50.012699 0.781207 -50.013751 0.102564 9.94908
8100.0 0.104898 59.782217 0.779179 -64.043122 0.779187 -64.044055 0.100779 -3.226861
8200.0 0.102591 49.570921 0.777505 -78.08035 0.777517 -78.081102 0.094081 -16.44947
8300.0 0.096533 40.064537 0.77619 -92.131834 0.776205 -92.132352 0.082722 -29.759536
8400.0 0.087195 31.861234 0.775045 -106.212398 0.775063 -106.212642 0.067357 -43.280325
8500.0 0.075612 26.019133 0.773938 -120.319043 0.773958 -120.318991 0.048666 -57.295686
8600.0 0.063456 24.177212 0.772689 -134.456847 0.772708 -134.456495 0.027717 -72.906772
8700.0 0.053669 28.5653 0.771141 -148.611331 0.77116 -148.610692 0.005993 -108.641728
8800.0 0.050187 38.902929 0.769255 -162.777519 0.769272 -162.776624 0.017342 96.268062
8900.0 0.055152 48.809554 0.766969 -176.937067 0.766984 -176.935964 0.038535 78.041706
9000.0 0.066072 52.48796 0.764432 168.917802 0.764443 168.919048 0.057647 63.583353
9100.0 0.079135 50.39474 0.76169 154.797898 0.761697 154.799217 0.073661 50.011711
9200.0 0.091527 44.67973 0.758999 140.70575 0.759002 140.707063 0.085812 36.757739
9300.0 0.101644 36.972211 0.756429 126.63803 0.756428 126.639256 0.093517 23.740088
9400.0 0.108433 28.207271 0.75419 112.590172 0.754184 112.591234 0.096521 10.85563
9500.0 0.111381 19.041457 0.752279 98.547422 0.75227 98.548253 0.094679 -1.880634
9600.0 0.110248 9.916396 0.750751 84.503325 0.750739 84.503868 0.088233 -14.482219
9700.0 0.10519 1.339594 0.749504 70.441107 0.74949 70.441325 0.077472 -26.893219
9800.0 0.096696 -6.141069 0.748429 56.359913 0.748414 56.359785 0.063074 -38.97396
9900.0 0.085737 -11.623231 0.747388 42.250445 0.747373 42.249971 0.045733 -50.364194
10000.0 0.073947 -13.868389 0.746202 28.12109 0.746188 28.120294 0.026498 -59.421162
10100.0 0.06389 -11.285946 0.744804 13.973489 0.744791 13.972412 0.007042 -46.536965
10200.0 0.058961 -3.814078 0.743063 -0.178458 0.743054 -0.179755 0.01499 71.232667
10300.0 0.06145 4.722765 0.741058 -14.326541 0.741052 -14.327984 0.033832 67.374437
10400.0 0.070148 9.254148 0.738768 -28.460344 0.738766 -28.461847 0.05082 57.176926
10500.0 0.08174 8.751455 0.736383 -42.572956 0.736386 -42.574429 0.064922 45.888459
10600.0 0.093293 4.508417 0.733957 -56.664804 0.733964 -56.666157 0.075527 34.265483
10700.0 0.1029 -1.990283 0.73168 -70.73484 0.731691 -70.735989 0.082141 22.637733
10800.0 0.109384 -9.79225 0.729594 -84.794429 0.729608 -84.7953 0.084629 11.123929
10900.0 0.112091 -18.183672 0.727781 -98.84666 0.727797 -98.847195 0.082926 -0.12925
11000.0 0.110791 -26.68905 0.726223 -112.907042 0.726241 -112.907203 0.077342 -10.956154
11100.0 0.105586 -34.784421 0.72486 -126.977404 0.724879 -126.977173 0.068229 -21.079311
11200.0 0.097015 -41.924578 0.723631 -141.068768 0.723649 -141.068153 0.05631 -29.893148
11300.0 0.085992 -47.255594 0.722388 -155.177625 0.722404 -155.176656 0.042426 -36.035207
11400.0 0.074115 -49.612511 0.72109 -169.305647 0.721103 -169.304377 0.028111 -35.198372
11500.0 0.063702 -47.491214 0.719596 176.555194 0.719605 176.556694 0.017155 -12.997879
11600.0 0.057899 -40.585398 0.717945 162.4111 0.71795 162.412742 0.018994 29.880891
11700.0 0.058916 -32.104981 0.71607 148.269265 0.71607 148.270952 0.030321 44.110256
11800.0 0.065936 -27.057397 0.714089 134.138053 0.714084 134.139685 0.042608 42.842517
11900.0 0.075851 -26.964405 0.712011 120.018215 0.712002 120.019691 0.053239 36.739129
12000.0 0.085833 -30.780988 0.709966 105.915296 0.709953 105.916524 0.06139 28.844896
12100.0 0.093954 -37.047746 0.707994 91.822244 0.707977 91.823145 0.066588 20.322869
12200.0 0.099121 -44.789521 0.706159 77.74084 0.70614 77.741355 0.068784 11.732296
12300.0 0.10069 -53.27686 0.704487 63.659976 0.704467 63.660065 0.068005 3.457222
12400.0 0.098525 -62.02333 0.702946 49.580015 0.702926 49.579667 0.064612 -4.121127
12500.0 0.09272 -70.519787 0.701539 35.491649 0.70152 35.490876 0.059021 -10.570058
12600.0 0.083835 -78.217819 0.700162 21.396308 0.700145 21.39515 0.051959 -15.201201
12700.0 0.072652 -84.262956 0.698821 7.290536 0.698808 7.289054 0.044263 -17.062022
12800.0 0.060583 -87.315717 0.697397 -6.823074 0.697389 -6.824795 0.037172 -14.742654
12900.0 0.049616 -85.320883 0.695928 -20.941901 0.695924 -20.943763 0.032136 -7.304384
13000.0 0.042819 -76.842851 0.694329 -35.064451 0.694331 -35.066347 0.030548 3.688417
13100.0 0.042704 -65.429328 0.692667 -49.184718 0.692673 -49.186535 0.032416 13.472827
13200.0 0.048541 -58.48956 0.690908 -63.304653 0.69092 -63.306281 0.036445 19.021552
13300.0 0.056915 -58.149353 0.689116 -77.417879 0.689132 -77.419219 0.041073 20.638181
13400.0 0.065091 -62.625425 0.6873 -91.529885 0.68732 -91.530853 0.045399 19.723247
13500.0 0.071368 -69.988484 0.685484 -105.635444 0.685505 -105.635977 0.048909 17.394012
13600.0 0.074959 -79.098933 0.683702 -119.741235 0.683724 -119.741296 0.051511 14.38353
13700.0 0.075404 -89.233717 0.681928 -133.843406 0.68195 -133.842982 0.053183 11.093753
13800.0 0.072737 -99.955341 0.680214 -147.946896 0.680235 -147.946008 0.054082 7.755476
13900.0 0.067083 -110.910163 0.678503 -162.049463 0.678521 -162.048154 0.054265 4.433451
14000.0 0.058947 -121.719938 0.67686 -176.152811 0.676874 -176.151153 0.053836 1.163828
14100.0 0.048845 -131.875023 0.67522 169.742849 0.675229 169.744765 0.052738 -2.067224
14200.0 0.037618 -140.266643 0.673651 155.638712 0.673654 155.640776 0.050945 -5.168602
14300.0 0.026226 -144.304295 0.672095 141.531443 0.672093 141.533536 0.048339 -7.980528
14400.0 0.01661 -135.973346 0.670598 127.424158 0.67059 127.426161 0.044945 -10.097683
14500.0 0.013237 -104.913105 0.669116 113.311168 0.669103 113.312963 0.040864 -10.903443
14600.0 0.018138 -83.643697 0.66765 99.197119 0.667633 99.198603 0.036554 -9.374711
14700.0 0.025266 -83.565874 0.666173 85.076328 0.666152 85.07741 0.032819 -4.394259
14800.0 0.031653 -92.314973 0.664644 70.954997 0.664621 70.955616 0.030985 4.304811
14900.0 0.036383 -104.989049 0.663066 56.829928 0.663042 56.830045 0.032173 14.21671
15000.0 0.039389 -119.968811 0.661382 42.70798 0.661359 42.707589 0.036467 21.327833
15100.0 0.040709 -136.681546 0.659644 28.589138 0.659623 28.588263 0.042723 23.868171
15200.0 0.040736 -154.790592 0.657807 14.478245 0.657789 14.476937 0.049643 22.444761
15300.0 0.039798 -174.205756 0.655968 0.37694 0.655954 0.375281 0.056061 18.250698
15400.0 0.038328 165.472365 0.654105 -13.715221 0.654097 -13.717132 0.061181 12.227454
15500.0 0.036599 144.525247 0.652324 -27.797069 0.652321 -27.799113 0.064319 5.045699
15600.0 0.034668 123.688752 0.650612 -41.875548 0.650614 -41.877599 0.065088 -2.818634
15700.0 0.032468 103.481179 0.649026 -55.950452 0.649035 -55.952379 0.063171 -10.972059
15800.0 0.029624 84.628608 0.647544 -70.032598 0.647557 -70.034277 0.058554 -18.980144
15900.0 0.02592 67.76408 0.646143 -84.120968 0.64616 -84.122287 0.051317 -26.252821
16000.0 0.021024 54.002886 0.644786 -98.224788 0.644807 -98.225654 0.041938 -31.594438
16100.0 0.01514 46.684077 0.643384 -112.339898 0.643407 -112.340245 0.031259 -32.247698
16200.0 0.009389 58.179617 0.64192 -126.469087 0.641943 -126.468874 0.021622 -20.538552
16300.0 0.00955 102.091591 0.64029 -140.604974 0.640312 -140.604195 0.01895 11.167922
16400.0 0.017261 118.211191 0.638535 -154.743239 0.638555 -154.741921 0.026732 33.80983
16500.0 0.027296 114.588922 0.636603 -168.876816 0.63662 -168.875013 0.038696 37.706267
16600.0 0.03763 105.660297 0.634599 177.001618 0.634611 177.003819 0.050884 33.469709
16700.0 0.047486 94.973398 0.632537 162.893621 0.632543 162.896115 0.061553 25.897087
16800.0 0.05605 83.802979 0.630544 148.804028 0.630545 148.806685 0.069861 16.69598
16900.0 0.062879 72.664851 0.628665 134.726214 0.628659 134.728899 0.075077 6.662189
17000.0 0.067383 61.884802 0.626976 120.660204 0.626965 120.662778 0.076913 -3.809456
17100.0 0.069404 51.786753 0.625497 106.593707 0.625481 106.596034 0.07504 -14.459387
17200.0 0.068724 42.671137 0.624205 92.524489 0.624184 92.526449 0.069583 -25.005413
17300.0 0.065654 35.108945 0.623068 78.441125 0.623045 78.44261 0.060621 -35.157164
17400.0 0.06064 29.761817 0.621973 64.344091 0.621947 64.345028 0.0487 -44.130451
17500.0 0.054887 27.794898 0.620867 50.229219 0.620841 50.229552 0.034464 -50.163949
17600.0 0.050089 30.084149 0.619607 36.102424 0.619582 36.102139 0.01961 -45.101862
17700.0 0.048657 36.304454 0.618186 21.968625 0.618163 21.967731 0.012028 6.105664
17800.0 0.052011 42.998573 0.61651 7.83631 0.616492 7.834854 0.023493 42.87696
17900.0 0.05976 46.64731 0.61466 -6.284652 0.614646 -6.2866 0.03934 43.478822
18000.0 0.069812 46.234143 0.612632 -20.390318 0.612624 -20.392661 0.054515 36.205509
18100.0 0.080383 42.788779 0.610562 -34.472685 0.61056 -34.475309 0.067378 26.529499
18200.0 0.089834 37.358192 0.608511 -48.537921 0.608514 -48.540704 0.077344 15.847021
18300.0 0.097326 30.9175 0.606585 -62.584021 0.606594 -62.586832 0.083559 4.698569
18400.0 0.102064 23.998378 0.604847 -76.626056 0.604862 -76.628772 0.085928 -6.576365
18500.0 0.103901 17.219603 0.603299 -90.666875 0.603317 -90.669377 0.08401 -17.885104
18600.0 0.102746 10.917809 0.601962 -104.722459 0.601984 -104.724653 0.078095 -28.85775
18700.0 0.099122 5.730366 0.600717 -118.795903 0.600741 -118.797708 0.06824 -39.388552
18800.0 0.093775 2.038169 0.599555 -132.894445 0.59958 -132.895814 0.055101 -48.483786
18900.0 0.088087 0.562501 0.598305 -147.017417 0.59833 -147.018325 0.039453 -54.695932
19000.0 0.08372 1.30891 0.596966 -161.158741 0.596989 -161.159195 0.023118 -49.902044
19100.0 0.082473 3.967237 0.595424 -175.313959 0.595445 -175.313993 0.014217 -4.281229
19200.0 0.085269 6.744374 0.593727 170.532051 0.593744 170.532383 0.025908 34.281308
19300.0 0.09185 8.31677 0.591889 156.383583 0.591902 156.384197 0.043159 36.296998
19400.0 0.100733 7.568376 0.590001 142.254561 0.59001 142.255376 0.060306 29.912157
19500.0 0.110333 4.9416 0.588176 128.144991 0.588181 128.145895 0.074812 20.80275
19600.0 0.119152 0.577029 0.586508 114.059671 0.586509 114.060572 0.086758 11.015561
19700.0 0.126153 -4.5758 0.5851 99.993872 0.585098 99.994667 0.094472 0.664708
19800.0 0.130917 -10.456727 0.584018 85.945555 0.584014 85.946154 0.098738 -8.916678
19900.0 0.132934 -16.096451 0.583237 71.907995 0.583232 71.908339 0.0983 -18.510398
20000.0 0.134055 -21.776977 0.582858 57.90078 0.582853 57.90078 0.094868 -24.097474
