! File created by SignalIntegrity v1.1.13: Signal and Power Integrity Tools
! https://github.com/TeledyneLeCroy/SignalIntegrity
# MHz S MA R 50.0
0.0 0.005618 180.0 1.000287 0.0 1.000501 0.0 0.000403 0.0
100.0 0.005675 -175.449453 1.00028 -1.796748 1.000488 -1.793701 0.0004 -30.043082
200.0 0.005787 -171.076513 1.000253 -3.593754 1.000441 -3.587841 0.000497 -65.049607
300.0 0.006005 -167.16964 1.000212 -5.39106 1.000369 -5.382634 0.000805 -88.804847
400.0 0.006266 -163.676836 1.000155 -7.189141 1.000271 -7.178703 0.001272 -97.829365
500.0 0.006611 -160.881324 1.000086 -8.987879 1.000154 -8.976057 0.00185 -99.438555
600.0 0.006983 -158.529409 1.000008 -10.787837 1.000023 -10.775342 0.00247 -98.072002
700.0 0.007417 -156.882688 0.999925 -12.588782 0.999885 -12.576377 0.00309 -95.008926
800.0 0.007865 -155.592108 0.999845 -14.391143 0.999752 -14.37959 0.003673 -91.648722
900.0 0.008357 -154.914427 0.999771 -16.194573 0.99963 -16.184598 0.004175 -88.316031
1000.0 0.008853 -154.482722 0.999713 -17.999178 0.999532 -17.991424 0.004601 -85.609922
1100.0 0.009379 -154.554698 0.99967 -19.804525 0.999459 -19.799512 0.004932 -83.895187
1200.0 0.009905 -154.779397 0.999653 -21.610357 0.999425 -21.608453 0.005216 -83.313221
1300.0 0.010451 -155.412514 0.999657 -23.416262 0.999425 -23.417654 0.00549 -84.12208
1400.0 0.010994 -156.128958 0.999687 -25.22175 0.999466 -25.226432 0.005819 -85.863964
1500.0 0.011551 -157.178272 0.999734 -27.026609 0.999537 -27.034369 0.006265 -88.201551
1600.0 0.012103 -158.261846 0.999797 -28.830313 0.999639 -28.840747 0.006838 -90.35362
1700.0 0.012663 -159.620346 0.999868 -30.632988 0.999759 -30.645507 0.00755 -91.839477
1800.0 0.01322 -160.979448 0.999942 -32.434214 0.99989 -32.448086 0.008336 -92.53361
1900.0 0.01378 -162.569583 1.000011 -34.234452 1.000022 -34.248826 0.00915 -92.39909
2000.0 0.014336 -164.138026 1.000071 -36.033424 1.000145 -36.047392 0.009932 -91.831609
2100.0 0.014893 -165.904362 1.000119 -37.83176 1.000253 -37.844402 0.010627 -91.018317
2200.0 0.015447 -167.635021 1.000148 -39.629306 1.000337 -39.639756 0.01123 -90.352724
2300.0 0.015998 -169.53844 1.000164 -41.426624 1.000396 -41.434126 0.011725 -90.074535
2400.0 0.016547 -171.398216 1.000158 -43.223707 1.000419 -43.227667 0.012168 -90.340713
2500.0 0.01709 -173.411491 1.000138 -45.020879 1.000413 -45.020917 0.012598 -91.291461
2600.0 0.017632 -175.377522 1.000097 -46.818349 1.000368 -46.814328 0.013089 -92.73577
2700.0 0.018167 -177.482201 1.000044 -48.616164 1.000292 -48.608218 0.013703 -94.539151
2800.0 0.018702 -179.539268 0.999973 -50.414792 1.000181 -50.403318 0.014452 -96.319337
2900.0 0.019227 178.276353 0.999892 -52.214061 1.000044 -52.199714 0.015347 -97.831044
3000.0 0.019752 176.13755 0.9998 -54.014606 0.999885 -53.998256 0.016317 -98.941915
3100.0 0.020266 173.87989 0.999704 -55.816106 0.999713 -55.798793 0.017313 -99.588012
3200.0 0.020781 171.664191 0.99961 -57.619131 0.99954 -57.601995 0.01826 -99.960619
3300.0 0.021284 169.335945 0.999521 -59.423239 0.999375 -59.407453 0.0191 -100.162283
3400.0 0.021788 167.045488 0.999449 -61.228683 0.999234 -61.215364 0.019825 -100.454629
3500.0 0.022279 164.647652 0.999394 -63.034927 0.999123 -63.025067 0.020423 -100.991657
3600.0 0.022773 162.284054 0.999367 -64.841798 0.999056 -64.83618 0.020963 -101.891595
3700.0 0.023252 159.818222 0.999364 -66.648759 0.999034 -66.647907 0.021492 -103.232908
3800.0 0.023735 157.384737 0.999392 -68.455317 0.999064 -68.459441 0.022094 -104.886629
3900.0 0.024204 154.855034 0.999442 -70.261106 0.99914 -70.27008 0.022832 -106.758317
4000.0 0.024678 152.358023 0.999513 -72.065562 0.999258 -72.078922 0.023712 -108.590032
4100.0 0.025136 149.77204 0.999596 -73.868645 0.999407 -73.885605 0.024736 -110.226973
4200.0 0.025602 147.221264 0.999685 -75.669948 0.999577 -75.68945 0.025822 -111.57211
4300.0 0.026053 144.589741 0.99977 -77.469792 0.999754 -77.490561 0.026911 -112.588113
4400.0 0.026512 141.997479 0.999845 -79.268004 0.999925 -79.28864 0.027918 -113.407364
4500.0 0.026955 139.332992 0.999906 -81.065136 1.000079 -81.084195 0.028786 -114.10992
4600.0 0.027409 136.712418 0.999944 -82.861211 1.000201 -82.877315 0.029511 -114.892484
4700.0 0.027846 134.027682 0.999964 -84.65677 1.000291 -84.668698 0.030091 -115.867932
4800.0 0.028294 131.39117 0.999957 -86.451989 1.000332 -86.458775 0.030607 -117.122664
4900.0 0.028726 128.697566 0.999934 -88.247182 1.000333 -88.248188 0.031118 -118.702312
5000.0 0.02917 126.055453 0.999885 -90.042712 1.00028 -90.037687 0.031713 -120.498879
5100.0 0.029596 123.362124 0.999822 -91.838572 1.000185 -91.827683 0.032449 -122.433383
5200.0 0.030037 120.72211 0.999737 -93.635366 1.000043 -93.6192 0.033323 -124.308
5300.0 0.030459 118.035585 0.999644 -95.43279 0.999868 -95.412331 0.034327 -126.012647
5400.0 0.030895 115.402612 0.999538 -97.231648 0.999663 -97.208214 0.035362 -127.480633
5500.0 0.031313 112.726754 0.99943 -99.031411 0.999443 -99.006578 0.036363 -128.693515
5600.0 0.031745 110.103154 0.999324 -100.832875 0.999221 -100.808366 0.03724 -129.767716
5700.0 0.032158 107.439294 0.999226 -102.635341 0.999011 -102.612914 0.037942 -130.77312
5800.0 0.032587 104.825134 0.999146 -104.439316 0.998831 -104.420629 0.038477 -131.878397
5900.0 0.032995 102.172472 0.999086 -106.243987 0.998691 -106.230486 0.038857 -133.171635
6000.0 0.033421 99.566175 0.999058 -108.049388 0.998609 -108.042185 0.039187 -134.718577
6100.0 0.033826 96.922563 0.999059 -109.854711 0.998586 -109.854505 0.03953 -136.539913
6200.0 0.034251 94.321851 0.999096 -111.659585 0.998632 -111.666586 0.039987 -138.524494
6300.0 0.034654 91.684898 0.999159 -113.463394 0.998737 -113.477304 0.040606 -140.590818
6400.0 0.03508 89.087927 0.999247 -115.265635 0.9989 -115.285649 0.041369 -142.559058
6500.0 0.035484 86.456195 0.999349 -117.066076 0.999103 -117.090931 0.042249 -144.340775
6600.0 0.035911 83.862599 0.999458 -118.864381 0.999333 -118.892429 0.043125 -145.887128
6700.0 0.036317 81.236552 0.999562 -120.660775 0.99957 -120.690091 0.043924 -147.199577
6800.0 0.036747 78.648143 0.999652 -122.455219 0.999797 -122.483741 0.044549 -148.396605
6900.0 0.037153 76.030608 0.999723 -124.24827 0.999998 -124.273929 0.044957 -149.552922
7000.0 0.037583 73.451552 0.999766 -126.040132 1.000154 -126.061016 0.045173 -150.828191
7100.0 0.037987 70.847612 0.999784 -127.831422 1.000262 -127.845903 0.045225 -152.300749
7200.0 0.038412 68.284063 0.99977 -129.622471 1.000304 -129.629344 0.045239 -154.02105
7300.0 0.038808 65.700453 0.999734 -131.413677 1.000288 -131.412247 0.045289 -155.992508
7400.0 0.039223 63.159782 0.999668 -133.205479 1.000203 -133.195635 0.045476 -158.091728
7500.0 0.039604 60.604017 0.999587 -134.997906 1.000063 -134.980141 0.045836 -160.23164
7600.0 0.040002 58.093841 0.999483 -136.791588 0.999865 -136.76698 0.046327 -162.240036
7700.0 0.040362 55.573244 0.99937 -138.586189 0.999628 -138.556343 0.046903 -164.04417
7800.0 0.040735 53.100401 0.999245 -140.382569 0.999358 -140.34951 0.047422 -165.618298
7900.0 0.041067 50.621113 0.99912 -142.180109 0.999075 -142.146154 0.047808 -166.982769
8000.0 0.041411 48.190671 0.998997 -143.979739 0.998794 -143.947324 0.047968 -168.276599
8100.0 0.04171 45.756738 0.998885 -145.780645 0.998535 -145.752162 0.047879 -169.581449
8200.0 0.042018 43.371211 0.998794 -147.583483 0.998319 -147.561092 0.047596 -171.063678
8300.0 0.042278 40.983974 0.998727 -149.387328 0.998159 -149.372802 0.04717 -172.791304
8400.0 0.042548 38.643056 0.9987 -151.192257 0.998077 -151.186829 0.046758 -174.795558
8500.0 0.042767 36.301211 0.998706 -152.99738 0.998072 -153.001653 0.046439 -177.051637
8600.0 0.042996 34.002318 0.998757 -154.802166 0.998158 -154.816044 0.046309 -179.397314
8700.0 0.043173 31.702812 0.99884 -156.605997 0.998321 -156.628681 0.046381 178.275362
8800.0 0.043362 29.442387 0.998958 -158.408047 0.998557 -158.438078 0.046577 176.153095
8900.0 0.043497 27.181886 0.999092 -160.208211 0.998841 -160.243562 0.046824 174.294068
9000.0 0.043646 24.956937 0.999236 -162.005809 0.999157 -162.044024 0.046952 172.698296
9100.0 0.043742 22.73323 0.999374 -163.801353 0.999475 -163.839714 0.046886 171.315073
9200.0 0.043854 20.542419 0.999493 -165.594577 0.999771 -165.630302 0.046542 169.968752
9300.0 0.043912 18.355096 0.999587 -167.386464 1.000024 -167.416901 0.045921 168.557465
9400.0 0.043988 16.198899 0.999643 -169.177114 1.000211 -169.199948 0.045111 166.895329
9500.0 0.044009 14.049088 0.999666 -170.967636 1.000326 -170.981048 0.04419 164.916055
9600.0 0.04405 11.929127 0.999648 -172.758257 1.000354 -172.761085 0.043337 162.612391
9700.0 0.044033 9.818645 0.999603 -174.549836 1.000304 -174.541656 0.042632 160.040157
9800.0 0.044034 7.736768 0.999525 -176.34257 1.00017 -176.323758 0.042153 157.421955
9900.0 0.043975 5.667359 0.999432 -178.136849 0.999972 -178.108561 0.041882 154.891893
10000.0 0.043933 3.625141 0.999319 -179.932899 0.999712 -179.89701 0.041695 152.657511
10100.0 0.043826 1.598362 0.999203 178.269368 0.999418 178.310386 0.041498 150.755992
10200.0 0.043732 -0.402658 0.99908 176.469532 0.999098 176.512783 0.041101 149.136804
10300.0 0.04357 -2.384906 0.998964 174.668044 0.998778 174.710402 0.040445 147.707242
10400.0 0.043416 -4.342553 0.998855 172.864292 0.998477 172.90264 0.039473 146.210521
10500.0 0.043189 -6.277362 0.998763 171.058966 0.998215 171.090412 0.038226 144.511361
10600.0 0.042965 -8.188364 0.998697 169.251565 0.998018 169.273681 0.036845 142.367535
10700.0 0.042664 -10.071667 0.998659 167.442911 0.997895 167.453902 0.03544 139.716831
10800.0 0.042363 -11.931869 0.998667 165.633059 0.997873 165.63193 0.034224 136.608028
10900.0 0.04198 -13.758964 0.998712 163.822794 0.997946 163.809416 0.033261 133.181729
11000.0 0.041594 -15.564029 0.998812 162.012949 0.99813 161.988103 0.032588 129.820011
11100.0 0.041125 -17.330269 0.998949 160.203976 0.998402 160.169296 0.032128 126.722391
11200.0 0.040652 -19.076134 0.999128 158.397242 0.99876 158.355114 0.031688 124.135781
11300.0 0.040096 -20.776943 0.999327 156.592539 0.999166 156.545931 0.03114 122.03315
11400.0 0.039539 -22.459301 0.999538 154.791183 0.9996 154.743435 0.030289 120.231354
11500.0 0.0389 -24.089087 0.999739 152.992144 1.000023 152.946733 0.029107 118.527528
11600.0 0.038264 -25.701825 0.999915 151.196194 1.000403 151.156471 0.027599 116.466487
11700.0 0.037548 -27.252059 1.000055 149.401664 1.000716 149.370625 0.025864 113.801076
11800.0 0.036841 -28.785257 1.000144 147.608716 1.000931 147.588756 0.024129 110.153482
11900.0 0.036058 -30.242571 1.000188 145.815547 1.001046 145.808306 0.022549 105.454647
12000.0 0.035287 -31.680912 1.000179 144.022051 1.001046 144.028255 0.02135 99.99501
12100.0 0.034446 -33.025934 1.000134 142.226855 1.000948 142.246269 0.020552 94.201284
12200.0 0.033621 -34.347968 1.000053 140.429961 1.000752 140.461377 0.020059 88.891431
12300.0 0.03273 -35.554916 0.999959 138.630748 1.00049 138.672062 0.019697 84.313956
12400.0 0.031856 -36.732774 0.999849 136.829373 1.000171 136.877718 0.019174 80.543635
12500.0 0.030921 -37.769006 0.999746 135.025942 0.999831 135.077882 0.01838 77.228612
12600.0 0.030007 -38.767524 0.999643 133.220463 0.999482 133.272239 0.017198 73.579847
12700.0 0.029035 -39.591869 0.999556 131.413543 0.999157 131.461336 0.015718 68.938161
12800.0 0.028085 -40.366049 0.999482 129.604752 0.99887 129.644977 0.014172 62.056658
12900.0 0.027084 -40.925059 0.999428 127.794991 0.998645 127.824554 0.012857 52.335311
13000.0 0.026106 -41.415355 0.999399 125.983535 0.998501 126.000092 0.01222 40.143001
13100.0 0.025087 -41.637395 0.999396 124.171468 0.998447 124.173592 0.01239 27.453467
13200.0 0.024092 -41.763079 0.999436 122.358361 0.998506 122.345691 0.013211 16.976524
13300.0 0.023068 -41.550965 0.999511 120.545341 0.998668 120.518602 0.014311 9.150953
13400.0 0.022072 -41.202508 0.999642 118.732863 0.998951 118.693848 0.015253 3.42727
13500.0 0.021065 -40.426337 0.999808 116.921757 0.999322 116.873194 0.015895 -1.331799
13600.0 0.020093 -39.459221 1.000023 115.113392 0.99978 115.058757 0.016143 -6.445725
13700.0 0.019138 -37.953969 1.000255 113.307801 1.000278 113.251067 0.016172 -12.544615
13800.0 0.018232 -36.191488 1.000501 111.506603 1.00079 111.451945 0.016315 -20.33037
13900.0 0.017382 -33.773059 1.000729 109.708698 1.001268 109.660192 0.016872 -29.184643
14000.0 0.016605 -31.039161 1.00092 107.915065 1.00167 107.87637 0.018166 -37.804844
14100.0 0.01594 -27.570193 1.001058 106.123666 1.001968 106.097769 0.020102 -45.037805
14200.0 0.015381 -23.790604 1.00112 104.334424 1.002124 104.323384 0.022441 -50.103124
14300.0 0.014998 -19.330256 1.001117 102.545149 1.002141 102.549965 0.024861 -53.499902
14400.0 0.014756 -14.709565 1.001035 100.755064 1.002004 100.775557 0.026977 -55.677516
14500.0 0.014748 -9.684021 1.000906 98.962797 1.001747 98.997638 0.028685 -57.335768
14600.0 0.014894 -4.802893 1.000729 97.16762 1.001379 97.214387 0.029826 -59.154823
14700.0 0.015303 0.056349 1.000543 95.369537 1.000951 95.424903 0.030554 -61.46728
14800.0 0.015849 4.47261 1.00035 93.568258 1.000482 93.628206 0.031094 -64.789035
14900.0 0.016647 8.516724 1.00018 91.765024 1.000024 91.825148 0.031733 -68.95744
15000.0 0.017543 11.996484 1.000026 89.959609 0.999591 90.015438 0.032888 -73.727579
15100.0 0.01866 14.957265 0.999906 88.153906 0.99922 88.201222 0.034631 -78.459839
15200.0 0.019832 17.403078 0.999805 86.346994 0.998917 86.382177 0.037013 -82.435397
15300.0 0.02119 19.334352 0.999727 84.540914 0.998701 84.561189 0.039739 -85.497245
15400.0 0.022569 20.871276 0.999667 82.733741 0.998578 82.737434 0.042444 -87.495743
15500.0 0.024106 21.957593 0.999621 80.927571 0.998548 80.914204 0.044869 -88.837682
15600.0 0.02564 22.771513 0.999604 79.120133 0.998629 79.090517 0.046658 -89.850773
15700.0 0.02731 23.205912 0.999604 77.313669 0.998799 77.269817 0.047857 -90.916704
15800.0 0.028963 23.467519 0.999659 75.506824 0.999087 75.451846 0.048455 -92.515295
15900.0 0.030735 23.410342 0.999737 73.701735 0.999443 73.639589 0.048763 -94.751989
16000.0 0.032483 23.257084 0.999882 71.898784 0.999891 71.834009 0.049197 -97.860772
16100.0 0.034336 22.833337 1.000041 70.099185 1.000356 70.036562 0.050049 -101.502172
16200.0 0.036162 22.372781 1.000234 68.304612 1.000835 68.248806 0.051729 -105.268978
16300.0 0.03808 21.679462 1.000405 66.514452 1.001252 66.469689 0.054086 -108.684965
16400.0 0.039968 20.995477 1.000539 64.730171 1.001571 64.699887 0.056976 -111.255076
16500.0 0.041935 20.107348 1.000602 62.949258 1.001744 62.935871 0.059944 -113.066992
16600.0 0.043868 19.263385 1.000559 61.17158 1.001727 61.176264 0.062484 -114.110531
16700.0 0.045865 18.235304 1.000421 59.393997 1.001529 59.416607 0.064393 -114.809616
16800.0 0.047821 17.275626 1.000162 57.614656 1.001126 57.653689 0.065312 -115.503931
16900.0 0.049825 16.143927 0.999838 55.831849 1.000584 55.884559 0.06549 -116.516499
17000.0 0.051782 15.095812 0.999447 54.04319 0.999916 54.105755 0.065083 -118.297778
17100.0 0.053772 13.881669 0.99906 52.249874 0.999214 52.317675 0.064618 -120.82803
17200.0 0.055711 12.760349 0.998689 50.450267 0.998514 50.518229 0.06472 -124.19667
17300.0 0.05767 11.475703 0.998385 48.648231 0.997889 48.711187 0.065652 -127.885145
17400.0 0.059582 10.290873 0.998147 46.842909 0.997366 46.896026 0.067773 -131.355643
17500.0 0.061505 8.944696 0.997985 45.039124 0.996975 45.078238 0.070618 -134.202932
17600.0 0.063391 7.705552 0.997876 43.235377 0.996711 43.25738 0.07379 -136.032792
17700.0 0.065283 6.307353 0.997797 41.435724 0.996565 41.438749 0.076656 -137.131964
17800.0 0.067153 5.023756 0.997725 39.636511 0.996518 39.620172 0.078536 -137.597106
17900.0 0.069026 3.58279 0.99763 37.840694 0.996539 37.806034 0.079367 -137.941316
18000.0 0.070893 2.262614 0.997526 36.042684 0.996636 35.992214 0.078808 -138.602825
18100.0 0.072757 0.784123 0.997388 34.245364 0.996768 34.182765 0.077476 -139.888711
18200.0 0.074632 -0.570356 0.997299 32.443789 0.996997 32.37375 0.075814 -142.331337
18300.0 0.076495 -2.088261 0.997213 30.641497 0.997256 30.569261 0.074667 -145.677379
18400.0 0.078386 -3.481158 0.997263 28.83762 0.99765 28.768685 0.075002 -149.804708
18500.0 0.080253 -5.046679 0.997356 27.034973 0.99806 26.974605 0.076803 -153.811223
18600.0 0.082171 -6.484606 0.997604 25.238447 0.998575 25.191331 0.080272 -156.908844
18700.0 0.084054 -8.107019 0.997871 23.446718 0.99904 23.416599 0.084217 -158.894508
18800.0 0.086023 -9.591814 0.998178 21.66866 0.999456 21.658017 0.087822 -159.438823
18900.0 0.087943 -11.274358 0.998415 19.895988 0.999708 19.905917 0.090223 -159.281465
19000.0 0.090004 -12.795993 0.998479 18.137055 0.999687 18.167051 0.090361 -158.595637
19100.0 0.091996 -14.531232 0.998396 16.377981 0.999427 16.426099 0.088695 -158.210374
19200.0 0.094209 -16.06504 0.997974 14.622298 0.998746 14.685107 0.084751 -158.89359
19300.0 0.096322 -17.837164 0.997454 12.857556 0.997906 12.930554 0.080314 -161.044293
19400.0 0.098779 -19.346756 0.996618 11.081107 0.996711 11.158867 0.076603 -165.777874
19500.0 0.101089 -21.14197 0.995883 9.291632 0.995607 9.368374 0.075411 -171.773588
19600.0 0.103969 -22.578622 0.995043 7.481549 0.994415 7.551437 0.078882 -178.071024
19700.0 0.106644 -24.398096 0.994529 5.667047 0.993593 5.724767 0.08494 177.657375
19800.0 0.110484 -25.648201 0.994112 3.834969 0.992938 3.876084 0.093786 176.978896
19900.0 0.114074 -27.509723 0.994049 2.019595 0.992722 2.040932 0.100968 178.3233
20000.0 0.122307 -27.663521 0.993954 0.179018 0.992574 0.179018 0.103954 -174.532447
