! File created by SignalIntegrity v1.1.13: Signal and Power Integrity Tools
! https://github.com/TeledyneLeCroy/SignalIntegrity
# MHz S MA R 50.0
0.0 0.070124 0.0 0.034777 0.0 0.01336 180.0 0.98748 0.0
0.025893 0.0 0.05643 0.0 1.002251 0.0 0.001049 180.0
0.030688 180.0 0.993332 0.0 0.106013 0.0 0.002264 0.0
0.98622 0.0 0.002477 180.0 0.028683 0.0 0.088635 0.0
10.0 0.099504 18.655618 0.052535 28.79127 0.024991 -165.079002 0.96575 -34.354475
0.04998 35.719812 0.097398 28.6066 0.987344 -33.931328 0.027177 -142.852825
0.03456 169.042721 0.95785 -34.783237 0.114262 3.459124 0.048795 56.417296
0.969278 -34.079414 0.027031 -146.133797 0.045612 28.998181 0.101275 8.189435
20.0 0.123502 10.017077 0.074727 27.707734 0.048122 158.948392 0.922377 -66.722264
0.073794 31.292315 0.141093 15.996115 0.948672 -66.638374 0.053241 163.726557
0.048865 146.273957 0.917283 -65.997136 0.11086 0.930101 0.071012 35.221006
0.929234 -66.738851 0.051816 163.071365 0.061014 29.911477 0.109471 5.621236
30.0 0.120348 1.035383 0.09139 18.999777 0.064646 106.882093 0.891955 -97.280928
0.091741 20.137935 0.14344 -1.627631 0.912837 -97.331845 0.06982 107.155016
0.064948 105.140394 0.906203 -97.000774 0.104255 7.233775 0.077388 25.205424
0.893483 -97.466238 0.068036 108.080959 0.077917 25.57968 0.107828 3.130084
40.0 0.105268 -1.113593 0.091533 4.767829 0.064411 51.835316 0.881561 -127.339349
0.08822 3.89321 0.113956 -13.023473 0.901609 -127.073998 0.069291 51.000096
0.067417 54.676186 0.887316 -127.63927 0.114804 12.393998 0.080685 16.229685
0.880512 -127.223604 0.068045 51.870536 0.083107 12.489461 0.101355 4.651387
50.0 0.092716 3.254499 0.066833 -2.842477 0.045835 -0.718013 0.890701 -157.650011
0.061236 -1.030441 0.072876 -8.606744 0.913852 -157.255491 0.0495 -0.447369
0.048979 4.74623 0.896914 -157.166199 0.123507 8.863215 0.069192 6.181226
0.893137 -157.378936 0.048076 -0.765924 0.066601 2.389891 0.099266 5.508812
60.0 0.083692 16.753779 0.047217 26.50961 0.016921 -12.090226 0.911348 170.358258
0.046749 32.321127 0.069008 34.346237 0.936098 170.802126 0.020791 -9.313663
0.021199 -4.90675 0.926583 170.806308 0.106606 5.628001 0.043106 19.675993
0.916239 170.476591 0.019118 -8.085166 0.040712 23.174676 0.081433 12.140582
70.0 0.109586 33.318301 0.083773 49.969588 0.044397 12.561883 0.903137 136.653725
0.086013 51.725521 0.129538 41.579483 0.927789 137.151668 0.049001 8.687849
0.047074 10.958756 0.916593 137.152251 0.097919 26.857903 0.069853 59.352141
0.907216 136.610986 0.048105 9.612613 0.073605 59.129571 0.097892 36.418521
80.0 0.154696 25.825083 0.129368 35.938176 0.084211 -41.079237 0.85128 104.472825
0.130473 36.106634 0.175543 24.893884 0.873217 105.039884 0.089777 -42.190909
0.085546 -40.256709 0.867304 105.151582 0.151316 32.232062 0.122233 45.114165
0.853425 104.344928 0.088184 -42.346843 0.123641 44.321022 0.148646 33.020192
90.0 0.163443 8.475004 0.1416 14.677074 0.104882 -101.609589 0.811971 76.230487
0.140137 14.259231 0.17725 5.851233 0.831544 76.964346 0.109548 -101.114026
0.10475 -100.464357 0.82412 76.674566 0.182602 16.027747 0.139878 21.22994
0.811768 76.128962 0.108047 -101.926071 0.141277 21.769074 0.172363 15.673358
100.0 0.131177 -2.027536 0.118798 -3.552649 0.096606 -162.80883 0.835696 48.414636
0.114774 -3.898496 0.139384 -8.523808 0.855804 49.279567 0.098728 -161.107667
0.09477 -162.196339 0.842701 49.352531 0.16407 0.22365 0.118963 -0.693483
0.835587 48.46662 0.097305 -162.527907 0.122624 0.563838 0.148067 -0.317698
110.0 0.097055 5.271103 0.070385 -9.255596 0.057485 139.635643 0.883884 16.779468
0.066291 -7.993438 0.082162 -1.310973 0.904456 17.701226 0.057739 142.848725
0.054994 139.159215 0.89643 17.948306 0.110857 -5.069383 0.064316 -12.729031
0.88579 16.789924 0.05599 141.13138 0.069395 -12.367557 0.097676 -2.177966
120.0 0.101768 30.377973 0.060228 40.393006 0.015818 174.284153 0.894657 -17.484938
0.059488 44.180672 0.100499 40.061968 0.914726 -16.470988 0.017596 175.599773
0.014259 -177.466271 0.906856 -16.575025 0.088153 34.061576 0.049973 57.888146
0.895757 -17.581054 0.017318 -179.354332 0.048844 55.945533 0.083356 38.827217
130.0 0.154218 32.853998 0.115336 42.191668 0.070419 164.964424 0.853614 -50.985554
0.116855 44.617677 0.16909 35.468898 0.872793 -49.904901 0.070896 165.418449
0.069899 166.767959 0.860594 -50.004196 0.168444 42.723002 0.121637 55.465565
0.853881 -51.032365 0.072039 165.96247 0.124555 55.882982 0.16352 44.842684
140.0 0.186072 19.006829 0.144143 25.790086 0.110388 106.940251 0.798343 -80.882933
0.147223 26.601439 0.204037 18.346575 0.81636 -79.690623 0.110624 107.615679
0.109125 107.343162 0.805389 -79.542289 0.223626 25.056469 0.16466 32.999499
0.79932 -80.953545 0.112016 107.7427 0.169679 32.591668 0.213636 25.61968
150.0 0.182859 4.319842 0.146381 8.939687 0.116654 47.913418 0.790269 -108.002595
0.146428 8.497725 0.197923 0.367799 0.811481 -106.746319 0.117394 48.668383
0.114772 47.948404 0.803785 -106.652173 0.225961 6.035355 0.166318 9.149898
0.78981 -108.126669 0.118196 48.124827 0.169762 8.701092 0.213628 6.309293
160.0 0.14699 -7.565137 0.117811 -7.993373 0.090861 -7.47026 0.83455 -137.425246
0.114553 -7.932399 0.149142 -15.102468 0.857442 -136.484371 0.092645 -6.180457
0.089244 -6.882536 0.848903 -136.557974 0.180913 -10.30377 0.123678 -12.29961
0.832821 -137.412591 0.091503 -7.712788 0.125721 -12.035653 0.166237 -11.472771
170.0 0.09433 -0.72797 0.061908 -6.067273 0.047091 -47.106211 0.869319 -170.651056
0.059743 -3.293724 0.077398 -4.177897 0.885748 -169.630885 0.050213 -44.603805
0.046926 -44.365276 0.875855 -169.684735 0.104803 -9.728395 0.055111 -10.2869
0.868498 -170.502527 0.047129 -46.756815 0.057676 -8.780038 0.086562 -6.083863
180.0 0.105306 34.576018 0.072817 48.356336 0.03622 -22.006004 0.856407 155.249198
0.075169 49.939632 0.110535 42.593728 0.871752 157.002869 0.039977 -25.019013
0.039219 -22.295579 0.861964 156.897503 0.101407 35.799054 0.072761 55.479662
0.857132 155.43746 0.037647 -21.774403 0.075191 54.144598 0.10471 43.43234
190.0 0.172931 32.770515 0.135005 41.446185 0.074062 -48.495083 0.812006 123.2382
0.137987 41.513718 0.188519 33.039883 0.8364 125.392593 0.07774 -50.338927
0.075879 -50.042966 0.82305 125.280761 0.182778 38.22941 0.142302 44.560139
0.813306 123.408753 0.076889 -48.954389 0.14667 44.012398 0.188271 39.153105
200.0 0.202682 14.919947 0.159304 21.435394 0.097683 -98.189839 0.77952 94.17741
0.161018 20.406683 0.217844 12.553917 0.810211 95.961252 0.102013 -98.601511
0.097458 -98.726905 0.796032 96.277398 0.230967 21.064572 0.17009 21.972769
0.781126 94.354737 0.10233 -98.94569 0.17535 21.129333 0.229606 19.307552
210.0 0.183236 -0.993227 0.145375 4.052534 0.097263 -148.885637 0.788937 65.802447
0.142774 2.381362 0.190749 -6.760293 0.81682 67.071413 0.101904 -148.033476
0.095696 -148.066895 0.807899 67.410264 0.221554 3.391389 0.153317 1.781982
0.79093 65.890756 0.102501 -150.233882 0.156578 0.929955 0.210504 0.588666
220.0 0.131038 -10.063903 0.104084 -7.531034 0.076494 165.376726 0.824086 35.011507
0.098411 -8.085896 0.12168 -17.194512 0.843303 36.348214 0.081289 167.457835
0.074804 167.694821 0.831936 36.357865 0.168621 -7.595554 0.103669 -11.456974
0.823906 35.024986 0.080607 163.651919 0.105508 -11.775729 0.148822 -10.912873
230.0 0.083892 17.031758 0.058353 15.800997 0.04706 139.610946 0.840994 1.73369
0.055904 19.923496 0.071885 22.804664 0.856498 3.738977 0.052891 141.547139
0.047215 144.103968 0.841332 3.918063 0.11099 5.320937 0.056287 18.738922
0.839251 1.872444 0.050078 137.703604 0.057632 18.807822 0.08877 14.34387
240.0 0.142702 40.374266 0.099852 50.020128 0.051648 146.59592 0.819041 -31.506038
0.101458 51.511597 0.14814 44.950678 0.839745 -29.034215 0.056104 142.761709
0.054026 147.679163 0.827393 -28.837704 0.141128 33.476356 0.107384 47.801827
0.818762 -31.323385 0.054375 143.372065 0.110745 47.76392 0.15134 41.647713
250.0 0.202444 28.296437 0.155074 38.396308 0.086546 115.459818 0.780571 -62.428113
0.155281 38.774443 0.213689 29.230933 0.806418 -60.09691 0.088321 113.272307
0.087374 115.324253 0.792711 -60.151544 0.204837 28.730225 0.15857 33.376347
0.780692 -62.385833 0.090257 112.964609 0.163925 32.977776 0.220349 29.35271
260.0 0.220061 11.535695 0.175249 19.554598 0.107495 67.961073 0.762847 -91.154187
0.173105 20.072268 0.228707 10.662181 0.788037 -89.269828 0.109233 67.648877
0.107339 67.824534 0.772322 -89.180294 0.230522 15.112574 0.171556 14.774167
0.761876 -91.18308 0.113074 65.937728 0.176497 14.122351 0.239398 11.94624
270.0 0.194325 -4.870304 0.154182 0.874866 0.103481 19.504604 0.780586 -120.188279
0.152171 2.147931 0.196835 -6.484265 0.798858 -118.47097 0.107161 20.259354
0.103405 19.23347 0.784933 -118.371983 0.215452 2.046189 0.148017 -2.298081
0.779392 -120.241289 0.11033 17.333527 0.151553 -2.749079 0.209543 -3.628769
280.0 0.127995 -12.611429 0.096842 -7.542143 0.078606 -22.073006 0.810801 -151.762363
0.09728 -5.843811 0.124008 -12.840058 0.823634 -149.498458 0.084407 -21.261705
0.078959 -22.574921 0.808759 -149.457207 0.165709 -4.386397 0.095092 -7.76651
0.809268 -151.85492 0.084557 -25.265453 0.097665 -7.915874 0.144027 -8.761222
290.0 0.088708 22.81056 0.06741 32.754126 0.053752 -38.58791 0.814781 174.747719
0.068095 32.759513 0.092577 26.903616 0.831812 177.691853 0.059768 -41.1001
0.054353 -39.431708 0.818195 177.790644 0.12528 12.557691 0.075529 27.324471
0.81304 174.68871 0.056316 -43.520702 0.077887 26.95857 0.111843 18.999325
300.0 0.160512 39.562462 0.126037 48.325974 0.070332 -44.001051 0.782148 142.046902
0.125921 48.682177 0.170033 39.705783 0.807588 145.167726 0.072775 -48.057996
0.071187 -44.889781 0.79487 145.111005 0.168645 31.397984 0.126077 37.191433
0.781401 142.054908 0.071116 -47.19925 0.130151 36.811178 0.171579 32.787399
310.0 0.220808 24.144725 0.173652 34.224713 0.103008 -80.189193 0.74476 112.175135
0.173566 34.301736 0.231753 24.311603 0.77496 114.900308 0.104648 -81.981786
0.104654 -80.834946 0.760238 114.949644 0.22865 23.674997 0.160127 22.96716
0.745594 112.214725 0.104404 -82.265166 0.165729 22.339697 0.223454 22.077175
320.0 0.222161 5.518089 0.182108 17.830659 0.117478 -126.147081 0.741486 83.880997
0.180278 17.656695 0.23833 5.673778 0.766937 86.027375 0.120372 -126.526251
0.119384 -126.51075 0.754832 86.32738 0.242156 9.847409 0.155947 8.032504
0.743932 83.88234 0.119558 -127.708522 0.161174 7.017219 0.230101 8.260292
330.0 0.177196 -8.410985 0.158843 4.560368 0.107641 -170.464288 0.769506 53.798228
0.155367 4.76519 0.194363 -10.10988 0.782985 56.214947 0.112369 -170.261373
0.108573 -170.174749 0.773649 56.420404 0.216463 -1.083014 0.129648 -1.553271
0.772171 53.677596 0.110362 -171.986005 0.132966 -2.992068 0.20125 -1.94695
340.0 0.107539 -5.790143 0.111949 2.669337 0.083456 156.060566 0.789787 20.975128
0.108803 4.018033 0.117777 -10.81909 0.799864 24.538039 0.088964 155.15984
0.083926 158.100086 0.791075 24.614786 0.164888 -3.350889 0.090659 0.5477
0.790248 20.823484 0.086218 153.748669 0.090967 -0.613631 0.153107 -1.73581
350.0 0.109003 35.887202 0.101427 28.975421 0.074504 142.158695 0.773607 -12.466867
0.101812 31.376554 0.10641 30.804396 0.794161 -8.058614 0.076569 139.027394
0.077625 144.964094 0.784715 -8.146665 0.143126 16.349051 0.086136 30.756093
0.772065 -12.470068 0.075577 138.369059 0.087883 31.438517 0.144271 17.914723
360.0 0.183113 37.508475 0.147246 35.029025 0.097971 120.306367 0.734971 -43.628697
0.150386 35.951126 0.185994 36.960757 0.768311 -39.488059 0.096979 119.275125
0.1021 121.637799 0.75634 -39.527693 0.194192 25.909469 0.131889 36.103789
0.733462 -43.455436 0.097042 117.218206 0.136784 35.671701 0.193174 22.356557
370.0 0.225034 24.06333 0.17933 25.288832 0.119793 81.960624 0.717853 -72.256814
0.181663 24.94829 0.241593 22.180706 0.751128 -69.269381 0.120332 82.340253
0.122974 82.853333 0.740832 -69.062172 0.240399 17.556848 0.162372 24.92528
0.717362 -72.010102 0.119643 79.574764 0.166869 23.770899 0.22412 13.000898
380.0 0.224884 9.84652 0.185954 12.587845 0.12147 41.246923 0.735196 -101.551819
0.184601 11.917968 0.24406 5.20555 0.752435 -99.021068 0.124406 41.254957
0.122904 41.67846 0.745532 -98.898046 0.247961 4.999136 0.16575 11.411616
0.735579 -101.341268 0.123462 38.287836 0.168153 10.541052 0.219131 1.08809
390.0 0.1843 0.80917 0.160755 0.948212 0.109744 6.146565 0.756973 -133.215179
0.157068 0.850314 0.199233 -7.455492 0.761514 -129.601867 0.112295 4.677144
0.108594 6.374946 0.755055 -129.643947 0.213614 -5.398119 0.139231 0.504634
0.75777 -133.094065 0.111661 1.415281 0.141943 0.384973 0.173143 -6.057881
400.0 0.141975 10.234194 0.116405 2.747008 0.101449 -20.705309 0.755941 -166.059101
0.113367 4.034169 0.136178 -3.479876 0.767466 -161.059758 0.100577 -22.676202
0.099202 -19.909479 0.760464 -161.201687 0.159163 -3.038644 0.100236 5.592571
0.756925 -166.072503 0.099474 -26.596243 0.103751 4.881883 0.133367 9.035746
410.0 0.165683 27.502593 0.113231 25.178619 0.108001 -46.340315 0.73117 162.078263
0.113639 26.58875 0.138351 23.682439 0.761433 167.333317 0.105797 -46.605087
0.105883 -45.566595 0.752681 167.209644 0.152784 16.985482 0.104569 28.900505
0.731176 161.885478 0.102391 -50.302233 0.10629 27.585097 0.168835 26.124085
420.0 0.218165 24.612229 0.155892 29.652832 0.11986 -78.281116 0.709186 132.318864
0.155607 30.00435 0.203195 26.573002 0.750721 136.44759 0.120228 -77.812002
0.117585 -77.80685 0.742006 136.509191 0.200828 23.643826 0.145509 31.589971
0.706889 132.066804 0.115715 -80.037038 0.14763 30.897461 0.220304 21.977043
430.0 0.24174 13.194866 0.184944 19.724635 0.125033 -113.149913 0.711713 103.123468
0.182568 20.257891 0.244523 13.616915 0.745138 106.00504 0.127684 -113.642009
0.123067 -113.056608 0.737474 106.106715 0.243733 17.015037 0.172293 21.651189
0.708121 102.98916 0.124872 -114.795527 0.175284 20.773264 0.241277 11.913636
440.0 0.227295 1.341354 0.183764 7.788075 0.124549 -147.202547 0.728661 72.462223
0.181015 8.910336 0.234925 -1.27017 0.745443 75.542352 0.126279 -149.009351
0.122797 -147.55538 0.736821 75.728997 0.256777 6.044153 0.173964 10.128973
0.725678 72.474528 0.126191 -150.178698 0.175018 9.116274 0.233484 2.419567
450.0 0.178343 -4.167983 0.155859 -0.847615 0.121167 -179.920894 0.736193 40.24523
0.154451 0.867649 0.183518 -10.281187 0.74923 44.623463 0.120034 178.041342
0.119677 179.426956 0.741468 44.992591 0.231127 -4.204124 0.152053 0.755593
0.73541 40.318941 0.120977 175.894576 0.151487 0.779553 0.198396 -3.181684
460.0 0.143311 9.964919 0.117655 3.553365 0.116241 149.812238 0.722047 7.99699
0.118828 5.694297 0.129751 0.807504 0.748047 13.232316 0.113625 148.962101
0.114828 148.971703 0.741772 13.600594 0.178248 -5.023279 0.11544 2.578563
0.723217 7.953469 0.112779 146.135814 0.117887 4.030598 0.164323 5.252369
470.0 0.171235 24.345109 0.117678 23.49398 0.115707 122.614833 0.699071 -22.726575
0.121158 24.100419 0.150072 25.302893 0.740172 -18.048992 0.115281 122.97303
0.114766 122.002208 0.734001 -17.709171 0.160183 13.490472 0.111662 22.4488
0.699625 -22.938396 0.11269 120.894281 0.118034 21.544623 0.185267 18.453508
480.0 0.215136 23.915687 0.155399 28.944937 0.124641 94.708968 0.689616 -52.224715
0.156798 28.488594 0.212407 25.665014 0.729029 -49.000013 0.127553 94.349417
0.125035 93.841551 0.722903 -48.703767 0.215446 22.560033 0.150222 27.915162
0.688525 -52.46227 0.125141 93.081555 0.152242 25.414498 0.233423 17.5651
490.0 0.248986 15.841194 0.188853 21.852535 0.136784 62.194729 0.697375 -82.188387
0.187532 21.745596 0.253788 14.255332 0.718187 -79.393084 0.14023 60.477181
0.137112 60.735382 0.711027 -79.123449 0.269582 13.499812 0.182342 18.985912
0.69526 -82.401643 0.138371 59.439005 0.179339 17.916725 0.264168 7.541478
500.0 0.247525 4.173357 0.198126 9.964103 0.141351 27.078664 0.707231 -113.516209
0.196007 10.487578 0.252118 0.213551 0.715604 -109.474441 0.143343 24.648614
0.140508 25.492884 0.708399 -109.130084 0.274736 -0.287453 0.185953 5.80539
0.703948 -113.699254 0.141593 23.614607 0.183849 6.535776 0.250722 -4.530617
510.0 0.206325 -1.93057 0.173392 -0.361126 0.137687 -6.318825 0.703525 -145.568836
0.172174 0.696701 0.204914 -9.870172 0.719558 -140.0332 0.137663 -8.898882
0.135542 -7.547902 0.713221 -139.746535 0.231967 -10.397726 0.157118 -4.188829
0.69936 -145.665177 0.135369 -9.741304 0.159285 -2.793336 0.202173 -8.932174
520.0 0.173522 6.825844 0.132723 1.721002 0.134619 -36.363325 0.685998 -176.938942
0.133615 3.174396 0.147245 -1.550208 0.721897 -171.128931 0.132791 -38.292154
0.132187 -36.654338 0.715069 -170.922263 0.174664 -7.360534 0.120518 -1.285586
0.681797 -176.911454 0.130606 -38.502831 0.124348 -0.695015 0.173588 0.910364
530.0 0.195409 18.800235 0.129212 20.24399 0.138136 -65.727878 0.671041 153.041086
0.13211 20.505962 0.166583 21.412206 0.719208 157.575332 0.136692 -66.504113
0.13728 -65.441793 0.712263 157.744494 0.168599 11.433319 0.11268 14.896425
0.66812 153.219809 0.135853 -66.393784 0.116024 14.952456 0.191365 10.892113
540.0 0.242588 17.775052 0.172232 25.541738 0.143914 -96.924939 0.671499 123.310108
0.172893 24.96866 0.234749 20.744365 0.711264 126.461637 0.144888 -97.319865
0.144177 -96.866579 0.703768 126.563731 0.219955 17.457956 0.140071 24.180441
0.671579 123.507983 0.145347 -97.484708 0.144542 23.784237 0.225984 11.272278
550.0 0.273477 8.909789 0.208123 16.305187 0.147635 -128.452686 0.679588 92.576536
0.205968 16.088259 0.275123 7.674756 0.70208 95.831307 0.150094 -129.558658
0.147595 -128.699178 0.694268 95.964649 0.263435 9.647942 0.174302 19.360798
0.681499 92.561137 0.150913 -130.284461 0.178346 18.466075 0.252312 5.025824
560.0 0.269433 -2.269162 0.211132 3.54063 0.153436 -159.671907 0.681031 60.999501
0.207888 4.017024 0.262388 -6.853305 0.697169 65.599385 0.153838 -161.500518
0.152119 -159.947158 0.690268 65.680275 0.267109 -1.932245 0.187031 7.771702
0.681849 60.819411 0.153908 -162.591734 0.189538 7.128358 0.252536 -4.315469
570.0 0.229508 -9.345 0.181693 -6.515642 0.160218 167.16055 0.671362 29.570445
0.17993 -5.256991 0.208681 -15.355001 0.699483 35.281557 0.157358 165.986577
0.157669 167.350703 0.691975 35.262045 0.229548 -10.58504 0.167407 -3.374991
0.671086 29.413052 0.156967 164.87712 0.170377 -3.764502 0.219732 -10.940872
580.0 0.189853 -5.633764 0.137594 -5.306237 0.15916 133.03121 0.659323 -0.833701
0.139218 -3.778597 0.154347 -7.120014 0.704153 4.286607 0.156321 133.217573
0.157063 133.800089 0.696446 4.276289 0.177993 -7.07638 0.127246 -4.366012
0.659204 -0.985657 0.156047 132.011651 0.128844 -5.573702 0.182117 -7.271316
590.0 0.18529 5.764383 0.127763 13.137521 0.151879 102.070015 0.659313 -30.702779
0.130671 12.86245 0.168867 13.141713 0.70117 -27.174145 0.152128 102.80041
0.151294 102.784188 0.693906 -27.244798 0.174685 9.857039 0.112426 14.032534
0.658628 -30.940471 0.151869 101.416857 0.11082 14.137351 0.177862 4.547445
600.0 0.222411 10.631474 0.166703 20.583587 0.152449 74.746855 0.667875 -61.472057
0.165659 19.841382 0.225457 12.815635 0.69009 -58.233468 0.15494 74.592027
0.151732 74.805563 0.682575 -58.295602 0.219459 15.429632 0.146835 24.614925
0.66505 -61.738414 0.154577 73.011129 0.148989 25.840895 0.211283 10.264513
610.0 0.254265 3.328789 0.203552 12.871996 0.165048 45.289755 0.668886 -93.100341
0.199987 13.086803 0.252856 1.616775 0.679834 -88.553465 0.166398 44.102741
0.162516 45.240345 0.673729 -88.541105 0.258797 9.860604 0.185901 18.514075
0.663898 -93.197432 0.165429 42.333653 0.191243 18.886499 0.244012 5.22972
620.0 0.245653 -5.896401 0.209483 -0.250973 0.176453 11.53819 0.658863 -124.406595
0.207067 0.891558 0.235428 -10.192492 0.677615 -118.49737 0.175371 10.133997
0.173367 11.850584 0.673276 -118.522976 0.268153 0.337847 0.200731 5.875402
0.654679 -124.205576 0.173133 8.449198 0.205427 5.768739 0.247472 -2.565098
630.0 0.212528 -9.783051 0.175073 -11.387336 0.17733 -23.269681 0.648619 -154.753053
0.176639 -10.01168 0.183795 -14.809548 0.685118 -148.879535 0.174504 -24.552898
0.175144 -22.895145 0.681898 -148.95519 0.239178 -7.135009 0.178096 -6.73917
