! File created by SignalIntegrity v1.1.13: Signal and Power Integrity Tools
! https://github.com/TeledyneLeCroy/SignalIntegrity
# MHz S MA R 50.0
0.0 0.014449 0.0 0.993006 0.0 0.996065 0.0 0.003746 0.0
100.0 0.020323 34.384947 0.992636 -12.623388 0.995638 -12.646313 0.013226 61.983842
200.0 0.031488 42.213878 0.991556 -25.238065 0.994388 -25.283868 0.025141 58.426758
300.0 0.043061 39.72564 0.989812 -37.836182 0.992367 -37.904749 0.036271 49.510328
400.0 0.053478 33.56764 0.987497 -50.410557 0.989678 -50.501676 0.045998 39.205897
500.0 0.062049 25.77646 0.984716 -62.956354 0.986439 -63.069671 0.053929 28.246131
600.0 0.068242 17.201199 0.981599 -75.469821 0.982795 -75.604794 0.059651 16.924344
700.0 0.071776 8.230148 0.97827 -87.950365 0.97889 -88.106224 0.062934 5.306973
800.0 0.072391 -0.869507 0.974853 -100.398405 0.974864 -100.574121 0.063519 -6.573867
900.0 0.070066 -9.875734 0.971452 -112.817355 0.970845 -113.011632 0.061368 -18.740955
1000.0 0.064809 -18.518554 0.968145 -125.211011 0.966927 -125.422289 0.056432 -31.285009
1100.0 0.0569 -26.335788 0.964985 -137.585054 0.963186 -137.81154 0.048897 -44.355482
1200.0 0.046722 -32.440212 0.961988 -149.944606 0.959653 -150.184305 0.038977 -58.428325
1300.0 0.035131 -34.570112 0.959155 -162.295107 0.956346 -162.545872 0.027135 -74.76316
1400.0 0.023943 -26.379925 0.95645 -174.640759 0.95324 -174.900335 0.014188 -100.049706
1500.0 0.018657 3.819963 0.953843 173.015189 0.950313 172.749127 0.006597 166.103362
1600.0 0.025137 32.658685 0.951284 160.670595 0.94752 160.40041 0.018297 101.523245
1700.0 0.037618 39.617958 0.948743 148.324727 0.944832 148.052809 0.032731 79.875103
1800.0 0.050915 36.652642 0.946186 135.977017 0.942209 135.705768 0.046583 63.90276
1900.0 0.063154 29.716872 0.943601 123.628088 0.939634 123.359936 0.058991 49.482026
2000.0 0.073285 20.93477 0.940977 111.277639 0.937084 111.015027 0.069271 35.707628
2100.0 0.080688 11.138937 0.938316 98.926326 0.934548 98.671737 0.076937 22.19586
2200.0 0.08484 0.74574 0.935615 86.573492 0.93201 86.329431 0.081525 8.810892
2300.0 0.085508 -10.024952 0.932866 74.219695 0.929447 73.988699 0.082821 -4.546504
2400.0 0.082531 -21.038488 0.930065 61.864732 0.926839 61.649342 0.080648 -17.938484
2500.0 0.076034 -32.176465 0.92719 49.510103 0.924151 49.312853 0.075107 -31.41307
2600.0 0.06622 -43.352921 0.92424 37.157383 0.921371 36.980748 0.066357 -45.069961
2700.0 0.05355 -54.377892 0.921208 24.809663 0.91848 24.656021 0.054817 -59.018751
2800.0 0.038562 -64.932736 0.918123 12.470192 0.915503 12.341753 0.040978 -73.662608
2900.0 0.022002 -73.524402 0.915023 0.142231 0.91247 0.040968 0.025537 -90.170049
3000.0 0.005154 -59.757718 0.911985 -12.171754 0.909461 -12.244186 0.009548 -118.44094
3100.0 0.013503 63.399171 0.909085 -24.471518 0.906554 -24.513871 0.008774 97.221235
3200.0 0.030057 58.229473 0.906419 -36.758546 0.903847 -36.770059 0.02426 67.245686
3300.0 0.045147 48.166115 0.904051 -49.037786 0.901414 -49.018271 0.038835 50.34779
3400.0 0.057916 37.16675 0.902021 -61.315267 0.899301 -61.265158 0.051385 35.418325
3500.0 0.067782 25.843756 0.900311 -73.599336 0.897501 -73.519741 0.061314 21.043367
3600.0 0.074223 14.453637 0.898849 -85.89674 0.895953 -85.789442 0.068083 6.857366
3700.0 0.076998 3.117591 0.897514 -98.213456 0.894542 -98.080908 0.071426 -7.334388
3800.0 0.075948 -8.037729 0.89614 -110.550774 0.893114 -110.396028 0.071134 -21.668261
3900.0 0.07123 -18.845296 0.894564 -122.906577 0.891511 -122.733215 0.067303 -36.27846
4000.0 0.063089 -29.051006 0.892636 -135.273354 0.889588 -135.085354 0.060115 -51.434787
4100.0 0.052085 -38.085213 0.890276 -147.640608 0.887268 -147.442208 0.05005 -67.580998
4200.0 0.03892 -44.622172 0.887469 -159.995686 0.884534 -159.791196 0.03775 -86.005625
4300.0 0.024909 -44.055216 0.884307 -172.326632 0.881473 -172.120254 0.024348 -110.711016
4400.0 0.013998 -17.046778 0.880936 175.375162 0.878227 175.579544 0.013258 -160.382074
4500.0 0.017884 32.965418 0.877574 163.11362 0.875004 163.312644 0.016049 120.568271
4600.0 0.031019 43.942425 0.874429 150.885584 0.872004 151.076593 0.028759 82.981312
4700.0 0.044713 40.537498 0.871688 138.682685 0.869404 138.863901 0.042174 61.055548
4800.0 0.056805 33.010657 0.869456 126.490581 0.867302 126.661215 0.054146 43.502116
4900.0 0.066433 23.888039 0.867744 114.293923 0.8657 114.454257 0.063816 27.554032
5000.0 0.072975 14.103368 0.866457 102.076849 0.864499 102.228232 0.070553 12.323924
5100.0 0.076142 4.087483 0.865404 89.828821 0.863505 89.973622 0.074041 -2.624472
5200.0 0.075741 -5.862327 0.864347 77.544503 0.862479 77.685965 0.074034 -17.548128
5300.0 0.071911 -15.460642 0.863029 65.227301 0.861166 65.369369 0.070607 -32.659691
5400.0 0.06488 -24.354599 0.861256 52.88691 0.859376 53.033979 0.063926 -48.28253
5500.0 0.055203 -31.889735 0.858905 40.538822 0.856993 40.695474 0.05447 -64.900764
5600.0 0.043596 -36.757111 0.855992 28.200121 0.854038 28.370824 0.042896 -83.738571
5700.0 0.031419 -35.463671 0.852627 15.886215 0.850629 16.075039 0.030354 -107.887982
5800.0 0.021729 -19.1699 0.849032 3.607766 0.846995 3.818107 0.019576 -147.33371
5900.0 0.021344 13.850781 0.845453 -8.632405 0.84339 -8.398066 0.01797 149.657371
6000.0 0.030749 31.840181 0.842144 -20.838575 0.840073 -20.578854 0.027448 104.1339
6100.0 0.043221 33.949389 0.839285 -33.023106 0.837227 -32.737856 0.039958 77.836073
6200.0 0.055367 29.584445 0.836964 -45.201558 0.834943 -44.891912 0.051968 58.522027
6300.0 0.065873 22.444483 0.835146 -57.391898 0.833189 -57.060266 0.06221 41.961692
6400.0 0.073911 13.992347 0.833688 -69.607788 0.831819 -69.257745 0.069912 26.758897
6500.0 0.079055 4.885793 0.83237 -81.858232 0.830611 -81.494369 0.074668 12.275351
6600.0 0.080967 -4.499563 0.830934 -94.142781 0.829303 -93.770454 0.076141 -1.77545
6700.0 0.079622 -13.893808 0.829165 -106.453945 0.827677 -106.079026 0.074313 -15.563068
6800.0 0.075048 -23.06572 0.826916 -118.776861 0.825577 -118.405413 0.069206 -29.224318
6900.0 0.067557 -31.678673 0.824175 -131.094311 0.822988 -130.73232 0.061132 -42.85497
7000.0 0.057521 -39.230518 0.821038 -143.389886 0.82 -143.04296 0.050435 -56.692132
7100.0 0.04563 -44.546781 0.817719 -155.652299 0.816824 -155.325459 0.037667 -71.108451
7200.0 0.032926 -44.775627 0.814468 -167.878547 0.813705 -167.57604 0.023439 -87.703489
7300.0 0.021982 -31.520011 0.811543 179.926126 0.810904 -179.799074 0.008824 -117.958463
7400.0 0.019357 2.951361 0.809122 167.747614 0.808597 167.99225 0.008744 105.594896
7500.0 0.027829 25.686083 0.807283 155.56809 0.806864 155.781007 0.023181 75.176968
7600.0 0.040064 29.484806 0.805966 143.367416 0.805649 143.547883 0.037091 58.980024
7700.0 0.052181 25.673395 0.804994 131.130645 0.804773 131.278664 0.049488 45.051429
7800.0 0.062654 18.787947 0.8041 118.848606 0.803971 118.964778 0.05976 31.965042
7900.0 0.070787 10.444753 0.802981 106.523471 0.802938 106.608885 0.067539 19.253072
8000.0 0.076033 1.348064 0.801379 94.16588 0.801416 94.221989 0.072433 6.765778
8100.0 0.078154 -8.139071 0.79912 81.795726 0.799224 81.824272 0.074309 -5.586991
8200.0 0.076928 -17.796237 0.796191 69.435935 0.796342 69.438883 0.073002 -17.858953
8300.0 0.07241 -27.390587 0.792707 57.109204 0.792882 57.088735 0.068615 -30.050945
8400.0 0.064702 -36.670597 0.78894 44.831938 0.789106 44.790449 0.06125 -42.198321
8500.0 0.054201 -45.091189 0.785214 32.610661 0.785331 32.550818 0.051255 -54.227384
8600.0 0.041452 -51.548075 0.781879 20.440697 0.781904 20.365481 0.039008 -66.132259
8700.0 0.027529 -52.395846 0.779197 8.30565 0.779081 8.21841 0.025054 -77.551765
8800.0 0.01538 -32.670548 0.777323 -3.817467 0.777016 -3.912975 0.009989 -86.79177
8900.0 0.016069 20.664152 0.776239 -15.955975 0.775693 -16.055594 0.005704 67.417089
9000.0 0.028692 37.847638 0.775781 -28.132917 0.774952 -28.232114 0.021079 61.762727
9100.0 0.042876 36.332175 0.775657 -40.365587 0.774509 -40.45956 0.035739 50.563752
9200.0 0.05588 29.703308 0.775506 -52.658541 0.774016 -52.742337 0.048992 38.789509
9300.0 0.066769 21.146717 0.77498 -65.006185 0.773139 -65.074905 0.060335 26.738686
9400.0 0.074842 11.732161 0.773795 -77.390731 0.771614 -77.439727 0.069186 14.519711
9500.0 0.07973 1.91254 0.771819 -89.788873 0.769325 -89.814022 0.075186 2.12587
9600.0 0.081074 -8.050682 0.769056 -102.174231 0.766295 -102.172165 0.077915 -10.456766
9700.0 0.078829 -17.920401 0.765689 -114.524591 0.762722 -114.492968 0.077245 -23.241385
9800.0 0.072999 -27.452461 0.761986 -126.825357 0.758885 -126.763062 0.073055 -36.313822
9900.0 0.063935 -36.18232 0.758288 -139.072522 0.75513 -138.979848 0.065537 -49.754205
10000.0 0.052125 -43.29355 0.754885 -151.273661 0.751751 -151.152402 0.054946 -63.901915
10100.0 0.038552 -46.561752 0.752009 -163.444345 0.748974 -163.297798 0.041804 -79.420412
10200.0 0.025188 -39.338447 0.749744 -175.606577 0.746876 -175.43945 0.026858 -99.003171
10300.0 0.018458 -5.981339 0.74806 172.219056 0.745414 172.400866 0.012128 -138.561718
10400.0 0.026041 26.097485 0.746799 160.014364 0.744413 160.204068 0.012703 117.921386
10500.0 0.040147 32.605148 0.745733 147.770999 0.743626 147.961335 0.028283 79.708601
10600.0 0.054674 29.125283 0.744618 135.487784 0.742785 135.671446 0.044583 60.203246
10700.0 0.067729 21.996789 0.74324 123.17432 0.741655 123.344458 0.059576 44.36951
10800.0 0.078239 13.28705 0.74148 110.844477 0.740097 110.995108 0.072243 29.822654
10900.0 0.085637 3.817185 0.739312 98.516075 0.738067 98.642496 0.081941 15.804748
11000.0 0.089419 -5.999816 0.736835 86.20379 0.735652 86.302826 0.088024 2.045214
11100.0 0.089448 -15.87652 0.734197 73.917713 0.732995 73.987912 0.090211 -11.59668
11200.0 0.085635 -25.595466 0.731605 61.660167 0.730304 61.701803 0.088242 -25.234745
11300.0 0.078239 -34.826529 0.729217 49.425765 0.727745 49.440759 0.08223 -38.935395
11400.0 0.067608 -43.126125 0.727154 37.204049 0.725452 37.195735 0.07234 -52.887373
11500.0 0.054463 -49.429069 0.725426 24.980665 0.723453 24.953472 0.059038 -67.307784
11600.0 0.039904 -51.25985 0.723974 12.743828 0.72171 12.702879 0.042906 -83.011917
11700.0 0.026565 -40.99771 0.72265 0.483922 0.720102 0.434571 0.024831 -102.827205
11800.0 0.02174 -7.774427 0.721286 -11.799995 0.718484 -11.852625 0.007858 -158.868185
11900.0 0.030806 18.022951 0.719717 -24.104417 0.716713 -24.155917 0.017445 88.765059
12000.0 0.045299 22.698994 0.717828 -36.417639 0.714697 -36.464685 0.036379 63.616029
12100.0 0.059931 18.774779 0.715597 -48.72742 0.712427 -48.768131 0.054302 46.802723
12200.0 0.072646 11.48607 0.713075 -61.019904 0.709961 -61.053994 0.069833 31.946695
12300.0 0.082527 2.676666 0.710411 -73.287164 0.70745 -73.316028 0.082206 17.822142
12400.0 0.088851 -6.879459 0.707766 -85.526313 0.705045 -85.552884 0.090675 4.078889
12500.0 0.091348 -16.753085 0.705327 -97.742661 0.702921 -97.771188 0.094917 -9.43788
12600.0 0.089788 -26.704168 0.703202 -109.947463 0.701167 -109.983104 0.094616 -22.83104
12700.0 0.084314 -36.446528 0.701457 -122.155443 0.699828 -122.203807 0.089863 -36.126228
12800.0 0.075126 -45.703001 0.700038 -134.382612 0.698823 -134.449241 0.080782 -49.423327
12900.0 0.06277 -53.812507 0.69884 -146.640371 0.698025 -146.730223 0.067834 -62.719611
13000.0 0.047996 -59.462848 0.697681 -158.9363 0.697227 -159.053299 0.05157 -76.213288
13100.0 0.032303 -58.358259 0.696388 -171.268169 0.696234 -171.414807 0.032766 -90.137474
13200.0 0.019948 -36.234372 0.694801 176.370527 0.69487 176.19343 0.012376 -107.397187
13300.0 0.022292 7.260344 0.692833 163.99455 0.693035 163.788014 0.008932 75.587554
13400.0 0.036375 21.768523 0.690485 151.617767 0.690724 151.384627 0.029513 56.315822
13500.0 0.052255 20.41619 0.687834 139.255649 0.688012 139.000454 0.048776 42.384912
13600.0 0.066691 14.000471 0.68504 126.916553 0.685066 126.645294 0.065627 29.273343
13700.0 0.078551 5.621285 0.682264 114.604755 0.682058 114.324527 0.079383 16.495199
13800.0 0.087005 -3.618367 0.679691 102.316157 0.679187 102.034698 0.089301 3.974194
13900.0 0.091735 -13.176639 0.677421 90.042241 0.676572 89.767447 0.095088 -8.299064
14000.0 0.092435 -22.772063 0.675527 77.771105 0.674303 77.510488 0.096406 -20.323565
14100.0 0.089219 -32.091093 0.673966 65.490158 0.67236 65.250342 0.093363 -31.995196
14200.0 0.082238 -40.864234 0.672672 53.190645 0.670694 52.976902 0.086063 -43.235553
14300.0 0.072036 -48.502302 0.671502 40.866354 0.669181 40.682221 0.075006 -53.703471
14400.0 0.059333 -54.08986 0.670333 28.519199 0.667711 28.366244 0.060775 -62.89009
14500.0 0.045462 -55.284535 0.669038 16.152832 0.666172 16.030502 0.044354 -69.083545
14600.0 0.032927 -47.028922 0.66755 3.777968 0.664502 3.683658 0.02741 -66.853376
14700.0 0.027281 -23.222762 0.665853 -8.597459 0.66269 -8.668299 0.015921 -32.905845
14800.0 0.032994 0.196174 0.663978 -20.962922 0.660768 -21.016461 0.023272 12.433885
14900.0 0.045234 8.451716 0.662014 -33.314947 0.658821 -33.35868 0.039357 19.798253
15000.0 0.05851 7.637336 0.660037 -45.65108 0.656919 -45.693358 0.055421 15.583656
15100.0 0.070621 2.871162 0.65815 -57.976084 0.65516 -58.025756 0.069634 7.949825
15200.0 0.08034 -3.697176 0.656382 -70.29612 0.653567 -70.362054 0.080973 -0.977062
15300.0 0.087232 -11.025851 0.654768 -82.620317 0.652165 -82.711068 0.089086 -10.388324
15400.0 0.090891 -18.615096 0.653246 -94.957431 0.650887 -95.080859 0.093529 -19.947795
15500.0 0.0914 -26.033278 0.651766 -107.313282 0.649674 -107.476288 0.094343 -29.35527
15600.0 0.088808 -33.01827 0.650205 -119.69204 0.648398 -119.900324 0.091476 -38.463012
15700.0 0.083585 -39.123149 0.648484 -132.090669 0.646969 -132.348546 0.085298 -46.921795
15800.0 0.076213 -43.958108 0.646506 -144.505691 0.645283 -144.815996 0.076154 -54.437072
15900.0 0.067584 -46.725882 0.644241 -156.92583 0.643301 -157.289806 0.064766 -60.181172
16000.0 0.058755 -46.58942 0.641699 -169.343267 0.641024 -169.760592 0.052037 -62.901089
16100.0 0.051349 -42.340058 0.638949 178.254621 0.638513 177.785871 0.039633 -59.38369
16200.0 0.047195 -34.047611 0.636125 165.872279 0.635891 165.355521 0.030777 -44.738617
16300.0 0.047834 -24.043689 0.633364 153.514514 0.633288 152.954617 0.03057 -20.945736
16400.0 0.052919 -16.428978 0.630851 141.175555 0.630884 140.57868 0.039161 -5.338058
16500.0 0.060961 -12.839881 0.628694 128.847165 0.628778 128.220646 0.051835 -0.996965
16600.0 0.070037 -12.900902 0.627006 116.513312 0.62708 115.865469 0.065069 -2.900031
16700.0 0.078995 -15.433609 0.625751 104.156586 0.625751 103.496534 0.077479 -7.834787
16800.0 0.086754 -19.659155 0.624874 91.760332 0.624738 91.097776 0.087931 -14.424245
16900.0 0.092847 -24.874069 0.62416 79.310855 0.623828 78.655827 0.096004 -21.865585
17000.0 0.096672 -30.764294 0.623403 66.805775 0.622821 66.16841 0.10104 -29.84208
17100.0 0.098079 -36.913714 0.622318 54.2485 0.621443 53.6387 0.102904 -37.972532
17200.0 0.096756 -43.176646 0.620709 41.659185 0.619511 41.086366 0.101257 -46.140393
17300.0 0.09275 -49.133529 0.618438 29.059439 0.616906 28.532123 0.096211 -53.949649
17400.0 0.086046 -54.530607 0.61552 16.482893 0.61366 16.008438 0.087816 -61.18379
17500.0 0.077039 -58.544012 0.61212 3.95275 0.609958 3.536905 0.076534 -67.016609
17600.0 0.066435 -60.220705 0.608504 -8.508004 0.606086 -8.861322 0.063107 -70.384159
17700.0 0.055862 -57.39358 0.605059 -20.898387 0.602445 -21.187485 0.049162 -68.249376
17800.0 0.048231 -48.166215 0.602099 -33.227255 0.599362 -33.452735 0.0383 -55.86575
17900.0 0.047541 -33.790141 0.59994 -45.525132 0.597162 -45.690089 0.037042 -32.979603
18000.0 0.054933 -22.31773 0.598641 -57.830063 0.595908 -57.939904 0.047221 -16.766262
18100.0 0.067721 -17.738938 0.59818 -70.185201 0.595582 -70.247544 0.06339 -12.447864
18200.0 0.082159 -18.836733 0.598221 -82.628975 0.595845 -82.653216 0.080579 -15.113661
18300.0 0.096177 -23.209465 0.598396 -95.181683 0.596325 -95.178604 0.096749 -21.082414
18400.0 0.108004 -29.634653 0.598151 -107.850051 0.596457 -107.831269 0.110142 -28.902592
18500.0 0.116902 -37.118353 0.59707 -120.609322 0.595814 -120.586736 0.120128 -37.583607
18600.0 0.121916 -45.372986 0.594799 -133.428453 0.594024 -133.413777 0.125739 -46.870849
18700.0 0.122747 -53.842279 0.591258 -146.250678 0.590992 -146.254875 0.126801 -56.229673
18800.0 0.118982 -62.447312 0.586605 -159.035286 0.586855 -159.06835 0.122974 -65.629653
18900.0 0.110699 -70.529426 0.581185 -171.733649 0.581943 -171.80414 0.114472 -74.451854
19000.0 0.098301 -77.797602 0.575553 175.666003 0.576797 175.550886 0.101756 -82.519854
19100.0 0.082599 -82.788156 0.570155 163.170832 0.571854 163.00557 0.085598 -88.512573
19200.0 0.065575 -83.777164 0.565526 150.750854 0.567643 150.531292 0.067795 -91.018619
19300.0 0.050643 -75.878494 0.561788 138.374432 0.564282 138.097941 0.051178 -85.267982
19400.0 0.044801 -57.410765 0.559146 125.99722 0.561975 125.662241 0.042452 -67.560812
19500.0 0.052715 -39.401811 0.557256 113.582779 0.560372 113.188828 0.048015 -46.546314
19600.0 0.068782 -33.716109 0.556037 101.11895 0.55939 100.666147 0.063366 -38.725724
19700.0 0.08721 -35.635639 0.55491 88.594984 0.558447 88.083926 0.081857 -39.83363
19800.0 0.103435 -42.568988 0.553871 76.061828 0.557537 75.49324 0.098343 -46.707969
19900.0 0.116668 -51.133076 0.552548 63.520875 0.556286 62.895385 0.112036 -55.3641
20000.0 0.124362 -63.551738 0.55147 51.12517 0.555228 50.443333 0.120171 -68.354989
