! File created by SignalIntegrity v1.4.3: Signal and Power Integrity Tools
! https://github.com/Nubis-Communications/SignalIntegrity
# MHz S MA R 50.0
0.0 0.072832 0.0 0.033901 0.0 0.013655 180.0 1.012945 0.0
0.024772 0.0 0.058843 0.0 1.028082 0.0 0.001058 180.0
0.031459 180.0 1.018935 0.0 0.10927 0.0 0.000473 0.0
1.01165 0.0 0.002492 180.0 0.027569 0.0 0.091681 0.0
10.0 0.101982 18.161503 0.052327 29.759473 0.025573 -164.99868 0.99069 -34.346039
0.049835 36.958621 0.099709 28.099005 1.012832 -33.922467 0.027814 -142.770105
0.035385 169.013247 0.982576 -34.774375 0.116975 3.037857 0.049071 58.248946
0.994308 -34.070994 0.02768 -146.0202 0.045159 30.174692 0.103826 7.714059
20.0 0.125949 9.880288 0.075163 28.384408 0.049275 159.032212 0.946249 -66.708914
0.074271 32.044918 0.143998 15.902009 0.973224 -66.62463 0.054522 163.810314
0.050016 146.324465 0.941023 -65.983343 0.112645 0.713927 0.071435 36.107795
0.953282 -66.725516 0.053072 163.156572 0.06106 30.833354 0.111446 5.442503
30.0 0.122955 1.225724 0.09218 19.319953 0.066209 106.962273 0.915047 -97.263057
0.09255 20.473885 0.146656 -1.469513 0.936472 -97.314099 0.071518 107.229312
0.066516 105.216871 0.929666 -96.983003 0.106085 7.512639 0.07782 25.726298
0.916615 -97.448424 0.06969 108.15831 0.078351 26.111927 0.109985 3.354133
40.0 0.108283 -0.840179 0.092092 4.807029 0.06596 51.916512 0.904408 -127.314645
0.088693 3.912341 0.117143 -12.726364 0.924972 -127.049669 0.070966 51.06955
0.069051 54.75435 0.910307 -127.614906 0.117804 12.658529 0.08095 16.540126
0.903333 -127.198968 0.069688 51.947139 0.083391 12.713417 0.104177 4.924679
50.0 0.095869 3.069815 0.066736 -2.880557 0.046924 -0.627565 0.913835 -157.619644
0.060986 -1.023326 0.075647 -8.716583 0.937575 -157.224938 0.050682 -0.367488
0.050155 4.835881 0.920196 -157.135614 0.127066 8.722274 0.069104 6.390894
0.916334 -157.348608 0.049222 -0.678637 0.066419 2.500336 0.102438 5.328117
60.0 0.085688 16.016515 0.04687 27.519299 0.017296 -11.963528 0.935077 170.395567
0.04648 33.539416 0.070324 33.48082 0.960469 170.840288 0.021266 -9.19334
0.021688 -4.779675 0.950705 170.844497 0.109056 5.048654 0.042509 20.560928
0.940096 170.513881 0.019552 -7.951945 0.040078 24.263021 0.083328 11.392327
70.0 0.11127 33.258816 0.084895 50.940095 0.045485 12.7734 0.926788 136.696158
0.08724 52.692544 0.131724 41.591048 0.952096 137.194488 0.050201 8.876041
0.048228 11.15581 0.940607 137.195092 0.098938 26.792675 0.070829 60.679127
0.930974 136.653441 0.049285 9.806387 0.074657 60.401067 0.099147 36.430804
80.0 0.158119 26.040896 0.131456 36.366655 0.086317 -40.90005 0.873681 104.513472
0.132595 36.53292 0.179516 25.086599 0.896203 105.080276 0.092026 -42.023568
0.08769 -40.079524 0.890134 105.191924 0.154343 32.564013 0.124259 45.680981
0.875883 104.385621 0.090392 -42.176989 0.125671 44.880845 0.151859 33.302803
90.0 0.16778 8.635487 0.143524 14.797066 0.107503 -101.453899 0.833346 76.269527
0.142022 14.373214 0.181972 6.011342 0.853436 77.002755 0.112296 -100.964144
0.107376 -100.307597 0.845818 76.712989 0.187114 16.214324 0.14175 21.444253
0.833138 76.168034 0.110751 -101.776034 0.143168 21.991602 0.176852 15.837934
100.0 0.135229 -2.055725 0.119971 -3.567004 0.098997 -162.661935 0.857691 48.45676
0.115839 -3.922108 0.143728 -8.502613 0.878312 49.321057 0.101185 -160.962514
0.097122 -162.048971 0.864864 49.393953 0.16861 0.208459 0.12008 -0.662902
0.857579 48.508759 0.099713 -162.382248 0.123817 0.616215 0.152422 -0.346601
110.0 0.099849 4.602395 0.070525 -9.383517 0.05889 139.769343 0.907195 16.827954
0.066317 -8.099835 0.084802 -2.085803 0.928288 17.750787 0.059161 142.982332
0.056339 139.288138 0.920052 17.997837 0.113895 -5.643001 0.064251 -12.974509
0.90915 16.838415 0.057357 141.270791 0.069445 -12.586094 0.100508 -2.82343
120.0 0.103033 30.049131 0.060498 41.501549 0.01616 174.656025 0.918412 -17.432842
0.059815 45.385002 0.101646 39.827319 0.939022 -16.417484 0.017983 175.934774
0.014568 -177.028207 0.930943 -16.521571 0.08866 33.837037 0.050354 59.673533
0.91954 -17.528993 0.017711 -178.985529 0.049131 57.752998 0.083936 38.621742
130.0 0.157119 33.093062 0.117219 42.76601 0.072238 165.212926 0.876412 -50.940005
0.118825 45.209843 0.172405 35.699981 0.896119 -49.859479 0.072727 165.6644
0.071709 167.017389 0.883595 -49.958775 0.171497 43.102455 0.123953 56.152121
0.876685 -50.986922 0.073907 166.204999 0.126946 56.563246 0.166716 45.188419
140.0 0.190633 19.222471 0.146358 26.005634 0.113237 107.138663 0.819639 -80.845037
0.149528 26.822695 0.209075 18.550016 0.83814 -79.653634 0.11348 107.812045
0.111941 107.541683 0.826877 -79.50531 0.228869 25.29867 0.167465 33.272563
0.820641 -80.915677 0.114913 107.937235 0.172592 32.855658 0.218891 25.837483
150.0 0.187961 4.407346 0.148251 9.03165 0.119611 48.094356 0.811278 -107.965463
0.148299 8.583192 0.203457 0.472777 0.833041 -106.71013 0.120372 48.847695
0.117681 48.129872 0.82514 -106.615986 0.231824 6.129603 0.168671 9.237899
0.810809 -108.089594 0.121192 48.303062 0.17218 8.783048 0.219416 6.387535
160.0 0.151514 -7.768557 0.119086 -8.015685 0.093131 -7.277438 0.856679 -137.383164
0.115738 -7.956641 0.153894 -15.252247 0.880152 -136.441871 0.094969 -5.989992
0.091479 -6.689607 0.871387 -136.515456 0.186026 -10.470221 0.125061 -12.389548
0.854904 -137.370589 0.093787 -7.520848 0.127139 -12.120902 0.171174 -11.644253
170.0 0.096524 -1.593284 0.061892 -6.180665 0.048265 -46.920285 0.892442 -170.600155
0.059661 -3.330279 0.079328 -5.269994 0.909298 -169.578462 0.051477 -44.4263
0.048103 -44.18207 0.899142 -169.632306 0.107181 -10.575418 0.054871 -10.546783
0.8916 -170.451613 0.048306 -46.569162 0.057479 -8.992184 0.088557 -7.057378
180.0 0.106405 34.673219 0.073635 49.356397 0.037079 -21.733546 0.879378 155.29879
0.07609 50.928176 0.111796 42.77021 0.895141 157.053603 0.040928 -24.779621
0.040155 -22.044929 0.885089 156.948238 0.102038 36.011614 0.073719 56.617638
0.880122 155.487069 0.038546 -21.511571 0.076163 55.246471 0.105727 43.72538
190.0 0.176652 33.101613 0.137312 41.867289 0.075937 -48.212227 0.83383 123.275863
0.14037 41.924689 0.192616 33.345845 0.858889 125.430779 0.079703 -50.073706
0.077795 -49.77138 0.84518 125.318972 0.186455 38.649326 0.144826 45.005587
0.835165 123.446543 0.078838 -48.685253 0.14929 44.446549 0.192408 39.514522
200.0 0.207947 15.121707 0.161711 21.595969 0.100181 -97.939353 0.800355 94.208827
0.163462 20.553998 0.223494 12.760834 0.83187 95.992477 0.104622 -98.364055
0.099948 -98.479839 0.817311 96.308592 0.236657 21.298654 0.172752 22.136642
0.802006 94.386249 0.104942 -98.709502 0.178126 21.281165 0.235511 19.50041
210.0 0.188574 -0.965869 0.147216 4.130666 0.099731 -148.645712 0.809897 65.837321
0.144542 2.434634 0.196358 -6.696062 0.83851 67.106416 0.1045 -147.803922
0.098132 -147.827015 0.829353 67.445314 0.227544 3.427346 0.155315 1.823002
0.811943 65.925588 0.105094 -150.006219 0.158639 0.961587 0.216422 0.611048
220.0 0.135072 -10.480703 0.105095 -7.548908 0.078438 165.610972 0.845952 35.057518
0.09926 -8.118077 0.125694 -17.586492 0.86567 36.394974 0.083373 167.680532
0.076717 167.928583 0.854001 36.404555 0.173272 -7.931615 0.104609 -11.550128
0.845766 35.070972 0.082652 163.876838 0.10649 -11.872937 0.153202 -11.283226
230.0 0.08482 16.264993 0.058329 16.257758 0.04822 139.803744 0.863474 1.786457
0.055853 20.526205 0.072465 21.936463 0.879384 3.792637 0.054212 141.722984
0.048388 144.29502 0.863812 3.971726 0.112586 4.611542 0.05618 19.328952
0.861683 1.925226 0.051318 137.884351 0.05754 19.378941 0.08975 13.604543
240.0 0.144947 40.716423 0.101425 50.715694 0.052892 146.91613 0.84108 -31.462089
0.103111 52.210031 0.150536 45.298769 0.862335 -28.988564 0.057452 143.046036
0.055336 147.984834 0.84965 -28.792111 0.142828 33.796625 0.109086 48.450759
0.840792 -31.279459 0.05568 143.666684 0.112516 48.402129 0.153731 42.018928
250.0 0.207236 28.611069 0.157738 38.70197 0.088761 115.769926 0.8015 -62.395696
0.157956 39.083099 0.218746 29.542733 0.828054 -60.062579 0.090568 113.567201
0.08961 115.624794 0.813979 -60.117136 0.209244 29.104394 0.161227 33.641577
0.801624 -62.35336 0.092554 113.25535 0.166701 33.23313 0.225514 29.662469
260.0 0.226092 11.698473 0.177907 19.70119 0.11026 68.239571 0.783142 -91.12234
0.175715 20.225157 0.234984 10.840765 0.809027 -89.237015 0.112035 67.916935
0.110097 68.095698 0.792895 -89.147414 0.236454 15.309412 0.174053 14.872508
0.782148 -91.151252 0.115966 66.198391 0.179093 14.211791 0.245801 12.103641
270.0 0.200181 -4.935278 0.156254 0.959295 0.106132 19.777816 0.801237 -120.147585
0.15419 2.246668 0.202834 -6.517528 0.820017 -118.430447 0.109906 20.522344
0.106049 19.500098 0.805725 -118.331557 0.221453 1.988622 0.149869 -2.260328
0.800013 -120.200703 0.113142 17.589722 0.153476 -2.714872 0.215649 -3.693548
280.0 0.131786 -13.234327 0.097762 -7.553439 0.080628 -21.815801 0.832296 -151.707539
0.098203 -5.823768 0.127838 -13.453951 0.845479 -149.444562 0.086583 -21.017349
0.080985 -22.322925 0.83021 -149.403396 0.169982 -4.875463 0.095899 -7.787248
0.830725 -151.800175 0.086721 -25.024624 0.098529 -7.941444 0.147995 -9.328674
290.0 0.089219 22.385721 0.067846 33.468 0.055066 -38.341441 0.836604 174.805465
0.068557 33.465843 0.093205 26.48528 0.854087 177.749557 0.061238 -40.878514
0.055683 -39.191835 0.840106 177.848318 0.126596 12.097966 0.076069 27.888448
0.834817 174.746442 0.057686 -43.295601 0.078461 27.503825 0.112891 18.634252
300.0 0.1635 39.991282 0.128224 48.81601 0.072104 -43.654635 0.803193 142.091697
0.128108 49.172856 0.173165 40.097391 0.829328 145.213283 0.074586 -47.733557
0.072978 -44.555933 0.816268 145.156593 0.1712 31.787818 0.128042 37.583532
0.802427 142.099765 0.072889 -46.864218 0.132204 37.194042 0.174613 33.160217
310.0 0.226386 24.419567 0.17657 34.452755 0.105698 -79.880096 0.764673 112.210905
0.176476 34.529434 0.237575 24.595635 0.795704 114.935358 0.107366 -81.682209
0.107381 -80.537215 0.780589 114.98475 0.233941 24.001869 0.162543 23.09974
0.765531 112.25062 0.107113 -81.963448 0.168273 22.463169 0.228916 22.360063
320.0 0.228476 5.619763 0.18483 18.00451 0.120522 -125.862309 0.761167 83.920756
0.18294 17.829745 0.245106 5.796207 0.787295 86.06504 0.123487 -126.252243
0.122474 -126.236337 0.774869 86.365068 0.248609 9.977128 0.15788 8.100709
0.76368 83.922065 0.122642 -127.430573 0.163225 7.071455 0.236485 8.363409
330.0 0.182678 -8.634932 0.161154 4.731508 0.110424 -170.172932 0.789882 53.849589
0.157578 4.943837 0.200407 -10.26607 0.803693 56.265008 0.115273 -169.984435
0.111379 -169.89159 0.794111 56.470445 0.222529 -1.258145 0.1311 -1.447363
0.792617 53.728886 0.113204 -171.701768 0.134492 -2.910273 0.207121 -2.160067
340.0 0.110054 -6.723277 0.11338 2.801926 0.085632 156.341134 0.810832 21.03673
0.110152 4.177474 0.120946 -11.654564 0.821147 24.600407 0.091276 155.423787
0.08612 158.375998 0.812126 24.677146 0.168624 -3.945166 0.091452 0.664265
0.811304 20.885116 0.088455 154.020493 0.091751 -0.526837 0.156553 -2.362154
350.0 0.109867 36.073839 0.102777 29.352288 0.076416 142.438376 0.794407 -12.41012
0.103209 31.786391 0.107165 30.779504 0.815511 -7.999615 0.078517 139.295312
0.079632 145.234666 0.805812 -8.087668 0.144537 16.179118 0.087046 31.240333
0.792822 -12.413233 0.077499 138.638684 0.088819 31.926466 0.145971 17.832706
360.0 0.187025 37.918218 0.14968 35.277991 0.100514 120.603129 0.75473 -43.584996
0.152925 36.201325 0.189813 37.367951 0.789002 -39.444063 0.099483 119.571631
0.104761 121.921784 0.776709 -39.483698 0.197607 26.281555 0.133868 36.404271
0.753182 -43.411595 0.099534 117.511636 0.13886 35.963316 0.196945 22.675741
370.0 0.230967 24.296077 0.182121 25.443479 0.122913 82.250712 0.737022 -72.217665
0.184512 25.092752 0.247922 22.429547 0.771198 -69.233728 0.123462 82.628965
0.126184 83.134422 0.760628 -69.026532 0.246195 17.83251 0.164644 25.099003
0.736522 -71.971049 0.122729 79.862352 0.169228 23.932344 0.22974 13.237693
380.0 0.231393 9.849418 0.188761 12.752926 0.124637 41.551631 0.754712 -101.507266
0.187356 12.073793 0.251137 5.249434 0.772366 -98.98016 0.127648 41.554536
0.126114 41.977134 0.765281 -98.857185 0.254706 5.048844 0.167945 11.584598
0.755107 -101.297068 0.126646 38.58903 0.170391 10.704143 0.225367 1.114915
390.0 0.189488 0.429143 0.163226 1.085362 0.112681 6.457854 0.777077 -133.159574
0.15943 0.988343 0.205151 -7.743986 0.781651 -129.546911 0.115287 4.982689
0.111502 6.683344 0.775022 -129.589103 0.219443 -5.687245 0.141062 0.654403
0.777894 -133.038672 0.114607 1.726262 0.143835 0.53087 0.178069 -6.454096
400.0 0.144346 9.696612 0.118056 2.850869 0.104201 -20.445223 0.776172 -166.000873
0.114931 4.161194 0.13906 -4.186458 0.78792 -160.996487 0.103292 -22.416305
0.101893 -19.650898 0.78073 -161.138508 0.162206 -3.653527 0.101398 5.75861
0.777183 -166.014367 0.102141 -26.329055 0.104993 5.027095 0.135405 8.456913
410.0 0.168163 27.688782 0.114855 25.378358 0.110837 -46.10539 0.750812 162.125618
0.115295 26.807532 0.139975 23.749853 0.781886 167.38919 0.10857 -46.367892
0.108661 -45.329459 0.772898 167.265415 0.154373 16.999393 0.105947 29.184438
0.750818 161.932761 0.105057 -50.061364 0.107672 27.8455 0.171268 26.312804
420.0 0.223048 24.921944 0.158276 29.808948 0.122945 -78.014882 0.72814 132.357051
0.15799 30.161422 0.207549 26.934183 0.770856 136.48976 0.123323 -77.548785
0.120613 -77.538838 0.761906 136.55122 0.204647 24.037173 0.147588 31.791005
0.725781 132.104908 0.118674 -79.767409 0.149732 31.093081 0.22507 22.287013
430.0 0.248201 13.378679 0.187697 19.861799 0.128269 -112.847822 0.730592 103.162094
0.185259 20.401471 0.251065 13.835462 0.764947 106.042237 0.130975 -113.348602
0.126247 -112.756003 0.75708 106.143852 0.24988 17.257502 0.17468 21.827555
0.726903 103.027748 0.128082 -114.495522 0.177724 20.939115 0.24758 12.105087
440.0 0.233916 1.275865 0.186521 7.945569 0.127851 -146.882878 0.747893 72.509843
0.183706 9.081362 0.24184 -1.287548 0.765103 75.587677 0.129593 -148.691619
0.126037 -147.235651 0.756255 75.774168 0.263796 6.015157 0.176428 10.319455
0.74483 72.522121 0.1295 -149.861092 0.177482 9.295216 0.240123 2.354507
450.0 0.183095 -4.631835 0.158322 -0.713523 0.124462 -179.623094 0.755674 40.303738
0.156877 1.02053 0.188804 -10.684598 0.768993 44.682941 0.123276 178.347353
0.122917 179.72789 0.761027 45.051764 0.237068 -4.540041 0.154345 0.905291
0.754869 40.377426 0.124229 176.197509 0.153752 0.929522 0.203507 -3.596082
460.0 0.145404 9.563616 0.119442 3.607221 0.119394 150.064322 0.741288 8.055801
0.120647 5.775034 0.131906 0.160532 0.767942 13.298002 0.116707 149.220261
0.117933 149.226039 0.761499 13.665924 0.181423 -5.538777 0.117093 2.628644
0.742488 8.012287 0.115819 146.395669 0.119589 4.091713 0.166935 4.867383
470.0 0.17403 24.59397 0.1193 23.604605 0.118761 122.858365 0.71774 -22.677007
0.122879 24.215432 0.152125 25.543349 0.759994 -17.992283 0.118325 123.213986
0.117786 122.244834 0.753655 -17.652663 0.162006 13.599967 0.113066 22.566055
0.71831 -22.888919 0.115653 121.139979 0.119577 21.645997 0.188247 18.644685
480.0 0.220219 24.232951 0.15761 29.102392 0.127896 94.98066 0.707945 -52.182846
0.159039 28.638022 0.217353 26.025379 0.74849 -48.957241 0.130868 94.615148
0.128284 94.111348 0.7422 -48.661023 0.219985 22.943351 0.15223 28.076466
0.706826 -52.420744 0.128388 93.349974 0.154269 25.545021 0.238739 17.853478
490.0 0.255881 15.962773 0.191643 22.046597 0.14038 62.490388 0.715759 -82.145714
0.190281 21.940997 0.26082 14.408788 0.737154 -79.353213 0.143885 60.771993
0.140697 61.030924 0.729806 -79.083717 0.276584 13.664614 0.184863 19.162739
0.713589 -82.35935 0.14197 59.733266 0.181755 18.082807 0.27126 7.67347
500.0 0.254516 4.020155 0.201331 10.169841 0.145137 27.388387 0.725784 -113.462306
0.199165 10.701606 0.259394 0.115314 0.73435 -109.422223 0.147155 24.962911
0.144256 25.804004 0.726958 -109.078294 0.282173 -0.377017 0.188736 5.987243
0.722413 -113.645513 0.145344 23.929801 0.186562 6.725786 0.257784 -4.66086
510.0 0.211299 -2.34239 0.17645 -0.231968 0.141467 -6.02751 0.722054 -145.503894
0.175207 0.834796 0.210399 -10.274671 0.738458 -139.964653 0.141426 -8.60177
0.139252 -7.254884 0.731951 -139.678352 0.237759 -10.773687 0.159675 -4.083575
0.71778 -145.600185 0.13906 -9.439641 0.161882 -2.677645 0.207122 -9.367729
520.0 0.176307 6.589253 0.134973 1.699783 0.138314 -36.120568 0.704188 -176.875239
0.135884 3.166285 0.149626 -2.039387 0.741054 -171.056463 0.136428 -38.044482
0.135809 -36.410015 0.734041 -170.849893 0.177496 -7.838327 0.122391 -1.340112
0.699877 -176.847661 0.134185 -38.252671 0.1263 -0.742819 0.176345 0.61718
530.0 0.19901 19.036892 0.130997 20.251497 0.141816 -65.502303 0.688851 153.09655
0.13397 20.516948 0.169243 21.691038 0.738404 157.635748 0.140333 -66.27596
0.140938 -65.215536 0.731273 157.804877 0.170785 11.624824 0.113982 14.838754
0.685855 153.275379 0.13947 -66.166384 0.117393 14.89801 0.194649 11.07774
540.0 0.248561 18.026737 0.174652 25.677634 0.147667 -96.666506 0.689239 123.360067
0.175324 25.096424 0.240511 21.044065 0.730139 126.509472 0.148666 -97.064219
0.14794 -96.611305 0.722444 126.611631 0.224846 17.79855 0.141591 24.338304
0.689324 123.557937 0.149131 -97.229148 0.146154 23.933521 0.231294 11.537929
550.0 0.281057 8.964408 0.211329 16.485568 0.15153 -128.150396 0.697412 92.628755
0.209112 16.267731 0.282785 7.763118 0.720513 95.881284 0.154035 -129.26073
0.151482 -128.401047 0.712497 96.014608 0.270391 9.745843 0.17662 19.617952
0.699374 92.613244 0.15487 -129.985465 0.180737 18.709125 0.259224 5.092803
560.0 0.276822 -2.458036 0.214736 3.713626 0.15762 -159.364949 0.698829 61.063059
0.211408 4.196101 0.269846 -7.000567 0.715388 65.663895 0.158006 -161.189964
0.156258 -159.640985 0.708308 65.744597 0.274197 -2.099132 0.189998 8.004167
0.699666 60.882953 0.158074 -162.27922 0.192548 7.352992 0.259412 -4.520776
570.0 0.234901 -9.70861 0.185121 -6.440752 0.164669 167.427994 0.688976 29.644029
0.183306 -5.171952 0.214029 -15.777127 0.717862 35.359081 0.161721 166.262304
0.162045 167.619196 0.710156 35.339425 0.234875 -10.990965 0.170398 -3.274309
0.688692 29.486732 0.16132 165.154163 0.173437 -3.670278 0.224797 -11.336307
580.0 0.193174 -5.859236 0.14006 -5.465131 0.163538 133.254863 0.676732 -0.759104
0.141713 -3.918365 0.156803 -7.521663 0.722831 4.363764 0.160628 133.447467
0.161382 134.026389 0.714919 4.353404 0.180645 -7.444878 0.129368 -4.528073
0.676609 -0.911056 0.160347 132.23968 0.131005 -5.753321 0.185133 -7.531378
590.0 0.188703 5.960902 0.129321 13.031377 0.155933 102.285341 0.676779 -30.634726
0.132316 12.755348 0.171754 13.414678 0.719831 -27.108811 0.156203 103.018351
0.155343 103.002744 0.712374 -27.179488 0.177259 10.106041 0.113531 13.931256
0.676075 -30.872502 0.155925 101.630763 0.111849 14.03287 0.180937 4.743352
600.0 0.228007 10.861814 0.168846 20.719966 0.156459 75.001608 0.685513 -61.411295
0.167773 19.966135 0.231106 13.075592 0.708352 -58.176732 0.159023 74.843113
0.155736 75.058528 0.700638 -58.239052 0.22457 15.71941 0.148444 24.833548
0.682614 -61.677774 0.158627 73.262283 0.15064 26.079338 0.216461 10.50978
610.0 0.261346 3.316514 0.206665 13.075058 0.169469 45.574005 0.686447 -93.038164
0.203006 13.292587 0.259933 1.650603 0.697694 -88.493853 0.17084 44.384987
0.166869 45.521798 0.691427 -88.481783 0.265595 9.885908 0.188575 18.79654
0.681328 -93.135433 0.169825 42.620702 0.194045 19.169171 0.250693 5.210834
620.0 0.252154 -6.148121 0.213232 -0.082369 0.181291 11.816846 0.676128 -124.337477
0.21075 1.070149 0.241997 -10.411516 0.695373 -118.428405 0.180161 10.418262
0.178116 12.129448 0.690916 -118.454207 0.274917 0.127258 0.204228 6.094366
0.671834 -124.13655 0.177854 8.738936 0.209034 5.981905 0.253805 -2.821087
630.0 0.217174 -10.142453 0.178533 -11.388745 0.182256 -23.0234 0.665644 -154.678744
0.180131 -10.00109 0.188115 -15.291283 0.703141 -148.80281 0.179352 -24.298276
0.180009 -22.647262 0.699831 -148.878415 0.244265 -7.494865 0.181533 -6.712265
