! File created by SignalIntegrity v1.4.3: Signal and Power Integrity Tools
! https://github.com/Nubis-Communications/SignalIntegrity
# MHz S MA R 50.0
0.0 0.001257 180.0 0.987173 0.0 0.987173 0.0 0.001257 180.0
10.0 0.00397 81.929957 0.985047 -1.345835 0.985047 -1.345835 0.00397 81.929957
20.0 0.006837 78.463748 0.984042 -2.626115 0.984042 -2.626115 0.006837 78.463748
30.0 0.009488 77.213756 0.983216 -3.895529 0.983216 -3.895529 0.009488 77.213756
40.0 0.012024 76.343044 0.98248 -5.159277 0.98248 -5.159277 0.012024 76.343044
50.0 0.014483 75.545251 0.981801 -6.419369 0.981801 -6.419369 0.014483 75.545251
60.0 0.016885 74.743288 0.98116 -7.67683 0.98116 -7.67683 0.016885 74.743288
70.0 0.019241 73.915669 0.980548 -8.932269 0.980548 -8.932269 0.019241 73.915669
80.0 0.021559 73.05762 0.979958 -10.186077 0.979958 -10.186077 0.021559 73.05762
90.0 0.023843 72.169859 0.979384 -11.438524 0.979384 -11.438524 0.023843 72.169859
100.0 0.026095 71.254845 0.978825 -12.689805 0.978825 -12.689805 0.026095 71.254845
110.0 0.028318 70.315435 0.978276 -13.940063 0.978276 -13.940063 0.028318 70.315435
120.0 0.030513 69.354389 0.977737 -15.18941 0.977737 -15.18941 0.030513 69.354389
130.0 0.03268 68.374205 0.977206 -16.437932 0.977206 -16.437932 0.03268 68.374205
140.0 0.034821 67.377085 0.976682 -17.685698 0.976682 -17.685698 0.034821 67.377085
150.0 0.036935 66.364943 0.976163 -18.932763 0.976163 -18.932763 0.036935 66.364943
160.0 0.039023 65.339443 0.97565 -20.179172 0.97565 -20.179172 0.039023 65.339443
170.0 0.041085 64.302025 0.97514 -21.424963 0.97514 -21.424963 0.041085 64.302025
180.0 0.043119 63.253938 0.974635 -22.670167 0.974635 -22.670167 0.043119 63.253938
190.0 0.045127 62.196274 0.974133 -23.914811 0.974133 -23.914811 0.045127 62.196274
200.0 0.047107 61.129983 0.973635 -25.158916 0.973635 -25.158916 0.047107 61.129983
210.0 0.04906 60.055903 0.973139 -26.402502 0.973139 -26.402502 0.04906 60.055903
220.0 0.050984 58.974769 0.972646 -27.645586 0.972646 -27.645586 0.050984 58.974769
230.0 0.05288 57.887233 0.972156 -28.888181 0.972156 -28.888181 0.05288 57.887233
240.0 0.054746 56.793872 0.971668 -30.130301 0.971668 -30.130301 0.054746 56.793872
250.0 0.056582 55.695201 0.971182 -31.371956 0.971182 -31.371956 0.056582 55.695201
260.0 0.058389 54.591681 0.970699 -32.613158 0.970699 -32.613158 0.058389 54.591681
270.0 0.060164 53.483726 0.970217 -33.853914 0.970217 -33.853914 0.060164 53.483726
280.0 0.061908 52.371706 0.969738 -35.094234 0.969738 -35.094234 0.061908 52.371706
290.0 0.06362 51.255959 0.969261 -36.334125 0.969261 -36.334125 0.06362 51.255959
300.0 0.0653 50.136787 0.968787 -37.573594 0.968787 -37.573594 0.0653 50.136787
310.0 0.066947 49.014468 0.968314 -38.812649 0.968314 -38.812649 0.066947 49.014468
320.0 0.068559 47.889253 0.967844 -40.051296 0.967844 -40.051296 0.068559 47.889253
330.0 0.070138 46.761371 0.967376 -41.289542 0.967376 -41.289542 0.070138 46.761371
340.0 0.071682 45.631034 0.966911 -42.527392 0.966911 -42.527392 0.071682 45.631034
350.0 0.073191 44.498432 0.966448 -43.764854 0.966448 -43.764854 0.073191 44.498432
360.0 0.074664 43.363744 0.965987 -45.001932 0.965987 -45.001932 0.074664 43.363744
370.0 0.076101 42.227134 0.965529 -46.238634 0.965529 -46.238634 0.076101 42.227134
380.0 0.0775 41.088751 0.965074 -47.474967 0.965074 -47.474967 0.0775 41.088751
390.0 0.078863 39.948736 0.964622 -48.710935 0.964622 -48.710935 0.078863 39.948736
400.0 0.080188 38.807217 0.964172 -49.946546 0.964172 -49.946546 0.080188 38.807217
410.0 0.081474 37.664315 0.963726 -51.181807 0.963726 -51.181807 0.081474 37.664315
420.0 0.082722 36.520142 0.963282 -52.416725 0.963282 -52.416725 0.082722 36.520142
430.0 0.083931 35.374801 0.962842 -53.651305 0.962842 -53.651305 0.083931 35.374801
440.0 0.0851 34.228391 0.962405 -54.885557 0.962405 -54.885557 0.0851 34.228391
450.0 0.086229 33.081002 0.961972 -56.119486 0.961972 -56.119486 0.086229 33.081002
460.0 0.087318 31.93272 0.961542 -57.353101 0.961542 -57.353101 0.087318 31.93272
470.0 0.088365 30.783624 0.961115 -58.58641 0.961115 -58.58641 0.088365 30.783624
480.0 0.089372 29.633792 0.960693 -59.81942 0.960693 -59.81942 0.089372 29.633792
490.0 0.090338 28.483292 0.960274 -61.052141 0.960274 -61.052141 0.090338 28.483292
500.0 0.091261 27.332194 0.959859 -62.28458 0.959859 -62.28458 0.091261 27.332194
510.0 0.092142 26.180561 0.959448 -63.516746 0.959448 -63.516746 0.092142 26.180561
520.0 0.092981 25.028453 0.959041 -64.748649 0.959041 -64.748649 0.092981 25.028453
530.0 0.093777 23.875928 0.958639 -65.980297 0.958639 -65.980297 0.093777 23.875928
540.0 0.09453 22.723042 0.958241 -67.2117 0.958241 -67.2117 0.09453 22.723042
550.0 0.09524 21.569846 0.957847 -68.442868 0.957847 -68.442868 0.09524 21.569846
560.0 0.095907 20.416391 0.957457 -69.67381 0.957457 -69.67381 0.095907 20.416391
570.0 0.096529 19.262725 0.957072 -70.904536 0.957072 -70.904536 0.096529 19.262725
580.0 0.097108 18.108897 0.956692 -72.135057 0.956692 -72.135057 0.097108 18.108897
590.0 0.097643 16.95495 0.956316 -73.365383 0.956316 -73.365383 0.097643 16.95495
600.0 0.098133 15.800929 0.955946 -74.595524 0.955946 -74.595524 0.098133 15.800929
610.0 0.098579 14.646878 0.955579 -75.825492 0.955579 -75.825492 0.098579 14.646878
620.0 0.098981 13.492837 0.955218 -77.055296 0.955218 -77.055296 0.098981 13.492837
630.0 0.099338 12.33885 0.954862 -78.284948 0.954862 -78.284948 0.099338 12.33885
640.0 0.09965 11.184956 0.95451 -79.514459 0.95451 -79.514459 0.09965 11.184956
650.0 0.099918 10.031196 0.954163 -80.743841 0.954163 -80.743841 0.099918 10.031196
660.0 0.10014 8.87761 0.953822 -81.973103 0.953822 -81.973103 0.10014 8.87761
670.0 0.100318 7.724239 0.953485 -83.202258 0.953485 -83.202258 0.100318 7.724239
680.0 0.100451 6.571123 0.953153 -84.431317 0.953153 -84.431317 0.100451 6.571123
690.0 0.100539 5.418303 0.952827 -85.660291 0.952827 -85.660291 0.100539 5.418303
700.0 0.100582 4.265819 0.952505 -86.889192 0.952505 -86.889192 0.100582 4.265819
710.0 0.10058 3.113714 0.952188 -88.11803 0.952188 -88.11803 0.10058 3.113714
720.0 0.100533 1.96203 0.951877 -89.346818 0.951877 -89.346818 0.100533 1.96203
730.0 0.100442 0.810812 0.95157 -90.575567 0.95157 -90.575567 0.100442 0.810812
740.0 0.100305 -0.339897 0.951268 -91.804288 0.951268 -91.804288 0.100305 -0.339897
750.0 0.100125 -1.490049 0.950971 -93.032992 0.950971 -93.032992 0.100125 -1.490049
760.0 0.0999 -2.639597 0.950679 -94.261691 0.950679 -94.261691 0.0999 -2.639597
770.0 0.09963 -3.788491 0.950392 -95.490395 0.950392 -95.490395 0.09963 -3.788491
780.0 0.099317 -4.936679 0.950109 -96.719115 0.950109 -96.719115 0.099317 -4.936679
790.0 0.098959 -6.084106 0.949831 -97.947864 0.949831 -97.947864 0.098959 -6.084106
800.0 0.098558 -7.230716 0.949558 -99.17665 0.949558 -99.17665 0.098558 -7.230716
810.0 0.098113 -8.376449 0.949289 -100.405484 0.949289 -100.405484 0.098113 -8.376449
820.0 0.097625 -9.521242 0.949025 -101.634378 0.949025 -101.634378 0.097625 -9.521242
830.0 0.097094 -10.665029 0.948766 -102.863341 0.948766 -102.863341 0.097094 -10.665029
840.0 0.09652 -11.80774 0.94851 -104.092382 0.94851 -104.092382 0.09652 -11.80774
850.0 0.095904 -12.949299 0.948259 -105.321513 0.948259 -105.321513 0.095904 -12.949299
860.0 0.095245 -14.089628 0.948012 -106.550742 0.948012 -106.550742 0.095245 -14.089628
870.0 0.094545 -15.228643 0.947769 -107.780079 0.947769 -107.780079 0.094545 -15.228643
880.0 0.093803 -16.366254 0.947529 -109.009532 0.947529 -109.009532 0.093803 -16.366254
890.0 0.093019 -17.502365 0.947294 -110.23911 0.947294 -110.23911 0.093019 -17.502365
900.0 0.092195 -18.636874 0.947062 -111.468823 0.947062 -111.468823 0.092195 -18.636874
910.0 0.091331 -19.76967 0.946834 -112.698677 0.946834 -112.698677 0.091331 -19.76967
920.0 0.090426 -20.900636 0.946609 -113.92868 0.946609 -113.92868 0.090426 -20.900636
930.0 0.089482 -22.029645 0.946387 -115.158841 0.946387 -115.158841 0.089482 -22.029645
940.0 0.088499 -23.156562 0.946169 -116.389166 0.946169 -116.389166 0.088499 -23.156562
950.0 0.087477 -24.281238 0.945953 -117.619662 0.945953 -117.619662 0.087477 -24.281238
960.0 0.086417 -25.403515 0.94574 -118.850335 0.94574 -118.850335 0.086417 -25.403515
970.0 0.085319 -26.523222 0.94553 -120.081192 0.94553 -120.081192 0.085319 -26.523222
980.0 0.084184 -27.640172 0.945323 -121.312238 0.945323 -121.312238 0.084184 -27.640172
990.0 0.083012 -28.754163 0.945117 -122.543478 0.945117 -122.543478 0.083012 -28.754163
1000.0 0.081804 -29.864977 0.944914 -123.774917 0.944914 -123.774917 0.081804 -29.864977
1010.0 0.080561 -30.972374 0.944713 -125.00656 0.944713 -125.00656 0.080561 -30.972374
1020.0 0.079283 -32.076093 0.944514 -126.238411 0.944514 -126.238411 0.079283 -32.076093
1030.0 0.07797 -33.175851 0.944316 -127.470472 0.944316 -127.470472 0.07797 -33.175851
1040.0 0.076623 -34.271333 0.94412 -128.702748 0.94412 -128.702748 0.076623 -34.271333
1050.0 0.075244 -35.362199 0.943926 -129.935241 0.943926 -129.935241 0.075244 -35.362199
1060.0 0.073832 -36.448071 0.943732 -131.167954 0.943732 -131.167954 0.073832 -36.448071
1070.0 0.072388 -37.528534 0.943539 -132.400888 0.943539 -132.400888 0.072388 -37.528534
1080.0 0.070913 -38.603129 0.943348 -133.634044 0.943348 -133.634044 0.070913 -38.603129
1090.0 0.069408 -39.671347 0.943156 -134.867424 0.943156 -134.867424 0.069408 -39.671347
1100.0 0.067873 -40.732624 0.942966 -136.101029 0.942966 -136.101029 0.067873 -40.732624
1110.0 0.066309 -41.786331 0.942775 -137.334858 0.942775 -137.334858 0.066309 -41.786331
1120.0 0.064717 -42.831764 0.942585 -138.56891 0.942585 -138.56891 0.064717 -42.831764
1130.0 0.063098 -43.868135 0.942394 -139.803186 0.942394 -139.803186 0.063098 -43.868135
1140.0 0.061452 -44.894558 0.942204 -141.037684 0.942204 -141.037684 0.061452 -44.894558
1150.0 0.05978 -45.910033 0.942013 -142.272402 0.942013 -142.272402 0.05978 -45.910033
1160.0 0.058084 -46.913426 0.941821 -143.507338 0.941821 -143.507338 0.058084 -46.913426
1170.0 0.056363 -47.90345 0.941629 -144.742489 0.941629 -144.742489 0.056363 -47.90345
1180.0 0.054619 -48.878633 0.941435 -145.977854 0.941435 -145.977854 0.054619 -48.878633
1190.0 0.052853 -49.837285 0.941241 -147.213427 0.941241 -147.213427 0.052853 -49.837285
1200.0 0.051065 -50.777459 0.941045 -148.449206 0.941045 -148.449206 0.051065 -50.777459
1210.0 0.049257 -51.696899 0.940848 -149.685186 0.940848 -149.685186 0.049257 -51.696899
1220.0 0.04743 -52.592975 0.940649 -150.921362 0.940649 -150.921362 0.04743 -52.592975
1230.0 0.045584 -53.462603 0.940449 -152.157731 0.940449 -152.157731 0.045584 -53.462603
1240.0 0.043721 -54.302144 0.940247 -153.394285 0.940247 -153.394285 0.043721 -54.302144
1250.0 0.041842 -55.107271 0.940042 -154.63102 0.940042 -154.63102 0.041842 -55.107271
1260.0 0.039948 -55.872807 0.939836 -155.867929 0.939836 -155.867929 0.039948 -55.872807
1270.0 0.03804 -56.592498 0.939627 -157.105006 0.939627 -157.105006 0.03804 -56.592498
1280.0 0.036119 -57.258725 0.939416 -158.342245 0.939416 -158.342245 0.036119 -57.258725
1290.0 0.034188 -57.862115 0.939203 -159.579637 0.939203 -159.579637 0.034188 -57.862115
1300.0 0.032247 -58.391011 0.938987 -160.817176 0.938987 -160.817176 0.032247 -58.391011
1310.0 0.030299 -58.830742 0.938768 -162.054854 0.938768 -162.054854 0.030299 -58.830742
1320.0 0.028345 -59.162601 0.938546 -163.292663 0.938546 -163.292663 0.028345 -59.162601
1330.0 0.026387 -59.362385 0.938322 -164.530595 0.938322 -164.530595 0.026387 -59.362385
1340.0 0.024429 -59.398277 0.938094 -165.768641 0.938094 -165.768641 0.024429 -59.398277
1350.0 0.022475 -59.227693 0.937863 -167.006792 0.937863 -167.006792 0.022475 -59.227693
1360.0 0.020527 -58.792511 0.937629 -168.245041 0.937629 -168.245041 0.020527 -58.792511
1370.0 0.018593 -58.011655 0.937392 -169.483376 0.937392 -169.483376 0.018593 -58.011655
1380.0 0.016681 -56.769363 0.937151 -170.72179 0.937151 -170.72179 0.016681 -56.769363
1390.0 0.014801 -54.896288 0.936907 -171.960273 0.936907 -171.960273 0.014801 -54.896288
1400.0 0.012972 -52.139007 0.93666 -173.198815 0.93666 -173.198815 0.012972 -52.139007
1410.0 0.011222 -48.112478 0.936409 -174.437406 0.936409 -174.437406 0.011222 -48.112478
1420.0 0.009597 -42.236244 0.936154 -175.676037 0.936154 -175.676037 0.009597 -42.236244
1430.0 0.008173 -33.69689 0.935896 -176.914697 0.935896 -176.914697 0.008173 -33.69689
1440.0 0.007076 -21.63549 0.935635 -178.153377 0.935635 -178.153377 0.007076 -21.63549
1450.0 0.006473 -6.007382 0.935369 -179.392067 0.935369 -179.392067 0.006473 -6.007382
1460.0 0.006503 11.137848 0.9351 179.369244 0.9351 179.369244 0.006503 11.137848
1470.0 0.007156 26.459249 0.934828 178.130565 0.934828 178.130565 0.007156 26.459249
1480.0 0.008283 38.139862 0.934552 176.891908 0.934552 176.891908 0.008283 38.139862
1490.0 0.009719 46.370046 0.934272 175.65328 0.934272 175.65328 0.009719 46.370046
1500.0 0.011342 52.028087 0.933989 174.414694 0.933989 174.414694 0.011342 52.028087
1510.0 0.013081 55.905838 0.933702 173.176159 0.933702 173.176159 0.013081 55.905838
1520.0 0.01489 58.56117 0.933412 171.937684 0.933412 171.937684 0.01489 58.56117
1530.0 0.016745 60.363156 0.933118 170.699279 0.933118 170.699279 0.016745 60.363156
1540.0 0.018627 61.554921 0.932821 169.460955 0.932821 169.460955 0.018627 61.554921
1550.0 0.020526 62.299268 0.93252 168.22272 0.93252 168.22272 0.020526 62.299268
1560.0 0.022433 62.707761 0.932216 166.984584 0.932216 166.984584 0.022433 62.707761
1570.0 0.024343 62.858721 0.931909 165.746556 0.931909 165.746556 0.024343 62.858721
1580.0 0.026252 62.808427 0.931598 164.508645 0.931598 164.508645 0.026252 62.808427
1590.0 0.028156 62.598196 0.931285 163.270861 0.931285 163.270861 0.028156 62.598196
1600.0 0.030053 62.258958 0.930969 162.033211 0.930969 162.033211 0.030053 62.258958
1610.0 0.03194 61.814282 0.930649 160.795703 0.930649 160.795703 0.03194 61.814282
1620.0 0.033815 61.282414 0.930327 159.558347 0.930327 159.558347 0.033815 61.282414
1630.0 0.035678 60.677683 0.930002 158.32115 0.930002 158.32115 0.035678 60.677683
1640.0 0.037525 60.011489 0.929674 157.084119 0.929674 157.084119 0.037525 60.011489
1650.0 0.039357 59.29301 0.929344 155.847261 0.929344 155.847261 0.039357 59.29301
1660.0 0.041171 58.529715 0.929012 154.610584 0.929012 154.610584 0.041171 58.529715
1670.0 0.042966 57.727741 0.928677 153.374095 0.928677 153.374095 0.042966 57.727741
1680.0 0.044742 56.892174 0.928341 152.137799 0.928341 152.137799 0.044742 56.892174
1690.0 0.046497 56.027267 0.928002 150.901702 0.928002 150.901702 0.046497 56.027267
1700.0 0.04823 55.136603 0.927661 149.66581 0.927661 149.66581 0.04823 55.136603
1710.0 0.049941 54.223218 0.927319 148.430129 0.927319 148.430129 0.049941 54.223218
1720.0 0.051628 53.289708 0.926975 147.194663 0.926975 147.194663 0.051628 53.289708
1730.0 0.05329 52.338298 0.926629 145.959416 0.926629 145.959416 0.05329 52.338298
1740.0 0.054927 51.370913 0.926283 144.724393 0.926283 144.724393 0.054927 51.370913
1750.0 0.056538 50.389222 0.925935 143.489598 0.925935 143.489598 0.056538 50.389222
1760.0 0.058123 49.394684 0.925586 142.255033 0.925586 142.255033 0.058123 49.394684
1770.0 0.059679 48.388574 0.925236 141.020702 0.925236 141.020702 0.059679 48.388574
1780.0 0.061207 47.372017 0.924886 139.786607 0.924886 139.786607 0.061207 47.372017
1790.0 0.062705 46.346008 0.924535 138.552751 0.924535 138.552751 0.062705 46.346008
1800.0 0.064174 45.311428 0.924184 137.319134 0.924184 137.319134 0.064174 45.311428
1810.0 0.065613 44.269063 0.923832 136.085758 0.923832 136.085758 0.065613 44.269063
1820.0 0.06702 43.219614 0.923481 134.852625 0.923481 134.852625 0.06702 43.219614
1830.0 0.068395 42.163712 0.923129 133.619733 0.923129 133.619733 0.068395 42.163712
1840.0 0.069738 41.101923 0.922778 132.387084 0.922778 132.387084 0.069738 41.101923
1850.0 0.071047 40.034758 0.922427 131.154677 0.922427 131.154677 0.071047 40.034758
1860.0 0.072323 38.96268 0.922077 129.922511 0.922077 129.922511 0.072323 38.96268
1870.0 0.073565 37.886108 0.921728 128.690584 0.921728 128.690584 0.073565 37.886108
1880.0 0.074772 36.805425 0.921379 127.458895 0.921379 127.458895 0.074772 36.805425
1890.0 0.075944 35.72098 0.921032 126.227443 0.921032 126.227443 0.075944 35.72098
1900.0 0.07708 34.633091 0.920685 124.996224 0.920685 124.996224 0.07708 34.633091
1910.0 0.07818 33.542052 0.92034 123.765235 0.92034 123.765235 0.07818 33.542052
1920.0 0.079243 32.448133 0.919997 122.534474 0.919997 122.534474 0.079243 32.448133
1930.0 0.080269 31.35158 0.919655 121.303936 0.919655 121.303936 0.080269 31.35158
1940.0 0.081258 30.252625 0.919315 120.073617 0.919315 120.073617 0.081258 30.252625
1950.0 0.082208 29.151479 0.918977 118.843514 0.918977 118.843514 0.082208 29.151479
1960.0 0.08312 28.04834 0.918641 117.613621 0.918641 117.613621 0.08312 28.04834
1970.0 0.083993 26.943394 0.918307 116.383933 0.918307 116.383933 0.083993 26.943394
1980.0 0.084827 25.83681 0.917975 115.154445 0.917975 115.154445 0.084827 25.83681
1990.0 0.085622 24.728751 0.917646 113.92515 0.917646 113.92515 0.085622 24.728751
2000.0 0.086377 23.619368 0.917319 112.696043 0.917319 112.696043 0.086377 23.619368
2010.0 0.087092 22.508803 0.916995 111.467118 0.916995 111.467118 0.087092 22.508803
2020.0 0.087767 21.39719 0.916674 110.238367 0.916674 110.238367 0.087767 21.39719
2030.0 0.088401 20.284657 0.916355 109.009783 0.916355 109.009783 0.088401 20.284657
2040.0 0.088994 19.171326 0.91604 107.78136 0.91604 107.78136 0.088994 19.171326
2050.0 0.089546 18.05731 0.915727 106.553089 0.915727 106.553089 0.089546 18.05731
2060.0 0.090057 16.942721 0.915418 105.324963 0.915418 105.324963 0.090057 16.942721
2070.0 0.090526 15.827665 0.915112 104.096974 0.915112 104.096974 0.090526 15.827665
2080.0 0.090954 14.712244 0.914809 102.869113 0.914809 102.869113 0.090954 14.712244
2090.0 0.091341 13.596555 0.91451 101.641372 0.91451 101.641372 0.091341 13.596555
2100.0 0.091685 12.480696 0.914214 100.413743 0.914214 100.413743 0.091685 12.480696
2110.0 0.091987 11.364758 0.913922 99.186216 0.913922 99.186216 0.091987 11.364758
2120.0 0.092247 10.248834 0.913633 97.958783 0.913633 97.958783 0.092247 10.248834
2130.0 0.092465 9.133014 0.913348 96.731434 0.913348 96.731434 0.092465 9.133014
2140.0 0.092641 8.017384 0.913066 95.504161 0.913066 95.504161 0.092641 8.017384
2150.0 0.092775 6.902034 0.912788 94.276954 0.912788 94.276954 0.092775 6.902034
2160.0 0.092866 5.78705 0.912514 93.049803 0.912514 93.049803 0.092866 5.78705
2170.0 0.092915 4.67252 0.912244 91.8227 0.912244 91.8227 0.092915 4.67252
2180.0 0.092922 3.55853 0.911977 90.595634 0.911977 90.595634 0.092922 3.55853
2190.0 0.092887 2.44517 0.911714 89.368596 0.911714 89.368596 0.092887 2.44517
2200.0 0.092809 1.332527 0.911455 88.141576 0.911455 88.141576 0.092809 1.332527
2210.0 0.09269 0.220692 0.911199 86.914565 0.911199 86.914565 0.09269 0.220692
2220.0 0.092528 -0.890242 0.910948 85.687554 0.910948 85.687554 0.092528 -0.890242
2230.0 0.092325 -2.00018 0.9107 84.460531 0.9107 84.460531 0.092325 -2.00018
2240.0 0.09208 -3.109027 0.910456 83.23349 0.910456 83.23349 0.09208 -3.109027
2250.0 0.091793 -4.216681 0.910215 82.006418 0.910215 82.006418 0.091793 -4.216681
2260.0 0.091465 -5.323039 0.909978 80.779308 0.909978 80.779308 0.091465 -5.323039
2270.0 0.091096 -6.427993 0.909745 79.55215 0.909745 79.55215 0.091096 -6.427993
2280.0 0.090685 -7.531432 0.909515 78.324935 0.909515 78.324935 0.090685 -7.531432
2290.0 0.090234 -8.633238 0.909289 77.097654 0.909289 77.097654 0.090234 -8.633238
2300.0 0.089742 -9.733289 0.909066 75.870298 0.909066 75.870298 0.089742 -9.733289
2310.0 0.08921 -10.831456 0.908847 74.642858 0.908847 74.642858 0.08921 -10.831456
2320.0 0.088638 -11.927605 0.908631 73.415325 0.908631 73.415325 0.088638 -11.927605
2330.0 0.088026 -13.021591 0.908418 72.187692 0.908418 72.187692 0.088026 -13.021591
2340.0 0.087374 -14.113263 0.908209 70.95995 0.908209 70.95995 0.087374 -14.113263
