! File created by SignalIntegrity v1.1.13: Signal and Power Integrity Tools
! https://github.com/TeledyneLeCroy/SignalIntegrity
# MHz S MA R 50.0
0.0 0.014584 0.0 0.992827 0.0 0.996397 0.0 0.002103 180.0
100.0 0.020095 33.603979 0.992469 -14.426934 0.995965 -14.442497 0.010866 84.460345
200.0 0.030802 42.107796 0.991416 -28.845337 0.994695 -28.87687 0.021117 62.356325
300.0 0.042093 40.290055 0.989714 -43.247371 0.99264 -43.295645 0.03082 43.8553
400.0 0.052459 34.678436 0.987446 -57.625941 0.989899 -57.692 0.03961 26.278693
500.0 0.061224 27.336924 0.98471 -71.975858 0.986589 -72.060904 0.047189 9.047935
600.0 0.06787 19.12015 0.981626 -86.293235 0.982853 -86.39848 0.053247 -8.026413
700.0 0.072084 10.415871 0.978316 -100.576796 0.978838 -100.70332 0.05753 -25.040318
800.0 0.073571 1.476212 0.974898 -114.826734 0.974692 -114.975338 0.059784 -42.062706
900.0 0.072233 -7.509135 0.971483 -129.045782 0.970551 -129.216865 0.059827 -59.145338
1000.0 0.068004 -16.330894 0.968153 -143.237795 0.966524 -143.431258 0.057518 -76.378622
1100.0 0.061038 -24.666407 0.964974 -157.408263 0.962702 -157.62344 0.052808 -93.874649
1200.0 0.051574 -31.9413 0.96197 -171.563012 0.959131 -171.798641 0.045741 -111.896622
1300.0 0.040174 -36.771802 0.959151 174.291927 0.955837 174.037706 0.03648 -131.004768
1400.0 0.027883 -35.280071 0.956488 160.151049 0.952802 159.880666 0.025391 -152.987949
1500.0 0.018008 -14.932094 0.953945 146.010002 0.949998 145.726413 0.013433 173.491902
1600.0 0.01925 26.019917 0.951464 131.865428 0.947367 131.572044 0.008253 77.98197
1700.0 0.030948 42.300793 0.948994 117.715835 0.944854 117.416444 0.019825 17.324478
1800.0 0.045085 41.974034 0.946483 103.560537 0.942395 103.25921 0.034265 -8.80385
1900.0 0.0588 35.859336 0.943892 89.400586 0.939939 89.101582 0.0485 -28.981715
2000.0 0.070836 27.316073 0.9412 75.237186 0.937444 74.94484 0.061548 -47.257474
2100.0 0.08044 17.499865 0.938397 61.072591 0.934882 60.791209 0.072679 -64.658939
2200.0 0.086981 6.922649 0.935493 46.908591 0.932242 46.642332 0.081248 -81.571427
2300.0 0.090083 -4.182279 0.932503 32.747291 0.929516 32.500066 0.086726 -98.139136
2400.0 0.089446 -15.698722 0.929458 18.590171 0.926715 18.36554 0.088718 -114.435063
2500.0 0.085038 -27.575434 0.926381 4.438572 0.923848 4.239655 0.08698 -130.454577
2600.0 0.076923 -39.843221 0.923309 -9.706475 0.920936 -9.877069 0.081466 -146.157596
2700.0 0.065429 -52.593567 0.920267 -23.844331 0.917996 -23.984569 0.0723 -161.405886
2800.0 0.051004 -66.18739 0.917289 -37.974274 0.915057 -38.082736 0.059845 -175.888702
2900.0 0.034341 -81.697476 0.914402 -52.096319 0.912148 -52.172228 0.044656 171.246863
3000.0 0.016515 -105.440003 0.911638 -66.210334 0.909305 -66.253564 0.027693 163.139769
3100.0 0.007243 141.541159 0.909026 -80.317426 0.906565 -80.328498 0.011874 -178.854283
3200.0 0.023803 86.54077 0.90659 -94.418783 0.903965 -94.398836 0.015894 -106.644468
3300.0 0.041576 67.650664 0.904345 -108.517066 0.901535 -108.467825 0.03313 -102.049484
3400.0 0.057702 52.777437 0.902289 -122.615027 0.899287 -122.538742 0.050279 -112.000198
3500.0 0.071274 39.025321 0.900403 -136.71629 0.897221 -136.615669 0.065376 -125.145437
3600.0 0.081553 25.735244 0.898639 -150.823943 0.895302 -150.702063 0.077444 -139.427838
3700.0 0.088045 12.637124 0.896934 -164.940473 0.893482 -164.800682 0.085751 -154.183519
3800.0 0.090348 -0.381103 0.8952 -179.066841 0.891683 -178.912648 0.089817 -169.128626
3900.0 0.088344 -13.393353 0.893353 166.798121 0.889828 166.96316 0.089355 175.912816
4000.0 0.082033 -26.466624 0.891307 152.657475 0.887835 152.829873 0.084356 161.093494
4100.0 0.071712 -39.664858 0.88901 138.516722 0.885651 138.693187 0.075021 146.608921
4200.0 0.057806 -53.160268 0.886442 124.382084 0.883249 124.559629 0.061827 132.841304
4300.0 0.040998 -67.335769 0.883632 110.26068 0.880649 110.43674 0.045479 120.746183
4400.0 0.022118 -84.175366 0.880653 96.157861 0.877912 96.330393 0.027123 114.08853
4500.0 0.003697 -152.116281 0.877613 82.077392 0.875131 82.244969 0.010856 142.350694
4600.0 0.019161 88.840486 0.874642 68.01918 0.872418 68.181057 0.019319 -148.650319
4700.0 0.038812 70.912778 0.871856 53.980138 0.869875 54.136308 0.038586 -148.17307
4800.0 0.056896 56.515869 0.869352 39.953552 0.867583 40.104751 0.05728 -158.611221
4900.0 0.072478 42.911004 0.867168 25.930771 0.86557 26.078462 0.073642 -171.634846
5000.0 0.084739 29.609819 0.865295 11.902406 0.863816 12.048713 0.086685 174.40087
5100.0 0.093085 16.414718 0.863653 -2.13994 0.862237 -1.992342 0.095653 160.045149
5200.0 0.09701 3.250596 0.862125 -16.201608 0.860715 -16.049638 0.10006 145.560121
5300.0 0.096305 -9.937124 0.860561 -30.284455 0.859104 -30.124805 0.099636 131.104813
5400.0 0.090888 -23.199545 0.85882 -44.385354 0.857269 -44.214689 0.094398 116.838513
5500.0 0.081006 -36.587039 0.85679 -58.497971 0.855109 -58.313142 0.084598 102.950599
5600.0 0.067053 -50.242755 0.854417 -72.612631 0.852583 -72.410872 0.070743 89.81308
5700.0 0.049708 -64.462867 0.851715 -86.719747 0.849718 -86.498873 0.053597 78.279958
5800.0 0.029809 -80.579151 0.848756 -100.810436 0.846604 -100.568993 0.034308 71.307504
5900.0 0.008802 -112.634344 0.845669 -114.879641 0.843381 -114.617036 0.016022 86.09085
6000.0 0.015003 96.311709 0.84259 -128.926119 0.8402 -128.642683 0.017529 155.623668
6100.0 0.036645 74.136767 0.839657 -142.953379 0.837206 -142.650405 0.036673 166.296281
6200.0 0.057107 58.838008 0.836954 -156.968445 0.834491 -156.648147 0.056584 158.91019
6300.0 0.075244 44.728307 0.834522 -170.98027 0.832101 -170.645705 0.074511 147.639496
6400.0 0.090112 31.0105 0.832326 175.001936 0.829999 175.347006 0.089311 135.084713
6500.0 0.100996 17.406767 0.830285 160.971531 0.828103 161.32282 0.100183 122.053029
6600.0 0.107269 3.808577 0.828282 146.924931 0.826287 147.277835 0.1066 108.929643
6700.0 0.108615 -9.860163 0.826196 132.863698 0.824425 133.213533 0.108278 95.948033
6800.0 0.104867 -23.67528 0.823939 118.792605 0.822415 119.134821 0.105192 83.346585
6900.0 0.096223 -37.725665 0.821473 104.719829 0.820209 105.050226 0.097591 71.412859
7000.0 0.083061 -52.221518 0.81883 90.65317 0.817827 90.968053 0.085993 60.64864
7100.0 0.066091 -67.5787 0.816094 76.599209 0.815343 76.895514 0.071291 52.012222
7200.0 0.046249 -85.141948 0.813396 62.560191 0.812877 62.835525 0.054961 47.693345
7300.0 0.025105 -110.754901 0.810856 48.534071 0.810547 48.786716 0.040023 52.816608
7400.0 0.011114 167.473674 0.808581 34.514265 0.80845 34.74311 0.03313 73.497298
7500.0 0.026693 93.227652 0.806602 20.491243 0.806619 20.695689 0.040199 94.274174
7600.0 0.047842 68.729007 0.804893 6.455133 0.805025 6.634961 0.055473 99.727314
7700.0 0.067532 51.301762 0.803343 -7.602416 0.803559 -7.447178 0.072345 95.937915
7800.0 0.084232 35.840064 0.801802 -21.68475 0.802069 -21.553947 0.087833 88.072284
7900.0 0.097021 21.113437 0.800093 -35.790173 0.800384 -35.683625 0.100476 78.312474
8000.0 0.105145 6.700902 0.798071 -49.910091 0.798356 -49.82764 0.1094 67.659574
8100.0 0.108209 -7.608243 0.795653 -64.032137 0.795905 -63.973664 0.114088 56.630705
8200.0 0.105996 -21.958285 0.792845 -78.141012 0.793038 -78.10638 0.114258 45.588134
8300.0 0.098688 -36.482261 0.789756 -92.223547 0.789863 -92.212521 0.109911 34.855165
8400.0 0.086663 -51.429748 0.786564 -106.270548 0.786558 -106.282647 0.101295 24.854978
8500.0 0.070651 -67.248495 0.783497 -120.280236 0.783351 -120.314588 0.089048 16.256769
8600.0 0.051624 -85.237653 0.780761 -134.258359 0.780447 -134.313531 0.074277 10.30042
8700.0 0.031184 -110.029398 0.778517 -148.217475 0.778008 -148.291329 0.059039 9.413871
8800.0 0.015149 -168.75477 0.776826 -162.174768 0.776095 -162.264351 0.047207 17.471547
8900.0 0.023813 108.26927 0.775648 -176.147873 0.774674 -176.249366 0.044771 34.016754
9000.0 0.043732 76.795315 0.774838 169.847612 0.773602 169.738869 0.053651 46.614039
9100.0 0.063239 57.264079 0.774178 155.80285 0.77267 155.692272 0.068698 49.20437
9200.0 0.080062 40.984634 0.77342 141.715893 0.77164 141.609459 0.084944 45.175769
9300.0 0.093117 25.980367 0.772334 127.59395 0.770291 127.497969 0.09968 37.639598
9400.0 0.101595 11.626011 0.770764 113.449847 0.76848 113.370637 0.111312 28.227317
9500.0 0.105094 -2.34772 0.768646 99.300941 0.766156 99.244494 0.118843 17.778061
9600.0 0.103395 -16.070843 0.766039 85.163698 0.763385 85.135293 0.121584 6.788968
9700.0 0.096678 -29.602592 0.763078 71.051443 0.760314 71.055295 0.119201 -4.372351
9800.0 0.085283 -43.016322 0.759972 56.970961 0.757155 57.009876 0.111644 -15.344303
9900.0 0.069859 -56.341942 0.75692 42.921884 0.75411 42.996995 0.099266 -25.621684
10000.0 0.051161 -69.730696 0.754102 28.897594 0.751358 29.008172 0.082822 -34.320779
10100.0 0.030126 -83.47786 0.751618 14.886539 0.748993 15.029923 0.063758 -39.445479
10200.0 0.007801 -102.006416 0.749496 0.876362 0.747032 1.048025 0.045038 -35.864142
10300.0 0.014957 76.58587 0.747678 -13.144806 0.745408 -12.951066 0.034309 -13.979904
10400.0 0.036769 61.538102 0.746055 -27.183865 0.743994 -26.975582 0.041397 12.220083
10500.0 0.056767 48.266733 0.744492 -41.243609 0.742641 -41.029215 0.059805 19.403892
10600.0 0.073937 35.422984 0.742866 -55.320419 0.741203 -55.108707 0.08024 15.458238
10700.0 0.08753 22.796698 0.741097 -69.407782 0.739588 -69.207355 0.098848 6.89436
10800.0 0.096878 10.377562 0.739159 -83.49656 0.737751 -83.315264 0.113715 -3.810408
10900.0 0.101679 -1.816752 0.737093 -97.579107 0.735726 -97.42355 0.123699 -15.612244
11000.0 0.101743 -13.74389 0.73497 -111.650277 0.733576 -111.525417 0.128056 -27.994491
11100.0 0.097256 -25.308408 0.73289 -125.709106 0.731403 -125.617989 0.126462 -40.619349
11200.0 0.088501 -36.388423 0.730928 -139.758891 0.729286 -139.702514 0.118932 -53.215506
11300.0 0.076076 -46.671392 0.729134 -153.805354 0.727285 -153.782688 0.105874 -65.42702
11400.0 0.060684 -55.562968 0.727498 -167.856155 0.725407 -167.864316 0.088065 -76.671465
11500.0 0.043383 -61.259996 0.725972 178.082995 0.723623 178.048459 0.066739 -85.559027
11600.0 0.025998 -57.372582 0.724468 164.007816 0.721866 163.952505 0.044058 -87.886739
11700.0 0.015568 -17.992813 0.722886 149.91903 0.720057 149.849223 0.026128 -67.869552
11800.0 0.024769 23.723719 0.721142 135.81981 0.718134 135.741909 0.029724 -24.845105
11900.0 0.041016 28.827581 0.71918 121.717463 0.716058 121.637476 0.049447 -14.35546
12000.0 0.056708 23.903571 0.717003 107.619462 0.713848 107.542475 0.070625 -19.852615
12100.0 0.070157 15.923851 0.714652 93.533391 0.711551 93.463161 0.089128 -30.33922
12200.0 0.080492 6.781512 0.712222 79.463745 0.709266 79.402375 0.103306 -42.883918
12300.0 0.087345 -2.806302 0.709815 65.411438 0.707087 65.359226 0.112279 -56.45165
12400.0 0.09043 -12.495281 0.707541 51.373457 0.705115 51.328892 0.115597 -70.615844
12500.0 0.089811 -22.029938 0.705473 37.342702 0.703405 37.302636 0.113193 -85.134913
12600.0 0.085593 -31.219428 0.703653 23.31076 0.701978 23.270722 0.105341 -99.881582
12700.0 0.078175 -39.749124 0.702064 9.267565 0.700794 9.222186 0.092591 -114.723272
12800.0 0.068015 -47.208867 0.700651 -4.794212 0.699774 -4.850689 0.075776 -129.512169
12900.0 0.05587 -52.659234 0.699322 -18.880642 0.698802 -18.95385 0.055881 -143.890605
13000.0 0.042776 -54.206965 0.697969 -32.992528 0.697749 -33.08745 0.034107 -156.652993
13100.0 0.030758 -47.051425 0.696496 -47.128319 0.696501 -47.248866 0.012028 -157.725143
13200.0 0.024229 -24.341857 0.694819 -61.281823 0.694962 -61.430458 0.012146 -39.389496
13300.0 0.028068 1.774049 0.692905 -75.445727 0.693092 -75.62324 0.032383 -41.459398
13400.0 0.038592 12.51506 0.690747 -89.61126 0.690883 -89.816636 0.050671 -55.060918
13500.0 0.05069 13.072718 0.688398 -103.770688 0.688394 -104.001129 0.06588 -70.610913
13600.0 0.061994 9.120983 0.685922 -117.918382 0.685699 -118.169442 0.077461 -86.979958
13700.0 0.071583 3.103386 0.683419 -132.050886 0.682913 -132.316731 0.085137 -103.825618
13800.0 0.078821 -3.929836 0.680974 -146.168804 0.680139 -146.44258 0.088904 -121.050678
13900.0 0.083483 -11.422315 0.678673 -160.27415 0.677481 -160.548418 0.088924 -138.589366
14000.0 0.085324 -19.083066 0.676566 -174.372757 0.675012 -174.640012 0.085578 -156.420374
14100.0 0.08439 -26.63775 0.674681 171.530214 0.672776 171.277052 0.079283 -174.517828
14200.0 0.080687 -33.892586 0.67301 157.427535 0.670784 157.194604 0.070574 167.158738
14300.0 0.074482 -40.48751 0.671511 143.314732 0.669007 143.106826 0.059919 148.645181
14400.0 0.066061 -45.995658 0.670131 129.187368 0.667405 129.007568 0.047796 130.053417
14500.0 0.056035 -49.454722 0.66879 115.044598 0.665901 114.894087 0.034586 111.496726
14600.0 0.045313 -49.215805 0.667426 100.886998 0.664438 100.764952 0.02062 93.425396
14700.0 0.035772 -41.913572 0.665966 86.717692 0.662941 86.621338 0.006211 78.997946
14800.0 0.030816 -24.823698 0.664381 72.541388 0.661375 72.466154 0.008513 -130.293673
14900.0 0.033862 -5.255548 0.662643 58.362724 0.659707 58.302493 0.023072 -145.634593
15000.0 0.043276 5.270295 0.66077 44.187179 0.657947 44.134613 0.037282 -162.818985
15100.0 0.055402 7.323782 0.658786 30.017254 0.65611 29.964139 0.050723 -179.897638
15200.0 0.067725 4.566567 0.656739 15.855604 0.654236 15.793249 0.063015 163.448638
15300.0 0.079013 -0.764116 0.654671 1.700329 0.65236 1.619914 0.073675 147.313273
15400.0 0.088271 -7.575705 0.652616 -12.450027 0.65051 -12.557057 0.082279 131.805444
15500.0 0.094964 -15.232976 0.650597 -26.600713 0.648703 -26.742353 0.088401 116.966642
15600.0 0.09849 -23.408605 0.648599 -40.75519 0.646921 -40.938532 0.091706 102.918536
15700.0 0.098598 -31.781452 0.646605 -54.917987 0.645143 -55.14899 0.091988 89.765139
15800.0 0.095008 -40.143529 0.644558 -69.090561 0.643309 -69.373795 0.08917 77.746895
15900.0 0.087801 -48.088835 0.642429 -83.272578 0.641386 -83.611061 0.083442 67.199178
16000.0 0.077165 -55.145076 0.640169 -97.461287 0.639322 -97.856336 0.07522 58.769719
16100.0 0.063751 -60.133641 0.637787 -111.651333 0.63712 -112.102475 0.065464 53.544915
16200.0 0.048785 -60.679501 0.635299 -125.838459 0.634793 -126.343401 0.055841 53.333388
16300.0 0.035307 -50.559994 0.632779 -140.017407 0.632409 -140.572036 0.049409 59.848043
16400.0 0.030541 -23.953405 0.630309 -154.188518 0.630043 -154.786995 0.04985 70.9645
16500.0 0.039908 -1.251714 0.627982 -168.35278 0.627783 -168.98764 0.058366 79.448965
16600.0 0.056604 4.75844 0.625875 177.4815 0.6257 176.819142 0.072362 81.689917
16700.0 0.074825 2.090204 0.624014 163.306434 0.623816 162.626677 0.088758 78.95294
16800.0 0.091745 -4.474655 0.622388 149.110027 0.622116 148.423884 0.10528 73.231915
16900.0 0.106012 -12.947775 0.620899 134.884488 0.620503 134.203576 0.120438 65.807873
17000.0 0.116382 -22.520098 0.619437 120.624355 0.618867 119.96052 0.133044 57.48455
17100.0 0.122173 -32.68188 0.617825 106.331486 0.617038 105.696404 0.1423 48.748148
17200.0 0.122686 -43.21446 0.615944 92.014858 0.614905 91.419614 0.14752 39.973476
17300.0 0.117731 -53.795823 0.613681 77.68851 0.612367 77.143133 0.148413 31.485269
17400.0 0.107263 -64.243361 0.611045 63.372157 0.609447 62.885196 0.144847 23.65256
17500.0 0.091694 -74.014743 0.608104 49.081609 0.606231 48.659666 0.137261 16.974505
17600.0 0.071785 -82.32241 0.605034 34.831762 0.602912 34.47915 0.126557 12.153206
17700.0 0.048852 -86.265062 0.60205 20.623885 0.599719 20.34227 0.114739 10.174055
17800.0 0.026563 -73.75733 0.599363 6.453871 0.59688 6.242146 0.104928 11.947201
17900.0 0.022954 -15.406667 0.597151 -7.697845 0.594583 -7.843679 0.10139 17.189871
18000.0 0.044855 6.58157 0.595469 -21.853093 0.592891 -21.939722 0.107084 23.095882
18100.0 0.071063 4.41876 0.594295 -36.040609 0.591789 -36.077206 0.121489 26.25966
18200.0 0.095849 -3.6215 0.593433 -50.282899 0.59108 -50.280583 0.141009 25.519385
18300.0 0.117503 -13.723721 0.592655 -64.595886 0.590536 -64.567248 0.161922 21.578595
18400.0 0.134358 -24.850816 0.591614 -78.983165 0.589805 -78.941545 0.181088 15.477563
18500.0 0.145583 -36.423878 0.590058 -93.432791 0.588627 -93.391681 0.196448 8.077426
18600.0 0.150208 -48.295688 0.587745 -107.924945 0.586747 -107.897323 0.206386 -0.027173
18700.0 0.148017 -60.130262 0.584632 -122.426564 0.584108 -122.424352 0.210094 -8.335323
18800.0 0.138963 -71.889803 0.580778 -136.911869 0.580756 -136.945521 0.20711 -16.435916
18900.0 0.123498 -83.134705 0.576399 -151.351092 0.57689 -151.429224 0.197837 -23.795278
19000.0 0.10254 -93.623158 0.57179 -165.735803 0.572793 -165.865119 0.183333 -29.813841
19100.0 0.077109 -101.996942 0.567228 179.94173 0.568728 179.756588 0.165934 -33.57771
19200.0 0.049457 -104.932075 0.563012 165.666721 0.564986 165.42294 0.149246 -34.195513
19300.0 0.0252 -82.999968 0.559248 151.427498 0.561662 151.124035 0.13831 -31.214852
19400.0 0.029999 -24.283829 0.556082 137.202044 0.558895 136.839184 0.137584 -26.292247
19500.0 0.057005 -12.637319 0.553381 122.976624 0.556543 122.555754 0.148033 -22.547343
19600.0 0.084922 -18.038579 0.551174 108.745737 0.55463 108.268827 0.165893 -22.292329
19700.0 0.110422 -27.483551 0.54922 94.506604 0.552908 93.975892 0.186199 -25.410449
19800.0 0.13054 -39.072281 0.547616 80.284303 0.551471 79.701851 0.204292 -31.179565
19900.0 0.145235 -51.132158 0.546224 66.076203 0.550176 65.443592 0.217352 -38.464903
20000.0 0.152616 -65.343298 0.54541 51.958392 0.549392 51.276555 0.222981 -47.035568
