! File created by SignalIntegrity v1.1.13: Signal and Power Integrity Tools
! https://github.com/TeledyneLeCroy/SignalIntegrity
# MHz S MA R 50.0
0.0 0.017334 0.0 0.997512 0.0 1.001109 0.0 0.004889 0.0
10.0 0.017334 -5.390577 0.997568 0.03167 1.001165 0.030125 0.00506 -14.835379
20.0 0.017336 -10.758883 0.997736 0.06217 1.001331 0.05908 0.005539 -27.774634
30.0 0.017339 -16.082978 0.998009 0.090385 1.001601 0.085749 0.006242 -38.028604
40.0 0.017344 -21.341583 0.998376 0.1153 1.001964 0.109118 0.00709 -45.773088
50.0 0.017351 -26.514441 0.998826 0.136048 1.002409 0.128318 0.008017 -51.522302
60.0 0.017362 -31.582682 0.999341 0.151944 1.002918 0.142666 0.00898 -55.769693
70.0 0.017377 -36.529229 0.999905 0.162518 1.003474 0.15169 0.009952 -58.891871
80.0 0.017397 -41.339221 1.000499 0.167526 1.004059 0.155146 0.010911 -61.155358
90.0 0.017425 -46.00045 1.001103 0.16696 1.004652 0.153024 0.011848 -62.745092
100.0 0.017464 -50.503808 1.001699 0.161034 1.005237 0.145541 0.012754 -63.790211
110.0 0.017516 -54.843689 1.002272 0.150171 1.005797 0.133118 0.013628 -64.382948
120.0 0.017584 -59.018318 1.002808 0.134968 1.006317 0.11635 0.014469 -64.591654
130.0 0.017671 -63.029951 1.003294 0.116155 1.006787 0.095968 0.01528 -64.469619
140.0 0.01778 -66.884888 1.003725 0.094554 1.007199 0.072793 0.016067 -64.061004
150.0 0.017915 -70.593248 1.004095 0.071022 1.00755 0.047682 0.016834 -63.40473
160.0 0.018077 -74.168498 1.004404 0.046407 1.007838 0.021481 0.017589 -62.536899
170.0 0.018269 -77.626722 1.004656 0.021497 1.008067 -0.005021 0.018337 -61.49206
180.0 0.018491 -80.985697 1.004857 -0.003018 1.008242 -0.031136 0.019087 -60.303634
190.0 0.018744 -84.263842 1.005013 -0.026583 1.008373 -0.056307 0.019841 -59.003682
200.0 0.019026 -87.479157 1.005136 -0.048794 1.008468 -0.080133 0.020605 -57.622288
210.0 0.019335 -90.648249 1.005236 -0.069416 1.008539 -0.102378 0.021379 -56.186752
220.0 0.019669 -93.785534 1.005323 -0.088376 1.008595 -0.122969 0.022165 -54.7208
230.0 0.020023 -96.902686 1.005408 -0.105758 1.008648 -0.141992 0.022961 -53.243979
240.0 0.020394 -100.008332 1.005499 -0.12178 1.008706 -0.159664 0.023763 -51.771308
250.0 0.020776 -103.108001 1.005602 -0.136767 1.008775 -0.176311 0.024568 -50.313235
260.0 0.021165 -106.204272 1.005724 -0.151119 1.008861 -0.192331 0.025371 -48.875867
270.0 0.021557 -109.297082 1.005867 -0.165272 1.008967 -0.208164 0.026166 -47.461417
280.0 0.021946 -112.38414 1.006031 -0.179669 1.009092 -0.22425 0.026947 -46.068807
290.0 0.022329 -115.461398 1.006214 -0.194721 1.009236 -0.241001 0.02771 -44.694348
300.0 0.022703 -118.523548 1.006412 -0.210779 1.009393 -0.258768 0.02845 -43.332451
310.0 0.023065 -121.564514 1.006621 -0.228111 1.00956 -0.277819 0.029163 -41.976323
320.0 0.023413 -124.577933 1.006834 -0.246885 1.009731 -0.298325 0.029846 -40.618618
330.0 0.023746 -127.557602 1.007045 -0.267164 1.009897 -0.320346 0.030499 -39.252033
340.0 0.024065 -130.49788 1.007247 -0.288903 1.010054 -0.343838 0.031121 -37.869821
350.0 0.02437 -133.394053 1.007435 -0.311958 1.010195 -0.368656 0.031713 -36.466237
360.0 0.024662 -136.242627 1.007604 -0.3361 1.010316 -0.394575 0.032276 -35.036873
370.0 0.024943 -139.041561 1.007749 -0.36104 1.010412 -0.421302 0.032814 -33.578907
380.0 0.025216 -141.790405 1.00787 -0.386448 1.010482 -0.44851 0.033329 -32.091223
390.0 0.025482 -144.490349 1.007965 -0.411983 1.010526 -0.475856 0.033826 -30.574423
400.0 0.025745 -147.144168 1.008036 -0.437316 1.010544 -0.503014 0.034306 -29.030715
410.0 0.026007 -149.756066 1.008086 -0.462159 1.010541 -0.529694 0.034774 -27.463683
420.0 0.02627 -152.331414 1.008119 -0.486279 1.010518 -0.555664 0.035232 -25.877972
430.0 0.026535 -154.876427 1.008139 -0.509516 1.010482 -0.580763 0.035681 -24.278893
440.0 0.026803 -157.397769 1.008151 -0.531792 1.010438 -0.604914 0.036122 -22.671998
450.0 0.027073 -159.902152 1.008161 -0.553108 1.01039 -0.628118 0.036555 -21.062661
460.0 0.027347 -162.395933 1.008174 -0.573546 1.010344 -0.650457 0.036979 -19.455684
470.0 0.027621 -164.884758 1.008193 -0.593255 1.010303 -0.672079 0.037392 -17.854986
480.0 0.027895 -167.373274 1.008221 -0.612434 1.010271 -0.693185 0.037791 -16.263365
490.0 0.028166 -169.864926 1.008261 -0.631319 1.010249 -0.714008 0.038174 -14.682377
500.0 0.028431 -172.36184 1.008313 -0.650155 1.010239 -0.734797 0.038537 -13.112301
510.0 0.028689 -174.86481 1.008376 -0.669184 1.010239 -0.75579 0.038878 -11.55221
520.0 0.028937 -177.373365 1.008449 -0.688618 1.010248 -0.7772 0.039193 -10.000115
530.0 0.029172 -179.88591 1.008529 -0.708626 1.010262 -0.799198 0.039481 -8.453183
540.0 0.029392 177.600066 1.008611 -0.729322 1.010279 -0.821895 0.03974 -6.907985
550.0 0.029595 175.087746 1.008693 -0.750755 1.010295 -0.845341 0.039969 -5.360786
560.0 0.029782 172.580714 1.00877 -0.772907 1.010304 -0.869518 0.040167 -3.807831
570.0 0.029951 170.082664 1.008838 -0.795698 1.010305 -0.894346 0.040336 -2.245621
580.0 0.030103 167.597125 1.008895 -0.818989 1.010293 -0.919686 0.040477 -0.671167
590.0 0.030239 165.127202 1.008937 -0.8426 1.010267 -0.945357 0.040591 0.917812
600.0 0.030359 162.675345 1.008965 -0.866319 1.010224 -0.971148 0.040682 2.522734
610.0 0.030466 160.243175 1.008976 -0.889923 1.010166 -0.996835 0.04075 4.144079
620.0 0.030561 157.831361 1.008972 -0.913195 1.010091 -1.022201 0.040799 5.781379
630.0 0.030647 155.439568 1.008955 -0.935938 1.010003 -1.047048 0.040832 7.433288
640.0 0.030725 153.066469 1.008928 -0.957991 1.009903 -1.071218 0.040848 9.097718
650.0 0.030797 150.709835 1.008892 -0.979243 1.009796 -1.094596 0.040851 10.772034
660.0 0.030864 148.366682 1.008853 -0.999634 1.009684 -1.117123 0.040841 12.453289
670.0 0.030928 146.033481 1.008813 -1.019162 1.00957 -1.138797 0.040817 14.138485
680.0 0.030989 143.706394 1.008776 -1.037878 1.00946 -1.159668 0.040779 15.824824
690.0 0.031047 141.381537 1.008744 -1.055881 1.009354 -1.179836 0.040725 17.509946
700.0 0.031101 139.055237 1.008721 -1.073309 1.009256 -1.199438 0.040655 19.19212
710.0 0.03115 136.724267 1.008706 -1.090324 1.009167 -1.218636 0.040567 20.870382
720.0 0.031194 134.38604 1.0087 -1.107099 1.009087 -1.237601 0.040457 22.544608
730.0 0.03123 132.038755 1.008704 -1.123802 1.009015 -1.256501 0.040325 24.21552
740.0 0.031256 129.681477 1.008715 -1.140583 1.008951 -1.275487 0.040169 25.884632
750.0 0.031271 127.314155 1.008732 -1.15756 1.008893 -1.294676 0.039987 27.554134
760.0 0.031274 124.937574 1.008753 -1.174812 1.008837 -1.314147 0.039779 29.226733
770.0 0.031262 122.553261 1.008773 -1.192371 1.008782 -1.33393 0.039544 30.905456
780.0 0.031235 120.16333 1.00879 -1.210221 1.008723 -1.35401 0.039283 32.593437
790.0 0.031192 117.770303 1.008802 -1.228297 1.008659 -1.374321 0.038997 34.293699
800.0 0.031133 115.376905 1.008807 -1.246495 1.008588 -1.394759 0.038687 36.008945
810.0 0.031058 112.985841 1.008802 -1.264678 1.008507 -1.415186 0.038354 37.741375
820.0 0.030969 110.599592 1.008787 -1.282685 1.008416 -1.435442 0.038002 39.49255
830.0 0.030865 108.22022 1.008761 -1.300351 1.008314 -1.455359 0.037632 41.263294
840.0 0.030749 105.849199 1.008725 -1.317513 1.008202 -1.474775 0.037246 43.053673
850.0 0.030622 103.4873 1.008681 -1.334025 1.008083 -1.493544 0.036846 44.863024
860.0 0.030486 101.13451 1.008631 -1.34977 1.007956 -1.511548 0.036434 46.69006
870.0 0.030342 98.790023 1.008576 -1.364667 1.007826 -1.528706 0.03601 48.533021
880.0 0.030192 96.452273 1.00852 -1.378678 1.007695 -1.544979 0.035576 50.38988
890.0 0.030038 94.119029 1.008466 -1.391807 1.007565 -1.56037 0.035132 52.25857
900.0 0.029879 91.787545 1.008415 -1.4041 1.00744 -1.574925 0.034677 54.137229
910.0 0.029718 89.454734 1.00837 -1.415641 1.007321 -1.588728 0.034209 56.024425
920.0 0.029553 87.117375 1.008333 -1.426541 1.007209 -1.601888 0.033729 57.919362
930.0 0.029384 84.772324 1.008304 -1.43693 1.007106 -1.614535 0.033235 59.822032
940.0 0.029211 82.41672 1.008284 -1.446945 1.007013 -1.626806 0.032726 61.733318
950.0 0.029034 80.048159 1.008273 -1.456719 1.006928 -1.638832 0.0322 63.655028
960.0 0.02885 77.664833 1.008268 -1.466368 1.00685 -1.650731 0.031657 65.589866
970.0 0.028659 75.265625 1.008269 -1.475984 1.006778 -1.662592 0.031096 67.541348
980.0 0.028459 72.850147 1.008273 -1.485627 1.00671 -1.674475 0.030517 69.513652
990.0 0.028249 70.418721 1.008278 -1.495318 1.006644 -1.686401 0.029921 71.511439
1000.0 0.028029 67.972319 1.008282 -1.505041 1.006577 -1.698353 0.029309 73.539634
1010.0 0.027798 65.512441 1.008282 -1.514744 1.006507 -1.710279 0.028683 75.603198
1020.0 0.027556 63.040974 1.008277 -1.524342 1.006432 -1.722091 0.028043 77.706902
1030.0 0.027302 60.560014 1.008266 -1.533725 1.006351 -1.733682 0.027393 79.855128
1040.0 0.027037 58.071672 1.008248 -1.54277 1.006264 -1.744926 0.026735 82.051698
1050.0 0.026762 55.577892 1.008223 -1.551347 1.006171 -1.755694 0.026071 84.29978
1060.0 0.026478 53.080263 1.008191 -1.559334 1.006072 -1.765862 0.025403 86.601851
1070.0 0.026186 50.579863 1.008155 -1.566623 1.005969 -1.775322 0.024734 88.95976
1080.0 0.025888 48.07714 1.008115 -1.573132 1.005863 -1.783992 0.024065 91.374867
1090.0 0.025586 45.571822 1.008073 -1.578808 1.005756 -1.791817 0.023397 93.848288
1100.0 0.02528 43.062893 1.008032 -1.583635 1.00565 -1.798781 0.022731 96.381201
1110.0 0.024973 40.548609 1.007994 -1.587629 1.005548 -1.8049 0.022068 98.975224
1120.0 0.024664 38.026566 1.007961 -1.590844 1.005452 -1.810227 0.021407 101.632825
1130.0 0.024356 35.493828 1.007934 -1.593359 1.005363 -1.81484 0.020749 104.35773
1140.0 0.024049 32.947077 1.007914 -1.595277 1.005282 -1.818842 0.020093 107.155312
1150.0 0.023742 30.382801 1.007903 -1.596715 1.00521 -1.822348 0.019439 110.032916
1160.0 0.023437 27.797494 1.007901 -1.597791 1.005148 -1.825477 0.018788 113.000098
1170.0 0.023132 25.187848 1.007906 -1.59862 1.005093 -1.828343 0.01814 116.068752
1180.0 0.022828 22.550934 1.007917 -1.599302 1.005047 -1.831045 0.017496 119.253088
1190.0 0.022524 19.884346 1.007934 -1.599915 1.005006 -1.83366 0.016858 122.569452
1200.0 0.022218 17.18631 1.007953 -1.600507 1.00497 -1.836236 0.01623 126.035949
1210.0 0.021911 14.455739 1.007975 -1.601098 1.004935 -1.838793 0.015614 129.671843
1220.0 0.021601 11.692238 1.007995 -1.601675 1.004902 -1.841316 0.015014 133.496704
1230.0 0.02129 8.896064 1.008014 -1.602196 1.004867 -1.843763 0.014436 137.529282
1240.0 0.020975 6.068035 1.008029 -1.602594 1.004829 -1.846066 0.013886 141.786096
1250.0 0.020657 3.209403 1.008039 -1.602782 1.004788 -1.848139 0.013368 146.279783
1260.0 0.020338 0.321697 1.008044 -1.602664 1.004743 -1.849884 0.01289 151.017299
1270.0 0.020016 -2.593445 1.008045 -1.602144 1.004694 -1.851205 0.012457 155.998141
1280.0 0.019694 -5.534454 1.008041 -1.601129 1.004643 -1.852008 0.012074 161.212868
1290.0 0.019372 -8.500008 1.008034 -1.599545 1.004589 -1.852219 0.011747 166.642219
1300.0 0.019052 -11.489177 1.008026 -1.597338 1.004534 -1.851783 0.011478 172.257141
1310.0 0.018734 -14.501552 1.008018 -1.594481 1.004481 -1.850673 0.011271 178.01991
1320.0 0.018421 -17.537329 1.008011 -1.590977 1.00443 -1.848891 0.011127 -176.113699
1330.0 0.018113 -20.597346 1.008008 -1.586858 1.004385 -1.846468 0.011045 -170.191478
1340.0 0.017813 -23.683075 1.00801 -1.582183 1.004345 -1.843463 0.011025 -164.261592
1350.0 0.01752 -26.796557 1.008019 -1.577035 1.004313 -1.839959 0.011065 -158.369674
1360.0 0.017237 -29.940285 1.008035 -1.571513 1.00429 -1.836054 0.011161 -152.556643
1370.0 0.016963 -33.117049 1.008058 -1.565726 1.004275 -1.831855 0.011312 -146.857453
1380.0 0.0167 -36.329745 1.008089 -1.559782 1.004268 -1.827472 0.011515 -141.300701
1390.0 0.016448 -39.581161 1.008127 -1.553785 1.00427 -1.823005 0.011765 -135.908876
1400.0 0.016207 -42.87376 1.00817 -1.547821 1.004278 -1.818544 0.012061 -130.698955
1410.0 0.015977 -46.209472 1.008218 -1.541959 1.004292 -1.814154 0.0124 -125.68308
1420.0 0.015757 -49.589512 1.008269 -1.536242 1.00431 -1.809879 0.012777 -120.869175
1430.0 0.015548 -53.014237 1.00832 -1.530687 1.00433 -1.805735 0.01319 -116.261411
1440.0 0.015349 -56.483045 1.008372 -1.525284 1.00435 -1.801711 0.013635 -111.860568
1450.0 0.015159 -59.994334 1.008421 -1.519997 1.00437 -1.797772 0.014109 -107.664312
1460.0 0.01498 -63.545509 1.008467 -1.514773 1.004389 -1.793863 0.014607 -103.667474
1470.0 0.014809 -67.133047 1.00851 -1.509542 1.004404 -1.789915 0.015126 -99.862356
1480.0 0.014648 -70.752606 1.008548 -1.504229 1.004417 -1.785852 0.015661 -96.239098
1490.0 0.014496 -74.399176 1.008583 -1.49876 1.004427 -1.781598 0.016208 -92.786103
1500.0 0.014354 -78.067257 1.008615 -1.493065 1.004436 -1.777086 0.016763 -89.490502
1510.0 0.014221 -81.751061 1.008644 -1.487093 1.004443 -1.772262 0.017323 -86.338633
1520.0 0.014098 -85.444719 1.008673 -1.480809 1.004451 -1.767091 0.017883 -83.316524
1530.0 0.013985 -89.142484 1.008702 -1.474205 1.00446 -1.761564 0.018441 -80.410334
1540.0 0.013883 -92.838922 1.008733 -1.467294 1.004473 -1.755696 0.018994 -77.606752
1550.0 0.013792 -96.529077 1.008768 -1.460118 1.00449 -1.749526 0.019541 -74.893337
1560.0 0.013713 -100.208597 1.008808 -1.452737 1.004514 -1.743115 0.020079 -72.258786
1570.0 0.013647 -103.873826 1.008853 -1.445233 1.004544 -1.736543 0.020609 -69.693131
1580.0 0.013592 -107.52184 1.008905 -1.437696 1.004581 -1.729902 0.021128 -67.187858
1590.0 0.01355 -111.150442 1.008963 -1.430225 1.004626 -1.723289 0.021638 -64.73595
1600.0 0.013521 -114.758103 1.009027 -1.422917 1.004679 -1.716801 0.022138 -62.331855
1610.0 0.013504 -118.343865 1.009097 -1.415859 1.004738 -1.710525 0.022628 -59.971392
1620.0 0.013498 -121.907211 1.009171 -1.409127 1.004802 -1.704535 0.023108 -57.651588
1630.0 0.013504 -125.447909 1.009248 -1.402774 1.004871 -1.698886 0.02358 -55.370478
1640.0 0.013521 -128.965853 1.009327 -1.396834 1.004942 -1.693611 0.024041 -53.126864
1650.0 0.013547 -132.460906 1.009406 -1.391316 1.005015 -1.688718 0.024493 -50.920062
1660.0 0.013582 -135.932767 1.009484 -1.386206 1.005087 -1.684193 0.024935 -48.74965
1670.0 0.013624 -139.380858 1.00956 -1.381471 1.005159 -1.680002 0.025366 -46.615241
1680.0 0.013672 -142.804256 1.009632 -1.377059 1.005228 -1.676094 0.025784 -44.51628
1690.0 0.013725 -146.201667 1.009701 -1.372908 1.005295 -1.672408 0.026189 -42.451897
1700.0 0.013782 -149.571439 1.009765 -1.368953 1.005359 -1.668875 0.026579 -40.420811
1710.0 0.013842 -152.911611 1.009827 -1.365129 1.00542 -1.665432 0.026953 -38.421282
1720.0 0.013902 -156.220006 1.009885 -1.361378 1.005479 -1.662022 0.027309 -36.45113
1730.0 0.013964 -159.494343 1.00994 -1.357657 1.005537 -1.6586 0.027646 -34.507786
1740.0 0.014025 -162.732367 1.009995 -1.353941 1.005595 -1.655141 0.027963 -32.588394
1750.0 0.014085 -165.931995 1.01005 -1.350225 1.005654 -1.65164 0.028259 -30.689934
1760.0 0.014144 -169.091447 1.010107 -1.346524 1.005715 -1.648112 0.028533 -28.80936
1770.0 0.014202 -172.209382 1.010166 -1.342876 1.005781 -1.644594 0.028785 -26.943746
1780.0 0.014257 -175.285002 1.010229 -1.339336 1.00585 -1.641141 0.029015 -25.090421
1790.0 0.014311 -178.318133 1.010297 -1.335971 1.005925 -1.637822 0.029224 -23.247091
1800.0 0.014363 178.690725 1.010369 -1.33286 1.006006 -1.634713 0.029411 -21.411928
1810.0 0.014414 175.740392 1.010445 -1.330083 1.006092 -1.631896 0.029578 -19.583635
1820.0 0.014462 172.829039 1.010527 -1.327718 1.006184 -1.629447 0.029725 -17.761467
1830.0 0.014509 169.954258 1.010611 -1.325834 1.00628 -1.627434 0.029852 -15.945215
1840.0 0.014555 167.11317 1.010699 -1.324483 1.006379 -1.625913 0.029962 -14.135157
1850.0 0.014598 164.30256 1.010787 -1.323704 1.00648 -1.624919 0.030053 -12.331973
1860.0 0.01464 161.519035 1.010876 -1.323511 1.006583 -1.624468 0.030126 -10.536626
1870.0 0.014678 158.75919 1.010964 -1.323902 1.006685 -1.624557 0.030181 -8.750241
1880.0 0.014714 156.019769 1.011049 -1.32485 1.006785 -1.625159 0.030219 -6.973959
1890.0 0.014746 153.297814 1.011131 -1.326313 1.006883 -1.626233 0.030237 -5.208808
1900.0 0.014773 150.59079 1.011208 -1.328237 1.006977 -1.627723 0.030237 -3.455583
1910.0 0.014795 147.896668 1.011281 -1.330555 1.007067 -1.629564 0.030217 -1.714747
1920.0 0.014811 145.213983 1.01135 -1.3332 1.007153 -1.631689 0.030176 0.013631
1930.0 0.01482 142.541838 1.011414 -1.336108 1.007236 -1.634032 0.030114 1.729913
1940.0 0.014821 139.879872 1.011474 -1.33922 1.007315 -1.636536 0.030029 3.434881
1950.0 0.014814 137.228196 1.011531 -1.342493 1.007392 -1.639156 0.029921 5.1297
1960.0 0.014798 134.587293 1.011586 -1.345897 1.007467 -1.641865 0.02979 6.81585
1970.0 0.014773 131.957894 1.01164 -1.349422 1.007542 -1.644651 0.029635 8.495028
1980.0 0.014738 129.340843 1.011694 -1.353077 1.007618 -1.647522 0.029456 10.169041
1990.0 0.014694 126.736954 1.011749 -1.356886 1.007695 -1.650505 0.029253 11.839681
2000.0 0.014641 124.146872 1.011806 -1.360891 1.007775 -1.65364 0.029027 13.508609
2010.0 0.014578 121.570946 1.011866 -1.365144 1.007858 -1.656978 0.028779 15.177242
2020.0 0.014507 119.009118 1.011929 -1.369701 1.007944 -1.660579 0.028509 16.84666
2030.0 0.014428 116.460846 1.011994 -1.374624 1.008033 -1.664501 0.028219 18.517532
2040.0 0.01434 113.92505 1.012061 -1.379966 1.008124 -1.6688 0.027909 20.190079
2050.0 0.014245 111.400101 1.012129 -1.385775 1.008217 -1.673523 0.027581 21.864063
2060.0 0.014143 108.883841 1.012198 -1.392084 1.008311 -1.678702 0.027234 23.538814
2070.0 0.014035 106.373642 1.012266 -1.398907 1.008404 -1.684353 0.026871 25.21329
2080.0 0.01392 103.866495 1.012332 -1.406245 1.008496 -1.690476 0.026491 26.886165
2090.0 0.013798 101.359123 1.012395 -1.414076 1.008585 -1.69705 0.026094 28.55594
2100.0 0.01367 98.848109 1.012454 -1.422362 1.00867 -1.704036 0.025681 30.221071
2110.0 0.013536 96.330033 1.012508 -1.43105 1.008751 -1.711383 0.025251 31.8801
2120.0 0.013395 93.801602 1.012556 -1.440076 1.008826 -1.719027 0.024805 33.531779
2130.0 0.013246 91.259764 1.012599 -1.44937 1.008895 -1.726895 0.024341 35.175182
2140.0 0.013091 88.701797 1.012635 -1.458858 1.008959 -1.734918 0.02386 36.80979
2150.0 0.012927 86.125371 1.012666 -1.468472 1.009017 -1.743025 0.02336 38.435547
2160.0 0.012755 83.528566 1.012691 -1.478151 1.00907 -1.751156 0.022842 40.052876
2170.0 0.012575 80.909856 1.012713 -1.487845 1.009119 -1.759262 0.022305 41.66267
2180.0 0.012386 78.268059 1.01273 -1.497521 1.009164 -1.76731 0.02175 43.266233
2190.0 0.012188 75.602246 1.012746 -1.507161 1.009207 -1.775282 0.021175 44.865199
2200.0 0.011981 72.911626 1.01276 -1.516765 1.009249 -1.783178 0.020583 46.461419
2210.0 0.011766 70.195402 1.012773 -1.526347 1.00929 -1.791013 0.019972 48.056834
2220.0 0.011542 67.452618 1.012786 -1.535936 1.009331 -1.798816 0.019345 49.653327
2230.0 0.01131 64.681988 1.0128 -1.545568 1.009373 -1.806624 0.018702 51.252576
2240.0 0.011071 61.881726 1.012815 -1.555287 1.009415 -1.814479 0.018044 52.855912
2250.0 0.010825 59.049385 1.012829 -1.565136 1.009458 -1.822427 0.017373 54.464189
2260.0 0.010573 56.1817 1.012844 -1.575153 1.0095 -1.830506 0.016689 56.077673
2270.0 0.010316 53.274451 1.012859 -1.58537 1.009542 -1.838746 0.015994 57.695962
2280.0 0.010054 50.322351 1.012872 -1.595804 1.009582 -1.847167 0.015288 59.317939
2290.0 0.009789 47.318952 1.012882 -1.606459 1.00962 -1.855772 0.014573 60.941756
2300.0 0.009521 44.256588 1.012889 -1.617321 1.009654 -1.864548 0.013849 62.564858
2310.0 0.009251 41.126332 1.012891 -1.628362 1.009683 -1.873467 0.013117 64.184029
2320.0 0.008979 37.917992 1.012888 -1.639537 1.009706 -1.882485 0.012376 65.795461
2330.0 0.008707 34.620115 1.012878 -1.650789 1.009723 -1.891545 0.011627 67.39482
2340.0 0.008434 31.220018 1.012862 -1.662053 1.009733 -1.900581 0.01087 68.977287
2350.0 0.008163 27.703828 1.012839 -1.673257 1.009736 -1.909525 0.010105 70.537543
2360.0 0.007893 24.056538 1.012809 -1.68433 1.009732 -1.918304 0.009331 72.069629
2370.0 0.007625 20.262085 1.012773 -1.695206 1.009721 -1.926852 0.008548 73.566624
2380.0 0.007361 16.303449 1.012731 -1.705825 1.009704 -1.935112 0.007756 75.019973
