! File created by SignalIntegrity v1.1.13: Signal and Power Integrity Tools
! https://github.com/TeledyneLeCroy/SignalIntegrity
# MHz S MA R 50.0
0.0 7.2e-05 180.0 0.999178 0.0 0.999178 0.0 7.2e-05 180.0
10.0 0.003641 68.840139 0.997423 -1.321758 0.997423 -1.321758 0.003641 68.840139
20.0 0.006172 71.939131 0.99656 -2.592014 0.99656 -2.592014 0.006172 71.939131
30.0 0.008535 73.224884 0.995839 -3.853749 0.995839 -3.853749 0.008535 73.224884
40.0 0.010812 73.721749 0.99519 -5.111046 0.99519 -5.111046 0.010812 73.721749
50.0 0.013033 73.782211 0.994585 -6.365484 0.994585 -6.365484 0.013033 73.782211
60.0 0.015211 73.568551 0.994011 -7.617868 0.994011 -7.617868 0.015211 73.568551
70.0 0.017355 73.168331 0.99346 -8.868674 0.99346 -8.868674 0.017355 73.168331
80.0 0.019469 72.633877 0.992925 -10.11821 0.992925 -10.11821 0.019469 72.633877
90.0 0.021556 71.998795 0.992404 -11.366685 0.992404 -11.366685 0.021556 71.998795
100.0 0.023619 71.285861 0.991893 -12.614253 0.991893 -12.614253 0.023619 71.285861
110.0 0.025658 70.511166 0.991391 -13.861025 0.991391 -13.861025 0.025658 70.511166
120.0 0.027674 69.686468 0.990896 -15.107088 0.990896 -15.107088 0.027674 69.686468
130.0 0.029668 68.820598 0.990407 -16.352508 0.990407 -16.352508 0.029668 68.820598
140.0 0.031639 67.920341 0.989923 -17.597338 0.989923 -17.597338 0.031639 67.920341
150.0 0.033588 66.991013 0.989443 -18.84162 0.989443 -18.84162 0.033588 66.991013
160.0 0.035515 66.036851 0.988967 -20.08539 0.988967 -20.08539 0.035515 66.036851
170.0 0.037418 65.061281 0.988494 -21.328676 0.988494 -21.328676 0.037418 65.061281
180.0 0.039299 64.067107 0.988024 -22.5715 0.988024 -22.5715 0.039299 64.067107
190.0 0.041156 63.056653 0.987557 -23.813884 0.987557 -23.813884 0.041156 63.056653
200.0 0.042989 62.031864 0.987091 -25.055843 0.987091 -25.055843 0.042989 62.031864
210.0 0.044797 60.994381 0.986628 -26.297391 0.986628 -26.297391 0.044797 60.994381
220.0 0.046581 59.945601 0.986166 -27.538541 0.986166 -27.538541 0.046581 59.945601
230.0 0.048339 58.886724 0.985706 -28.779303 0.985706 -28.779303 0.048339 58.886724
240.0 0.05007 57.818784 0.985248 -30.019686 0.985248 -30.019686 0.05007 57.818784
250.0 0.051776 56.742681 0.984791 -31.259698 0.984791 -31.259698 0.051776 56.742681
260.0 0.053454 55.659201 0.984336 -32.499345 0.984336 -32.499345 0.053454 55.659201
270.0 0.055104 54.569034 0.983882 -33.738635 0.983882 -33.738635 0.055104 54.569034
280.0 0.056726 53.472791 0.98343 -34.977573 0.98343 -34.977573 0.056726 53.472791
290.0 0.05832 52.371011 0.982979 -36.216164 0.982979 -36.216164 0.05832 52.371011
300.0 0.059883 51.264177 0.98253 -37.454413 0.98253 -37.454413 0.059883 51.264177
310.0 0.061417 50.152718 0.982082 -38.692325 0.982082 -38.692325 0.061417 50.152718
320.0 0.062921 49.037022 0.981635 -39.929904 0.981635 -39.929904 0.062921 49.037022
330.0 0.064393 47.917435 0.981191 -41.167154 0.981191 -41.167154 0.064393 47.917435
340.0 0.065833 46.794273 0.980748 -42.404081 0.980748 -42.404081 0.065833 46.794273
350.0 0.067242 45.667819 0.980306 -43.640687 0.980306 -43.640687 0.067242 45.667819
360.0 0.068617 44.538333 0.979867 -44.876978 0.979867 -44.876978 0.068617 44.538333
370.0 0.06996 43.406051 0.979429 -46.112957 0.979429 -46.112957 0.06996 43.406051
380.0 0.071269 42.271187 0.978993 -47.348629 0.978993 -47.348629 0.071269 42.271187
390.0 0.072543 41.133939 0.97856 -48.583999 0.97856 -48.583999 0.072543 41.133939
400.0 0.073783 39.994489 0.978128 -49.819071 0.978128 -49.819071 0.073783 39.994489
410.0 0.074988 38.853002 0.977699 -51.05385 0.977699 -51.05385 0.074988 38.853002
420.0 0.076157 37.709633 0.977272 -52.288341 0.977272 -52.288341 0.076157 37.709633
430.0 0.07729 36.564524 0.976848 -53.522549 0.976848 -53.522549 0.07729 36.564524
440.0 0.078387 35.417805 0.976426 -54.756479 0.976426 -54.756479 0.078387 35.417805
450.0 0.079447 34.269599 0.976006 -55.990137 0.976006 -55.990137 0.079447 34.269599
460.0 0.08047 33.12002 0.97559 -57.223529 0.97559 -57.223529 0.08047 33.12002
470.0 0.081455 31.969173 0.975176 -58.45666 0.975176 -58.45666 0.081455 31.969173
480.0 0.082402 30.817157 0.974765 -59.689537 0.974765 -59.689537 0.082402 30.817157
490.0 0.083311 29.664063 0.974357 -60.922166 0.974357 -60.922166 0.083311 29.664063
500.0 0.084181 28.509979 0.973953 -62.154554 0.973953 -62.154554 0.084181 28.509979
510.0 0.085012 27.354985 0.973551 -63.386707 0.973551 -63.386707 0.085012 27.354985
520.0 0.085804 26.199158 0.973153 -64.618633 0.973153 -64.618633 0.085804 26.199158
530.0 0.086556 25.042569 0.972758 -65.850339 0.972758 -65.850339 0.086556 25.042569
540.0 0.087269 23.885288 0.972367 -67.081833 0.972367 -67.081833 0.087269 23.885288
550.0 0.087941 22.727377 0.97198 -68.313121 0.97198 -68.313121 0.087941 22.727377
560.0 0.088574 21.568899 0.971595 -69.544212 0.971595 -69.544212 0.088574 21.568899
570.0 0.089165 20.409911 0.971215 -70.775114 0.971215 -70.775114 0.089165 20.409911
580.0 0.089716 19.250469 0.970838 -72.005835 0.970838 -72.005835 0.089716 19.250469
590.0 0.090226 18.090626 0.970466 -73.236384 0.970466 -73.236384 0.090226 18.090626
600.0 0.090695 16.930433 0.970097 -74.466768 0.970097 -74.466768 0.090695 16.930433
610.0 0.091123 15.769939 0.969732 -75.696998 0.969732 -75.696998 0.091123 15.769939
620.0 0.091509 14.609192 0.969371 -76.927081 0.969371 -76.927081 0.091509 14.609192
630.0 0.091854 13.448237 0.969014 -78.157027 0.969014 -78.157027 0.091854 13.448237
640.0 0.092158 12.287119 0.968662 -79.386845 0.968662 -79.386845 0.092158 12.287119
650.0 0.092419 11.125882 0.968313 -80.616543 0.968313 -80.616543 0.092419 11.125882
660.0 0.092639 9.964568 0.967969 -81.846133 0.967969 -81.846133 0.092639 9.964568
670.0 0.092818 8.80322 0.967629 -83.075621 0.967629 -83.075621 0.092818 8.80322
680.0 0.092954 7.641879 0.967293 -84.30502 0.967293 -84.30502 0.092954 7.641879
690.0 0.093049 6.480586 0.966961 -85.534336 0.966961 -85.534336 0.093049 6.480586
700.0 0.093102 5.319383 0.966634 -86.763582 0.966634 -86.763582 0.093102 5.319383
710.0 0.093113 4.158309 0.96631 -87.992765 0.96631 -87.992765 0.093113 4.158309
720.0 0.093082 2.997407 0.965992 -89.221896 0.965992 -89.221896 0.093082 2.997407
730.0 0.09301 1.836718 0.965677 -90.450984 0.965677 -90.450984 0.09301 1.836718
740.0 0.092896 0.676284 0.965366 -91.680039 0.965366 -91.680039 0.092896 0.676284
750.0 0.09274 -0.483851 0.96506 -92.90907 0.96506 -92.90907 0.09274 -0.483851
760.0 0.092544 -1.643645 0.964758 -94.138088 0.964758 -94.138088 0.092544 -1.643645
770.0 0.092305 -2.803051 0.96446 -95.367101 0.96446 -95.367101 0.092305 -2.803051
780.0 0.092026 -3.962025 0.964167 -96.596119 0.964167 -96.596119 0.092026 -3.962025
790.0 0.091706 -5.120517 0.963877 -97.825151 0.963877 -97.825151 0.091706 -5.120517
800.0 0.091345 -6.278479 0.963591 -99.054207 0.963591 -99.054207 0.091345 -6.278479
810.0 0.090943 -7.435859 0.96331 -100.283295 0.96331 -100.283295 0.090943 -7.435859
820.0 0.090501 -8.592602 0.963032 -101.512425 0.963032 -101.512425 0.090501 -8.592602
830.0 0.090019 -9.748653 0.962758 -102.741606 0.962758 -102.741606 0.090019 -9.748653
840.0 0.089496 -10.903952 0.962488 -103.970846 0.962488 -103.970846 0.089496 -10.903952
850.0 0.088934 -12.058437 0.962222 -105.200153 0.962222 -105.200153 0.088934 -12.058437
860.0 0.088333 -13.212042 0.961959 -106.429537 0.961959 -106.429537 0.088333 -13.212042
870.0 0.087693 -14.364697 0.9617 -107.659005 0.9617 -107.659005 0.087693 -14.364697
880.0 0.087013 -15.516329 0.961444 -108.888565 0.961444 -108.888565 0.087013 -15.516329
890.0 0.086296 -16.666859 0.961192 -110.118226 0.961192 -110.118226 0.086296 -16.666859
900.0 0.08554 -17.816203 0.960943 -111.347993 0.960943 -111.347993 0.08554 -17.816203
910.0 0.084746 -18.964272 0.960697 -112.577876 0.960697 -112.577876 0.084746 -18.964272
920.0 0.083915 -20.11097 0.960454 -113.80788 0.960454 -113.80788 0.083915 -20.11097
930.0 0.083047 -21.256196 0.960214 -115.038012 0.960214 -115.038012 0.083047 -21.256196
940.0 0.082143 -22.399838 0.959977 -116.26828 0.959977 -116.26828 0.082143 -22.399838
950.0 0.081202 -23.54178 0.959742 -117.498688 0.959742 -117.498688 0.081202 -23.54178
960.0 0.080225 -24.681892 0.959511 -118.729243 0.959511 -118.729243 0.080225 -24.681892
970.0 0.079214 -25.820039 0.959281 -119.959951 0.959281 -119.959951 0.079214 -25.820039
980.0 0.078167 -26.956071 0.959054 -121.190817 0.959054 -121.190817 0.078167 -26.956071
990.0 0.077086 -28.089827 0.958829 -122.421844 0.958829 -122.421844 0.077086 -28.089827
1000.0 0.075972 -29.221132 0.958606 -123.65304 0.958606 -123.65304 0.075972 -29.221132
1010.0 0.074824 -30.349795 0.958385 -124.884406 0.958385 -124.884406 0.074824 -30.349795
1020.0 0.073643 -31.475609 0.958166 -126.115947 0.958166 -126.115947 0.073643 -31.475609
1030.0 0.072431 -32.598348 0.957948 -127.347668 0.957948 -127.347668 0.072431 -32.598348
1040.0 0.071186 -33.717764 0.957732 -128.57957 0.957732 -128.57957 0.071186 -33.717764
1050.0 0.069911 -34.833583 0.957517 -129.811657 0.957517 -129.811657 0.069911 -34.833583
1060.0 0.068605 -35.945509 0.957303 -131.043931 0.957303 -131.043931 0.068605 -35.945509
1070.0 0.067269 -37.05321 0.957091 -132.276394 0.957091 -132.276394 0.067269 -37.05321
1080.0 0.065904 -38.156323 0.956879 -133.509048 0.956879 -133.509048 0.065904 -38.156323
1090.0 0.064511 -39.254445 0.956668 -134.741894 0.956668 -134.741894 0.064511 -39.254445
1100.0 0.06309 -40.347129 0.956457 -135.974933 0.956457 -135.974933 0.06309 -40.347129
1110.0 0.061641 -41.433875 0.956247 -137.208166 0.956247 -137.208166 0.061641 -41.433875
1120.0 0.060166 -42.514127 0.956037 -138.441593 0.956037 -138.441593 0.060166 -42.514127
1130.0 0.058665 -43.587261 0.955827 -139.675213 0.955827 -139.675213 0.058665 -43.587261
1140.0 0.057139 -44.652575 0.955617 -140.909025 0.955617 -140.909025 0.057139 -44.652575
1150.0 0.055589 -45.709276 0.955407 -142.14303 0.955407 -142.14303 0.055589 -45.709276
1160.0 0.054015 -46.756468 0.955197 -143.377226 0.955197 -143.377226 0.054015 -46.756468
1170.0 0.052419 -47.79313 0.954986 -144.61161 0.954986 -144.61161 0.052419 -47.79313
1180.0 0.0508 -48.818095 0.954774 -145.84618 0.954774 -145.84618 0.0508 -48.818095
1190.0 0.04916 -49.830027 0.954562 -147.080935 0.954562 -147.080935 0.04916 -49.830027
1200.0 0.0475 -50.82738 0.954349 -148.315872 0.954349 -148.315872 0.0475 -50.82738
1210.0 0.04582 -51.808367 0.954134 -149.550986 0.954134 -149.550986 0.04582 -51.808367
1220.0 0.044122 -52.770901 0.953919 -150.786275 0.953919 -150.786275 0.044122 -52.770901
1230.0 0.042405 -53.712533 0.953702 -152.021735 0.953702 -152.021735 0.042405 -53.712533
1240.0 0.040672 -54.630371 0.953483 -153.257361 0.953483 -153.257361 0.040672 -54.630371
1250.0 0.038923 -55.520978 0.953263 -154.493149 0.953263 -154.493149 0.038923 -55.520978
1260.0 0.037159 -56.380228 0.953042 -155.729095 0.953042 -155.729095 0.037159 -56.380228
1270.0 0.035381 -57.203137 0.952818 -156.965192 0.952818 -156.965192 0.035381 -57.203137
1280.0 0.03359 -57.983619 0.952593 -158.201435 0.952593 -158.201435 0.03359 -57.983619
1290.0 0.031788 -58.714171 0.952365 -159.437819 0.952365 -159.437819 0.031788 -58.714171
1300.0 0.029975 -59.385439 0.952135 -160.674338 0.952135 -160.674338 0.029975 -59.385439
1310.0 0.028154 -59.985609 0.951903 -161.910985 0.951903 -161.910985 0.028154 -59.985609
1320.0 0.026324 -60.499556 0.951669 -163.147754 0.951669 -163.147754 0.026324 -60.499556
1330.0 0.024489 -60.90761 0.951432 -164.384637 0.951432 -164.384637 0.024489 -60.90761
1340.0 0.02265 -61.183737 0.951192 -165.621629 0.951192 -165.621629 0.02265 -61.183737
1350.0 0.02081 -61.292794 0.95095 -166.858721 0.95095 -166.858721 0.02081 -61.292794
1360.0 0.01897 -61.18626 0.950705 -168.095906 0.950705 -168.095906 0.01897 -61.18626
1370.0 0.017137 -60.795406 0.950458 -169.333177 0.950458 -169.333177 0.017137 -60.795406
1380.0 0.015314 -60.020002 0.950207 -170.570525 0.950207 -170.570525 0.015314 -60.020002
1390.0 0.013509 -58.708966 0.949954 -171.807943 0.949954 -171.807943 0.013509 -58.708966
1400.0 0.011734 -56.626093 0.949698 -173.045423 0.949698 -173.045423 0.011734 -56.626093
1410.0 0.010008 -53.387792 0.949439 -174.282956 0.949439 -174.282956 0.010008 -53.387792
1420.0 0.008365 -48.350966 0.949176 -175.520534 0.949176 -175.520534 0.008365 -48.350966
1430.0 0.006866 -40.435959 0.948911 -176.758148 0.948911 -176.758148 0.006866 -40.435959
1440.0 0.005631 -28.023366 0.948642 -177.995791 0.948642 -177.995791 0.005631 -28.023366
1450.0 0.004864 -9.824751 0.948371 -179.233453 0.948371 -179.233453 0.004864 -9.824751
1460.0 0.004796 11.910552 0.948096 179.528875 0.948096 179.528875 0.004796 11.910552
1470.0 0.005451 31.036995 0.947818 178.2912 0.947818 178.2912 0.005451 31.036995
1480.0 0.006615 44.401937 0.947537 177.053532 0.947537 177.053532 0.006615 44.401937
1490.0 0.008068 52.965948 0.947252 175.815879 0.947252 175.815879 0.008068 52.965948
1500.0 0.009677 58.408201 0.946965 174.57825 0.946965 174.57825 0.009677 58.408201
1510.0 0.011374 61.902657 0.946674 173.340654 0.946674 173.340654 0.011374 61.902657
1520.0 0.013121 64.153602 0.946381 172.103099 0.946381 172.103099 0.013121 64.153602
1530.0 0.014896 65.57962 0.946084 170.865594 0.946084 170.865594 0.014896 65.57962
1540.0 0.016689 66.436851 0.945784 169.628146 0.945784 169.628146 0.016689 66.436851
1550.0 0.018489 66.888053 0.945482 168.390766 0.945482 168.390766 0.018489 66.888053
1560.0 0.020292 67.04055 0.945176 167.15346 0.945176 167.15346 0.020292 67.04055
1570.0 0.022094 66.967537 0.944867 165.916237 0.944867 165.916237 0.022094 66.967537
1580.0 0.023891 66.720442 0.944556 164.679105 0.944556 164.679105 0.023891 66.720442
1590.0 0.025681 66.336362 0.944241 163.442072 0.944241 163.442072 0.025681 66.336362
1600.0 0.027463 65.842674 0.943924 162.205145 0.943924 162.205145 0.027463 65.842674
1610.0 0.029233 65.259999 0.943605 160.968332 0.943605 160.968332 0.029233 65.259999
1620.0 0.030992 64.604147 0.943283 159.731639 0.943283 159.731639 0.030992 64.604147
1630.0 0.032738 63.887436 0.942958 158.495075 0.942958 158.495075 0.032738 63.887436
1640.0 0.034468 63.119599 0.942631 157.258645 0.942631 157.258645 0.034468 63.119599
1650.0 0.036183 62.308427 0.942301 156.022357 0.942301 156.022357 0.036183 62.308427
1660.0 0.037881 61.460226 0.94197 154.786217 0.94197 154.786217 0.037881 61.460226
1670.0 0.039562 60.580157 0.941636 153.55023 0.941636 153.55023 0.039562 60.580157
1680.0 0.041224 59.672479 0.941301 152.314403 0.941301 152.314403 0.041224 59.672479
1690.0 0.042866 58.740745 0.940963 151.078741 0.940963 151.078741 0.042866 58.740745
1700.0 0.044487 57.787935 0.940624 149.843249 0.940624 149.843249 0.044487 57.787935
1710.0 0.046087 56.81657 0.940283 148.607933 0.940283 148.607933 0.046087 56.81657
1720.0 0.047665 55.8288 0.93994 147.372796 0.93994 147.372796 0.047665 55.8288
1730.0 0.049221 54.826464 0.939596 146.137843 0.939596 146.137843 0.049221 54.826464
1740.0 0.050752 53.81115 0.939251 144.903079 0.939251 144.903079 0.050752 53.81115
1750.0 0.052259 52.784233 0.938905 143.668506 0.938905 143.668506 0.052259 52.784233
1760.0 0.053741 51.746911 0.938558 142.434127 0.938558 142.434127 0.053741 51.746911
1770.0 0.055197 50.700234 0.938209 141.199947 0.938209 141.199947 0.055197 50.700234
1780.0 0.056627 49.645124 0.93786 139.965967 0.93786 139.965967 0.056627 49.645124
1790.0 0.058029 48.582394 0.937511 138.73219 0.937511 138.73219 0.058029 48.582394
1800.0 0.059404 47.512768 0.937161 137.498617 0.937161 137.498617 0.059404 47.512768
1810.0 0.06075 46.436887 0.93681 136.265251 0.93681 136.265251 0.06075 46.436887
1820.0 0.062067 45.355326 0.936459 135.032091 0.936459 135.032091 0.062067 45.355326
1830.0 0.063355 44.268599 0.936109 133.79914 0.936109 133.79914 0.063355 44.268599
1840.0 0.064612 43.177168 0.935758 132.566397 0.935758 132.566397 0.064612 43.177168
1850.0 0.065838 42.081451 0.935408 131.333863 0.935408 131.333863 0.065838 42.081451
1860.0 0.067034 40.981825 0.935057 130.101537 0.935057 130.101537 0.067034 40.981825
1870.0 0.068197 39.878632 0.934708 128.869419 0.934708 128.869419 0.068197 39.878632
1880.0 0.069328 38.772185 0.934359 127.637507 0.934359 127.637507 0.069328 38.772185
1890.0 0.070427 37.662768 0.934011 126.4058 0.934011 126.4058 0.070427 37.662768
1900.0 0.071492 36.55064 0.933663 125.174297 0.933663 125.174297 0.071492 36.55064
1910.0 0.072523 35.436042 0.933317 123.942996 0.933317 123.942996 0.072523 35.436042
1920.0 0.07352 34.319192 0.932972 122.711893 0.932972 122.711893 0.07352 34.319192
1930.0 0.074483 33.200293 0.932628 121.480987 0.932628 121.480987 0.074483 33.200293
1940.0 0.07541 32.079532 0.932285 120.250273 0.932285 120.250273 0.07541 32.079532
1950.0 0.076302 30.957084 0.931944 119.01975 0.931944 119.01975 0.076302 30.957084
1960.0 0.077159 29.833109 0.931605 117.789412 0.931605 117.789412 0.077159 29.833109
1970.0 0.077979 28.707758 0.931267 116.559256 0.931267 116.559256 0.077979 28.707758
1980.0 0.078763 27.581173 0.930932 115.329278 0.930932 115.329278 0.078763 27.581173
1990.0 0.07951 26.453483 0.930598 114.099472 0.930598 114.099472 0.07951 26.453483
2000.0 0.08022 25.324815 0.930266 112.869835 0.930266 112.869835 0.08022 25.324815
2010.0 0.080893 24.195283 0.929937 111.64036 0.929937 111.64036 0.080893 24.195283
2020.0 0.081529 23.064999 0.92961 110.411042 0.92961 110.411042 0.081529 23.064999
2030.0 0.082126 21.934068 0.929285 109.181875 0.929285 109.181875 0.082126 21.934068
2040.0 0.082685 20.802589 0.928963 107.952854 0.928963 107.952854 0.082685 20.802589
2050.0 0.083207 19.670656 0.928644 106.723972 0.928644 106.723972 0.083207 19.670656
2060.0 0.083689 18.538362 0.928327 105.495222 0.928327 105.495222 0.083689 18.538362
2070.0 0.084133 17.405794 0.928013 104.266598 0.928013 104.266598 0.084133 17.405794
2080.0 0.084539 16.273037 0.927701 103.038093 0.927701 103.038093 0.084539 16.273037
2090.0 0.084905 15.140171 0.927393 101.8097 0.927393 101.8097 0.084905 15.140171
2100.0 0.085232 14.007278 0.927088 100.581412 0.927088 100.581412 0.085232 14.007278
2110.0 0.08552 12.874434 0.926785 99.35322 0.926785 99.35322 0.08552 12.874434
2120.0 0.085769 11.741716 0.926486 98.125118 0.926486 98.125118 0.085769 11.741716
2130.0 0.085979 10.609199 0.92619 96.897098 0.92619 96.897098 0.085979 10.609199
2140.0 0.086149 9.476957 0.925896 95.669152 0.925896 95.669152 0.086149 9.476957
2150.0 0.08628 8.345064 0.925607 94.441272 0.925607 94.441272 0.08628 8.345064
2160.0 0.086371 7.213593 0.92532 93.21345 0.92532 93.21345 0.086371 7.213593
2170.0 0.086423 6.082618 0.925037 91.985678 0.925037 91.985678 0.086423 6.082618
2180.0 0.086435 4.952214 0.924756 90.757947 0.924756 90.757947 0.086435 4.952214
2190.0 0.086408 3.822454 0.92448 89.530249 0.92448 89.530249 0.086408 3.822454
2200.0 0.086342 2.693414 0.924206 88.302577 0.924206 88.302577 0.086342 2.693414
2210.0 0.086237 1.565172 0.923936 87.074921 0.923936 87.074921 0.086237 1.565172
2220.0 0.086092 0.437807 0.923669 85.847274 0.923669 85.847274 0.086092 0.437807
2230.0 0.085908 -0.6886 0.923405 84.619627 0.923405 84.619627 0.085908 -0.6886
2240.0 0.085685 -1.813967 0.923145 83.391972 0.923145 83.391972 0.085685 -1.813967
2250.0 0.085423 -2.938207 0.922888 82.1643 0.922888 82.1643 0.085423 -2.938207
2260.0 0.085123 -4.061231 0.922634 80.936604 0.922634 80.936604 0.085123 -4.061231
2270.0 0.084784 -5.182946 0.922384 79.708875 0.922384 79.708875 0.084784 -5.182946
2280.0 0.084406 -6.303255 0.922136 78.481105 0.922136 78.481105 0.084406 -6.303255
2290.0 0.083991 -7.422058 0.921892 77.253287 0.921892 77.253287 0.083991 -7.422058
2300.0 0.083538 -8.539247 0.921651 76.025412 0.921651 76.025412 0.083538 -8.539247
2310.0 0.083047 -9.654712 0.921413 74.797472 0.921413 74.797472 0.083047 -9.654712
2320.0 0.082518 -10.768334 0.921178 73.569461 0.921178 73.569461 0.082518 -10.768334
2330.0 0.081952 -11.879989 0.920945 72.34137 0.920945 72.34137 0.081952 -11.879989
2340.0 0.08135 -12.989546 0.920716 71.113193 0.920716 71.113193 0.08135 -12.989546
