! File created by SignalIntegrity v1.1.13: Signal and Power Integrity Tools
! https://github.com/TeledyneLeCroy/SignalIntegrity
# MHz S MA R 50.0
0.0 0.064906 0.0 0.035716 0.0 0.013345 180.0 0.988469 0.0
0.026811 0.0 0.05106 0.0 1.003246 0.0 0.001043 180.0
0.030712 180.0 0.994317 0.0 0.100714 0.0 0.003264 0.0
0.987209 0.0 0.002451 180.0 0.029721 0.0 0.083236 0.0
10.0 0.094364 19.496918 0.053363 28.324084 0.024959 -165.104545 0.966719 -34.364724
0.050747 35.140261 0.092463 30.055853 0.988327 -33.941471 0.027145 -142.868339
0.034559 168.958982 0.958803 -34.793402 0.108814 3.439048 0.0494 55.461115
0.970251 -34.089637 0.027002 -146.116582 0.046522 28.396633 0.095762 8.45115
20.0 0.117725 10.231366 0.075595 27.430994 0.048083 158.875831 0.923295 -66.743577
0.074643 30.978663 0.135281 16.451037 0.949611 -66.65942 0.053201 163.657004
0.048841 146.16907 0.91819 -66.018295 0.104949 0.657658 0.071916 34.800503
0.930158 -66.760059 0.05178 163.010789 0.061945 29.498671 0.103463 5.627965
30.0 0.113927 0.95056 0.09245 18.846474 0.064604 106.750022 0.892812 -97.314249
0.092798 19.973737 0.136881 -1.841155 0.913716 -97.36491 0.069785 107.030925
0.06491 105.005416 0.907075 -97.03387 0.097694 7.556979 0.078497 24.917631
0.894341 -97.499461 0.067998 107.956257 0.079023 25.290584 0.101195 3.179554
40.0 0.098618 -0.827959 0.092665 4.648038 0.064382 51.645091 0.882331 -127.384053
0.089355 3.78159 0.107164 -13.529093 0.902404 -127.119077 0.069279 50.820781
0.06739 54.5013 0.888099 -127.68449 0.108349 13.505295 0.08186 15.934218
0.88128 -127.268228 0.068023 51.687286 0.084303 12.251033 0.094597 5.370672
50.0 0.086948 4.483157 0.067773 -2.936857 0.045835 -0.980453 0.891391 -157.70428
0.062173 -1.161148 0.066628 -8.045598 0.914558 -157.310942 0.049512 -0.696529
0.048977 4.504268 0.897606 -157.221744 0.117852 10.065291 0.070222 5.959329
0.893828 -157.433161 0.048079 -1.020868 0.067635 2.222823 0.09339 6.803539
60.0 0.079867 18.543006 0.048021 25.983714 0.016927 -12.573099 0.911915 170.29433
0.047499 31.694794 0.066139 37.53894 0.936658 170.737413 0.020794 -9.729459
0.021194 -5.308069 0.927138 170.741558 0.102262 6.603404 0.044036 19.173258
0.916808 170.412649 0.019115 -8.520789 0.041628 22.578995 0.077212 13.785191
70.0 0.105942 34.349696 0.084285 49.503836 0.044267 12.185708 0.903513 136.587878
0.086501 51.26661 0.126183 42.688807 0.928155 137.086507 0.04889 8.333279
0.046957 10.596096 0.916954 137.087056 0.094022 27.782994 0.070303 58.675595
0.907593 136.545094 0.047989 9.255545 0.074062 58.481688 0.09421 37.776946
80.0 0.149103 26.342107 0.130222 35.807365 0.084028 -41.427439 0.851602 104.410733
0.131324 35.978856 0.169799 25.304253 0.873547 104.978831 0.089608 -42.521102
0.085359 -40.598208 0.867633 105.090584 0.145821 33.004212 0.123101 44.883385
0.853748 104.282755 0.088013 -42.680922 0.124518 44.095834 0.143121 33.881503
90.0 0.156555 8.725923 0.143004 14.588538 0.104762 -101.961364 0.812335 76.162746
0.141541 14.177867 0.170146 5.953847 0.831931 76.897651 0.109427 -101.449051
0.104615 -100.809877 0.824504 76.60787 0.175725 16.540951 0.141341 21.068895
0.812133 76.06119 0.107936 -102.267127 0.142739 21.601752 0.165447 16.228444
100.0 0.124059 -1.508856 0.119991 -3.755599 0.096595 -163.195221 0.836034 48.334847
0.115972 -4.101883 0.131937 -8.419928 0.856191 49.199078 0.098699 -161.478387
0.094747 -162.575947 0.843082 49.272151 0.156822 0.722386 0.120251 -0.91891
0.835928 48.386789 0.097295 -162.911544 0.123903 0.328544 0.140802 0.220788
110.0 0.092157 7.268471 0.071078 -9.319897 0.05755 139.223673 0.884054 16.687691
0.066983 -8.071437 0.076675 0.724165 0.904638 17.605624 0.057785 142.453815
0.055061 138.756969 0.896611 17.852808 0.105203 -3.802916 0.065112 -12.745466
0.885963 16.698113 0.056045 140.707801 0.070186 -12.390447 0.092168 -0.603204
120.0 0.099878 31.834933 0.06086 39.826881 0.015829 173.184517 0.894502 -17.574477
0.060085 43.567515 0.099106 41.777913 0.914516 -16.562254 0.017613 174.598839
0.014243 -178.683654 0.906648 -16.666267 0.08648 35.926095 0.050469 56.920036
0.895603 -17.670512 0.017294 179.641585 0.049367 54.980947 0.081752 40.887068
130.0 0.150341 33.176773 0.11583 42.004829 0.070157 164.410573 0.853385 -51.055658
0.117332 44.421171 0.165235 35.823011 0.872528 -49.973143 0.070636 164.869768
0.069627 166.217575 0.860332 -50.072389 0.164791 43.239575 0.122081 55.190409
0.853654 -51.102342 0.071766 165.429021 0.124999 55.615156 0.159789 45.470912
140.0 0.179828 19.142531 0.145379 25.797666 0.110148 106.467013 0.798338 -80.945247
0.148454 26.600818 0.197687 18.423303 0.816367 -79.7507 0.110386 107.147896
0.108888 106.869456 0.805396 -79.602357 0.217392 25.32385 0.165955 32.933586
0.799316 -81.015929 0.111771 107.281613 0.170987 32.531456 0.207313 25.959156
150.0 0.175466 4.473776 0.147985 8.755507 0.11659 47.425479 0.790429 -108.073774
0.148028 8.32045 0.190279 0.310254 0.811693 -106.816795 0.117328 48.186119
0.114708 47.459276 0.803994 -106.722633 0.218411 6.187289 0.168022 8.982975
0.789969 -108.197724 0.118138 47.643309 0.17148 8.538748 0.20609 6.516324
160.0 0.139767 -7.005655 0.118735 -8.254316 0.090875 -8.023872 0.834759 -137.515301
0.115481 -8.198165 0.141478 -14.961449 0.857705 -136.577721 0.092643 -6.721096
0.089246 -7.43273 0.849164 -136.651344 0.173376 -9.985077 0.12475 -12.509468
0.833031 -137.502559 0.091523 -8.265424 0.126785 -12.247181 0.158744 -11.183318
170.0 0.090324 1.221157 0.06249 -6.090959 0.047123 -47.651645 0.869215 -170.757654
0.060321 -3.355927 0.073004 -1.854621 0.885636 -169.742011 0.050227 -45.111472
0.046944 -44.892517 0.875744 -169.795874 0.100122 -8.303544 0.055784 -10.268148
0.868394 -170.609192 0.047156 -47.303363 0.058355 -8.766914 0.08207 -4.217067
180.0 0.103737 35.392186 0.07329 47.950126 0.036293 -22.858812 0.855912 155.159157
0.075622 49.550081 0.109273 43.5547 0.871213 156.910524 0.040078 -25.7853
0.0393 -23.083915 0.861432 156.805162 0.099955 36.76477 0.073218 54.970903
0.856636 155.347352 0.037714 -22.590481 0.075662 53.643382 0.103274 44.446367
190.0 0.168366 32.880882 0.13578 41.379172 0.073925 -49.27212 0.81165 123.178239
0.138775 41.45109 0.184015 33.122278 0.836006 125.332093 0.077636 -51.075739
0.075772 -50.796678 0.822661 125.22021 0.178365 38.446616 0.143123 44.450323
0.812948 123.348511 0.076763 -49.694501 0.147477 43.908236 0.183623 39.447044
200.0 0.195785 14.91861 0.160852 21.390086 0.097527 -98.881363 0.779558 94.121496
0.16257 20.370896 0.210809 12.413383 0.810248 95.906057 0.101874 -99.259144
0.097315 -99.410836 0.79607 96.222247 0.224002 21.204767 0.171704 21.919369
0.78116 94.298771 0.102206 -99.603264 0.176973 21.085572 0.222563 19.459937
210.0 0.175331 -0.873017 0.146875 3.796474 0.097182 -149.568297 0.789232 65.726968
0.144294 2.143728 0.182538 -6.952062 0.817151 66.994734 0.101814 -148.682892
0.095597 -148.744543 0.808224 67.333501 0.21347 3.618838 0.15495 1.574022
0.791227 65.815519 0.102461 -150.890146 0.158214 0.72608 0.202451 0.751476
220.0 0.124174 -9.120785 0.104786 -7.818185 0.076443 164.712196 0.824288 34.906169
0.099143 -8.38557 0.114251 -16.635965 0.843519 36.240263 0.081208 166.836716
0.074721 167.042319 0.832148 36.250082 0.161574 -6.787635 0.104541 -11.706166
0.824113 34.919686 0.080576 163.008559 0.106346 -12.017889 0.141746 -10.154837
230.0 0.082122 19.515356 0.058832 15.631816 0.047168 139.007099 0.840702 1.624339
0.056355 19.688514 0.070379 26.096299 0.856208 3.626667 0.052985 141.007121
0.047301 143.51596 0.841045 3.805791 0.108259 7.077263 0.056843 18.471806
0.838962 1.763023 0.05019 137.137445 0.058206 18.574802 0.086633 16.665036
240.0 0.140732 40.637733 0.100347 49.840805 0.051733 145.623868 0.81856 -31.581789
0.101935 51.337305 0.146441 45.310008 0.83924 -29.114799 0.056239 141.881868
0.054102 146.756662 0.826896 -28.918182 0.139282 33.722434 0.107933 47.6058
0.818284 -31.399161 0.054498 142.463667 0.111304 47.566835 0.149242 41.962102
250.0 0.19699 28.233449 0.156213 38.398044 0.086384 114.593062 0.780487 -62.479696
0.156416 38.77498 0.208293 29.146241 0.80627 -60.152618 0.088215 112.437758
0.087223 114.483351 0.792564 -60.207427 0.199507 28.634917 0.159758 33.391538
0.780606 -62.437636 0.090151 112.142036 0.165121 32.997542 0.214742 29.347761
260.0 0.212452 11.525161 0.177127 19.435106 0.107327 67.18215 0.763191 -91.21586
0.174968 19.951593 0.220924 10.561803 0.788318 -89.332467 0.109103 66.894296
0.107191 67.063832 0.772592 -89.242963 0.222809 15.170807 0.173506 14.701681
0.762215 -91.244651 0.112974 65.199358 0.178479 14.054802 0.231633 11.956244
270.0 0.186092 -4.642598 0.155609 0.527118 0.103366 18.735508 0.781135 -120.28038
0.153594 1.792279 0.188296 -6.394091 0.799357 -118.561043 0.107062 19.517931
0.103318 18.479273 0.785419 -118.46161 0.207152 2.47761 0.149585 -2.608651
0.779937 -120.333076 0.110279 16.603595 0.153123 -3.060792 0.201163 -3.376454
280.0 0.12181 -11.366546 0.097287 -7.85655 0.078533 -22.791202 0.811091 -151.88708
0.097725 -6.17475 0.117363 -11.593078 0.823915 -149.620171 0.084334 -21.942005
0.078906 -23.282522 0.809037 -149.578646 0.1596 -3.14548 0.09567 -8.077235
0.809557 -151.979438 0.084529 -25.945402 0.098224 -8.212902 0.137879 -7.51379
290.0 0.087975 24.561097 0.06779 32.616318 0.053905 -39.336834 0.814506 174.630437
0.068454 32.63119 0.092011 28.886437 0.83154 177.574506 0.059939 -41.773814
0.05451 -40.161006 0.817928 177.67339 0.123912 13.897824 0.075987 27.185022
0.812764 174.571497 0.056514 -44.217395 0.078362 26.822399 0.110729 20.373424
300.0 0.157616 39.554108 0.126714 48.294879 0.070307 -44.996723 0.781837 141.970507
0.126611 48.65756 0.167453 39.704797 0.807229 145.0901 0.072832 -49.006839
0.071182 -45.852138 0.794517 145.033305 0.166139 31.276352 0.126827 37.197282
0.781089 141.978381 0.071153 -48.17552 0.130891 36.814253 0.168548 32.698942
310.0 0.214504 24.048433 0.175265 34.231681 0.102785 -81.044873 0.744926 112.114181
0.175197 34.3101 0.225489 24.148005 0.775083 114.842882 0.104479 -82.817841
0.10446 -81.661111 0.760356 114.892088 0.222482 23.484043 0.161773 23.065724
0.745756 112.153606 0.104235 -83.107785 0.167369 22.441199 0.217034 21.932799
320.0 0.213995 5.483578 0.184159 17.575298 0.117337 -126.949133 0.742007 83.800116
0.182352 17.399772 0.229978 5.568909 0.7675 85.952365 0.120256 -127.299436
0.11927 -127.284928 0.755381 86.252369 0.233865 9.884897 0.158135 7.865499
0.744452 83.80176 0.119466 -128.496919 0.163367 6.863957 0.221787 8.320093
330.0 0.168988 -7.905328 0.159913 4.093599 0.107527 -171.287908 0.770072 53.683665
0.156447 4.280236 0.185764 -9.833421 0.783646 56.102413 0.112276 -171.04461
0.108475 -170.975844 0.774299 56.30796 0.20821 -0.476558 0.130917 -2.039206
0.772743 53.563276 0.110288 -172.794395 0.134233 -3.45356 0.19313 -1.255021
340.0 0.103212 -3.67455 0.112089 2.381285 0.083344 155.280183 0.789934 20.841071
0.108926 3.707438 0.112453 -9.077558 0.800087 24.399959 0.088886 154.42294
0.083801 157.336555 0.791294 24.476727 0.160119 -1.918617 0.090937 0.219313
0.7904 20.689296 0.086141 152.987598 0.091246 -0.915617 0.148874 -0.202732
350.0 0.108666 36.629825 0.101687 29.029342 0.074508 141.357845 0.773346 -12.576698
0.102045 31.42187 0.106157 31.858962 0.793872 -8.174782 0.076633 138.25093
0.077594 144.197662 0.784428 -8.262802 0.142365 17.058434 0.086502 30.795603
0.771806 -12.580215 0.075639 137.587144 0.088283 31.477961 0.143248 18.399071
360.0 0.179214 37.429149 0.148282 35.180783 0.097885 119.458808 0.734887 -43.703262
0.151404 36.106114 0.182504 36.811988 0.768125 -39.561259 0.096935 118.422354
0.101997 120.831692 0.756155 -39.600872 0.190854 25.560548 0.133051 36.244304
0.733373 -43.530385 0.097037 116.368719 0.137969 35.801294 0.189237 21.987399
370.0 0.21813 24.101157 0.181408 25.268475 0.119674 81.126118 0.718184 -72.327008
0.183752 24.945349 0.234622 22.05741 0.751476 -69.328804 0.120224 81.508623
0.122847 82.047377 0.741174 -69.121513 0.233491 17.287429 0.164568 24.890443
0.717681 -72.079867 0.119614 78.737218 0.169069 23.737996 0.217079 12.685057
380.0 0.216565 10.247771 0.187924 12.236662 0.121306 40.367048 0.735808 -101.643721
0.186615 11.576318 0.235385 5.318377 0.753222 -99.105025 0.124255 40.389258
0.122735 40.817611 0.74631 -98.981777 0.239281 5.099295 0.16785 11.023796
0.736189 -101.432151 0.123403 37.406404 0.170243 10.160311 0.210405 1.136187
390.0 0.177555 2.037917 0.161545 0.483365 0.109375 5.277779 0.757476 -133.336819
0.157888 0.374476 0.191432 -6.742035 0.762273 -129.72688 0.11196 3.820802
0.108226 5.5156 0.75581 -129.768591 0.20592 -4.656756 0.140142 -0.024655
0.758278 -133.215226 0.111406 0.531917 0.142824 -0.135108 0.165709 -5.042964
400.0 0.140188 11.852455 0.116281 2.534546 0.101079 -21.406009 0.756008 -166.178299
0.113246 3.801944 0.132703 -1.855369 0.767728 -161.198839 0.100249 -23.381836
0.098843 -20.605746 0.760725 -161.340466 0.155736 -1.648226 0.100212 5.336259
0.756995 -166.191502 0.099192 -27.330964 0.103709 4.651468 0.131281 10.764411
410.0 0.164536 27.566253 0.113574 25.485248 0.107926 -47.007234 0.731162 161.994565
0.11396 26.888191 0.137619 23.978936 0.761343 167.224526 0.105738 -47.280873
0.105813 -46.240613 0.752593 167.101165 0.15198 17.213537 0.105017 29.187334
0.731169 161.802015 0.102376 -50.995413 0.106763 27.88288 0.167488 26.204943
420.0 0.213526 24.277481 0.157577 29.841307 0.119915 -79.072426 0.709547 132.255494
0.157291 30.200674 0.198925 26.158479 0.75086 136.376583 0.120283 -78.593739
0.117632 -78.602706 0.742147 136.438595 0.196643 23.161057 0.147284 31.754389
0.707252 132.003713 0.115815 -80.844799 0.149419 31.056981 0.215523 21.604581
430.0 0.234238 13.027015 0.187349 19.583961 0.124966 -114.048367 0.712475 103.050653
0.184977 20.112722 0.236877 13.348032 0.745823 105.939002 0.127672 -114.518809
0.123016 -113.951981 0.738153 106.040837 0.23605 16.862379 0.174749 21.470669
0.708884 102.916503 0.124871 -115.694756 0.177745 20.601529 0.233568 11.712564
440.0 0.218846 1.696237 0.185589 7.335492 0.124212 -148.125636 0.729622 72.359447
0.182821 8.445068 0.226066 -1.139479 0.746493 75.44543 0.126037 -149.937415
0.122509 -148.483517 0.737856 75.632598 0.248142 6.433258 0.175835 9.647689
0.72664 72.371868 0.125958 -151.107341 0.176904 8.642123 0.224874 2.809692
450.0 0.172527 -2.924615 0.156261 -1.35177 0.12063 179.257728 0.736926 40.116227
0.154835 0.355794 0.176522 -9.364133 0.750146 44.487666 0.119551 177.18734
0.119183 178.590909 0.742375 44.857754 0.224601 -3.306851 0.152599 0.249951
0.736147 40.190009 0.12054 175.04455 0.152 0.272002 0.192479 -2.052604
460.0 0.142174 11.093225 0.11729 3.52944 0.115833 149.130211 0.722406 7.876838
0.118463 5.668395 0.127671 2.298177 0.748456 13.089371 0.113217 148.261744
0.114445 148.279741 0.742185 13.458597 0.175858 -4.046921 0.115227 2.530873
0.723578 7.833297 0.112428 145.422969 0.11767 4.002327 0.162747 6.18785
470.0 0.169313 24.121482 0.118391 23.922805 0.115574 121.922375 0.699408 -22.816354
0.121869 24.517464 0.148768 25.159379 0.740295 -18.156728 0.115151 122.288694
0.114663 121.309079 0.734132 -17.816445 0.158968 13.254993 0.112456 22.876686
0.699958 -23.027825 0.112592 120.190901 0.11884 21.953249 0.183223 18.193082
480.0 0.20959 23.598497 0.157487 29.06419 0.12455 93.913199 0.690274 -52.296456
0.158898 28.615259 0.207011 25.263678 0.72947 -49.06942 0.127518 93.566529
0.124992 93.046224 0.723343 -48.773153 0.210166 22.082024 0.152421 28.028267
0.68918 -52.532946 0.125117 92.288743 0.154421 25.55429 0.227854 17.119951
490.0 0.240987 15.98595 0.191385 21.557454 0.136554 61.33293 0.698464 -82.269598
0.19007 21.445024 0.24559 14.243276 0.719242 -79.464045 0.140089 59.608679
0.13694 59.867856 0.712064 -79.193792 0.261433 13.45596 0.185049 18.69016
0.696352 -82.481881 0.138258 58.569654 0.182045 17.633098 0.255965 7.39771
500.0 0.239892 4.858808 0.19967 9.418772 0.140868 26.200935 0.708504 -113.633053
0.197516 9.931222 0.2438 0.632653 0.716988 -109.588222 0.142926 23.748726
0.140075 24.605673 0.709771 -109.242445 0.266438 0.067502 0.187706 5.232846
0.705223 -113.815861 0.141225 22.707419 0.185579 5.955245 0.242469 -4.170357
510.0 0.202073 -0.853513 0.173419 -0.806077 0.136987 -7.103653 0.704504 -145.711366
0.172168 0.253827 0.199132 -8.975291 0.720673 -140.190164 0.137 -9.706565
0.134883 -8.341328 0.714338 -139.902537 0.226177 -9.63803 0.157291 -4.683384
0.700335 -145.807973 0.134736 -10.565772 0.159436 -3.280807 0.197189 -8.018464
520.0 0.172466 7.321735 0.13227 1.854378 0.134045 -36.999539 0.686642 -177.069049
0.133179 3.315392 0.145716 -0.670668 0.722439 -171.284485 0.13224 -38.945976
0.131639 -37.297246 0.715615 -171.077635 0.172911 -6.696269 0.120146 -1.155859
0.682432 -177.041782 0.130054 -39.163548 0.123983 -0.568323 0.172123 1.357259
530.0 0.192731 18.383129 0.130368 20.76014 0.137919 -66.352385 0.671713 152.936698
0.133274 21.009264 0.164472 20.970712 0.719562 157.462781 0.136475 -67.136833
0.13706 -66.067995 0.712618 157.631947 0.166709 10.864335 0.113796 15.504716
0.668783 153.115281 0.135642 -67.02443 0.117145 15.543383 0.188653 10.35197
540.0 0.236382 17.435907 0.174889 25.534139 0.143859 -97.680449 0.672461 123.217817
0.175556 24.970688 0.228516 20.356572 0.712055 126.381089 0.14484 -98.066971
0.144119 -97.611188 0.70455 126.482982 0.213758 16.93924 0.142733 24.166478
0.672535 123.415964 0.145316 -98.23319 0.147218 23.776008 0.219671 10.715483
550.0 0.265373 9.041629 0.210739 15.892872 0.147339 -129.330461 0.680926 92.471547
0.208593 15.674174 0.266749 7.667237 0.703431 95.734229 0.149857 -130.428123
0.147327 -129.565781 0.695598 95.867719 0.254967 9.714978 0.176812 18.831566
0.682843 92.456641 0.150692 -131.159033 0.180886 17.952871 0.243812 5.038208
560.0 0.262507 -1.690765 0.212448 2.953565 0.1527 -160.51877 0.682479 60.858787
0.209191 3.420166 0.254559 -6.496645 0.698639 65.455416 0.153172 -162.366212
0.15142 -160.794165 0.691722 65.536917 0.259443 -1.40925 0.188245 7.111569
0.683306 60.678717 0.153253 -163.46495 0.190754 6.474291 0.245181 -3.749059
570.0 0.225953 -8.667433 0.181339 -6.929746 0.159301 166.463352 0.672526 29.404666
0.179568 -5.673435 0.203825 -14.638935 0.700568 35.105532 0.156463 165.261223
0.156781 166.648699 0.693053 35.08637 0.225003 -9.823984 0.167113 -3.797069
0.672253 29.246947 0.156072 164.147628 0.170057 -4.178377 0.215823 -10.258114
580.0 0.188595 -5.618641 0.137064 -4.975669 0.158493 132.455693 0.660149 -0.996076
0.138706 -3.457242 0.153101 -6.786725 0.704748 4.12249 0.155632 132.624551
0.156402 133.215758 0.697036 4.112201 0.176777 -6.796241 0.126826 -4.008691
0.660031 -1.148058 0.155363 131.424397 0.128398 -5.208521 0.180607 -7.265362
590.0 0.182147 4.957958 0.129425 13.688249 0.151634 101.475727 0.66002 -30.841646
0.132303 13.407804 0.16593 12.374861 0.701694 -27.298716 0.151834 102.202289
0.151014 102.1825 0.694423 -27.369265 0.171863 9.062478 0.114156 14.64161
0.659335 -31.079176 0.151621 100.827686 0.112585 14.757808 0.174528 3.693536
600.0 0.215492 10.182579 0.169531 20.414057 0.152275 74.007403 0.668806 -61.591129
0.168487 19.690013 0.218562 12.335377 0.690986 -58.337651 0.154747 73.866574
0.151522 74.075397 0.68346 -58.399153 0.212463 15.036699 0.149662 24.359774
0.665978 -61.857217 0.154459 72.278158 0.151819 25.558687 0.204099 9.798848
610.0 0.246172 3.543919 0.205893 12.300706 0.164523 44.48376 0.670114 -93.228247
0.202328 12.511851 0.24447 1.63344 0.681073 -88.672938 0.16592 43.298821
0.162004 44.443145 0.674964 -88.659746 0.250554 10.185478 0.188122 17.861298
0.665118 -93.324933 0.165005 41.508757 0.193444 18.239855 0.235704 5.547763
620.0 0.239622 -5.268519 0.21014 -0.893076 0.175554 10.786525 0.660125 -124.55623
0.207718 0.241515 0.228269 -9.746365 0.678902 -118.646686 0.174517 9.359637
0.172498 11.096808 0.67457 -118.671926 0.261659 1.034842 0.201364 5.228148
0.655936 -124.355092 0.172306 7.654742 0.206043 5.136576 0.241441 -1.84081
630.0 0.209749 -9.238712 0.174231 -11.667018 0.176323 -23.897676 0.649737 -154.916841
0.175793 -10.291028 0.179996 -14.060875 0.686148 -149.047666 0.173493 -25.20736
0.174151 -23.528486 0.682938 -149.123819 0.235965 -6.460198 0.177439 -6.983807
