! File created by SignalIntegrity v1.1.13: Signal and Power Integrity Tools
! https://github.com/TeledyneLeCroy/SignalIntegrity
# MHz S MA R 50.0
0.0 0.00319 0.0 0.993321 0.0 0.996681 0.0 0.001825 180.0
500.0 0.049641 10.899534 0.984872 -80.952677 0.986684 -81.049512 0.046975 9.864895
1000.0 0.061951 -61.954701 0.967705 -161.234425 0.966251 -161.435622 0.058072 -74.358912
1500.0 0.018837 -112.021747 0.953522 118.978291 0.949763 118.702442 0.015574 -178.980665
2000.0 0.061114 -54.441783 0.941594 39.180337 0.937768 38.901922 0.059371 -43.098617
2500.0 0.092164 -126.96658 0.926645 -40.607143 0.923858 -40.806027 0.090307 -126.863622
3000.0 0.033236 156.978917 0.911445 -120.193433 0.909036 -120.252979 0.035573 157.659636
3500.0 0.065808 -101.739009 0.900221 160.229684 0.897283 160.320472 0.060733 -116.249577
4000.0 0.097319 -178.040699 0.890057 80.536409 0.886816 80.722151 0.093957 166.344159
4500.0 0.020343 126.95778 0.877816 1.015508 0.875181 1.202102 0.019202 89.785041
5000.0 0.08936 -164.033143 0.865789 -78.226247 0.863968 -78.08498 0.087578 -174.59305
5500.0 0.102157 122.634046 0.854796 -157.521925 0.853107 -157.361902 0.10329 105.366034
6000.0 0.014614 139.855755 0.841953 123.031103 0.839941 123.307363 0.003852 -72.267789
6500.0 0.115436 133.173934 0.828176 43.750459 0.826202 44.12659 0.114243 130.839691
7000.0 0.107258 59.717517 0.817203 -35.327349 0.815885 -34.991609 0.105783 53.807248
7500.0 0.025344 121.131721 0.80723 -114.538108 0.806863 -114.351419 0.026548 127.357696
8000.0 0.129909 72.10609 0.794396 166.096705 0.794841 166.146784 0.132494 70.682257
8500.0 0.093261 1.048609 0.781812 86.858615 0.782163 86.828547 0.094547 2.250287
9000.0 0.055089 77.388588 0.773893 7.713521 0.77272 7.642939 0.056862 70.81126
9500.0 0.138013 15.628457 0.766668 -71.569373 0.76368 -71.612466 0.138931 13.434167
10000.0 0.068561 -40.394271 0.754819 -150.903576 0.751777 -150.828853 0.070761 -47.627963
10500.0 0.088352 17.828101 0.741977 129.856712 0.740537 130.039776 0.078559 25.447266
11000.0 0.131128 -39.534479 0.733621 50.543811 0.73273 50.693593 0.130865 -36.141946
11500.0 0.051829 -72.612544 0.727067 -28.906142 0.724509 -28.895323 0.049082 -84.906537
12000.0 0.089257 -38.219557 0.717627 -108.228686 0.713851 -108.311995 0.082128 -27.843479
12500.0 0.098603 -92.024755 0.706903 172.558564 0.704771 172.466527 0.10227 -90.734325
13000.0 0.031648 -113.869623 0.697703 93.041427 0.698111 92.930039 0.027215 -134.853595
13500.0 0.062649 -83.970285 0.688731 13.210916 0.689061 13.029106 0.060694 -82.340382
14000.0 0.068841 -145.220732 0.679088 -66.470829 0.677018 -66.699471 0.073153 -154.05596
14500.0 0.027986 143.462685 0.670171 -145.979531 0.666716 -146.165012 0.036195 134.698715
15000.0 0.022266 -138.812669 0.661135 134.237735 0.6586 134.12938 0.026239 -179.149523
15500.0 0.066756 139.35152 0.650104 54.189852 0.64891 54.061807 0.079458 126.031903
16000.0 0.077228 64.080093 0.638888 -25.693853 0.638035 -26.023991 0.089442 64.396689
16500.0 0.029165 61.908015 0.629065 -105.457492 0.628147 -106.079165 0.043964 67.866495
17000.0 0.119244 64.697565 0.617642 174.50527 0.616785 173.77852 0.137199 65.150925
17500.0 0.135375 6.593547 0.603964 94.25265 0.602716 93.791529 0.151827 12.501541
18000.0 0.06847 26.546242 0.5932 14.0132 0.59116 13.977347 0.08812 26.599816
18500.0 0.196601 7.462315 0.585148 -66.459413 0.583313 -66.357643 0.213948 9.688849
19000.0 0.161866 -43.063535 0.570918 -147.271753 0.571226 -147.431151 0.182525 -36.30561
19500.0 0.127365 -12.687806 0.550316 132.250688 0.553616 131.752774 0.146443 -16.372537
20000.0 0.232203 -51.230683 0.539688 52.585045 0.544387 51.903208 0.243193 -49.069807
