! C:\LeCroy\WavePulser\Measurements\HDMIFixtureThru.s2p
!
! Thu Jun  6 10:26:09 2019
!
!!Measured using Teledyne LeCroy WavePulser LCRY4096E1
!SingleEnded 
!
! freq S11 S21 S12 S22 
# MHz S MA R 50.00  
0.000000000   0.006051   0.000000   1.002129  -0.000000   1.007262   0.000000   0.001359 -180.000000 
5.000000000   0.005329 -44.517848   1.002137  -0.833409   1.005829  -1.047651   0.002225 155.863116 
10.000000000   0.004172 -104.035500   1.001960  -1.681563   1.002652  -1.975902   0.004306 128.082881 
15.000000000   0.004875 -171.231846   1.001242  -2.537006   0.999758  -2.768749   0.006482 102.400295 
20.000000000   0.006835 146.397351   0.999953  -3.372570   0.998348  -3.488435   0.007686  80.563484 
25.000000000   0.008200 121.538479   0.998579  -4.168856   0.998474  -4.210965   0.007394  65.641761 
30.000000000   0.008592 108.459622   0.997754  -4.939183   0.999373  -4.983677   0.006323  65.225063 
35.000000000   0.008879 104.964035   0.997693  -5.723280   1.000149  -5.807320   0.006691  78.267292 
40.000000000   0.009877 103.414378   0.997932  -6.554862   1.000355  -6.655774   0.008765  81.135048 
45.000000000   0.010904  97.546079   0.997705  -7.429516   1.000009  -7.506462   0.010458  73.993472 
50.000000000   0.010760  89.709153   0.996651  -8.303972   0.999262  -8.350738   0.010757  66.021376 
55.000000000   0.009310  87.108560   0.995218  -9.135098   0.998189  -9.184057   0.010056  63.306614 
60.000000000   0.008308  97.071610   0.994275  -9.919464   0.996937  -9.996147   0.009642  67.446528 
65.000000000   0.009644 107.590664   0.994285 -10.694095   0.995883 -10.784239   0.010191  72.244984 
70.000000000   0.011773 105.393031   0.994950 -11.497350   0.995392 -11.565770   0.010999  73.384331 
75.000000000   0.012669  97.397250   0.995575 -12.331644   0.995403 -12.370853   0.011411  73.191816 
80.000000000   0.012173  91.851138   0.995810 -13.165192   0.995380 -13.211353   0.011536  74.463590 
85.000000000   0.011899  92.364526   0.995959 -13.970176   0.994852 -14.063030   0.011882  77.615369 
90.000000000   0.013113  91.480900   0.996539 -14.754244   0.993938 -14.889191   0.012844  80.464498 
95.000000000   0.014441  82.653261   0.997618 -15.552012   0.993203 -15.675552   0.014337  80.168978 
100.000000000   0.013928  69.657146   0.998630 -16.390332   0.993184 -16.439851   0.015708  75.463397 
105.000000000   0.011089  61.102038   0.998748 -17.255261   0.993963 -17.222385   0.015931  67.241663 
110.000000000   0.008333  74.042137   0.997758 -18.093523   0.994937 -18.056539   0.014121  58.661020 
115.000000000   0.010908  95.209732   0.996535 -18.867197   0.995204 -18.933988   0.010493  57.880768 
120.000000000   0.016230  90.440546   0.996192 -19.612092   0.994283 -19.808461   0.008299  81.666276 
125.000000000   0.019768  75.678751   0.996636 -20.407006   0.992472 -20.624375   0.011942 102.926699 
130.000000000   0.019994  61.107363   0.996579 -21.282212   0.990934 -21.352776   0.017574  98.833229 
135.000000000   0.017647  53.296632   0.994905 -22.180466   0.990914 -22.040798   0.021486  85.869346 
140.000000000   0.015716  57.037781   0.992041 -23.005421   0.992420 -22.780201   0.022357  71.878925 
145.000000000   0.016842  64.256910   0.989848 -23.723887   0.994214 -23.617341   0.020510  61.502131 
150.000000000   0.019256  64.416715   0.989860 -24.413567   0.995068 -24.528234   0.017798  58.926121 
155.000000000   0.020441  61.545828   0.991752 -25.188584   0.994482 -25.448080   0.016819  64.137401 
160.000000000   0.020598  61.626034   0.993704 -26.095750   0.992941 -26.314586   0.018431  68.317236 
165.000000000   0.021620  64.723448   0.993950 -27.075004   0.991520 -27.109440   0.020853  66.436962 
170.000000000   0.023840  65.719240   0.992336 -28.004677   0.991046 -27.867816   0.022359  61.420957 
175.000000000   0.025503  63.816005   0.990456 -28.815887   0.991425 -28.645969   0.022564  57.061600 
180.000000000   0.025802  62.837424   0.989968 -29.551178   0.991801 -29.464859   0.022189  55.695731 
185.000000000   0.026192  65.246184   0.990963 -30.305306   0.991466 -30.290705   0.022416  57.217708 
190.000000000   0.028363  67.896099   0.992195 -31.125440   0.990655 -31.073913   0.023836  58.814791 
195.000000000   0.031342  66.685187   0.992456 -31.974238   0.990305 -31.805351   0.025807  58.194199 
200.000000000   0.032905  62.837376   0.991839 -32.784297   0.991055 -32.534652   0.027240  55.995404 
205.000000000   0.032559  60.060387   0.991354 -33.537373   0.992507 -33.325509   0.027782  54.395151 
210.000000000   0.032058  60.374525   0.991712 -34.277770   0.993519 -34.198201   0.028218  54.780318 
215.000000000   0.033169  61.334960   0.992620 -35.058985   0.993083 -35.108217   0.029606  55.869414 
220.000000000   0.035036  59.368676   0.993237 -35.892950   0.991275 -35.980194   0.031725  55.102442 
225.000000000   0.035557  55.032666   0.993029 -36.745369   0.989265 -36.772035   0.033212  52.212052 
230.000000000   0.034174  51.325494   0.992312 -37.572659   0.988325 -37.515532   0.033221  49.157300 
235.000000000   0.032272  50.370320   0.991884 -38.368724   0.988669 -38.282905   0.032273  47.980107 
240.000000000   0.031468  51.190245   0.992229 -39.170742   0.989396 -39.117808   0.031701  48.895806 
245.000000000   0.031634  51.031092   0.992982 -40.022209   0.989516 -39.997290   0.032094  49.864514 
250.000000000   0.031548  49.588744   0.993174 -40.926460   0.988867 -40.865493   0.032638  49.437561 
255.000000000   0.030987  48.633924   0.992166 -41.831673   0.988097 -41.691562   0.032499  48.560939 
260.000000000   0.030838  48.689769   0.990288 -42.676042   0.987756 -42.490757   0.032009  48.752072 
265.000000000   0.031473  48.138631   0.988510 -43.438573   0.987798 -43.290071   0.032128  49.825066 
270.000000000   0.032056  46.025936   0.987649 -44.147318   0.987845 -44.095022   0.033066  50.011643 
275.000000000   0.031820  43.642496   0.987828 -44.851521   0.987697 -44.892086   0.034014  48.416416 
280.000000000   0.031193  42.719280   0.988598 -45.585778   0.987516 -45.671787   0.034243  45.873546 
285.000000000   0.031188  43.073405   0.989384 -46.353885   0.987449 -46.441079   0.033795  43.546225 
290.000000000   0.031912  42.949578   0.989901 -47.143240   0.987442 -47.212045   0.033115  41.836903 
295.000000000   0.032497  41.959792   0.990176 -47.946183   0.987325 -47.989227   0.032424  40.572024 
300.000000000   0.032598  41.621767   0.990243 -48.767119   0.987101 -48.765165   0.031725  39.842875 
305.000000000   0.033089  42.866234   0.989900 -49.609813   0.986902 -49.537461   0.031249  40.011225 
310.000000000   0.034876  44.193374   0.988933 -50.460654   0.986915 -50.316969   0.031468  40.805341 
315.000000000   0.037486  43.625807   0.987400 -51.293076   0.987078 -51.118256   0.032521  41.102753 
320.000000000   0.039676  41.304534   0.985740 -52.087769   0.987132 -51.944515   0.033954  40.167082 
325.000000000   0.040870  38.643761   0.984564 -52.847725   0.986958 -52.781251   0.035221  38.330621 
330.000000000   0.041413  36.553194   0.984251 -53.595211   0.986745 -53.615345   0.036166  36.304946 
335.000000000   0.041732  34.921957   0.984829 -54.361748   0.986721 -54.452873   0.036909  34.415843 
340.000000000   0.041746  33.476979   0.985956 -55.172311   0.986832 -55.310112   0.037485  32.692481 
345.000000000   0.041297  32.598024   0.987038 -56.033554   0.986646 -56.190600   0.037842  31.334943 
350.000000000   0.040786  32.793911   0.987470 -56.924475   0.985756 -57.069094   0.038155  30.660566 
355.000000000   0.040840  33.678365   0.987063 -57.807879   0.984267 -57.907475   0.038814  30.539217 
360.000000000   0.041448  34.265913   0.986093 -58.653292   0.982805 -58.687083   0.039955  30.259025 
365.000000000   0.042056  34.318913   0.984986 -59.451283   0.981913 -59.424205   0.041217  29.320849 
370.000000000   0.042487  34.392604   0.984095 -60.208391   0.981716 -60.150949   0.042127  27.915691 
375.000000000   0.043150  34.664063   0.983626 -60.939441   0.981949 -60.888909   0.042556  26.571291 
380.000000000   0.044264  34.450532   0.983663 -61.658949   0.982318 -61.637008   0.042673  25.579205 
385.000000000   0.045313  33.227186   0.984295 -62.382545   0.982887 -62.387010   0.042629  24.942493 
390.000000000   0.045656  31.456869   0.985417 -63.132605   0.983839 -63.150869   0.042474  24.715848 
395.000000000   0.045329  30.054042   0.986813 -63.929399   0.985129 -63.955253   0.042416  25.064388 
400.000000000   0.044972  29.356070   0.987953 -64.782630   0.986239 -64.814403   0.042871  25.794194 
405.000000000   0.045024  28.846751   0.988296 -65.677420   0.986541 -65.713466   0.044020  26.136229 
410.000000000   0.045294  27.978274   0.987555 -66.578076   0.985883 -66.610982   0.045464  25.436881 
415.000000000   0.045452  26.854825   0.985994 -67.446947   0.984668 -67.477457   0.046570  23.786787 
420.000000000   0.045545  25.795799   0.984168 -68.264378   0.983412 -68.308559   0.047016  21.759673 
425.000000000   0.045777  24.733119   0.982652 -69.035452   0.982409 -69.116344   0.046866  19.868344 
430.000000000   0.046060  23.420934   0.981813 -69.781656   0.981682 -69.912885   0.046335  18.395941 
435.000000000   0.046129  21.989167   0.981653 -70.528454   0.981163 -70.700281   0.045664  17.540000 
440.000000000   0.046010  20.871857   0.981950 -71.291487   0.980913 -71.478360   0.045225  17.411900 
445.000000000   0.046056  20.203191   0.982469 -72.072542   0.981015 -72.253779   0.045481  17.704208 
450.000000000   0.046457  19.628852   0.983040 -72.867889   0.981416 -73.034922   0.046586  17.616135 
455.000000000   0.047005  18.888845   0.983628 -73.680364   0.981918 -73.828848   0.048101  16.472868 
460.000000000   0.047500  18.229632   0.984136 -74.509690   0.982361 -74.635397   0.049309  14.323896 
465.000000000   0.048171  17.911433   0.984305 -75.355992   0.982635 -75.446628   0.049761  11.772339 
470.000000000   0.049363  17.608355   0.984015 -76.204449   0.982718 -76.259861   0.049460   9.428099 
475.000000000   0.050905  16.703012   0.983305 -77.044100   0.982609 -77.073285   0.048633   7.673600 
480.000000000   0.052144  15.115631   0.982324 -77.867587   0.982279 -77.883583   0.047541   6.761312 
485.000000000   0.052632  13.441380   0.981220 -78.670510   0.981772 -78.684180   0.046557   6.903706 
490.000000000   0.052556  12.323302   0.980160 -79.456644   0.981241 -79.477624   0.046221   7.966990 
495.000000000   0.052412  11.896618   0.979232 -80.233431   0.980757 -80.266530   0.046891   9.213299 
500.000000000   0.052476  11.892481   0.978527 -81.004999   0.980309 -81.061865   0.048330   9.762396 
505.000000000   0.052730  12.115275   0.977997 -81.768273   0.979762 -81.860783   0.049859   9.371415 
510.000000000   0.053232  12.538764   0.977850 -82.529690   0.979191 -82.658230   0.050963   8.501472 
515.000000000   0.054149  12.957056   0.978195 -83.301253   0.978686 -83.449224   0.051624   7.742389 
520.000000000   0.055420  12.975020   0.979027 -84.100252   0.978474 -84.242548   0.052163   7.366282 
525.000000000   0.056655  12.420396   0.980001 -84.940417   0.978516 -85.051319   0.052909   7.313422 
530.000000000   0.057522  11.519843   0.980700 -85.819077   0.978625 -85.885951   0.054109   7.368846 
535.000000000   0.058032  10.567855   0.980802 -86.721083   0.978414 -86.739033   0.055937   7.147598 
540.000000000   0.058354   9.602596   0.980192 -87.614948   0.977848 -87.588136   0.058293   6.131765 
545.000000000   0.058472   8.539505   0.979041 -88.476502   0.977086 -88.414560   0.060620   3.992741 
550.000000000   0.058275   7.471335   0.977869 -89.294654   0.976556 -89.221998   0.062139   0.921489 
555.000000000   0.057888   6.626772   0.976978 -90.077783   0.976286 -90.018224   0.062343  -2.456240 
560.000000000   0.057662   5.990414   0.976481 -90.837492   0.976162 -90.810530   0.061313  -5.429240 
565.000000000   0.057749   5.200059   0.976380 -91.584583   0.976054 -91.589738   0.059590  -7.520738 
570.000000000   0.057857   3.967296   0.976689 -92.324727   0.976220 -92.347864   0.057805  -8.636443 
575.000000000   0.057604   2.459345   0.977436 -93.077294   0.976837 -93.095222   0.056384  -8.945589 
580.000000000   0.056969   1.108817   0.978361 -93.852670   0.977998 -93.855970   0.055587  -8.720186 
585.000000000   0.056300   0.175488   0.979120 -94.659080   0.979369 -94.648667   0.055529  -8.357810 
590.000000000   0.055958  -0.437848   0.979458 -95.493586   0.980413 -95.478645   0.056044  -8.313156 
595.000000000   0.056060  -0.985601   0.979138 -96.333175   0.980776 -96.324624   0.056691  -8.754444 
600.000000000   0.056563  -1.638352   0.978344 -97.154535   0.980520 -97.163987   0.057084  -9.406638 
605.000000000   0.057417  -2.520708   0.977309 -97.957155   0.979804 -97.990428   0.057255  -9.804701 
610.000000000   0.058463  -3.751158   0.976485 -98.742002   0.978871 -98.803414   0.057615  -9.748398 
615.000000000   0.059422  -5.287208   0.976046 -99.525700   0.977797 -99.608214   0.058599  -9.482149 
620.000000000   0.060112  -6.855498   0.975873 -100.325913   0.976506 -100.408361   0.060334  -9.509029 
625.000000000   0.060642  -8.170335   0.975820 -101.144317   0.975173 -101.195659   0.062585 -10.255247 
630.000000000   0.061284  -9.223305   0.975692 -101.979935   0.973895 -101.969526   0.064878 -11.920567 
635.000000000   0.062093 -10.220222   0.975343 -102.815588   0.972884 -102.734338   0.066593 -14.446309 
640.000000000   0.062870 -11.254937   0.974822 -103.643250   0.972175 -103.499023   0.067130 -17.460121 
645.000000000   0.063458 -12.175257   0.974138 -104.444023   0.971764 -104.268130   0.066230 -20.337856 
650.000000000   0.063975 -12.838909   0.973690 -105.208065   0.971634 -105.043447   0.064208 -22.389000 
655.000000000   0.064583 -13.353535   0.973769 -105.946895   0.971785 -105.826114   0.061873 -23.201458 
660.000000000   0.065180 -13.913854   0.974597 -106.677547   0.972176 -106.615596   0.060070 -22.890342 
665.000000000   0.065486 -14.488714   0.976098 -107.424408   0.972779 -107.411579   0.059244 -22.026153 
670.000000000   0.065438 -14.826932   0.977923 -108.214878   0.973586 -108.215880   0.059337 -21.261626 
675.000000000   0.065296 -14.784991   0.979485 -109.056502   0.974484 -109.030736   0.059968 -21.002469 
680.000000000   0.065345 -14.513183   0.980245 -109.945377   0.975368 -109.862997   0.060671 -21.326649 
685.000000000   0.065580 -14.273351   0.979724 -110.848349   0.975985 -110.708581   0.061056 -21.986688 
690.000000000   0.065846 -14.180154   0.977995 -111.726863   0.976144 -111.556322   0.061067 -22.540507 
695.000000000   0.066047 -14.251439   0.975453 -112.553600   0.975798 -112.391240   0.061091 -22.657438 
700.000000000   0.066125 -14.530675   0.972885 -113.314012   0.975183 -113.198290   0.061717 -22.476529 
705.000000000   0.065911 -15.038559   0.970838 -114.020282   0.974569 -113.975846   0.063189 -22.576279 
710.000000000   0.065254 -15.615705   0.969745 -114.701501   0.974109 -114.737928   0.065182 -23.482725 
715.000000000   0.064276 -16.019402   0.969684 -115.392269   0.973838 -115.500070   0.067071 -25.292711 
720.000000000   0.063327 -16.192136   0.970397 -116.116812   0.973546 -116.269948   0.068314 -27.754313 
725.000000000   0.062629 -16.379725   0.971641 -116.885679   0.973181 -117.042686   0.068623 -30.485835 
730.000000000   0.062054 -16.817770   0.973122 -117.702736   0.972832 -117.816580   0.067932 -33.071058 
735.000000000   0.061382 -17.462896   0.974530 -118.566398   0.972582 -118.598541   0.066453 -35.072163 
740.000000000   0.060647 -18.108476   0.975522 -119.468663   0.972343 -119.399440   0.064725 -36.145437 
745.000000000   0.060088 -18.705437   0.975835 -120.383807   0.971901 -120.216737   0.063484 -36.321959 
750.000000000   0.059830 -19.420093   0.975484 -121.281847   0.971142 -121.035495   0.063205 -36.131619 
755.000000000   0.059779 -20.353028   0.974836 -122.143208   0.970265 -121.840989   0.063747 -36.243892 
760.000000000   0.059870 -21.420141   0.974307 -122.968617   0.969571 -122.632216   0.064559 -36.952936 
765.000000000   0.060219 -22.543543   0.974190 -123.777521   0.969259 -123.423492   0.065154 -38.112449 
770.000000000   0.060953 -23.830573   0.974322 -124.596957   0.969217 -124.231175   0.065358 -39.413221 
775.000000000   0.061992 -25.457374   0.974252 -125.434149   0.969161 -125.057120   0.065262 -40.603849 
780.000000000   0.063095 -27.439748   0.973581 -126.272433   0.968895 -125.888982   0.065100 -41.573879 
785.000000000   0.064078 -29.633505   0.972277 -127.080657   0.968450 -126.711219   0.065154 -42.395229 
790.000000000   0.064870 -31.901001   0.970770 -127.839305   0.968036 -127.517259   0.065582 -43.356555 
795.000000000   0.065382 -34.137422   0.969587 -128.552902   0.967832 -128.312689   0.066199 -44.821577 
800.000000000   0.065517 -36.168767   0.969051 -129.245514   0.967886 -129.106864   0.066485 -46.929951 
805.000000000   0.065350 -37.746930   0.969136 -129.943414   0.968135 -129.905790   0.065891 -49.421669 
810.000000000   0.065181 -38.751664   0.969631 -130.662668   0.968549 -130.714492   0.064245 -51.756545 
815.000000000   0.065301 -39.359109   0.970268 -131.406409   0.968998 -131.534254   0.061835 -53.382480 
820.000000000   0.065683 -39.875356   0.970967 -132.171984   0.969463 -132.365378   0.059249 -53.958880 
825.000000000   0.066047 -40.410074   0.971651 -132.961289   0.969793 -133.208246   0.057111 -53.452218 
830.000000000   0.066226 -40.823934   0.972248 -133.775128   0.969903 -134.057298   0.055915 -52.167112 
835.000000000   0.066327 -40.997863   0.972610 -134.613799   0.969819 -134.901506   0.055888 -50.719378 
840.000000000   0.066506 -41.020246   0.972579 -135.469224   0.969618 -135.736464   0.056827 -49.806108 
845.000000000   0.066718 -41.054916   0.972083 -136.325733   0.969394 -136.553532   0.058142 -49.762753 
850.000000000   0.066810 -41.125443   0.971279 -137.166363   0.969259 -137.354101   0.059216 -50.381412 
855.000000000   0.066749 -41.146967   0.970471 -137.983188   0.969360 -138.139410   0.059805 -51.141791 
860.000000000   0.066632 -41.118227   0.969948 -138.785116   0.969698 -138.917777   0.060117 -51.628149 
865.000000000   0.066477 -41.137505   0.969740 -139.589647   0.970188 -139.696871   0.060548 -51.785500 
870.000000000   0.066180 -41.243685   0.969674 -140.406662   0.970596 -140.479875   0.061330 -51.843306 
875.000000000   0.065687 -41.348168   0.969487 -141.234057   0.970802 -141.262074   0.062428 -52.082240 
880.000000000   0.065100 -41.362612   0.969002 -142.054269   0.970659 -142.032044   0.063626 -52.654687 
885.000000000   0.064571 -41.322262   0.968421 -142.851899   0.970320 -142.782984   0.064644 -53.559853 
890.000000000   0.064138 -41.309703   0.967944 -143.625975   0.969889 -143.517413   0.065210 -54.644273 
895.000000000   0.063827 -41.348771   0.967832 -144.389719   0.969517 -144.245547   0.065223 -55.601831 
900.000000000   0.063735 -41.476531   0.967949 -145.166066   0.969071 -144.984809   0.064879 -56.119545 
905.000000000   0.063940 -41.859160   0.967947 -145.966373   0.968355 -145.737860   0.064636 -56.110927 
910.000000000   0.064317 -42.696514   0.967448 -146.776509   0.967295 -146.499336   0.064895 -55.837360 
915.000000000   0.064584 -44.003001   0.966458 -147.572294   0.966009 -147.260669   0.065714 -55.740679 
920.000000000   0.064559 -45.582970   0.965329 -148.338853   0.964782 -148.024159   0.066814 -56.130492 
925.000000000   0.064301 -47.222896   0.964519 -149.079044   0.963735 -148.800606   0.067827 -57.052100 
930.000000000   0.063960 -48.850737   0.964319 -149.814184   0.962819 -149.593248   0.068479 -58.388162 
935.000000000   0.063584 -50.498611   0.964711 -150.571347   0.962066 -150.396950   0.068624 -59.951690 
940.000000000   0.063123 -52.131238   0.965446 -151.359704   0.961681 -151.206431   0.068270 -61.533343 
945.000000000   0.062586 -53.630604   0.966289 -152.180636   0.961827 -152.027464   0.067596 -62.961570 
950.000000000   0.062090 -54.926665   0.967107 -153.022472   0.962695 -152.868191   0.066892 -64.221133 
