! File created by SignalIntegrity v1.1.13: Signal and Power Integrity Tools
! https://github.com/TeledyneLeCroy/SignalIntegrity
# MHz S MA R 50.0
0.0 1.0 0.0 0.0 0.0 0.0 0.0 0.503672 0.0
0.0 0.0 0.0 0.0 0.51704 0.0 0.0 0.0
0.0 0.0
10.0 1.0 -0.0 0.0 0.0 0.0 0.0 0.492772 -33.311042
0.0 0.0 0.0 0.0 0.505861 -33.904695 0.0 0.0
0.0 0.0
20.0 1.0 -0.0 0.0 0.0 0.0 0.0 0.481072 -64.437902
0.0 0.0 0.0 0.0 0.493878 -65.625241 0.0 0.0
0.0 0.0
30.0 1.0 -0.0 0.0 0.0 0.0 0.0 0.480933 -95.669174
0.0 0.0 0.0 0.0 0.493782 -97.450267 0.0 0.0
0.0 0.0
40.0 1.0 0.0 0.0 0.0 0.0 0.0 0.476183 -127.437015
0.0 0.0 0.0 0.0 0.488972 -129.811964 0.0 0.0
0.0 0.0
50.0 1.0 -0.0 0.0 0.0 0.0 0.0 0.470578 -158.38024
0.0 0.0 0.0 0.0 0.483299 -161.34918 0.0 0.0
0.0 0.0
60.0 1.0 -0.0 0.0 0.0 0.0 0.0 0.471048 170.633403
0.0 0.0 0.0 0.0 0.483884 167.070303 0.0 0.0
0.0 0.0
70.0 1.0 0.0 0.0 0.0 0.0 0.0 0.470765 139.128171
0.0 0.0 0.0 0.0 0.483714 134.970708 0.0 0.0
0.0 0.0
80.0 1.0 0.0 0.0 0.0 0.0 0.0 0.467025 107.637581
0.0 0.0 0.0 0.0 0.480009 102.885519 0.0 0.0
0.0 0.0
90.0 1.0 0.0 0.0 0.0 0.0 0.0 0.462256 76.579478
0.0 0.0 0.0 0.0 0.475262 71.232547 0.0 0.0
0.0 0.0
100.0 1.0 0.0 0.0 0.0 0.0 0.0 0.461327 45.707418
0.0 0.0 0.0 0.0 0.474479 39.765316 0.0 0.0
0.0 0.0
110.0 1.0 0.0 0.0 0.0 0.0 0.0 0.461123 14.366069
0.0 0.0 0.0 0.0 0.474459 7.828461 0.0 0.0
0.0 0.0
120.0 1.0 0.0 0.0 0.0 0.0 0.0 0.458068 -16.867752
0.0 0.0 0.0 0.0 0.471522 -24.001236 0.0 0.0
0.0 0.0
130.0 1.0 0.0 0.0 0.0 0.0 0.0 0.45741 -47.956817
0.0 0.0 0.0 0.0 0.47107 -55.686577 0.0 0.0
0.0 0.0
140.0 1.0 0.0 0.0 0.0 0.0 0.0 0.455909 -79.415363
0.0 0.0 0.0 0.0 0.469765 -87.741832 0.0 0.0
0.0 0.0
150.0 1.0 0.0 0.0 0.0 0.0 0.0 0.451888 -110.573729
0.0 0.0 0.0 0.0 0.465877 -119.497373 0.0 0.0
0.0 0.0
160.0 1.0 0.0 0.0 0.0 0.0 0.0 0.450473 -141.530466
0.0 0.0 0.0 0.0 0.464692 -151.051782 0.0 0.0
0.0 0.0
170.0 1.0 0.0 0.0 0.0 0.0 0.0 0.449632 -172.683346
0.0 0.0 0.0 0.0 0.464113 177.197138 0.0 0.0
0.0 0.0
180.0 1.0 0.0 0.0 0.0 0.0 0.0 0.448732 156.124603
0.0 0.0 0.0 0.0 0.463491 145.406327 0.0 0.0
0.0 0.0
190.0 1.0 0.0 0.0 0.0 0.0 0.0 0.446821 124.755863
0.0 0.0 0.0 0.0 0.461838 113.438237 0.0 0.0
0.0 0.0
200.0 1.0 0.0 0.0 0.0 0.0 0.0 0.442665 93.622459
0.0 0.0 0.0 0.0 0.457878 81.70486 0.0 0.0
0.0 0.0
210.0 1.0 -0.0 0.0 0.0 0.0 0.0 0.440638 62.756417
0.0 0.0 0.0 0.0 0.456131 50.238196 0.0 0.0
0.0 0.0
220.0 1.0 0.0 0.0 0.0 0.0 0.0 0.439669 31.675739
0.0 0.0 0.0 0.0 0.455495 18.556213 0.0 0.0
0.0 0.0
230.0 1.0 0.0 0.0 0.0 0.0 0.0 0.43817 0.633192
0.0 0.0 0.0 0.0 0.454323 -13.088348 0.0 0.0
0.0 0.0
240.0 1.0 0.0 0.0 0.0 0.0 0.0 0.438223 -30.476479
0.0 0.0 0.0 0.0 0.454774 -44.800773 0.0 0.0
0.0 0.0
250.0 1.0 0.0 0.0 0.0 0.0 0.0 0.437376 -61.85987
0.0 0.0 0.0 0.0 0.454308 -76.787684 0.0 0.0
0.0 0.0
260.0 1.0 -0.0 0.0 0.0 0.0 0.0 0.434614 -93.149391
0.0 0.0 0.0 0.0 0.451865 -108.681523 0.0 0.0
0.0 0.0
270.0 1.0 -0.0 0.0 0.0 0.0 0.0 0.431818 -124.239928
0.0 0.0 0.0 0.0 0.449397 -140.377202 0.0 0.0
0.0 0.0
280.0 1.0 -0.0 0.0 0.0 0.0 0.0 0.429906 -155.181335
0.0 0.0 0.0 0.0 0.44786 -171.924601 0.0 0.0
0.0 0.0
290.0 1.0 0.0 0.0 0.0 0.0 0.0 0.429621 173.831274
0.0 0.0 0.0 0.0 0.44803 156.48114 0.0 0.0
0.0 0.0
300.0 1.0 0.0 0.0 0.0 0.0 0.0 0.428788 142.649865
0.0 0.0 0.0 0.0 0.447643 124.691957 0.0 0.0
0.0 0.0
310.0 1.0 -0.0 0.0 0.0 0.0 0.0 0.426829 111.614891
0.0 0.0 0.0 0.0 0.446092 93.04828 0.0 0.0
0.0 0.0
320.0 1.0 0.0 0.0 0.0 0.0 0.0 0.426203 80.670617
0.0 0.0 0.0 0.0 0.445946 61.494349 0.0 0.0
0.0 0.0
330.0 1.0 -0.0 0.0 0.0 0.0 0.0 0.425934 49.564255
0.0 0.0 0.0 0.0 0.446188 29.77735 0.0 0.0
0.0 0.0
340.0 1.0 0.0 0.0 0.0 0.0 0.0 0.425068 18.36438
0.0 0.0 0.0 0.0 0.445818 -2.034167 0.0 0.0
0.0 0.0
350.0 1.0 -0.0 0.0 0.0 0.0 0.0 0.422739 -12.890929
0.0 0.0 0.0 0.0 0.443924 -33.902144 0.0 0.0
0.0 0.0
360.0 1.0 -0.0 0.0 0.0 0.0 0.0 0.419281 -43.838698
0.0 0.0 0.0 0.0 0.44085 -65.463632 0.0 0.0
0.0 0.0
370.0 1.0 0.0 0.0 0.0 0.0 0.0 0.418613 -74.601798
0.0 0.0 0.0 0.0 0.440719 -96.841524 0.0 0.0
0.0 0.0
380.0 1.0 0.0 0.0 0.0 0.0 0.0 0.419098 -105.689701
0.0 0.0 0.0 0.0 0.441816 -128.545315 0.0 0.0
0.0 0.0
390.0 1.0 0.0 0.0 0.0 0.0 0.0 0.418621 -136.859278
0.0 0.0 0.0 0.0 0.441912 -160.331896 0.0 0.0
0.0 0.0
400.0 1.0 -0.0 0.0 0.0 0.0 0.0 0.418051 -168.137707
0.0 0.0 0.0 0.0 0.441922 167.771532 0.0 0.0
0.0 0.0
410.0 1.0 0.0 0.0 0.0 0.0 0.0 0.415094 160.57022
0.0 0.0 0.0 0.0 0.439416 135.860159 0.0 0.0
0.0 0.0
420.0 1.0 0.0 0.0 0.0 0.0 0.0 0.411753 129.730649
0.0 0.0 0.0 0.0 0.436509 104.40011 0.0 0.0
0.0 0.0
430.0 1.0 0.0 0.0 0.0 0.0 0.0 0.411427 99.031636
0.0 0.0 0.0 0.0 0.436805 73.079422 0.0 0.0
0.0 0.0
440.0 1.0 0.0 0.0 0.0 0.0 0.0 0.413021 68.038138
0.0 0.0 0.0 0.0 0.439153 41.463033 0.0 0.0
0.0 0.0
450.0 1.0 -0.0 0.0 0.0 0.0 0.0 0.413372 36.578136
0.0 0.0 0.0 0.0 0.440197 9.378906 0.0 0.0
0.0 0.0
460.0 1.0 0.0 0.0 0.0 0.0 0.0 0.408801 5.171002
0.0 0.0 0.0 0.0 0.436004 -22.653604 0.0 0.0
0.0 0.0
470.0 1.0 0.0 0.0 0.0 0.0 0.0 0.403952 -25.425053
0.0 0.0 0.0 0.0 0.431512 -53.876304 0.0 0.0
0.0 0.0
480.0 1.0 0.0 0.0 0.0 0.0 0.0 0.404786 -55.907365
0.0 0.0 0.0 0.0 0.433096 -84.986545 0.0 0.0
0.0 0.0
490.0 1.0 0.0 0.0 0.0 0.0 0.0 0.407091 -87.051005
0.0 0.0 0.0 0.0 0.436271 -116.759415 0.0 0.0
0.0 0.0
500.0 1.0 0.0 0.0 0.0 0.0 0.0 0.406373 -118.528097
0.0 0.0 0.0 0.0 0.43622 -148.867052 0.0 0.0
0.0 0.0
510.0 1.0 0.0 0.0 0.0 0.0 0.0 0.402472 -149.817109
0.0 0.0 0.0 0.0 0.432757 179.212061 0.0 0.0
0.0 0.0
520.0 1.0 0.0 0.0 0.0 0.0 0.0 0.398528 179.435955
0.0 0.0 0.0 0.0 0.429244 147.831906 0.0 0.0
0.0 0.0
530.0 1.0 -0.0 0.0 0.0 0.0 0.0 0.398373 148.871491
0.0 0.0 0.0 0.0 0.429816 116.632865 0.0 0.0
0.0 0.0
540.0 1.0 0.0 0.0 0.0 0.0 0.0 0.400189 117.914075
0.0 0.0 0.0 0.0 0.43253 85.039501 0.0 0.0
0.0 0.0
550.0 1.0 0.0 0.0 0.0 0.0 0.0 0.400968 86.68879
0.0 0.0 0.0 0.0 0.434137 53.176887 0.0 0.0
0.0 0.0
560.0 1.0 0.0 0.0 0.0 0.0 0.0 0.400714 55.365229
0.0 0.0 0.0 0.0 0.434638 21.214602 0.0 0.0
0.0 0.0
570.0 1.0 0.0 0.0 0.0 0.0 0.0 0.3985 23.986024
0.0 0.0 0.0 0.0 0.433019 -10.804733 0.0 0.0
0.0 0.0
580.0 1.0 0.0 0.0 0.0 0.0 0.0 0.394243 -7.056166
0.0 0.0 0.0 0.0 0.429177 -42.488468 0.0 0.0
0.0 0.0
590.0 1.0 -0.0 0.0 0.0 0.0 0.0 0.391799 -37.596471
0.0 0.0 0.0 0.0 0.427305 -73.671745 0.0 0.0
0.0 0.0
600.0 1.0 0.0 0.0 0.0 0.0 0.0 0.393595 -68.239625
0.0 0.0 0.0 0.0 0.430067 -104.959306 0.0 0.0
0.0 0.0
610.0 1.0 0.0 0.0 0.0 0.0 0.0 0.395849 -99.524934
0.0 0.0 0.0 0.0 0.433346 -136.890466 0.0 0.0
0.0 0.0
620.0 1.0 0.0 0.0 0.0 0.0 0.0 0.394003 -130.99513
0.0 0.0 0.0 0.0 0.432148 -169.007967 0.0 0.0
0.0 0.0
630.0 1.0 0.0 0.0 0.0 0.0 0.0 0.390619 -161.958326
0.0 0.0 0.0 0.0 0.429261 159.380074 0.0 0.0
0.0 0.0
640.0 1.0 -0.0 0.0 0.0 0.0 0.0 0.389835 167.274498
0.0 0.0 0.0 0.0 0.429232 127.962665 0.0 0.0
0.0 0.0
650.0 1.0 0.0 0.0 0.0 0.0 0.0 0.38988 136.294661
0.0 0.0 0.0 0.0 0.430123 96.331121 0.0 0.0
0.0 0.0
660.0 1.0 0.0 0.0 0.0 0.0 0.0 0.389667 105.266596
0.0 0.0 0.0 0.0 0.430737 64.649868 0.0 0.0
0.0 0.0
670.0 1.0 -0.0 0.0 0.0 0.0 0.0 0.389524 74.122385
0.0 0.0 0.0 0.0 0.431436 32.850983 0.0 0.0
0.0 0.0
680.0 1.0 0.0 0.0 0.0 0.0 0.0 0.388069 42.874898
0.0 0.0 0.0 0.0 0.430689 0.94733 0.0 0.0
0.0 0.0
690.0 1.0 0.0 0.0 0.0 0.0 0.0 0.384957 11.732911
0.0 0.0 0.0 0.0 0.428099 -30.852319 0.0 0.0
0.0 0.0
700.0 1.0 0.0 0.0 0.0 0.0 0.0 0.380836 -19.043187
0.0 0.0 0.0 0.0 0.424378 -62.28758 0.0 0.0
0.0 0.0
710.0 1.0 0.0 0.0 0.0 0.0 0.0 0.37918 -49.345838
0.0 0.0 0.0 0.0 0.423401 -93.250898 0.0 0.0
0.0 0.0
720.0 1.0 0.0 0.0 0.0 0.0 0.0 0.382081 -79.855039
0.0 0.0 0.0 0.0 0.427521 -124.422275 0.0 0.0
0.0 0.0
730.0 1.0 -0.0 0.0 0.0 0.0 0.0 0.385571 -111.048445
0.0 0.0 0.0 0.0 0.432323 -156.279365 0.0 0.0
0.0 0.0
740.0 1.0 0.0 0.0 0.0 0.0 0.0 0.38588 -142.642722
0.0 0.0 0.0 0.0 0.433573 171.46116 0.0 0.0
0.0 0.0
750.0 1.0 -0.0 0.0 0.0 0.0 0.0 0.38197 -174.090974
0.0 0.0 0.0 0.0 0.430083 139.346195 0.0 0.0
0.0 0.0
760.0 1.0 -0.0 0.0 0.0 0.0 0.0 0.376694 155.143853
0.0 0.0 0.0 0.0 0.425039 107.912794 0.0 0.0
0.0 0.0
770.0 1.0 -0.0 0.0 0.0 0.0 0.0 0.374841 124.902093
0.0 0.0 0.0 0.0 0.423847 77.001288 0.0 0.0
0.0 0.0
780.0 1.0 0.0 0.0 0.0 0.0 0.0 0.377723 94.512927
0.0 0.0 0.0 0.0 0.428018 45.94086 0.0 0.0
0.0 0.0
790.0 1.0 -0.0 0.0 0.0 0.0 0.0 0.382771 63.364953
0.0 0.0 0.0 0.0 0.43467 14.120106 0.0 0.0
0.0 0.0
800.0 1.0 -0.0 0.0 0.0 0.0 0.0 0.383895 31.475097
0.0 0.0 0.0 0.0 0.436886 -18.444048 0.0 0.0
0.0 0.0
810.0 1.0 0.0 0.0 0.0 0.0 0.0 0.378611 -0.150641
0.0 0.0 0.0 0.0 0.431806 -50.745601 0.0 0.0
0.0 0.0
820.0 1.0 0.0 0.0 0.0 0.0 0.0 0.372696 -30.827706
0.0 0.0 0.0 0.0 0.425984 -82.099996 0.0 0.0
0.0 0.0
830.0 1.0 0.0 0.0 0.0 0.0 0.0 0.371711 -61.049639
0.0 0.0 0.0 0.0 0.425785 -113.000773 0.0 0.0
0.0 0.0
840.0 1.0 0.0 0.0 0.0 0.0 0.0 0.375443 -91.669049
0.0 0.0 0.0 0.0 0.431002 -144.30054 0.0 0.0
0.0 0.0
850.0 1.0 0.0 0.0 0.0 0.0 0.0 0.379513 -123.112756
0.0 0.0 0.0 0.0 0.436632 -176.426113 0.0 0.0
0.0 0.0
860.0 1.0 0.0 0.0 0.0 0.0 0.0 0.378785 -155.035456
0.0 0.0 0.0 0.0 0.436755 150.967813 0.0 0.0
0.0 0.0
870.0 1.0 -0.0 0.0 0.0 0.0 0.0 0.372546 173.489313
0.0 0.0 0.0 0.0 0.430511 118.807703 0.0 0.0
0.0 0.0
880.0 1.0 0.0 0.0 0.0 0.0 0.0 0.366485 143.044347
0.0 0.0 0.0 0.0 0.424446 87.676357 0.0 0.0
0.0 0.0
890.0 1.0 0.0 0.0 0.0 0.0 0.0 0.366538 113.035552
0.0 0.0 0.0 0.0 0.425451 56.979684 0.0 0.0
0.0 0.0
900.0 1.0 0.0 0.0 0.0 0.0 0.0 0.371482 82.375371
0.0 0.0 0.0 0.0 0.432151 25.630131 0.0 0.0
0.0 0.0
910.0 1.0 0.0 0.0 0.0 0.0 0.0 0.375086 50.772259
0.0 0.0 0.0 0.0 0.437317 -6.663842 0.0 0.0
0.0 0.0
920.0 1.0 -0.0 0.0 0.0 0.0 0.0 0.372659 18.849468
0.0 0.0 0.0 0.0 0.435459 -39.27898 0.0 0.0
0.0 0.0
930.0 1.0 -0.0 0.0 0.0 0.0 0.0 0.365162 -12.420535
0.0 0.0 0.0 0.0 0.427655 -71.242809 0.0 0.0
0.0 0.0
940.0 1.0 -0.0 0.0 0.0 0.0 0.0 0.359328 -42.625758
0.0 0.0 0.0 0.0 0.421766 -102.143334 0.0 0.0
0.0 0.0
950.0 1.0 -0.0 0.0 0.0 0.0 0.0 0.360499 -72.638886
0.0 0.0 0.0 0.0 0.424092 -132.853233 0.0 0.0
0.0 0.0
960.0 1.0 -0.0 0.0 0.0 0.0 0.0 0.365128 -103.514746
0.0 0.0 0.0 0.0 0.430504 -164.427329 0.0 0.0
0.0 0.0
970.0 1.0 -0.0 0.0 0.0 0.0 0.0 0.367355 -135.020224
0.0 0.0 0.0 0.0 0.434105 163.3675 0.0 0.0
0.0 0.0
980.0 1.0 -0.0 0.0 0.0 0.0 0.0 0.366805 -166.624139
0.0 0.0 0.0 0.0 0.434432 131.062439 0.0 0.0
0.0 0.0
990.0 1.0 0.0 0.0 0.0 0.0 0.0 0.363037 161.889609
0.0 0.0 0.0 0.0 0.43094 98.873594 0.0 0.0
0.0 0.0
1000.0 1.0 -0.0 0.0 0.0 0.0 0.0 0.357512 131.244362
0.0 0.0 0.0 0.0 0.425338 67.524317 0.0 0.0
0.0 0.0
1010.0 1.0 0.0 0.0 0.0 0.0 0.0 0.358144 101.312204
0.0 0.0 0.0 0.0 0.427052 36.886698 0.0 0.0
0.0 0.0
1020.0 1.0 -0.0 0.0 0.0 0.0 0.0 0.365165 70.481433
0.0 0.0 0.0 0.0 0.436405 5.349039 0.0 0.0
0.0 0.0
1030.0 1.0 -0.0 0.0 0.0 0.0 0.0 0.368214 38.414847
0.0 0.0 0.0 0.0 0.441042 -27.425851 0.0 0.0
0.0 0.0
1040.0 1.0 0.0 0.0 0.0 0.0 0.0 0.362324 6.478198
0.0 0.0 0.0 0.0 0.434967 -60.072214 0.0 0.0
0.0 0.0
1050.0 1.0 -0.0 0.0 0.0 0.0 0.0 0.35345 -24.14177
0.0 0.0 0.0 0.0 0.425271 -91.4033 0.0 0.0
0.0 0.0
1060.0 1.0 0.0 0.0 0.0 0.0 0.0 0.350751 -53.797702
0.0 0.0 0.0 0.0 0.422974 -121.771742 0.0 0.0
0.0 0.0
1070.0 1.0 0.0 0.0 0.0 0.0 0.0 0.355393 -83.965821
0.0 0.0 0.0 0.0 0.429537 -152.653759 0.0 0.0
0.0 0.0
1080.0 1.0 0.0 0.0 0.0 0.0 0.0 0.360438 -115.289639
0.0 0.0 0.0 0.0 0.436615 175.307148 0.0 0.0
0.0 0.0
1090.0 1.0 -0.0 0.0 0.0 0.0 0.0 0.360403 -147.143628
0.0 0.0 0.0 0.0 0.437554 142.736514 0.0 0.0
0.0 0.0
1100.0 1.0 -0.0 0.0 0.0 0.0 0.0 0.355801 -178.652991
0.0 0.0 0.0 0.0 0.432936 110.509147 0.0 0.0
0.0 0.0
1110.0 1.0 -0.0 0.0 0.0 0.0 0.0 0.350603 150.568659
0.0 0.0 0.0 0.0 0.427568 79.01144 0.0 0.0
0.0 0.0
1120.0 1.0 0.0 0.0 0.0 0.0 0.0 0.348884 120.346801
0.0 0.0 0.0 0.0 0.426423 48.068881 0.0 0.0
0.0 0.0
1130.0 1.0 -0.0 0.0 0.0 0.0 0.0 0.352439 89.899658
0.0 0.0 0.0 0.0 0.431731 16.899705 0.0 0.0
0.0 0.0
1140.0 1.0 0.0 0.0 0.0 0.0 0.0 0.356507 58.523829
0.0 0.0 0.0 0.0 0.437689 -15.199483 0.0 0.0
0.0 0.0
1150.0 1.0 0.0 0.0 0.0 0.0 0.0 0.355077 26.86718
0.0 0.0 0.0 0.0 0.436903 -47.580806 0.0 0.0
0.0 0.0
1160.0 1.0 0.0 0.0 0.0 0.0 0.0 0.350692 -4.041753
0.0 0.0 0.0 0.0 0.432466 -79.215719 0.0 0.0
0.0 0.0
1170.0 1.0 0.0 0.0 0.0 0.0 0.0 0.349255 -34.352768
0.0 0.0 0.0 0.0 0.431648 -110.254009 0.0 0.0
0.0 0.0
1180.0 1.0 0.0 0.0 0.0 0.0 0.0 0.3515 -64.890097
0.0 0.0 0.0 0.0 0.435384 -141.5199 0.0 0.0
0.0 0.0
1190.0 1.0 -0.0 0.0 0.0 0.0 0.0 0.353526 -96.027578
0.0 0.0 0.0 0.0 0.438858 -173.387221 0.0 0.0
0.0 0.0
1200.0 1.0 -0.0 0.0 0.0 0.0 0.0 0.352221 -127.282874
0.0 0.0 0.0 0.0 0.438199 154.626377 0.0 0.0
0.0 0.0
1210.0 1.0 0.0 0.0 0.0 0.0 0.0 0.350007 -158.113253
0.0 0.0 0.0 0.0 0.436399 123.063636 0.0 0.0
0.0 0.0
1220.0 1.0 -0.0 0.0 0.0 0.0 0.0 0.35003 171.185926
0.0 0.0 0.0 0.0 0.437382 91.629206 0.0 0.0
0.0 0.0
1230.0 1.0 -0.0 0.0 0.0 0.0 0.0 0.351252 140.220669
0.0 0.0 0.0 0.0 0.439865 59.929102 0.0 0.0
0.0 0.0
1240.0 1.0 0.0 0.0 0.0 0.0 0.0 0.352206 109.030492
0.0 0.0 0.0 0.0 0.442018 28.002854 0.0 0.0
0.0 0.0
1250.0 1.0 0.0 0.0 0.0 0.0 0.0 0.352244 77.692053
0.0 0.0 0.0 0.0 0.443021 -4.072873 0.0 0.0
0.0 0.0
1260.0 1.0 0.0 0.0 0.0 0.0 0.0 0.35051 46.406763
0.0 0.0 0.0 0.0 0.441791 -36.096655 0.0 0.0
0.0 0.0
1270.0 1.0 0.0 0.0 0.0 0.0 0.0 0.348137 15.530432
0.0 0.0 0.0 0.0 0.439742 -67.712674 0.0 0.0
0.0 0.0
1280.0 1.0 0.0 0.0 0.0 0.0 0.0 0.348272 -15.04762
0.0 0.0 0.0 0.0 0.440855 -99.031599 0.0 0.0
0.0 0.0
1290.0 1.0 0.0 0.0 0.0 0.0 0.0 0.350795 -45.970726
0.0 0.0 0.0 0.0 0.444995 -130.696751 0.0 0.0
0.0 0.0
1300.0 1.0 -0.0 0.0 0.0 0.0 0.0 0.351552 -77.350826
0.0 0.0 0.0 0.0 0.446901 -162.82006 0.0 0.0
0.0 0.0
1310.0 1.0 -0.0 0.0 0.0 0.0 0.0 0.349075 -108.587749
0.0 0.0 0.0 0.0 0.44469 165.198655 0.0 0.0
0.0 0.0
1320.0 1.0 0.0 0.0 0.0 0.0 0.0 0.346248 -139.33882
0.0 0.0 0.0 0.0 0.442016 133.702082 0.0 0.0
0.0 0.0
1330.0 1.0 -0.0 0.0 0.0 0.0 0.0 0.345842 -169.899721
0.0 0.0 0.0 0.0 0.442423 102.394547 0.0 0.0
0.0 0.0
1340.0 1.0 -0.0 0.0 0.0 0.0 0.0 0.347382 159.18454
0.0 0.0 0.0 0.0 0.445319 70.731054 0.0 0.0
0.0 0.0
1350.0 1.0 0.0 0.0 0.0 0.0 0.0 0.347428 127.803268
0.0 0.0 0.0 0.0 0.446301 38.600919 0.0 0.0
0.0 0.0
1360.0 1.0 0.0 0.0 0.0 0.0 0.0 0.344553 96.522911
0.0 0.0 0.0 0.0 0.443522 6.570601 0.0 0.0
0.0 0.0
1370.0 1.0 -0.0 0.0 0.0 0.0 0.0 0.341897 65.643251
0.0 0.0 0.0 0.0 0.441005 -25.060107 0.0 0.0
0.0 0.0
1380.0 1.0 -0.0 0.0 0.0 0.0 0.0 0.340811 34.75934
0.0 0.0 0.0 0.0 0.440503 -56.696143 0.0 0.0
0.0 0.0
1390.0 1.0 -0.0 0.0 0.0 0.0 0.0 0.339502 3.839717
0.0 0.0 0.0 0.0 0.439701 -88.368957 0.0 0.0
0.0 0.0
1400.0 1.0 -0.0 0.0 0.0 0.0 0.0 0.339032 -26.895173
0.0 0.0 0.0 0.0 0.43998 -119.858092 0.0 0.0
0.0 0.0
1410.0 1.0 -0.0 0.0 0.0 0.0 0.0 0.340334 -57.786369
0.0 0.0 0.0 0.0 0.442557 -151.504575 0.0 0.0
0.0 0.0
1420.0 1.0 -0.0 0.0 0.0 0.0 0.0 0.341012 -88.981282
0.0 0.0 0.0 0.0 0.444323 176.54419 0.0 0.0
0.0 0.0
1430.0 1.0 0.0 0.0 0.0 0.0 0.0 0.339995 -120.130957
0.0 0.0 0.0 0.0 0.443877 144.637173 0.0 0.0
0.0 0.0
1440.0 1.0 -0.0 0.0 0.0 0.0 0.0 0.338902 -151.014332
0.0 0.0 0.0 0.0 0.443322 112.995446 0.0 0.0
0.0 0.0
1450.0 1.0 0.0 0.0 0.0 0.0 0.0 0.339511 178.108057
0.0 0.0 0.0 0.0 0.444989 81.358483 0.0 0.0
0.0 0.0
1460.0 1.0 0.0 0.0 0.0 0.0 0.0 0.340091 146.826401
0.0 0.0 0.0 0.0 0.446616 49.316487 0.0 0.0
0.0 0.0
1470.0 1.0 0.0 0.0 0.0 0.0 0.0 0.337724 115.459553
0.0 0.0 0.0 0.0 0.444366 17.18832 0.0 0.0
0.0 0.0
1480.0 1.0 0.0 0.0 0.0 0.0 0.0 0.334108 84.540321
0.0 0.0 0.0 0.0 0.440453 -14.493196 0.0 0.0
0.0 0.0
1490.0 1.0 0.0 0.0 0.0 0.0 0.0 0.332148 53.941419
0.0 0.0 0.0 0.0 0.438704 -45.855337 0.0 0.0
0.0 0.0
1500.0 1.0 0.0 0.0 0.0 0.0 0.0 0.332343 23.313355
0.0 0.0 0.0 0.0 0.439793 -77.247586 0.0 0.0
0.0 0.0
1510.0 1.0 0.0 0.0 0.0 0.0 0.0 0.333854 -7.605385
0.0 0.0 0.0 0.0 0.442623 -108.931444 0.0 0.0
0.0 0.0
1520.0 1.0 0.0 0.0 0.0 0.0 0.0 0.334869 -38.868266
0.0 0.0 0.0 0.0 0.444798 -140.960364 0.0 0.0
0.0 0.0
1530.0 1.0 0.0 0.0 0.0 0.0 0.0 0.334165 -70.267481
0.0 0.0 0.0 0.0 0.444685 -173.126532 0.0 0.0
0.0 0.0
1540.0 1.0 -0.0 0.0 0.0 0.0 0.0 0.331636 -101.539109
0.0 0.0 0.0 0.0 0.442131 154.833988 0.0 0.0
0.0 0.0
1550.0 1.0 0.0 0.0 0.0 0.0 0.0 0.328414 -132.423702
0.0 0.0 0.0 0.0 0.438635 123.180652 0.0 0.0
0.0 0.0
1560.0 1.0 0.0 0.0 0.0 0.0 0.0 0.326961 -162.946903
0.0 0.0 0.0 0.0 0.437485 91.887831 0.0 0.0
0.0 0.0
1570.0 1.0 -0.0 0.0 0.0 0.0 0.0 0.328284 166.383995
0.0 0.0 0.0 0.0 0.440043 60.448239 0.0 0.0
0.0 0.0
1580.0 1.0 0.0 0.0 0.0 0.0 0.0 0.329575 135.220297
0.0 0.0 0.0 0.0 0.442559 28.513195 0.0 0.0
0.0 0.0
1590.0 1.0 -0.0 0.0 0.0 0.0 0.0 0.328607 103.987488
0.0 0.0 0.0 0.0 0.44204 -3.491807 0.0 0.0
0.0 0.0
1600.0 1.0 0.0 0.0 0.0 0.0 0.0 0.327498 72.952332
0.0 0.0 0.0 0.0 0.441318 -35.299991 0.0 0.0
0.0 0.0
1610.0 1.0 -0.0 0.0 0.0 0.0 0.0 0.326401 41.784669
0.0 0.0 0.0 0.0 0.440603 -67.241507 0.0 0.0
0.0 0.0
1620.0 1.0 0.0 0.0 0.0 0.0 0.0 0.323567 10.738825
0.0 0.0 0.0 0.0 0.437529 -99.062018 0.0 0.0
0.0 0.0
1630.0 1.0 0.0 0.0 0.0 0.0 0.0 0.321636 -19.879203
0.0 0.0 0.0 0.0 0.435658 -130.455518 0.0 0.0
0.0 0.0
1640.0 1.0 0.0 0.0 0.0 0.0 0.0 0.322265 -50.594781
0.0 0.0 0.0 0.0 0.437248 -161.947358 0.0 0.0
0.0 0.0
1650.0 1.0 -0.0 0.0 0.0 0.0 0.0 0.322997 -81.688183
0.0 0.0 0.0 0.0 0.438974 166.182193 0.0 0.0
0.0 0.0
1660.0 1.0 0.0 0.0 0.0 0.0 0.0 0.322335 -112.928655
0.0 0.0 0.0 0.0 0.4388 134.163905 0.0 0.0
0.0 0.0
1670.0 1.0 -0.0 0.0 0.0 0.0 0.0 0.320011 -144.087458
0.0 0.0 0.0 0.0 0.43635 102.226523 0.0 0.0
0.0 0.0
1680.0 1.0 0.0 0.0 0.0 0.0 0.0 0.316843 -174.812445
0.0 0.0 0.0 0.0 0.432731 70.722207 0.0 0.0
0.0 0.0
1690.0 1.0 0.0 0.0 0.0 0.0 0.0 0.316364 154.881158
0.0 0.0 0.0 0.0 0.432772 39.635741 0.0 0.0
0.0 0.0
1700.0 1.0 0.0 0.0 0.0 0.0 0.0 0.319236 124.138295
0.0 0.0 0.0 0.0 0.437396 8.11208 0.0 0.0
0.0 0.0
1710.0 1.0 0.0 0.0 0.0 0.0 0.0 0.320415 92.732687
0.0 0.0 0.0 0.0 0.439702 -24.075045 0.0 0.0
0.0 0.0
1720.0 1.0 0.0 0.0 0.0 0.0 0.0 0.318405 61.437171
0.0 0.0 0.0 0.0 0.437624 -56.152787 0.0 0.0
0.0 0.0
1730.0 1.0 0.0 0.0 0.0 0.0 0.0 0.315901 30.482167
0.0 0.0 0.0 0.0 0.434851 -87.890715 0.0 0.0
0.0 0.0
1740.0 1.0 0.0 0.0 0.0 0.0 0.0 0.313656 -0.212562
0.0 0.0 0.0 0.0 0.432418 -119.369057 0.0 0.0
0.0 0.0
1750.0 1.0 0.0 0.0 0.0 0.0 0.0 0.313568 -30.631603
0.0 0.0 0.0 0.0 0.432948 -150.572389 0.0 0.0
0.0 0.0
1760.0 1.0 -0.0 0.0 0.0 0.0 0.0 0.316905 -61.469694
0.0 0.0 0.0 0.0 0.438207 177.804562 0.0 0.0
0.0 0.0
1770.0 1.0 0.0 0.0 0.0 0.0 0.0 0.318988 -93.252116
0.0 0.0 0.0 0.0 0.441735 145.236524 0.0 0.0
0.0 0.0
1780.0 1.0 -0.0 0.0 0.0 0.0 0.0 0.314793 -125.227302
0.0 0.0 0.0 0.0 0.43656 112.475075 0.0 0.0
0.0 0.0
1790.0 1.0 0.0 0.0 0.0 0.0 0.0 0.306548 -156.121096
0.0 0.0 0.0 0.0 0.425736 80.794381 0.0 0.0
0.0 0.0
1800.0 1.0 0.0 0.0 0.0 0.0 0.0 0.302302 174.266413
0.0 0.0 0.0 0.0 0.420434 50.394363 0.0 0.0
0.0 0.0
1810.0 1.0 0.0 0.0 0.0 0.0 0.0 0.306143 144.524383
0.0 0.0 0.0 0.0 0.426372 19.864188 0.0 0.0
0.0 0.0
1820.0 1.0 0.0 0.0 0.0 0.0 0.0 0.312715 113.377021
0.0 0.0 0.0 0.0 0.436127 -12.071926 0.0 0.0
0.0 0.0
1830.0 1.0 -0.0 0.0 0.0 0.0 0.0 0.313791 81.25237
0.0 0.0 0.0 0.0 0.438225 -44.985926 0.0 0.0
0.0 0.0
1840.0 1.0 0.0 0.0 0.0 0.0 0.0 0.308152 49.625249
0.0 0.0 0.0 0.0 0.430929 -77.402984 0.0 0.0
0.0 0.0
1850.0 1.0 -0.0 0.0 0.0 0.0 0.0 0.302402 19.244838
0.0 0.0 0.0 0.0 0.42345 -108.573908 0.0 0.0
0.0 0.0
1860.0 1.0 0.0 0.0 0.0 0.0 0.0 0.302353 -10.630029
0.0 0.0 0.0 0.0 0.423934 -139.239858 0.0 0.0
0.0 0.0
1870.0 1.0 0.0 0.0 0.0 0.0 0.0 0.307017 -41.287456
0.0 0.0 0.0 0.0 0.43103 -170.688924 0.0 0.0
0.0 0.0
1880.0 1.0 -0.0 0.0 0.0 0.0 0.0 0.309634 -73.115617
0.0 0.0 0.0 0.0 0.435257 156.690727 0.0 0.0
0.0 0.0
1890.0 1.0 -0.0 0.0 0.0 0.0 0.0 0.305341 -105.059081
0.0 0.0 0.0 0.0 0.42976 123.954537 0.0 0.0
0.0 0.0
1900.0 1.0 0.0 0.0 0.0 0.0 0.0 0.297498 -135.846226
0.0 0.0 0.0 0.0 0.419237 92.374136 0.0 0.0
0.0 0.0
1910.0 1.0 -0.0 0.0 0.0 0.0 0.0 0.293618 -165.400573
0.0 0.0 0.0 0.0 0.414273 62.026015 0.0 0.0
0.0 0.0
1920.0 1.0 -0.0 0.0 0.0 0.0 0.0 0.297854 164.957726
0.0 0.0 0.0 0.0 0.420753 31.590028 0.0 0.0
0.0 0.0
1930.0 1.0 0.0 0.0 0.0 0.0 0.0 0.305356 133.737189
0.0 0.0 0.0 0.0 0.431859 -0.425293 0.0 0.0
0.0 0.0
