! File created by SignalIntegrity v1.1.13: Signal and Power Integrity Tools
! https://github.com/TeledyneLeCroy/SignalIntegrity
# MHz S MA R 50.0
0.0 0.338799 0.0 0.336834 0.0 0.0 0.0 0.0 0.0
10.0 0.332981 -33.085734 0.328283 -36.371961 0.0 0.0 0.0 0.0
20.0 0.326953 -64.574418 0.321758 -70.662382 0.0 0.0 0.0 0.0
30.0 0.324717 -96.288835 0.318731 -105.24827 0.0 0.0 0.0 0.0
40.0 0.318578 -127.81936 0.31192 -139.412704 0.0 0.0 0.0 0.0
50.0 0.314915 -158.359122 0.308771 -172.572456 0.0 0.0 0.0 0.0
60.0 0.316381 170.822962 0.311054 153.735622 0.0 0.0 0.0 0.0
70.0 0.31762 139.261147 0.312152 118.983996 0.0 0.0 0.0 0.0
80.0 0.315303 107.496378 0.307374 84.033761 0.0 0.0 0.0 0.0
90.0 0.31067 76.297529 0.300859 50.138943 0.0 0.0 0.0 0.0
100.0 0.308534 45.645807 0.299471 17.039332 0.0 0.0 0.0 0.0
110.0 0.309039 14.688088 0.302883 -16.688876 0.0 0.0 0.0 0.0
120.0 0.308898 -16.497581 0.304558 -51.081395 0.0 0.0 0.0 0.0
130.0 0.309579 -47.769291 0.303231 -85.598601 0.0 0.0 0.0 0.0
140.0 0.308767 -79.495846 0.298565 -120.063204 0.0 0.0 0.0 0.0
150.0 0.304938 -110.856268 0.292698 -153.656624 0.0 0.0 0.0 0.0
160.0 0.302512 -141.723415 0.292361 173.117865 0.0 0.0 0.0 0.0
170.0 0.301812 -172.589853 0.29523 139.141056 0.0 0.0 0.0 0.0
180.0 0.30246 156.350598 0.29646 104.416708 0.0 0.0 0.0 0.0
190.0 0.302396 124.85604 0.292927 69.723398 0.0 0.0 0.0 0.0
200.0 0.299749 93.432982 0.287032 35.95872 0.0 0.0 0.0 0.0
210.0 0.297007 62.371297 0.28481 3.029349 0.0 0.0 0.0 0.0
220.0 0.294592 31.448463 0.286975 -30.411583 0.0 0.0 0.0 0.0
230.0 0.293623 0.859271 0.289477 -64.561875 0.0 0.0 0.0 0.0
240.0 0.296159 -30.094313 0.289278 -99.439385 0.0 0.0 0.0 0.0
250.0 0.297085 -61.863262 0.283888 -133.98033 0.0 0.0 0.0 0.0
260.0 0.294341 -93.495701 0.279338 -167.468227 0.0 0.0 0.0 0.0
270.0 0.29095 -124.647866 0.279468 159.269676 0.0 0.0 0.0 0.0
280.0 0.288567 -155.409998 0.282086 125.371545 0.0 0.0 0.0 0.0
290.0 0.288618 173.904062 0.283416 90.843711 0.0 0.0 0.0 0.0
300.0 0.289839 142.821114 0.279886 56.298606 0.0 0.0 0.0 0.0
310.0 0.289965 111.442762 0.274467 22.801898 0.0 0.0 0.0 0.0
320.0 0.288557 80.01724 0.273017 -10.102118 0.0 0.0 0.0 0.0
330.0 0.285593 48.814518 0.275573 -43.533543 0.0 0.0 0.0 0.0
340.0 0.28306 18.020442 0.278281 -78.019432 0.0 0.0 0.0 0.0
350.0 0.281889 -12.715906 0.276371 -112.911382 0.0 0.0 0.0 0.0
360.0 0.281621 -43.418979 0.271729 -146.914611 0.0 0.0 0.0 0.0
370.0 0.283127 -74.386255 0.270145 179.973545 0.0 0.0 0.0 0.0
380.0 0.283222 -105.853615 0.272369 146.590437 0.0 0.0 0.0 0.0
390.0 0.281336 -137.037898 0.275402 112.449068 0.0 0.0 0.0 0.0
400.0 0.280602 -168.023818 0.275004 77.600269 0.0 0.0 0.0 0.0
410.0 0.279871 160.876027 0.269335 43.142743 0.0 0.0 0.0 0.0
420.0 0.27918 129.905052 0.263832 9.901721 0.0 0.0 0.0 0.0
430.0 0.279334 98.847649 0.263917 -22.918533 0.0 0.0 0.0 0.0
440.0 0.279052 67.56815 0.268294 -56.579719 0.0 0.0 0.0 0.0
450.0 0.277213 36.243852 0.27099 -91.519681 0.0 0.0 0.0 0.0
460.0 0.274001 5.301125 0.266509 -126.518278 0.0 0.0 0.0 0.0
470.0 0.272479 -25.097895 0.259911 -159.845564 0.0 0.0 0.0 0.0
480.0 0.274529 -55.716488 0.259543 167.591731 0.0 0.0 0.0 0.0
490.0 0.276688 -87.177755 0.263644 134.05633 0.0 0.0 0.0 0.0
500.0 0.275093 -118.952131 0.265593 99.366703 0.0 0.0 0.0 0.0
510.0 0.27071 -150.129266 0.2621 64.553576 0.0 0.0 0.0 0.0
520.0 0.26799 179.515819 0.256153 30.751531 0.0 0.0 0.0 0.0
530.0 0.269631 149.120203 0.253716 -2.153289 0.0 0.0 0.0 0.0
540.0 0.272368 117.922107 0.256152 -35.3205 0.0 0.0 0.0 0.0
550.0 0.272898 86.330321 0.259726 -69.481229 0.0 0.0 0.0 0.0
560.0 0.271396 54.783389 0.260395 -104.3485 0.0 0.0 0.0 0.0
570.0 0.268427 23.54284 0.256374 -138.989911 0.0 0.0 0.0 0.0
580.0 0.265693 -7.213562 0.251019 -172.462137 0.0 0.0 0.0 0.0
590.0 0.265136 -37.693435 0.249927 154.937408 0.0 0.0 0.0 0.0
600.0 0.267207 -68.542181 0.253934 121.764695 0.0 0.0 0.0 0.0
610.0 0.267965 -100.160172 0.257497 87.213834 0.0 0.0 0.0 0.0
620.0 0.264674 -131.555599 0.25488 52.164069 0.0 0.0 0.0 0.0
630.0 0.262073 -162.061797 0.248958 18.263149 0.0 0.0 0.0 0.0
640.0 0.263276 167.413112 0.246509 -14.711366 0.0 0.0 0.0 0.0
650.0 0.26504 136.21446 0.248504 -47.903708 0.0 0.0 0.0 0.0
660.0 0.264798 104.77403 0.252246 -81.95707 0.0 0.0 0.0 0.0
670.0 0.263178 73.467871 0.252864 -116.790681 0.0 0.0 0.0 0.0
680.0 0.260888 42.375313 0.248778 -151.294477 0.0 0.0 0.0 0.0
690.0 0.258474 11.552209 0.244199 175.23394 0.0 0.0 0.0 0.0
700.0 0.256703 -18.944918 0.242257 142.238219 0.0 0.0 0.0 0.0
710.0 0.257218 -49.246777 0.243828 109.187497 0.0 0.0 0.0 0.0
720.0 0.260342 -80.020953 0.246596 75.29798 0.0 0.0 0.0 0.0
730.0 0.262494 -111.617448 0.246643 40.851653 0.0 0.0 0.0 0.0
740.0 0.260874 -143.352011 0.24392 6.588219 0.0 0.0 0.0 0.0
750.0 0.257108 -174.486489 0.24087 -27.138544 0.0 0.0 0.0 0.0
760.0 0.254412 155.078854 0.239644 -60.536164 0.0 0.0 0.0 0.0
770.0 0.254941 124.825878 0.24047 -94.024455 0.0 0.0 0.0 0.0
780.0 0.25792 94.046077 0.242104 -127.801486 0.0 0.0 0.0 0.0
790.0 0.260196 62.479666 0.243068 -161.905264 0.0 0.0 0.0 0.0
800.0 0.258838 30.663722 0.242088 163.927354 0.0 0.0 0.0 0.0
810.0 0.254936 -0.5702 0.239738 130.027623 0.0 0.0 0.0 0.0
820.0 0.252066 -31.051625 0.238146 96.399458 0.0 0.0 0.0 0.0
830.0 0.252752 -61.342246 0.237894 62.7105 0.0 0.0 0.0 0.0
840.0 0.255935 -92.326646 0.238319 28.885271 0.0 0.0 0.0 0.0
850.0 0.257307 -124.074406 0.23871 -5.166799 0.0 0.0 0.0 0.0
860.0 0.255307 -155.821622 0.238177 -39.332255 0.0 0.0 0.0 0.0
870.0 0.251236 172.976894 0.236575 -73.457806 0.0 0.0 0.0 0.0
880.0 0.247928 142.627147 0.234449 -107.359171 0.0 0.0 0.0 0.0
890.0 0.248795 112.561537 0.233063 -140.796779 0.0 0.0 0.0 0.0
900.0 0.252695 81.69646 0.233526 -174.242059 0.0 0.0 0.0 0.0
910.0 0.254695 49.791703 0.235177 152.013169 0.0 0.0 0.0 0.0
920.0 0.251441 17.81736 0.235921 117.617522 0.0 0.0 0.0 0.0
930.0 0.245743 -13.170572 0.232769 83.13321 0.0 0.0 0.0 0.0
940.0 0.242348 -43.210257 0.228063 49.370103 0.0 0.0 0.0 0.0
950.0 0.243771 -73.193526 0.225559 16.22394 0.0 0.0 0.0 0.0
960.0 0.247563 -104.191875 0.226198 -17.025262 0.0 0.0 0.0 0.0
970.0 0.248782 -135.916363 0.228754 -50.738483 0.0 0.0 0.0 0.0
980.0 0.247524 -167.540707 0.231344 -85.219165 0.0 0.0 0.0 0.0
990.0 0.244448 161.107044 0.229934 -120.243407 0.0 0.0 0.0 0.0
1000.0 0.240951 130.704906 0.22396 -154.148093 0.0 0.0 0.0 0.0
1010.0 0.242878 100.810077 0.222183 173.482041 0.0 0.0 0.0 0.0
1020.0 0.248367 69.596013 0.226774 140.387998 0.0 0.0 0.0 0.0
1030.0 0.249323 37.207627 0.230906 105.623249 0.0 0.0 0.0 0.0
1040.0 0.243584 5.277251 0.228376 70.199682 0.0 0.0 0.0 0.0
1050.0 0.236549 -24.987628 0.220381 36.115581 0.0 0.0 0.0 0.0
1060.0 0.23538 -54.191629 0.215332 3.800842 0.0 0.0 0.0 0.0
1070.0 0.240736 -84.237331 0.217197 -28.370525 0.0 0.0 0.0 0.0
1080.0 0.245835 -116.04285 0.222846 -62.077035 0.0 0.0 0.0 0.0
1090.0 0.244651 -148.485779 0.225783 -97.323551 0.0 0.0 0.0 0.0
1100.0 0.238715 179.93503 0.221961 -132.658502 0.0 0.0 0.0 0.0
1110.0 0.233322 149.760469 0.214423 -166.484009 0.0 0.0 0.0 0.0
1120.0 0.233565 120.34991 0.210963 161.444791 0.0 0.0 0.0 0.0
1130.0 0.239957 90.004795 0.215303 129.223255 0.0 0.0 0.0 0.0
1140.0 0.245167 57.807765 0.222062 94.94879 0.0 0.0 0.0 0.0
1150.0 0.242374 25.302746 0.222308 59.356471 0.0 0.0 0.0 0.0
1160.0 0.235924 -5.619996 0.215962 24.827088 0.0 0.0 0.0 0.0
1170.0 0.233632 -35.294917 0.211301 -8.008572 0.0 0.0 0.0 0.0
1180.0 0.236784 -65.33789 0.212265 -40.579946 0.0 0.0 0.0 0.0
1190.0 0.24057 -96.631644 0.216185 -74.190753 0.0 0.0 0.0 0.0
1200.0 0.240178 -128.446868 0.217942 -108.733313 0.0 0.0 0.0 0.0
1210.0 0.236996 -159.654792 0.215738 -143.145301 0.0 0.0 0.0 0.0
1220.0 0.234778 169.812578 0.212321 -176.823026 0.0 0.0 0.0 0.0
1230.0 0.235322 139.446606 0.210774 150.092976 0.0 0.0 0.0 0.0
1240.0 0.238222 108.570681 0.212604 116.747849 0.0 0.0 0.0 0.0
1250.0 0.240664 76.90859 0.215588 82.443093 0.0 0.0 0.0 0.0
1260.0 0.239821 44.902893 0.215536 47.387928 0.0 0.0 0.0 0.0
1270.0 0.235843 13.522204 0.211282 12.926408 0.0 0.0 0.0 0.0
1280.0 0.232991 -16.893047 0.207236 -20.233836 0.0 0.0 0.0 0.0
1290.0 0.233583 -47.15097 0.20689 -53.003936 0.0 0.0 0.0 0.0
1300.0 0.23594 -77.974249 0.209471 -86.514937 0.0 0.0 0.0 0.0
1310.0 0.237157 -109.386523 0.211352 -120.982006 0.0 0.0 0.0 0.0
1320.0 0.235847 -140.857583 0.20991 -155.522549 0.0 0.0 0.0 0.0
1330.0 0.233172 -171.897256 0.206533 170.743929 0.0 0.0 0.0 0.0
1340.0 0.2313 157.487599 0.204321 137.778484 0.0 0.0 0.0 0.0
1350.0 0.231067 126.907728 0.204514 104.666149 0.0 0.0 0.0 0.0
1360.0 0.232115 96.072114 0.205762 70.763237 0.0 0.0 0.0 0.0
1370.0 0.233528 64.689399 0.205897 36.09565 0.0 0.0 0.0 0.0
1380.0 0.232395 32.804635 0.202879 1.358796 0.0 0.0 0.0 0.0
1390.0 0.227718 1.499047 0.198336 -32.240584 0.0 0.0 0.0 0.0
1400.0 0.224392 -28.621804 0.196903 -64.701199 0.0 0.0 0.0 0.0
1410.0 0.225809 -58.588526 0.199936 -97.545615 0.0 0.0 0.0 0.0
1420.0 0.229678 -89.440063 0.203281 -131.743086 0.0 0.0 0.0 0.0
1430.0 0.232021 -121.162258 0.203109 -166.652235 0.0 0.0 0.0 0.0
1440.0 0.230923 -153.014172 0.199576 159.011929 0.0 0.0 0.0 0.0
1450.0 0.227843 175.663292 0.196893 125.683673 0.0 0.0 0.0 0.0
1460.0 0.225074 144.882299 0.196662 92.592118 0.0 0.0 0.0 0.0
1470.0 0.223704 114.396642 0.197537 59.033609 0.0 0.0 0.0 0.0
1480.0 0.224345 83.805593 0.197413 24.98444 0.0 0.0 0.0 0.0
1490.0 0.225489 52.625462 0.195492 -9.181981 0.0 0.0 0.0 0.0
1500.0 0.224571 21.144796 0.192969 -42.850987 0.0 0.0 0.0 0.0
1510.0 0.222026 -9.928531 0.19233 -75.999285 0.0 0.0 0.0 0.0
1520.0 0.2205 -40.449863 0.19431 -109.312466 0.0 0.0 0.0 0.0
1530.0 0.221529 -70.999573 0.196718 -143.411216 0.0 0.0 0.0 0.0
1540.0 0.223492 -102.22271 0.196202 -178.037337 0.0 0.0 0.0 0.0
1550.0 0.223193 -133.923083 0.19251 147.768203 0.0 0.0 0.0 0.0
1560.0 0.220392 -165.255338 0.189232 114.59724 0.0 0.0 0.0 0.0
1570.0 0.217799 164.078946 0.189372 81.747552 0.0 0.0 0.0 0.0
1580.0 0.217109 133.680105 0.1916 48.176191 0.0 0.0 0.0 0.0
1590.0 0.21824 103.116066 0.192897 13.959505 0.0 0.0 0.0 0.0
1600.0 0.220549 71.999586 0.19249 -20.378053 0.0 0.0 0.0 0.0
1610.0 0.221207 40.075425 0.19051 -54.665679 0.0 0.0 0.0 0.0
1620.0 0.217534 8.284473 0.187279 -88.283733 0.0 0.0 0.0 0.0
1630.0 0.212986 -22.364453 0.185947 -121.137455 0.0 0.0 0.0 0.0
1640.0 0.211649 -52.393491 0.187848 -154.194622 0.0 0.0 0.0 0.0
1650.0 0.21353 -82.777184 0.189943 171.785376 0.0 0.0 0.0 0.0
1660.0 0.216114 -114.095919 0.189549 137.321684 0.0 0.0 0.0 0.0
1670.0 0.215522 -146.077552 0.18662 103.213597 0.0 0.0 0.0 0.0
1680.0 0.21101 -177.459655 0.183636 70.01377 0.0 0.0 0.0 0.0
1690.0 0.20728 152.424032 0.184184 37.377472 0.0 0.0 0.0 0.0
1700.0 0.207913 122.568971 0.187929 3.928085 0.0 0.0 0.0 0.0
1710.0 0.210754 91.846932 0.190097 -30.676793 0.0 0.0 0.0 0.0
1720.0 0.212293 60.365164 0.188523 -65.206498 0.0 0.0 0.0 0.0
1730.0 0.211153 28.666449 0.185977 -99.02066 0.0 0.0 0.0 0.0
1740.0 0.207384 -2.466559 0.184344 -132.255246 0.0 0.0 0.0 0.0
1750.0 0.204917 -32.527013 0.185373 -165.281913 0.0 0.0 0.0 0.0
1760.0 0.207001 -62.607121 0.188759 160.971667 0.0 0.0 0.0 0.0
1770.0 0.210838 -93.975799 0.190578 126.021563 0.0 0.0 0.0 0.0
1780.0 0.210664 -126.393271 0.186892 90.961841 0.0 0.0 0.0 0.0
1790.0 0.204979 -158.142972 0.180622 57.384011 0.0 0.0 0.0 0.0
1800.0 0.199502 171.800523 0.178058 25.295137 0.0 0.0 0.0 0.0
1810.0 0.199201 142.428775 0.181958 -7.120523 0.0 0.0 0.0 0.0
1820.0 0.203011 112.134183 0.187815 -41.406312 0.0 0.0 0.0 0.0
1830.0 0.205901 80.528767 0.189041 -76.956874 0.0 0.0 0.0 0.0
1840.0 0.204716 48.619117 0.184243 -111.695942 0.0 0.0 0.0 0.0
1850.0 0.201022 17.488905 0.17933 -144.640849 0.0 0.0 0.0 0.0
1860.0 0.198682 -12.731688 0.179428 -176.949332 0.0 0.0 0.0 0.0
1870.0 0.199633 -42.956435 0.183586 149.528579 0.0 0.0 0.0 0.0
1880.0 0.201816 -74.067673 0.186245 114.379969 0.0 0.0 0.0 0.0
1890.0 0.201364 -105.895081 0.183234 79.118025 0.0 0.0 0.0 0.0
1900.0 0.197276 -137.197455 0.177381 45.444072 0.0 0.0 0.0 0.0
1910.0 0.193781 -167.247208 0.174533 13.353477 0.0 0.0 0.0 0.0
1920.0 0.194585 163.098427 0.177602 -18.957126 0.0 0.0 0.0 0.0
1930.0 0.198752 132.364643 0.183089 -53.196012 0.0 0.0 0.0 0.0
1940.0 0.200134 100.232985 0.184163 -88.809625 0.0 0.0 0.0 0.0
1950.0 0.196016 68.659252 0.179493 -123.618378 0.0 0.0 0.0 0.0
1960.0 0.192936 38.661117 0.175151 -156.37979 0.0 0.0 0.0 0.0
1970.0 0.19472 8.678114 0.175948 171.403589 0.0 0.0 0.0 0.0
1980.0 0.197533 -22.572035 0.179941 137.910643 0.0 0.0 0.0 0.0
1990.0 0.196547 -54.361965 0.182444 102.866173 0.0 0.0 0.0 0.0
2000.0 0.192888 -85.218507 0.17972 67.751627 0.0 0.0 0.0 0.0
2010.0 0.19182 -114.993357 0.175762 34.250261 0.0 0.0 0.0 0.0
2020.0 0.195318 -145.370052 0.176072 1.459271 0.0 0.0 0.0 0.0
2030.0 0.19742 -177.189806 0.178667 -32.361831 0.0 0.0 0.0 0.0
2040.0 0.195088 151.186749 0.178683 -66.964859 0.0 0.0 0.0 0.0
2050.0 0.192624 120.606158 0.177044 -101.142801 0.0 0.0 0.0 0.0
2060.0 0.192895 90.309198 0.175575 -135.1598 0.0 0.0 0.0 0.0
2070.0 0.194848 59.453895 0.173865 -168.915239 0.0 0.0 0.0 0.0
2080.0 0.196246 27.938379 0.173549 157.795703 0.0 0.0 0.0 0.0
2090.0 0.195267 -4.022158 0.175275 123.925053 0.0 0.0 0.0 0.0
2100.0 0.19048 -35.490986 0.175255 89.018302 0.0 0.0 0.0 0.0
2110.0 0.186072 -65.363627 0.171236 54.551064 0.0 0.0 0.0 0.0
2120.0 0.187255 -94.908763 0.16812 21.39226 0.0 0.0 0.0 0.0
2130.0 0.190535 -126.050967 0.168227 -11.829632 0.0 0.0 0.0 0.0
2140.0 0.189248 -158.120309 0.168722 -45.888044 0.0 0.0 0.0 0.0
2150.0 0.183845 170.806076 0.166797 -80.230901 0.0 0.0 0.0 0.0
2160.0 0.179599 141.260087 0.163205 -113.91571 0.0 0.0 0.0 0.0
2170.0 0.179823 112.252795 0.160716 -147.01888 0.0 0.0 0.0 0.0
2180.0 0.183699 82.457646 0.159403 179.94514 0.0 0.0 0.0 0.0
2190.0 0.187657 51.540815 0.158648 147.031977 0.0 0.0 0.0 0.0
2200.0 0.189785 20.1943 0.15958 114.259788 0.0 0.0 0.0 0.0
2210.0 0.190699 -11.178497 0.162497 80.831478 0.0 0.0 0.0 0.0
2220.0 0.19027 -42.478635 0.164137 46.210332 0.0 0.0 0.0 0.0
2230.0 0.189087 -73.197839 0.161914 11.719756 0.0 0.0 0.0 0.0
2240.0 0.190136 -103.423746 0.159134 -21.40927 0.0 0.0 0.0 0.0
2250.0 0.193919 -134.341958 0.160003 -54.038156 0.0 0.0 0.0 0.0
2260.0 0.196099 -166.440822 0.163108 -87.701089 0.0 0.0 0.0 0.0
2270.0 0.193532 161.473742 0.164396 -122.461488 0.0 0.0 0.0 0.0
2280.0 0.189282 130.681697 0.16224 -157.166778 0.0 0.0 0.0 0.0
2290.0 0.188135 100.750681 0.158843 169.033733 0.0 0.0 0.0 0.0
2300.0 0.190039 70.408904 0.156739 136.03589 0.0 0.0 0.0 0.0
2310.0 0.192282 39.379038 0.157148 103.285721 0.0 0.0 0.0 0.0
2320.0 0.193817 7.942735 0.159895 69.885974 0.0 0.0 0.0 0.0
2330.0 0.193939 -23.793792 0.162134 35.301466 0.0 0.0 0.0 0.0
2340.0 0.191795 -55.384842 0.160657 0.325143 0.0 0.0 0.0 0.0
2350.0 0.188586 -86.21789 0.156382 -33.643506 0.0 0.0 0.0 0.0
2360.0 0.18707 -116.251304 0.153567 -66.178394 0.0 0.0 0.0 0.0
2370.0 0.189001 -146.337296 0.15502 -98.501264 0.0 0.0 0.0 0.0
2380.0 0.19222 -177.470301 0.158772 -132.240845 0.0 0.0 0.0 0.0
2390.0 0.192584 150.732558 0.159617 -167.200948 0.0 0.0 0.0 0.0
2400.0 0.190443 119.500924 0.156602 158.421463 0.0 0.0 0.0 0.0
2410.0 0.189179 88.914514 0.153901 125.307986 0.0 0.0 0.0 0.0
2420.0 0.189324 58.341168 0.153756 92.592844 0.0 0.0 0.0 0.0
2430.0 0.190276 27.657825 0.155769 59.455165 0.0 0.0 0.0 0.0
2440.0 0.192251 -3.392101 0.158556 25.364357 0.0 0.0 0.0 0.0
2450.0 0.19321 -35.161728 0.158978 -9.557433 0.0 0.0 0.0 0.0
2460.0 0.190768 -66.855509 0.155654 -43.995901 0.0 0.0 0.0 0.0
2470.0 0.187502 -97.416932 0.152366 -76.875819 0.0 0.0 0.0 0.0
2480.0 0.187695 -127.355641 0.153276 -109.206929 0.0 0.0 0.0 0.0
2490.0 0.190917 -158.061751 0.157278 -142.832802 0.0 0.0 0.0 0.0
2500.0 0.193015 170.166335 0.159176 -177.900478 0.0 0.0 0.0 0.0
2510.0 0.191714 138.29263 0.156783 147.236857 0.0 0.0 0.0 0.0
2520.0 0.188975 107.159283 0.153404 113.731159 0.0 0.0 0.0 0.0
2530.0 0.187355 76.579706 0.152597 81.005197 0.0 0.0 0.0 0.0
2540.0 0.187243 46.094914 0.154287 47.865248 0.0 0.0 0.0 0.0
2550.0 0.188727 15.444047 0.156728 13.925063 0.0 0.0 0.0 0.0
2560.0 0.191394 -15.99608 0.158074 -20.870989 0.0 0.0 0.0 0.0
2570.0 0.191179 -48.464393 0.156018 -55.953794 0.0 0.0 0.0 0.0
2580.0 0.185551 -80.355501 0.15107 -89.817112 0.0 0.0 0.0 0.0
2590.0 0.179782 -110.300567 0.14812 -122.037279 0.0 0.0 0.0 0.0
2600.0 0.179611 -139.31321 0.15022 -154.175786 0.0 0.0 0.0 0.0
2610.0 0.184449 -169.466588 0.154944 171.929665 0.0 0.0 0.0 0.0
2620.0 0.188177 158.567469 0.156338 136.549759 0.0 0.0 0.0 0.0
2630.0 0.186547 126.321936 0.153073 101.83749 0.0 0.0 0.0 0.0
2640.0 0.182673 95.273244 0.150011 68.784202 0.0 0.0 0.0 0.0
2650.0 0.180751 65.090539 0.150587 36.12562 0.0 0.0 0.0 0.0
2660.0 0.181207 34.952734 0.15297 2.505157 0.0 0.0 0.0 0.0
2670.0 0.183595 4.495132 0.154505 -31.809789 0.0 0.0 0.0 0.0
2680.0 0.187239 -26.879785 0.154844 -66.373563 0.0 0.0 0.0 0.0
2690.0 0.188203 -59.340427 0.153517 -100.940999 0.0 0.0 0.0 0.0
2700.0 0.18428 -91.434374 0.15116 -134.875356 0.0 0.0 0.0 0.0
2710.0 0.179519 -122.01651 0.149889 -168.121339 0.0 0.0 0.0 0.0
2720.0 0.178652 -151.656824 0.150875 158.564049 0.0 0.0 0.0 0.0
2730.0 0.182417 177.918758 0.152953 124.265903 0.0 0.0 0.0 0.0
2740.0 0.185415 145.65272 0.152625 89.110846 0.0 0.0 0.0 0.0
2750.0 0.18206 113.041882 0.148678 54.620395 0.0 0.0 0.0 0.0
2760.0 0.17585 82.230367 0.145271 21.820813 0.0 0.0 0.0 0.0
2770.0 0.173719 52.747046 0.146334 -10.742052 0.0 0.0 0.0 0.0
2780.0 0.175772 22.70496 0.148858 -44.856718 0.0 0.0 0.0 0.0
2790.0 0.178574 -8.411269 0.148508 -79.790107 0.0 0.0 0.0 0.0
2800.0 0.179907 -40.456595 0.145991 -114.184602 0.0 0.0 0.0 0.0
2810.0 0.177048 -72.823767 0.143254 -147.846903 0.0 0.0 0.0 0.0
2820.0 0.17077 -103.904794 0.141408 179.105458 0.0 0.0 0.0 0.0
2830.0 0.166796 -133.221696 0.141722 146.158978 0.0 0.0 0.0 0.0
2840.0 0.168605 -162.374885 0.143412 112.359551 0.0 0.0 0.0 0.0
2850.0 0.173687 166.74679 0.143545 77.615649 0.0 0.0 0.0 0.0
2860.0 0.175392 134.051808 0.140643 43.124171 0.0 0.0 0.0 0.0
2870.0 0.170446 101.714245 0.137098 10.023522 0.0 0.0 0.0 0.0
2880.0 0.164376 71.494869 0.136634 -22.216176 0.0 0.0 0.0 0.0
2890.0 0.163013 42.284568 0.139333 -55.544594 0.0 0.0 0.0 0.0
2900.0 0.165081 12.218167 0.14014 -90.50825 0.0 0.0 0.0 0.0
2910.0 0.166715 -18.864771 0.136658 -124.979731 0.0 0.0 0.0 0.0
2920.0 0.166777 -50.276435 0.133795 -157.682278 0.0 0.0 0.0 0.0
2930.0 0.165227 -81.817348 0.134662 169.7384 0.0 0.0 0.0 0.0
2940.0 0.161272 -112.906917 0.136553 135.875349 0.0 0.0 0.0 0.0
2950.0 0.157214 -142.615647 0.136 101.265357 0.0 0.0 0.0 0.0
2960.0 0.157233 -171.425508 0.133228 67.340509 0.0 0.0 0.0 0.0
2970.0 0.161906 158.692112 0.13108 34.466997 0.0 0.0 0.0 0.0
2980.0 0.165541 126.761346 0.131228 1.949108 0.0 0.0 0.0 0.0
2990.0 0.163682 94.531312 0.13337 -31.213451 0.0 0.0 0.0 0.0
3000.0 0.159266 63.676895 0.135255 -65.561045 0.0 0.0 0.0 0.0
3010.0 0.156496 34.139196 0.133978 -100.438266 0.0 0.0 0.0 0.0
3020.0 0.157297 4.958671 0.129985 -133.985217 0.0 0.0 0.0 0.0
3030.0 0.161214 -25.02244 0.12847 -165.822121 0.0 0.0 0.0 0.0
3040.0 0.165138 -56.4579 0.131446 161.980017 0.0 0.0 0.0 0.0
3050.0 0.165312 -88.574803 0.135702 128.004631 0.0 0.0 0.0 0.0
3060.0 0.162112 -119.829548 0.137226 92.770235 0.0 0.0 0.0 0.0
3070.0 0.159648 -149.562189 0.135001 57.97655 0.0 0.0 0.0 0.0
3080.0 0.162123 -178.800232 0.132464 24.570885 0.0 0.0 0.0 0.0
3090.0 0.168411 150.180085 0.132527 -8.340423 0.0 0.0 0.0 0.0
3100.0 0.170755 117.152476 0.134311 -41.995778 0.0 0.0 0.0 0.0
3110.0 0.166113 84.639614 0.13539 -76.457365 0.0 0.0 0.0 0.0
3120.0 0.159911 54.300747 0.134818 -111.212042 0.0 0.0 0.0 0.0
3130.0 0.157697 25.457854 0.131878 -145.804745 0.0 0.0 0.0 0.0
3140.0 0.160341 -3.619772 0.127324 -178.936686 0.0 0.0 0.0 0.0
3150.0 0.165404 -33.965068 0.125642 149.613804 0.0 0.0 0.0 0.0
3160.0 0.169583 -65.763634 0.129052 117.802055 0.0 0.0 0.0 0.0
3170.0 0.169186 -98.116077 0.134477 83.684523 0.0 0.0 0.0 0.0
3180.0 0.165116 -129.206964 0.135726 47.78514 0.0 0.0 0.0 0.0
3190.0 0.162927 -158.474592 0.131646 12.962078 0.0 0.0 0.0 0.0
