! File created by SignalIntegrity v1.1.13: Signal and Power Integrity Tools
! https://github.com/TeledyneLeCroy/SignalIntegrity
# MHz S MA R 50.0
0.0 0.339177 0.0 0.336834 0.0 0.0 0.0 0.0 0.0
10.0 0.333369 -33.065278 0.328283 -36.371961 0.0 0.0 0.0 0.0
20.0 0.327392 -64.535147 0.321758 -70.662382 0.0 0.0 0.0 0.0
30.0 0.325255 -96.240711 0.318731 -105.24827 0.0 0.0 0.0 0.0
40.0 0.319167 -127.779559 0.31192 -139.412704 0.0 0.0 0.0 0.0
50.0 0.315433 -158.328524 0.308771 -172.572456 0.0 0.0 0.0 0.0
60.0 0.316765 170.869088 0.311054 153.735622 0.0 0.0 0.0 0.0
70.0 0.31799 139.349835 0.312152 118.983996 0.0 0.0 0.0 0.0
80.0 0.31587 107.616091 0.307374 84.033761 0.0 0.0 0.0 0.0
90.0 0.311461 76.406217 0.300859 50.138943 0.0 0.0 0.0 0.0
100.0 0.309365 45.716067 0.299471 17.039332 0.0 0.0 0.0 0.0
110.0 0.309679 14.738693 0.302883 -16.688876 0.0 0.0 0.0 0.0
120.0 0.309338 -16.415618 0.304558 -51.081395 0.0 0.0 0.0 0.0
130.0 0.310083 -47.632601 0.303231 -85.598601 0.0 0.0 0.0 0.0
140.0 0.30957 -79.34061 0.298565 -120.063204 0.0 0.0 0.0 0.0
150.0 0.305948 -110.739915 0.292698 -153.656624 0.0 0.0 0.0 0.0
160.0 0.303419 -141.65843 0.292361 173.117865 0.0 0.0 0.0 0.0
170.0 0.302415 -172.529393 0.29523 139.141056 0.0 0.0 0.0 0.0
180.0 0.302895 156.464778 0.29646 104.416708 0.0 0.0 0.0 0.0
190.0 0.30301 125.026294 0.292927 69.723398 0.0 0.0 0.0 0.0
200.0 0.300697 93.599392 0.287032 35.95872 0.0 0.0 0.0 0.0
210.0 0.29807 62.479536 0.28481 3.029349 0.0 0.0 0.0 0.0
220.0 0.295428 31.509689 0.286975 -30.411583 0.0 0.0 0.0 0.0
230.0 0.29412 0.936814 0.289477 -64.561875 0.0 0.0 0.0 0.0
240.0 0.296555 -29.947088 0.289278 -99.439385 0.0 0.0 0.0 0.0
250.0 0.297757 -61.662059 0.283888 -133.98033 0.0 0.0 0.0 0.0
260.0 0.295375 -93.318418 0.279338 -167.468227 0.0 0.0 0.0 0.0
270.0 0.292004 -124.544383 0.279468 159.269676 0.0 0.0 0.0 0.0
280.0 0.289277 -155.34327 0.282086 125.371545 0.0 0.0 0.0 0.0
290.0 0.288995 174.015875 0.283416 90.843711 0.0 0.0 0.0 0.0
300.0 0.29026 143.015141 0.279886 56.298606 0.0 0.0 0.0 0.0
310.0 0.290769 111.668101 0.274467 22.801898 0.0 0.0 0.0 0.0
320.0 0.289664 80.191558 0.273017 -10.102118 0.0 0.0 0.0 0.0
330.0 0.286589 48.912352 0.275573 -43.533543 0.0 0.0 0.0 0.0
340.0 0.283653 18.103272 0.278281 -78.019432 0.0 0.0 0.0 0.0
350.0 0.28223 -12.567308 0.276371 -112.911382 0.0 0.0 0.0 0.0
360.0 0.282127 -43.193249 0.271729 -146.914611 0.0 0.0 0.0 0.0
370.0 0.284054 -74.152614 0.270145 179.973545 0.0 0.0 0.0 0.0
380.0 0.284379 -105.692307 0.272369 146.590437 0.0 0.0 0.0 0.0
390.0 0.282268 -136.951327 0.275402 112.449068 0.0 0.0 0.0 0.0
400.0 0.281097 -167.93342 0.275004 77.600269 0.0 0.0 0.0 0.0
410.0 0.280171 161.048996 0.269335 43.142743 0.0 0.0 0.0 0.0
420.0 0.279758 130.150796 0.263832 9.901721 0.0 0.0 0.0 0.0
430.0 0.280346 99.073537 0.263917 -22.918533 0.0 0.0 0.0 0.0
440.0 0.280165 67.705378 0.268294 -56.579719 0.0 0.0 0.0 0.0
450.0 0.277967 36.322774 0.27099 -91.519681 0.0 0.0 0.0 0.0
460.0 0.274342 5.418634 0.266509 -126.518278 0.0 0.0 0.0 0.0
470.0 0.27279 -24.890605 0.259911 -159.845564 0.0 0.0 0.0 0.0
480.0 0.275198 -55.46172 0.259543 167.591731 0.0 0.0 0.0 0.0
490.0 0.277728 -86.968271 0.263644 134.05633 0.0 0.0 0.0 0.0
500.0 0.276077 -118.830826 0.265593 99.366703 0.0 0.0 0.0 0.0
510.0 0.271284 -150.036162 0.2621 64.553576 0.0 0.0 0.0 0.0
520.0 0.268256 179.667429 0.256153 30.751531 0.0 0.0 0.0 0.0
530.0 0.269984 149.358538 0.253716 -2.153289 0.0 0.0 0.0 0.0
540.0 0.273142 118.18562 0.256152 -35.3205 0.0 0.0 0.0 0.0
550.0 0.27396 86.525157 0.259726 -69.481229 0.0 0.0 0.0 0.0
560.0 0.272275 54.896017 0.260395 -104.3485 0.0 0.0 0.0 0.0
570.0 0.268873 23.654648 0.256374 -138.989911 0.0 0.0 0.0 0.0
580.0 0.265947 -7.021344 0.251019 -172.462137 0.0 0.0 0.0 0.0
590.0 0.265625 -37.426816 0.249927 154.937408 0.0 0.0 0.0 0.0
600.0 0.268138 -68.282555 0.253934 121.764695 0.0 0.0 0.0 0.0
610.0 0.269083 -99.991098 0.257497 87.213834 0.0 0.0 0.0 0.0
620.0 0.265484 -131.461794 0.25488 52.164069 0.0 0.0 0.0 0.0
630.0 0.26245 -161.948019 0.248958 18.263149 0.0 0.0 0.0 0.0
640.0 0.263533 167.61671 0.246509 -14.711366 0.0 0.0 0.0 0.0
650.0 0.265618 136.481766 0.248504 -47.903708 0.0 0.0 0.0 0.0
660.0 0.265777 105.006165 0.252246 -81.95707 0.0 0.0 0.0 0.0
670.0 0.264175 73.60722 0.252864 -116.790681 0.0 0.0 0.0 0.0
680.0 0.261507 42.469712 0.248778 -151.294477 0.0 0.0 0.0 0.0
690.0 0.25875 11.697992 0.244199 175.23394 0.0 0.0 0.0 0.0
700.0 0.257021 -18.712718 0.242257 142.238219 0.0 0.0 0.0 0.0
710.0 0.257887 -48.982311 0.243828 109.187497 0.0 0.0 0.0 0.0
720.0 0.261312 -79.810098 0.246596 75.29798 0.0 0.0 0.0 0.0
730.0 0.263367 -111.487708 0.246643 40.851653 0.0 0.0 0.0 0.0
740.0 0.261365 -143.232394 0.24392 6.588219 0.0 0.0 0.0 0.0
750.0 0.257398 -174.298694 0.24087 -27.138544 0.0 0.0 0.0 0.0
760.0 0.254866 155.336939 0.239644 -60.536164 0.0 0.0 0.0 0.0
770.0 0.25575 125.08746 0.24047 -94.024455 0.0 0.0 0.0 0.0
780.0 0.25893 94.240988 0.242104 -127.801486 0.0 0.0 0.0 0.0
790.0 0.261033 62.607126 0.243068 -161.905264 0.0 0.0 0.0 0.0
800.0 0.259319 30.800066 0.242088 163.927354 0.0 0.0 0.0 0.0
810.0 0.255306 -0.358572 0.239738 130.027623 0.0 0.0 0.0 0.0
820.0 0.252686 -30.785927 0.238146 96.399458 0.0 0.0 0.0 0.0
830.0 0.253702 -61.101188 0.237894 62.7105 0.0 0.0 0.0 0.0
840.0 0.256964 -92.160809 0.238319 28.885271 0.0 0.0 0.0 0.0
850.0 0.258069 -123.956357 0.23871 -5.166799 0.0 0.0 0.0 0.0
860.0 0.255755 -155.667394 0.238177 -39.332255 0.0 0.0 0.0 0.0
870.0 0.251698 173.209365 0.236575 -73.457806 0.0 0.0 0.0 0.0
880.0 0.24869 142.890535 0.234449 -107.359171 0.0 0.0 0.0 0.0
890.0 0.249822 112.779598 0.233063 -140.796779 0.0 0.0 0.0 0.0
900.0 0.253685 81.841722 0.233526 -174.242059 0.0 0.0 0.0 0.0
910.0 0.255379 49.919362 0.235177 152.013169 0.0 0.0 0.0 0.0
920.0 0.251931 18.003174 0.235921 117.617522 0.0 0.0 0.0 0.0
930.0 0.246369 -12.922671 0.232769 83.13321 0.0 0.0 0.0 0.0
940.0 0.243264 -42.959988 0.228063 49.370103 0.0 0.0 0.0 0.0
950.0 0.244861 -73.002267 0.225559 16.22394 0.0 0.0 0.0 0.0
960.0 0.248527 -104.062546 0.226198 -17.025262 0.0 0.0 0.0 0.0
970.0 0.249455 -135.78247 0.228754 -50.738483 0.0 0.0 0.0 0.0
980.0 0.248099 -167.343088 0.231344 -85.219165 0.0 0.0 0.0 0.0
990.0 0.245233 161.349699 0.229934 -120.243407 0.0 0.0 0.0 0.0
1000.0 0.241973 130.921886 0.22396 -154.148093 0.0 0.0 0.0 0.0
1010.0 0.243932 100.970332 0.222183 173.482041 0.0 0.0 0.0 0.0
1020.0 0.249254 69.723812 0.226774 140.387998 0.0 0.0 0.0 0.0
1030.0 0.249996 37.363866 0.230906 105.623249 0.0 0.0 0.0 0.0
1040.0 0.244284 5.491218 0.228376 70.199682 0.0 0.0 0.0 0.0
1050.0 0.237454 -24.760007 0.220381 36.115581 0.0 0.0 0.0 0.0
1060.0 0.236428 -54.001477 0.215332 3.800842 0.0 0.0 0.0 0.0
1070.0 0.241752 -84.094324 0.217197 -28.370525 0.0 0.0 0.0 0.0
1080.0 0.246669 -115.909265 0.222846 -62.077035 0.0 0.0 0.0 0.0
1090.0 0.245369 -148.312039 0.225783 -97.323551 0.0 0.0 0.0 0.0
1100.0 0.239526 -179.8532 0.221961 -132.658502 0.0 0.0 0.0 0.0
1110.0 0.234287 149.964326 0.214423 -166.484009 0.0 0.0 0.0 0.0
1120.0 0.234573 120.517321 0.210963 161.444791 0.0 0.0 0.0 0.0
1130.0 0.240887 90.149454 0.215303 129.223255 0.0 0.0 0.0 0.0
1140.0 0.245986 57.964675 0.222062 94.94879 0.0 0.0 0.0 0.0
1150.0 0.243179 25.493464 0.222308 59.356471 0.0 0.0 0.0 0.0
1160.0 0.236826 -5.414646 0.215962 24.827088 0.0 0.0 0.0 0.0
1170.0 0.234625 -35.105041 0.211301 -8.008572 0.0 0.0 0.0 0.0
1180.0 0.237793 -65.174903 0.212265 -40.579946 0.0 0.0 0.0 0.0
1190.0 0.241495 -96.483352 0.216185 -74.190753 0.0 0.0 0.0 0.0
1200.0 0.240997 -128.282841 0.217942 -108.733313 0.0 0.0 0.0 0.0
1210.0 0.237817 -159.461616 0.215738 -143.145301 0.0 0.0 0.0 0.0
1220.0 0.235692 170.016092 0.212321 -176.823026 0.0 0.0 0.0 0.0
1230.0 0.236313 139.636123 0.210774 150.092976 0.0 0.0 0.0 0.0
1240.0 0.239209 108.739772 0.212604 116.747849 0.0 0.0 0.0 0.0
1250.0 0.241575 77.073932 0.215588 82.443093 0.0 0.0 0.0 0.0
1260.0 0.24068 45.087077 0.215536 47.387928 0.0 0.0 0.0 0.0
1270.0 0.236737 13.724928 0.211282 12.926408 0.0 0.0 0.0 0.0
1280.0 0.23396 -16.692089 0.207236 -20.233836 0.0 0.0 0.0 0.0
1290.0 0.234585 -46.968518 0.20689 -53.003936 0.0 0.0 0.0 0.0
1300.0 0.236897 -77.806548 0.209471 -86.514937 0.0 0.0 0.0 0.0
1310.0 0.238039 -109.213486 0.211352 -120.982006 0.0 0.0 0.0 0.0
1320.0 0.236705 -140.666949 0.20991 -155.522549 0.0 0.0 0.0 0.0
1330.0 0.234061 -171.695026 0.206533 170.743929 0.0 0.0 0.0 0.0
1340.0 0.23223 157.686949 0.204321 137.778484 0.0 0.0 0.0 0.0
1350.0 0.231997 127.097374 0.204514 104.666149 0.0 0.0 0.0 0.0
1360.0 0.233011 96.259001 0.205762 70.763237 0.0 0.0 0.0 0.0
1370.0 0.234399 64.883254 0.205897 36.09565 0.0 0.0 0.0 0.0
1380.0 0.233267 33.007272 0.202879 1.358796 0.0 0.0 0.0 0.0
1390.0 0.22859 1.704528 0.198336 -32.240584 0.0 0.0 0.0 0.0
1400.0 0.225257 -28.417296 0.196903 -64.701199 0.0 0.0 0.0 0.0
1410.0 0.226671 -58.383894 0.199936 -97.545615 0.0 0.0 0.0 0.0
1420.0 0.230547 -89.233418 0.203281 -131.743086 0.0 0.0 0.0 0.0
1430.0 0.232895 -120.953053 0.203109 -166.652235 0.0 0.0 0.0 0.0
1440.0 0.231788 -152.803881 0.199576 159.011929 0.0 0.0 0.0 0.0
1450.0 0.228683 175.87556 0.196893 125.683673 0.0 0.0 0.0 0.0
1460.0 0.225893 145.099968 0.196662 92.592118 0.0 0.0 0.0 0.0
1470.0 0.224524 114.620402 0.197537 59.033609 0.0 0.0 0.0 0.0
1480.0 0.225186 84.030632 0.197413 24.98444 0.0 0.0 0.0 0.0
1490.0 0.226336 52.845201 0.195492 -9.181981 0.0 0.0 0.0 0.0
1500.0 0.225378 21.36085 0.192969 -42.850987 0.0 0.0 0.0 0.0
1510.0 0.222777 -9.705286 0.19233 -75.999285 0.0 0.0 0.0 0.0
1520.0 0.221234 -40.211254 0.19431 -109.312466 0.0 0.0 0.0 0.0
1530.0 0.222304 -70.750546 0.196718 -143.411216 0.0 0.0 0.0 0.0
1540.0 0.224317 -101.977957 0.196202 -178.037337 0.0 0.0 0.0 0.0
1550.0 0.224004 -133.691005 0.19251 147.768203 0.0 0.0 0.0 0.0
1560.0 0.221124 -165.025708 0.189232 114.59724 0.0 0.0 0.0 0.0
1570.0 0.218465 164.324923 0.189372 81.747552 0.0 0.0 0.0 0.0
1580.0 0.217789 133.948699 0.1916 48.176191 0.0 0.0 0.0 0.0
1590.0 0.218995 103.392206 0.192897 13.959505 0.0 0.0 0.0 0.0
1600.0 0.221358 72.26233 0.19249 -20.378053 0.0 0.0 0.0 0.0
1610.0 0.221974 40.321654 0.19051 -54.665679 0.0 0.0 0.0 0.0
1620.0 0.218193 8.53498 0.187279 -88.283733 0.0 0.0 0.0 0.0
1630.0 0.213587 -22.088022 0.185947 -121.137455 0.0 0.0 0.0 0.0
1640.0 0.212298 -52.09188 0.187848 -154.194622 0.0 0.0 0.0 0.0
1650.0 0.214285 -82.474921 0.189943 171.785376 0.0 0.0 0.0 0.0
1660.0 0.216914 -113.818335 0.189549 137.321684 0.0 0.0 0.0 0.0
1670.0 0.216232 -145.818366 0.18662 103.213597 0.0 0.0 0.0 0.0
1680.0 0.211591 -177.185791 0.183636 70.01377 0.0 0.0 0.0 0.0
1690.0 0.20783 152.73451 0.184184 37.377472 0.0 0.0 0.0 0.0
1700.0 0.208564 122.905276 0.187929 3.928085 0.0 0.0 0.0 0.0
1710.0 0.211543 92.172642 0.190097 -30.676793 0.0 0.0 0.0 0.0
1720.0 0.213099 60.654141 0.188523 -65.206498 0.0 0.0 0.0 0.0
1730.0 0.211822 28.938801 0.185977 -99.02066 0.0 0.0 0.0 0.0
1740.0 0.207922 -2.166749 0.184344 -132.255246 0.0 0.0 0.0 0.0
1750.0 0.205473 -32.18451 0.185373 -165.281913 0.0 0.0 0.0 0.0
1760.0 0.207701 -62.248781 0.188759 160.971667 0.0 0.0 0.0 0.0
1770.0 0.211664 -93.642915 0.190578 126.021563 0.0 0.0 0.0 0.0
1780.0 0.211437 -126.098701 0.186892 90.961841 0.0 0.0 0.0 0.0
1790.0 0.205576 -157.847219 0.180622 57.384011 0.0 0.0 0.0 0.0
1800.0 0.200014 172.136286 0.178058 25.295137 0.0 0.0 0.0 0.0
1810.0 0.199788 142.805726 0.181958 -7.120523 0.0 0.0 0.0 0.0
1820.0 0.203785 112.516573 0.187815 -41.406312 0.0 0.0 0.0 0.0
1830.0 0.206786 80.869526 0.189041 -76.956874 0.0 0.0 0.0 0.0
1840.0 0.205499 48.920455 0.184243 -111.695942 0.0 0.0 0.0 0.0
1850.0 0.201634 17.800392 0.17933 -144.640849 0.0 0.0 0.0 0.0
1860.0 0.199249 -12.37568 0.179428 -176.949332 0.0 0.0 0.0 0.0
1870.0 0.200322 -42.567382 0.183586 149.528579 0.0 0.0 0.0 0.0
1880.0 0.202674 -73.691545 0.186245 114.379969 0.0 0.0 0.0 0.0
1890.0 0.202252 -105.562811 0.183234 79.118025 0.0 0.0 0.0 0.0
1900.0 0.198033 -136.888737 0.177381 45.444072 0.0 0.0 0.0 0.0
1910.0 0.194416 -166.920332 0.174533 13.353477 0.0 0.0 0.0 0.0
1920.0 0.195218 163.462895 0.177602 -18.957126 0.0 0.0 0.0 0.0
1930.0 0.199517 132.754754 0.183089 -53.196012 0.0 0.0 0.0 0.0
1940.0 0.201058 100.605713 0.184163 -88.809625 0.0 0.0 0.0 0.0
1950.0 0.196939 68.987988 0.179493 -123.618378 0.0 0.0 0.0 0.0
1960.0 0.193737 38.967685 0.175151 -156.37979 0.0 0.0 0.0 0.0
1970.0 0.195411 9.003412 0.175948 171.403589 0.0 0.0 0.0 0.0
1980.0 0.19825 -22.19884 0.179941 137.910643 0.0 0.0 0.0 0.0
1990.0 0.197448 -53.968841 0.182444 102.866173 0.0 0.0 0.0 0.0
2000.0 0.193939 -84.865424 0.17972 67.751627 0.0 0.0 0.0 0.0
2010.0 0.192843 -114.703991 0.175762 34.250261 0.0 0.0 0.0 0.0
2020.0 0.196162 -145.106983 0.176072 1.459271 0.0 0.0 0.0 0.0
2030.0 0.198112 -176.884809 0.178667 -32.361831 0.0 0.0 0.0 0.0
2040.0 0.195849 151.550842 0.178683 -66.964859 0.0 0.0 0.0 0.0
2050.0 0.193595 120.976681 0.177044 -101.142801 0.0 0.0 0.0 0.0
2060.0 0.194003 90.62528 0.175575 -135.1598 0.0 0.0 0.0 0.0
2070.0 0.195868 59.70913 0.173865 -168.915239 0.0 0.0 0.0 0.0
2080.0 0.197052 28.197853 0.173549 157.795703 0.0 0.0 0.0 0.0
2090.0 0.196018 -3.699431 0.175275 123.925053 0.0 0.0 0.0 0.0
2100.0 0.191409 -35.128593 0.175255 89.018302 0.0 0.0 0.0 0.0
2110.0 0.187196 -65.036102 0.171236 54.551064 0.0 0.0 0.0 0.0
2120.0 0.188412 -94.653075 0.16812 21.39226 0.0 0.0 0.0 0.0
2130.0 0.191547 -125.836271 0.168227 -11.829632 0.0 0.0 0.0 0.0
2140.0 0.190088 -157.882459 0.168722 -45.888044 0.0 0.0 0.0 0.0
2150.0 0.184686 171.093699 0.166797 -80.230901 0.0 0.0 0.0 0.0
2160.0 0.180593 141.561956 0.163205 -113.91571 0.0 0.0 0.0 0.0
2170.0 0.180983 112.511149 0.160716 -147.01888 0.0 0.0 0.0 0.0
2180.0 0.184884 82.637112 0.159403 179.94514 0.0 0.0 0.0 0.0
2190.0 0.188651 51.669355 0.158648 147.031977 0.0 0.0 0.0 0.0
2200.0 0.190546 20.348287 0.15958 114.259788 0.0 0.0 0.0 0.0
2210.0 0.191432 -10.958185 0.162497 80.831478 0.0 0.0 0.0 0.0
2220.0 0.191176 -42.226908 0.164137 46.210332 0.0 0.0 0.0 0.0
2230.0 0.190154 -72.98331 0.161914 11.719756 0.0 0.0 0.0 0.0
2240.0 0.19117 -103.272844 0.159134 -21.40927 0.0 0.0 0.0 0.0
2250.0 0.194764 -134.210687 0.160003 -54.038156 0.0 0.0 0.0 0.0
2260.0 0.196807 -166.261725 0.163108 -87.701089 0.0 0.0 0.0 0.0
2270.0 0.194332 161.711068 0.164396 -122.461488 0.0 0.0 0.0 0.0
2280.0 0.1903 130.916244 0.16224 -157.166778 0.0 0.0 0.0 0.0
2290.0 0.189272 100.916656 0.158843 169.033733 0.0 0.0 0.0 0.0
2300.0 0.191064 70.501527 0.156739 136.03589 0.0 0.0 0.0 0.0
2310.0 0.193052 39.462319 0.157148 103.285721 0.0 0.0 0.0 0.0
2320.0 0.194446 8.084394 0.159895 69.885974 0.0 0.0 0.0 0.0
2330.0 0.194677 -23.593651 0.162134 35.301466 0.0 0.0 0.0 0.0
2340.0 0.192747 -55.191725 0.160657 0.325143 0.0 0.0 0.0 0.0
2350.0 0.189603 -86.090591 0.156382 -33.643506 0.0 0.0 0.0 0.0
2360.0 0.187931 -116.182058 0.153567 -66.178394 0.0 0.0 0.0 0.0
2370.0 0.189627 -146.261847 0.15502 -98.501264 0.0 0.0 0.0 0.0
2380.0 0.192756 -177.330801 0.158772 -132.240845 0.0 0.0 0.0 0.0
2390.0 0.193263 150.922107 0.159617 -167.200948 0.0 0.0 0.0 0.0
2400.0 0.191314 119.672421 0.156602 158.421463 0.0 0.0 0.0 0.0
2410.0 0.190074 89.023166 0.153901 125.307986 0.0 0.0 0.0 0.0
2420.0 0.190046 58.410553 0.153756 92.592844 0.0 0.0 0.0 0.0
2430.0 0.190801 27.752383 0.155769 59.455165 0.0 0.0 0.0 0.0
2440.0 0.192755 -3.235741 0.158556 25.364357 0.0 0.0 0.0 0.0
2450.0 0.193882 -34.972068 0.158978 -9.557433 0.0 0.0 0.0 0.0
2460.0 0.191593 -66.695814 0.155654 -43.995901 0.0 0.0 0.0 0.0
2470.0 0.188289 -97.312774 0.152366 -76.875819 0.0 0.0 0.0 0.0
2480.0 0.188308 -127.271627 0.153276 -109.206929 0.0 0.0 0.0 0.0
2490.0 0.191391 -157.939832 0.157278 -142.832802 0.0 0.0 0.0 0.0
2500.0 0.193537 170.344787 0.159176 -177.900478 0.0 0.0 0.0 0.0
2510.0 0.192415 138.483931 0.156783 147.236857 0.0 0.0 0.0 0.0
2520.0 0.189781 107.307906 0.153404 113.731159 0.0 0.0 0.0 0.0
2530.0 0.188077 76.677292 0.152597 81.005197 0.0 0.0 0.0 0.0
2540.0 0.187778 46.189023 0.154287 47.865248 0.0 0.0 0.0 0.0
2550.0 0.189162 15.585193 0.156728 13.925063 0.0 0.0 0.0 0.0
2560.0 0.19192 -15.805278 0.158074 -20.870989 0.0 0.0 0.0 0.0
2570.0 0.191885 -48.276165 0.156018 -55.953794 0.0 0.0 0.0 0.0
2580.0 0.18629 -80.216874 0.15107 -89.817112 0.0 0.0 0.0 0.0
2590.0 0.180381 -110.197933 0.14812 -122.037279 0.0 0.0 0.0 0.0
2600.0 0.180046 -139.197759 0.15022 -154.175786 0.0 0.0 0.0 0.0
2610.0 0.184833 -169.300678 0.154944 171.929665 0.0 0.0 0.0 0.0
2620.0 0.188667 158.775016 0.156338 136.549759 0.0 0.0 0.0 0.0
2630.0 0.187176 126.524891 0.153073 101.83749 0.0 0.0 0.0 0.0
2640.0 0.183327 95.440086 0.150011 68.784202 0.0 0.0 0.0 0.0
2650.0 0.181308 65.233248 0.150587 36.12562 0.0 0.0 0.0 0.0
2660.0 0.181648 35.11173 0.15297 2.505157 0.0 0.0 0.0 0.0
2670.0 0.184021 4.6958 0.154505 -31.809789 0.0 0.0 0.0 0.0
2680.0 0.187771 -26.650395 0.154844 -66.373563 0.0 0.0 0.0 0.0
2690.0 0.188855 -59.121134 0.153517 -100.940999 0.0 0.0 0.0 0.0
2700.0 0.18493 -91.245882 0.15116 -134.875356 0.0 0.0 0.0 0.0
2710.0 0.180072 -121.840716 0.149889 -168.121339 0.0 0.0 0.0 0.0
2720.0 0.179127 -151.463228 0.150875 158.564049 0.0 0.0 0.0 0.0
2730.0 0.182908 178.144949 0.152953 124.265903 0.0 0.0 0.0 0.0
2740.0 0.186004 145.894754 0.152625 89.110846 0.0 0.0 0.0 0.0
2750.0 0.182712 113.270033 0.148678 54.620395 0.0 0.0 0.0 0.0
2760.0 0.176472 82.436414 0.145271 21.820813 0.0 0.0 0.0 0.0
2770.0 0.174268 52.947801 0.146334 -10.742052 0.0 0.0 0.0 0.0
2780.0 0.176279 22.924304 0.148858 -44.856718 0.0 0.0 0.0 0.0
2790.0 0.179111 -8.167171 0.148508 -79.790107 0.0 0.0 0.0 0.0
2800.0 0.180522 -40.204775 0.145991 -114.184602 0.0 0.0 0.0 0.0
2810.0 0.177701 -72.586265 0.143254 -147.846903 0.0 0.0 0.0 0.0
2820.0 0.17138 -103.683582 0.141408 179.105458 0.0 0.0 0.0 0.0
2830.0 0.167343 -133.000629 0.141722 146.158978 0.0 0.0 0.0 0.0
2840.0 0.169127 -162.13868 0.143412 112.359551 0.0 0.0 0.0 0.0
2850.0 0.174243 167.001476 0.143545 77.615649 0.0 0.0 0.0 0.0
2860.0 0.176006 134.31205 0.140643 43.124171 0.0 0.0 0.0 0.0
2870.0 0.171073 101.965172 0.137098 10.023522 0.0 0.0 0.0 0.0
2880.0 0.164971 71.73605 0.136634 -22.216176 0.0 0.0 0.0 0.0
2890.0 0.163574 42.524961 0.139333 -55.544594 0.0 0.0 0.0 0.0
2900.0 0.165629 12.467441 0.14014 -90.50825 0.0 0.0 0.0 0.0
2910.0 0.167275 -18.604428 0.136658 -124.979731 0.0 0.0 0.0 0.0
2920.0 0.167359 -50.010418 0.133795 -157.682278 0.0 0.0 0.0 0.0
2930.0 0.165825 -81.55242 0.134662 169.7384 0.0 0.0 0.0 0.0
2940.0 0.161862 -112.647345 0.136553 135.875349 0.0 0.0 0.0 0.0
2950.0 0.157777 -142.359366 0.136 101.265357 0.0 0.0 0.0 0.0
2960.0 0.157777 -171.167539 0.133228 67.340509 0.0 0.0 0.0 0.0
2970.0 0.162452 158.958453 0.13108 34.466997 0.0 0.0 0.0 0.0
2980.0 0.166107 127.038669 0.131228 1.949108 0.0 0.0 0.0 0.0
2990.0 0.164268 94.813634 0.13337 -31.213451 0.0 0.0 0.0 0.0
3000.0 0.15986 63.955125 0.135255 -65.561045 0.0 0.0 0.0 0.0
3010.0 0.157078 34.408907 0.133978 -100.438266 0.0 0.0 0.0 0.0
3020.0 0.157857 5.225357 0.129985 -133.985217 0.0 0.0 0.0 0.0
3030.0 0.16176 -24.748388 0.12847 -165.822121 0.0 0.0 0.0 0.0
3040.0 0.165697 -56.167502 0.131446 161.980017 0.0 0.0 0.0 0.0
3050.0 0.165915 -88.274738 0.135702 128.004631 0.0 0.0 0.0 0.0
3060.0 0.162745 -119.536802 0.137226 92.770235 0.0 0.0 0.0 0.0
3070.0 0.160274 -149.283548 0.135001 57.97655 0.0 0.0 0.0 0.0
3080.0 0.162724 -178.530315 0.132464 24.570885 0.0 0.0 0.0 0.0
3090.0 0.168989 150.459299 0.132527 -8.340423 0.0 0.0 0.0 0.0
3100.0 0.171349 117.452083 0.134311 -41.995778 0.0 0.0 0.0 0.0
3110.0 0.166745 84.947755 0.13539 -76.457365 0.0 0.0 0.0 0.0
3120.0 0.160572 54.599834 0.134818 -111.212042 0.0 0.0 0.0 0.0
3130.0 0.158362 25.736037 0.131878 -145.804745 0.0 0.0 0.0 0.0
3140.0 0.160977 -3.357608 0.127324 -178.936686 0.0 0.0 0.0 0.0
3150.0 0.165997 -33.698069 0.125642 149.613804 0.0 0.0 0.0 0.0
3160.0 0.170182 -65.472429 0.129052 117.802055 0.0 0.0 0.0 0.0
3170.0 0.169858 -97.812835 0.134477 83.684523 0.0 0.0 0.0 0.0
3180.0 0.165842 -128.92253 0.135726 47.78514 0.0 0.0 0.0 0.0
3190.0 0.163643 -158.223063 0.131646 12.962078 0.0 0.0 0.0 0.0
