! File created by SignalIntegrity v1.4.3: Signal and Power Integrity Tools
! https://github.com/Nubis-Communications/SignalIntegrity
# MHz S MA R 50.0
0.0 0.348327 0.0 0.336834 0.0 0.0 0.0 0.0 0.0
10.0 0.34233 -33.06978 0.328283 -36.371961 0.0 0.0 0.0 0.0
20.0 0.33614 -64.536392 0.321758 -70.662382 0.0 0.0 0.0 0.0
30.0 0.333896 -96.229436 0.318731 -105.24827 0.0 0.0 0.0 0.0
40.0 0.327687 -127.750174 0.31192 -139.412704 0.0 0.0 0.0 0.0
50.0 0.323936 -158.299627 0.308771 -172.572456 0.0 0.0 0.0 0.0
60.0 0.325283 170.890547 0.311054 153.735622 0.0 0.0 0.0 0.0
70.0 0.326482 139.380737 0.312152 118.983996 0.0 0.0 0.0 0.0
80.0 0.324331 107.665489 0.307374 84.033761 0.0 0.0 0.0 0.0
90.0 0.319899 76.463138 0.300859 50.138943 0.0 0.0 0.0 0.0
100.0 0.317815 45.765961 0.299471 17.039332 0.0 0.0 0.0 0.0
110.0 0.318132 14.778765 0.302883 -16.688876 0.0 0.0 0.0 0.0
120.0 0.317722 -16.374077 0.304558 -51.081395 0.0 0.0 0.0 0.0
130.0 0.318478 -47.573936 0.303231 -85.598601 0.0 0.0 0.0 0.0
140.0 0.318057 -79.270692 0.298565 -120.063204 0.0 0.0 0.0 0.0
150.0 0.314442 -110.682665 0.292698 -153.656624 0.0 0.0 0.0 0.0
160.0 0.311826 -141.622343 0.292361 173.117865 0.0 0.0 0.0 0.0
170.0 0.310686 -172.498539 0.29523 139.141056 0.0 0.0 0.0 0.0
180.0 0.311104 156.512816 0.29646 104.416708 0.0 0.0 0.0 0.0
190.0 0.311277 125.096517 0.292927 69.723398 0.0 0.0 0.0 0.0
200.0 0.309039 93.670262 0.287032 35.95872 0.0 0.0 0.0 0.0
210.0 0.306397 62.527333 0.28481 3.029349 0.0 0.0 0.0 0.0
220.0 0.303589 31.538541 0.286975 -30.411583 0.0 0.0 0.0 0.0
230.0 0.302111 0.974766 0.289477 -64.561875 0.0 0.0 0.0 0.0
240.0 0.304596 -29.882014 0.289278 -99.439385 0.0 0.0 0.0 0.0
250.0 0.305943 -61.580738 0.283888 -133.98033 0.0 0.0 0.0 0.0
260.0 0.303627 -93.245895 0.279338 -167.468227 0.0 0.0 0.0 0.0
270.0 0.300183 -124.499389 0.279468 159.269676 0.0 0.0 0.0 0.0
280.0 0.29725 -155.314251 0.282086 125.371545 0.0 0.0 0.0 0.0
290.0 0.29682 174.062276 0.283416 90.843711 0.0 0.0 0.0 0.0
300.0 0.298143 143.095439 0.279886 56.298606 0.0 0.0 0.0 0.0
310.0 0.298838 111.758634 0.274467 22.801898 0.0 0.0 0.0 0.0
320.0 0.297821 80.256507 0.273017 -10.102118 0.0 0.0 0.0 0.0
330.0 0.294585 48.945022 0.275573 -43.533543 0.0 0.0 0.0 0.0
340.0 0.291378 18.134235 0.278281 -78.019432 0.0 0.0 0.0 0.0
350.0 0.289807 -12.503304 0.276371 -112.911382 0.0 0.0 0.0 0.0
360.0 0.289787 -43.091951 0.271729 -146.914611 0.0 0.0 0.0 0.0
370.0 0.291975 -74.046762 0.270145 179.973545 0.0 0.0 0.0 0.0
380.0 0.292418 -105.618685 0.272369 146.590437 0.0 0.0 0.0 0.0
390.0 0.290156 -136.908 0.275402 112.449068 0.0 0.0 0.0 0.0
400.0 0.288785 -167.887517 0.275004 77.600269 0.0 0.0 0.0 0.0
410.0 0.287768 161.12601 0.269335 43.142743 0.0 0.0 0.0 0.0
420.0 0.287459 130.254159 0.263832 9.901721 0.0 0.0 0.0 0.0
430.0 0.288237 99.167518 0.263917 -22.918533 0.0 0.0 0.0 0.0
440.0 0.288083 67.763012 0.268294 -56.579719 0.0 0.0 0.0 0.0
450.0 0.285663 36.358957 0.27099 -91.519681 0.0 0.0 0.0 0.0
460.0 0.281777 5.474655 0.266509 -126.518278 0.0 0.0 0.0 0.0
470.0 0.280187 -24.798438 0.259911 -159.845564 0.0 0.0 0.0 0.0
480.0 0.282808 -55.350479 0.259543 167.591731 0.0 0.0 0.0 0.0
490.0 0.285573 -86.874567 0.263644 134.05633 0.0 0.0 0.0 0.0
500.0 0.283862 -118.775629 0.265593 99.366703 0.0 0.0 0.0 0.0
510.0 0.278758 -149.993345 0.2621 64.553576 0.0 0.0 0.0 0.0
520.0 0.275519 179.736371 0.256153 30.751531 0.0 0.0 0.0 0.0
530.0 0.27734 149.463398 0.253716 -2.153289 0.0 0.0 0.0 0.0
540.0 0.280762 118.299746 0.256152 -35.3205 0.0 0.0 0.0 0.0
550.0 0.28173 86.61116 0.259726 -69.481229 0.0 0.0 0.0 0.0
560.0 0.27993 54.945817 0.260395 -104.3485 0.0 0.0 0.0 0.0
570.0 0.276246 23.701342 0.256374 -138.989911 0.0 0.0 0.0 0.0
580.0 0.273149 -6.943034 0.251019 -172.462137 0.0 0.0 0.0 0.0
590.0 0.272901 -37.318028 0.249927 154.937408 0.0 0.0 0.0 0.0
600.0 0.275655 -68.173872 0.253934 121.764695 0.0 0.0 0.0 0.0
610.0 0.2767 -99.917601 0.257497 87.213834 0.0 0.0 0.0 0.0
620.0 0.27287 -131.41526 0.25488 52.164069 0.0 0.0 0.0 0.0
630.0 0.269592 -161.889512 0.248958 18.263149 0.0 0.0 0.0 0.0
640.0 0.270676 167.709049 0.246509 -14.711366 0.0 0.0 0.0 0.0
650.0 0.272945 136.594945 0.248504 -47.903708 0.0 0.0 0.0 0.0
660.0 0.273249 105.104763 0.252246 -81.95707 0.0 0.0 0.0 0.0
670.0 0.271603 73.672817 0.252864 -116.790681 0.0 0.0 0.0 0.0
680.0 0.268718 42.518766 0.248778 -151.294477 0.0 0.0 0.0 0.0
690.0 0.265743 11.765907 0.244199 175.23394 0.0 0.0 0.0 0.0
700.0 0.26397 -18.608239 0.242257 142.238219 0.0 0.0 0.0 0.0
710.0 0.265002 -48.859469 0.243828 109.187497 0.0 0.0 0.0 0.0
720.0 0.268672 -79.704463 0.246596 75.29798 0.0 0.0 0.0 0.0
730.0 0.270781 -111.420453 0.246643 40.851653 0.0 0.0 0.0 0.0
740.0 0.268551 -143.179879 0.24392 6.588219 0.0 0.0 0.0 0.0
750.0 0.264347 -174.220118 0.24087 -27.138544 0.0 0.0 0.0 0.0
760.0 0.261789 155.450847 0.239644 -60.536164 0.0 0.0 0.0 0.0
770.0 0.262857 125.211028 0.24047 -94.024455 0.0 0.0 0.0 0.0
780.0 0.266246 94.337923 0.242104 -127.801486 0.0 0.0 0.0 0.0
790.0 0.268348 62.667576 0.243068 -161.905264 0.0 0.0 0.0 0.0
800.0 0.266407 30.857231 0.242088 163.927354 0.0 0.0 0.0 0.0
810.0 0.2622 -0.270031 0.239738 130.027623 0.0 0.0 0.0 0.0
820.0 0.259589 -30.668735 0.238146 96.399458 0.0 0.0 0.0 0.0
830.0 0.260781 -60.984349 0.237894 62.7105 0.0 0.0 0.0 0.0
840.0 0.26421 -92.074667 0.238319 28.885271 0.0 0.0 0.0 0.0
850.0 0.265245 -123.89998 0.23871 -5.166799 0.0 0.0 0.0 0.0
860.0 0.262703 -155.603515 0.238177 -39.332255 0.0 0.0 0.0 0.0
870.0 0.258497 173.30495 0.236575 -73.457806 0.0 0.0 0.0 0.0
880.0 0.2555 143.007447 0.234449 -107.359171 0.0 0.0 0.0 0.0
890.0 0.256787 112.890167 0.233063 -140.796779 0.0 0.0 0.0 0.0
900.0 0.260798 81.924071 0.233526 -174.242059 0.0 0.0 0.0 0.0
910.0 0.262439 49.978806 0.235177 152.013169 0.0 0.0 0.0 0.0
920.0 0.258752 18.072735 0.235921 117.617522 0.0 0.0 0.0 0.0
930.0 0.253021 -12.821917 0.232769 83.13321 0.0 0.0 0.0 0.0
940.0 0.24993 -42.843018 0.228063 49.370103 0.0 0.0 0.0 0.0
950.0 0.251674 -72.895069 0.225559 16.22394 0.0 0.0 0.0 0.0
960.0 0.255457 -103.981324 0.226198 -17.025262 0.0 0.0 0.0 0.0
970.0 0.256308 -135.716453 0.228754 -50.738483 0.0 0.0 0.0 0.0
980.0 0.254812 -167.262731 0.231344 -85.219165 0.0 0.0 0.0 0.0
990.0 0.25188 161.455204 0.229934 -120.243407 0.0 0.0 0.0 0.0
1000.0 0.248624 131.037028 0.22396 -154.148093 0.0 0.0 0.0 0.0
1010.0 0.250727 101.071647 0.222183 173.482041 0.0 0.0 0.0 0.0
1020.0 0.256184 69.797331 0.226774 140.387998 0.0 0.0 0.0 0.0
1030.0 0.256824 37.427209 0.230906 105.623249 0.0 0.0 0.0 0.0
1040.0 0.250865 5.572748 0.228376 70.199682 0.0 0.0 0.0 0.0
1050.0 0.243868 -24.654288 0.220381 36.115581 0.0 0.0 0.0 0.0
1060.0 0.2429 -53.886267 0.215332 3.800842 0.0 0.0 0.0 0.0
1070.0 0.248457 -83.991208 0.217197 -28.370525 0.0 0.0 0.0 0.0
1080.0 0.253504 -115.83221 0.222846 -62.077035 0.0 0.0 0.0 0.0
1090.0 0.252058 -148.246006 0.225783 -97.323551 0.0 0.0 0.0 0.0
1100.0 0.245965 -179.772181 0.221961 -132.658502 0.0 0.0 0.0 0.0
1110.0 0.240583 150.070106 0.214423 -166.484009 0.0 0.0 0.0 0.0
1120.0 0.240961 120.638115 0.210963 161.444791 0.0 0.0 0.0 0.0
1130.0 0.247553 90.260879 0.215303 129.223255 0.0 0.0 0.0 0.0
1140.0 0.252809 58.048458 0.222062 94.94879 0.0 0.0 0.0 0.0
1150.0 0.249825 25.562793 0.222308 59.356471 0.0 0.0 0.0 0.0
1160.0 0.243212 -5.332723 0.215962 24.827088 0.0 0.0 0.0 0.0
1170.0 0.24096 -35.002368 0.211301 -8.008572 0.0 0.0 0.0 0.0
1180.0 0.244294 -65.065698 0.212265 -40.579946 0.0 0.0 0.0 0.0
1190.0 0.248157 -96.390194 0.216185 -74.190753 0.0 0.0 0.0 0.0
1200.0 0.247605 -128.209539 0.217942 -108.733313 0.0 0.0 0.0 0.0
1210.0 0.244246 -159.389955 0.215738 -143.145301 0.0 0.0 0.0 0.0
1220.0 0.24201 170.104145 0.212321 -176.823026 0.0 0.0 0.0 0.0
1230.0 0.242681 139.743763 0.210774 150.092976 0.0 0.0 0.0 0.0
1240.0 0.245749 108.848662 0.212604 116.747849 0.0 0.0 0.0 0.0
1250.0 0.248228 77.163616 0.215588 82.443093 0.0 0.0 0.0 0.0
1260.0 0.247263 45.156051 0.215536 47.387928 0.0 0.0 0.0 0.0
1270.0 0.243115 13.790867 0.211282 12.926408 0.0 0.0 0.0 0.0
1280.0 0.240204 -16.610437 0.207236 -20.233836 0.0 0.0 0.0 0.0
1290.0 0.240866 -46.86858 0.20689 -53.003936 0.0 0.0 0.0 0.0
1300.0 0.243315 -77.702712 0.209471 -86.514937 0.0 0.0 0.0 0.0
1310.0 0.244535 -109.125258 0.211352 -120.982006 0.0 0.0 0.0 0.0
1320.0 0.243123 -140.597389 0.20991 -155.522549 0.0 0.0 0.0 0.0
1330.0 0.240311 -171.626663 0.206533 170.743929 0.0 0.0 0.0 0.0
1340.0 0.238376 157.77427 0.204321 137.778484 0.0 0.0 0.0 0.0
1350.0 0.238175 127.205206 0.204514 104.666149 0.0 0.0 0.0 0.0
1360.0 0.239311 96.368399 0.205762 70.763237 0.0 0.0 0.0 0.0
1370.0 0.240789 64.971158 0.205897 36.09565 0.0 0.0 0.0 0.0
1380.0 0.239563 33.071927 0.202879 1.358796 0.0 0.0 0.0 0.0
1390.0 0.234643 1.771303 0.198336 -32.240584 0.0 0.0 0.0 0.0
1400.0 0.231172 -28.326061 0.196903 -64.701199 0.0 0.0 0.0 0.0
1410.0 0.232678 -58.270946 0.199936 -97.545615 0.0 0.0 0.0 0.0
1420.0 0.23676 -89.121842 0.203281 -131.743086 0.0 0.0 0.0 0.0
1430.0 0.239215 -120.864281 0.203109 -166.652235 0.0 0.0 0.0 0.0
1440.0 0.238018 -152.736105 0.199576 159.011929 0.0 0.0 0.0 0.0
1450.0 0.234725 175.944436 0.196893 125.683673 0.0 0.0 0.0 0.0
1460.0 0.231815 145.189589 0.196662 92.592118 0.0 0.0 0.0 0.0
1470.0 0.230458 114.727765 0.197537 59.033609 0.0 0.0 0.0 0.0
1480.0 0.23122 84.134594 0.197413 24.98444 0.0 0.0 0.0 0.0
1490.0 0.232423 52.926916 0.195492 -9.181981 0.0 0.0 0.0 0.0
1500.0 0.23136 21.425907 0.192969 -42.850987 0.0 0.0 0.0 0.0
1510.0 0.228588 -9.630873 0.19233 -75.999285 0.0 0.0 0.0 0.0
1520.0 0.226987 -40.111104 0.19431 -109.312466 0.0 0.0 0.0 0.0
1530.0 0.228161 -70.634414 0.196718 -143.411216 0.0 0.0 0.0 0.0
1540.0 0.230319 -101.87218 0.196202 -178.037337 0.0 0.0 0.0 0.0
1550.0 0.229998 -133.61142 0.19251 147.768203 0.0 0.0 0.0 0.0
1560.0 0.226948 -164.958643 0.189232 114.59724 0.0 0.0 0.0 0.0
1570.0 0.224131 164.405686 0.189372 81.747552 0.0 0.0 0.0 0.0
1580.0 0.223442 134.053993 0.1916 48.176191 0.0 0.0 0.0 0.0
1590.0 0.224761 103.506437 0.192897 13.959505 0.0 0.0 0.0 0.0
1600.0 0.227252 72.362498 0.19249 -20.378053 0.0 0.0 0.0 0.0
1610.0 0.227868 40.399714 0.19051 -54.665679 0.0 0.0 0.0 0.0
1620.0 0.223902 8.604731 0.187279 -88.283733 0.0 0.0 0.0 0.0
1630.0 0.219108 -22.005586 0.185947 -121.137455 0.0 0.0 0.0 0.0
1640.0 0.21779 -51.989449 0.187848 -154.194622 0.0 0.0 0.0 0.0
1650.0 0.219898 -82.365411 0.189943 171.785376 0.0 0.0 0.0 0.0
1660.0 0.22265 -113.723942 0.189549 137.321684 0.0 0.0 0.0 0.0
1670.0 0.221914 -145.745421 0.18662 103.213597 0.0 0.0 0.0 0.0
1680.0 0.217059 -177.115954 0.183636 70.01377 0.0 0.0 0.0 0.0
1690.0 0.213142 152.822443 0.184184 37.377472 0.0 0.0 0.0 0.0
1700.0 0.213918 123.015424 0.187929 3.928085 0.0 0.0 0.0 0.0
1710.0 0.217056 92.285846 0.190097 -30.676793 0.0 0.0 0.0 0.0
1720.0 0.21869 60.748431 0.188523 -65.206498 0.0 0.0 0.0 0.0
1730.0 0.217327 29.016168 0.185977 -99.02066 0.0 0.0 0.0 0.0
1740.0 0.213243 -2.084577 0.184344 -132.255246 0.0 0.0 0.0 0.0
1750.0 0.210708 -32.081564 0.185373 -165.281913 0.0 0.0 0.0 0.0
1760.0 0.213044 -62.130687 0.188759 160.971667 0.0 0.0 0.0 0.0
1770.0 0.217185 -93.529631 0.190578 126.021563 0.0 0.0 0.0 0.0
1780.0 0.21697 -126.006778 0.186892 90.961841 0.0 0.0 0.0 0.0
1790.0 0.210894 -157.769057 0.180622 57.384011 0.0 0.0 0.0 0.0
1800.0 0.205119 172.219438 0.178058 25.295137 0.0 0.0 0.0 0.0
1810.0 0.204863 142.906925 0.181958 -7.120523 0.0 0.0 0.0 0.0
1820.0 0.209004 112.631631 0.187815 -41.406312 0.0 0.0 0.0 0.0
1830.0 0.212141 80.979347 0.189041 -76.956874 0.0 0.0 0.0 0.0
1840.0 0.210827 49.014683 0.184243 -111.695942 0.0 0.0 0.0 0.0
1850.0 0.206816 17.88535 0.17933 -144.640849 0.0 0.0 0.0 0.0
1860.0 0.204316 -12.284134 0.179428 -176.949332 0.0 0.0 0.0 0.0
1870.0 0.205413 -42.459798 0.183586 149.528579 0.0 0.0 0.0 0.0
1880.0 0.207878 -73.576573 0.186245 114.379969 0.0 0.0 0.0 0.0
1890.0 0.207491 -105.45975 0.183234 79.118025 0.0 0.0 0.0 0.0
1900.0 0.203142 -136.802112 0.177381 45.444072 0.0 0.0 0.0 0.0
1910.0 0.199376 -166.837098 0.174533 13.353477 0.0 0.0 0.0 0.0
1920.0 0.200157 163.557272 0.177602 -18.957126 0.0 0.0 0.0 0.0
1930.0 0.204588 132.865097 0.183089 -53.196012 0.0 0.0 0.0 0.0
1940.0 0.206229 100.712329 0.184163 -88.809625 0.0 0.0 0.0 0.0
1950.0 0.202007 69.079101 0.179493 -123.618378 0.0 0.0 0.0 0.0
1960.0 0.198687 39.050941 0.175151 -156.37979 0.0 0.0 0.0 0.0
1970.0 0.200364 9.089375 0.175948 171.403589 0.0 0.0 0.0 0.0
1980.0 0.203266 -22.103909 0.179941 137.910643 0.0 0.0 0.0 0.0
1990.0 0.202463 -53.870242 0.182444 102.866173 0.0 0.0 0.0 0.0
2000.0 0.198881 -84.77095 0.17972 67.751627 0.0 0.0 0.0 0.0
2010.0 0.197751 -114.617892 0.175762 34.250261 0.0 0.0 0.0 0.0
2020.0 0.201119 -145.026227 0.176072 1.459271 0.0 0.0 0.0 0.0
2030.0 0.203072 -176.796737 0.178667 -32.361831 0.0 0.0 0.0 0.0
2040.0 0.200758 151.655076 0.178683 -66.964859 0.0 0.0 0.0 0.0
2050.0 0.198499 121.083734 0.177044 -101.142801 0.0 0.0 0.0 0.0
2060.0 0.198944 90.72175 0.175575 -135.1598 0.0 0.0 0.0 0.0
2070.0 0.200844 59.793954 0.173865 -168.915239 0.0 0.0 0.0 0.0
2080.0 0.202022 28.278272 0.173549 157.795703 0.0 0.0 0.0 0.0
2090.0 0.200934 -3.61582 0.175275 123.925053 0.0 0.0 0.0 0.0
2100.0 0.196201 -35.039957 0.175255 89.018302 0.0 0.0 0.0 0.0
2110.0 0.191892 -64.944176 0.171236 54.551064 0.0 0.0 0.0 0.0
2120.0 0.193156 -94.565239 0.16812 21.39226 0.0 0.0 0.0 0.0
2130.0 0.196358 -125.760772 0.168227 -11.829632 0.0 0.0 0.0 0.0
2140.0 0.194803 -157.811414 0.168722 -45.888044 0.0 0.0 0.0 0.0
2150.0 0.189222 171.17735 0.166797 -80.230901 0.0 0.0 0.0 0.0
2160.0 0.185034 141.65952 0.163205 -113.91571 0.0 0.0 0.0 0.0
2170.0 0.185455 112.613192 0.160716 -147.01888 0.0 0.0 0.0 0.0
2180.0 0.189461 82.737956 0.159403 179.94514 0.0 0.0 0.0 0.0
2190.0 0.193314 51.770531 0.158648 147.031977 0.0 0.0 0.0 0.0
2200.0 0.195254 20.455091 0.15958 114.259788 0.0 0.0 0.0 0.0
2210.0 0.19618 -10.847377 0.162497 80.831478 0.0 0.0 0.0 0.0
2220.0 0.195939 -42.118438 0.164137 46.210332 0.0 0.0 0.0 0.0
2230.0 0.194894 -72.879694 0.161914 11.719756 0.0 0.0 0.0 0.0
2240.0 0.195928 -103.170912 0.159134 -21.40927 0.0 0.0 0.0 0.0
2250.0 0.199611 -134.107516 0.160003 -54.038156 0.0 0.0 0.0 0.0
2260.0 0.201719 -166.159225 0.163108 -87.701089 0.0 0.0 0.0 0.0
2270.0 0.199194 161.806132 0.164396 -122.461488 0.0 0.0 0.0 0.0
2280.0 0.195041 131.001305 0.16224 -157.166778 0.0 0.0 0.0 0.0
2290.0 0.193944 101.000016 0.158843 169.033733 0.0 0.0 0.0 0.0
2300.0 0.195749 70.592607 0.156739 136.03589 0.0 0.0 0.0 0.0
2310.0 0.197784 39.56488 0.157148 103.285721 0.0 0.0 0.0 0.0
2320.0 0.199246 8.194034 0.159895 69.885974 0.0 0.0 0.0 0.0
2330.0 0.199525 -23.489894 0.162134 35.301466 0.0 0.0 0.0 0.0
2340.0 0.197551 -55.104325 0.160657 0.325143 0.0 0.0 0.0 0.0
2350.0 0.194277 -86.014839 0.156382 -33.643506 0.0 0.0 0.0 0.0
2360.0 0.192497 -116.100528 0.153567 -66.178394 0.0 0.0 0.0 0.0
2370.0 0.19421 -146.161432 0.15502 -98.501264 0.0 0.0 0.0 0.0
2380.0 0.197452 -177.215807 0.158772 -132.240845 0.0 0.0 0.0 0.0
2390.0 0.198022 151.034414 0.159617 -167.200948 0.0 0.0 0.0 0.0
2400.0 0.196032 119.772848 0.156602 158.421463 0.0 0.0 0.0 0.0
2410.0 0.19473 89.11731 0.153901 125.307986 0.0 0.0 0.0 0.0
2420.0 0.194664 58.509724 0.153756 92.592844 0.0 0.0 0.0 0.0
2430.0 0.195433 27.864543 0.155769 59.455165 0.0 0.0 0.0 0.0
2440.0 0.197474 -3.115219 0.158556 25.364357 0.0 0.0 0.0 0.0
2450.0 0.198674 -34.858729 0.158978 -9.557433 0.0 0.0 0.0 0.0
2460.0 0.196323 -66.598361 0.155654 -43.995901 0.0 0.0 0.0 0.0
2470.0 0.192886 -97.22084 0.152366 -76.875819 0.0 0.0 0.0 0.0
2480.0 0.192863 -127.168842 0.153276 -109.206929 0.0 0.0 0.0 0.0
2490.0 0.19603 -157.821397 0.157278 -142.832802 0.0 0.0 0.0 0.0
2500.0 0.19828 170.468284 0.159176 -177.900478 0.0 0.0 0.0 0.0
2510.0 0.197166 138.596193 0.156783 147.236857 0.0 0.0 0.0 0.0
2520.0 0.194446 107.406347 0.153404 113.731159 0.0 0.0 0.0 0.0
2530.0 0.192647 76.775271 0.152597 81.005197 0.0 0.0 0.0 0.0
2540.0 0.192314 46.301585 0.154287 47.865248 0.0 0.0 0.0 0.0
2550.0 0.193764 15.712249 0.156728 13.925063 0.0 0.0 0.0 0.0
2560.0 0.196653 -15.680747 0.158074 -20.870989 0.0 0.0 0.0 0.0
2570.0 0.196638 -48.171807 0.156018 -55.953794 0.0 0.0 0.0 0.0
2580.0 0.190847 -80.127511 0.15107 -89.817112 0.0 0.0 0.0 0.0
2590.0 0.184723 -110.100671 0.14812 -122.037279 0.0 0.0 0.0 0.0
2600.0 0.184362 -139.078446 0.15022 -154.175786 0.0 0.0 0.0 0.0
2610.0 0.189311 -169.1641 0.154944 171.929665 0.0 0.0 0.0 0.0
2620.0 0.19331 158.909002 0.156338 136.549759 0.0 0.0 0.0 0.0
2630.0 0.191806 126.640174 0.153073 101.83749 0.0 0.0 0.0 0.0
2640.0 0.187821 95.542056 0.150011 68.784202 0.0 0.0 0.0 0.0
2650.0 0.185698 65.341689 0.150587 36.12562 0.0 0.0 0.0 0.0
2660.0 0.186043 35.238659 0.15297 2.505157 0.0 0.0 0.0 0.0
2670.0 0.188528 4.833057 0.154505 -31.809789 0.0 0.0 0.0 0.0
2680.0 0.192435 -26.522506 0.154844 -66.373563 0.0 0.0 0.0 0.0
2690.0 0.193554 -59.016628 0.153517 -100.940999 0.0 0.0 0.0 0.0
2700.0 0.189468 -91.154747 0.15116 -134.875356 0.0 0.0 0.0 0.0
2710.0 0.184429 -121.74129 0.149889 -168.121339 0.0 0.0 0.0 0.0
2720.0 0.183451 -151.34501 0.150875 158.564049 0.0 0.0 0.0 0.0
2730.0 0.187369 178.274272 0.152953 124.265903 0.0 0.0 0.0 0.0
2740.0 0.190593 146.015798 0.152625 89.110846 0.0 0.0 0.0 0.0
2750.0 0.187216 113.373275 0.148678 54.620395 0.0 0.0 0.0 0.0
2760.0 0.180771 82.533138 0.145271 21.820813 0.0 0.0 0.0 0.0
2770.0 0.178472 53.055547 0.146334 -10.742052 0.0 0.0 0.0 0.0
2780.0 0.180543 23.04929 0.148858 -44.856718 0.0 0.0 0.0 0.0
2790.0 0.183503 -8.037728 0.148508 -79.790107 0.0 0.0 0.0 0.0
2800.0 0.184991 -40.091825 0.145991 -114.184602 0.0 0.0 0.0 0.0
2810.0 0.182069 -72.494626 0.143254 -147.846903 0.0 0.0 0.0 0.0
2820.0 0.17552 -103.593493 0.141408 179.105458 0.0 0.0 0.0 0.0
2830.0 0.171346 -132.892025 0.141722 146.158978 0.0 0.0 0.0 0.0
2840.0 0.173198 -162.009619 0.143412 112.359551 0.0 0.0 0.0 0.0
2850.0 0.178509 167.13343 0.143545 77.615649 0.0 0.0 0.0 0.0
2860.0 0.18036 134.421879 0.140643 43.124171 0.0 0.0 0.0 0.0
2870.0 0.175259 102.051568 0.137098 10.023522 0.0 0.0 0.0 0.0
2880.0 0.168928 71.823602 0.136634 -22.216176 0.0 0.0 0.0 0.0
2890.0 0.167459 42.633551 0.139333 -55.544594 0.0 0.0 0.0 0.0
2900.0 0.169592 12.597271 0.14014 -90.50825 0.0 0.0 0.0 0.0
2910.0 0.171343 -18.474286 0.136658 -124.979731 0.0 0.0 0.0 0.0
2920.0 0.171453 -49.900104 0.133795 -157.682278 0.0 0.0 0.0 0.0
2930.0 0.169837 -81.458353 0.134662 169.7384 0.0 0.0 0.0 0.0
2940.0 0.16571 -112.548351 0.136553 135.875349 0.0 0.0 0.0 0.0
2950.0 0.161503 -142.237058 0.136 101.265357 0.0 0.0 0.0 0.0
2960.0 0.161543 -171.024399 0.133228 67.340509 0.0 0.0 0.0 0.0
2970.0 0.166405 159.09989 0.13108 34.466997 0.0 0.0 0.0 0.0
2980.0 0.170177 127.15471 0.131228 1.949108 0.0 0.0 0.0 0.0
2990.0 0.168237 94.912259 0.13337 -31.213451 0.0 0.0 0.0 0.0
3000.0 0.163657 64.062378 0.135255 -65.561045 0.0 0.0 0.0 0.0
3010.0 0.160798 34.539137 0.133978 -100.438266 0.0 0.0 0.0 0.0
3020.0 0.161646 5.368905 0.129985 -133.985217 0.0 0.0 0.0 0.0
3030.0 0.165693 -24.614262 0.12847 -165.822121 0.0 0.0 0.0 0.0
3040.0 0.169726 -56.05127 0.131446 161.980017 0.0 0.0 0.0 0.0
3050.0 0.169907 -88.168417 0.135702 128.004631 0.0 0.0 0.0 0.0
3060.0 0.166611 -119.423936 0.137226 92.770235 0.0 0.0 0.0 0.0
3070.0 0.164069 -149.152876 0.135001 57.97655 0.0 0.0 0.0 0.0
3080.0 0.166612 -178.38551 0.132464 24.570885 0.0 0.0 0.0 0.0
3090.0 0.173086 150.600559 0.132527 -8.340423 0.0 0.0 0.0 0.0
3100.0 0.175519 117.572886 0.134311 -41.995778 0.0 0.0 0.0 0.0
3110.0 0.170753 85.054739 0.13539 -76.457365 0.0 0.0 0.0 0.0
3120.0 0.16437 54.71466 0.134818 -111.212042 0.0 0.0 0.0 0.0
3130.0 0.162093 25.874759 0.131878 -145.804745 0.0 0.0 0.0 0.0
3140.0 0.164825 -3.200963 0.127324 -178.936686 0.0 0.0 0.0 0.0
3150.0 0.170041 -33.549084 0.125642 149.613804 0.0 0.0 0.0 0.0
3160.0 0.17435 -65.349554 0.129052 117.802055 0.0 0.0 0.0 0.0
3170.0 0.173961 -97.710685 0.134477 83.684523 0.0 0.0 0.0 0.0
3180.0 0.169769 -128.814618 0.135726 47.78514 0.0 0.0 0.0 0.0
3190.0 0.167492 -158.091038 0.131646 12.962078 0.0 0.0 0.0 0.0
