!Keysight Technologies,N5227A,US51270436,A.10.64.03
!Date: Wednesday, October 23, 2019 15:14:42
!Correction: S33(Full 2 Port(3,4)) 
!S43(Full 2 Port(3,4)) 
!S34(Full 2 Port(3,4)) 
!S44(Full 2 Port(3,4)) 
!S2P File: Measurements: S33, S43, S34, S44:
# Hz S  dB   R 50
10000000 -10.265651 -67.125076 -0.73441321 16.718842 -0.73376507 16.713427 -10.290011 -67.014107
23001500.750375 -16.897453 -73.549469 -0.32684726 5.9641433 -0.32782254 5.9671354 -16.856634 -72.694511
36003001.50075 -20.535622 -71.991203 -0.26346916 1.8152034 -0.26133808 1.8263655 -20.422688 -71.899033
49004502.251126 -22.949373 -70.355827 -0.2400576 -0.8988179 -0.23715575 -0.89332402 -22.817457 -70.118675
62006003.001501 -24.825684 -68.756157 -0.2262177 -2.969846 -0.2277353 -2.9610443 -24.596838 -67.632545
75007503.751876 -26.26491 -65.941895 -0.21869649 -4.7711058 -0.21869977 -4.7624602 -25.959972 -65.512894
88009004.502251 -27.311028 -62.479362 -0.21774441 -6.4103804 -0.21760431 -6.4027314 -27.028536 -62.472668
101010505.25263 -28.276491 -59.570354 -0.21988457 -7.9531741 -0.22020052 -7.9476466 -27.806801 -60.137051
114012006.003 -29.088947 -56.914948 -0.21951981 -9.4367189 -0.22053964 -9.4306583 -28.467323 -58.220409
127013506.75338 -29.633682 -54.163231 -0.22053099 -10.879613 -0.22163476 -10.875751 -29.040537 -56.063587
140015007.50375 -30.035454 -52.184555 -0.22357577 -12.293782 -0.22354712 -12.289036 -29.475533 -53.765018
153016508.25413 -30.416708 -50.422749 -0.22560798 -13.678435 -0.22541292 -13.671788 -29.784046 -51.85083
166018009.0045 -30.734791 -48.634804 -0.22549649 -15.036822 -0.22527562 -15.02999 -30.05307 -50.542492
179019509.75488 -30.904037 -47.243824 -0.22311464 -16.385221 -0.22406435 -16.377762 -30.307386 -49.454128
192021010.50525 -31.029947 -46.24654 -0.22641747 -17.717463 -0.22619802 -17.70772 -30.483074 -48.500038
205022511.25563 -31.270641 -45.427837 -0.22705981 -19.039627 -0.22801998 -19.031502 -30.597219 -47.788517
218024012.006 -31.424429 -43.843533 -0.22812413 -20.352831 -0.22867294 -20.344551 -30.749002 -47.337688
231025512.75638 -31.395056 -42.892738 -0.23025614 -21.661238 -0.23156993 -21.656557 -30.840261 -46.70554
244027013.50675 -31.305141 -41.739479 -0.23296405 -22.965412 -0.23393375 -22.958561 -30.918074 -46.672413
257028514.25713 -31.520628 -42.521175 -0.23268491 -24.257418 -0.2320902 -24.249029 -30.88603 -45.887016
270030015.0075 -31.703175 -41.73893 -0.23429598 -25.54855 -0.23318306 -25.538567 -30.98049 -46.341919
283031515.75788 -31.665184 -41.235283 -0.23526919 -26.837393 -0.23486383 -26.825579 -31.077564 -46.580708
296033016.50825 -31.538105 -41.44545 -0.23923624 -28.117247 -0.23866813 -28.112299 -31.067915 -46.867214
309034517.25863 -31.647757 -41.739277 -0.24043022 -29.400099 -0.24086593 -29.392128 -31.010048 -47.593422
322036018.009 -31.781389 -41.686291 -0.24085334 -30.679529 -0.24155971 -30.671198 -30.98238 -48.31765
335037518.75938 -31.748943 -41.723251 -0.24269214 -31.963524 -0.24263321 -31.949808 -30.967432 -49.055077
348039019.50975 -31.817909 -41.813747 -0.24501969 -33.24144 -0.24478568 -33.232895 -30.919735 -49.945591
361040520.26013 -31.736567 -41.768005 -0.24650073 -34.517017 -0.24564932 -34.506226 -30.887913 -50.326324
374042021.01051 -31.830959 -42.524715 -0.24738669 -35.794807 -0.24704276 -35.784527 -30.912977 -51.143013
387043521.76088 -31.822033 -42.476826 -0.24897876 -37.06356 -0.24774382 -37.058632 -30.980137 -51.633965
400045022.51126 -31.703564 -43.116676 -0.25160599 -38.335815 -0.24949887 -38.327847 -30.991827 -52.276798
413046523.26163 -31.7089 -44.151592 -0.25246176 -39.601574 -0.25263777 -39.594494 -30.944548 -53.241188
426048024.01201 -31.685575 -45.24902 -0.25439548 -40.867672 -0.25356394 -40.858498 -30.963232 -54.221741
439049524.76238 -31.695261 -46.2612 -0.25544745 -42.127666 -0.25525767 -42.121632 -31.010693 -55.040997
452051025.51276 -31.655607 -47.008766 -0.25771159 -43.389038 -0.25677717 -43.3825 -31.008251 -55.910198
465052526.26313 -31.643892 -47.656609 -0.25952941 -44.650345 -0.25910047 -44.645016 -30.916243 -56.789566
478054027.01351 -31.579859 -48.3871 -0.26225334 -45.913555 -0.26018411 -45.908108 -30.939264 -57.842312
491055527.76388 -31.557903 -49.487339 -0.26236865 -47.174927 -0.26143718 -47.16758 -30.966509 -58.753952
504057028.51426 -31.701633 -50.03894 -0.26265922 -48.437923 -0.25941202 -48.430031 -30.954058 -59.842697
517058529.26463 -31.681717 -50.553123 -0.26326925 -49.70639 -0.26094237 -49.699181 -30.865536 -61.142017
530060030.01501 -31.619345 -51.480579 -0.26524898 -50.968395 -0.26291108 -50.961868 -30.838175 -62.488083
543061530.76538 -31.564943 -53.053925 -0.26721424 -52.232033 -0.26463413 -52.226135 -30.853384 -63.669201
556063031.51576 -31.630484 -53.995152 -0.26874143 -53.494656 -0.26599482 -53.492016 -30.858137 -64.805946
569064532.26613 -31.705561 -54.506752 -0.2695263 -54.750778 -0.26754582 -54.752476 -30.830091 -65.645447
582066033.01651 -31.661886 -55.35833 -0.27135476 -56.006382 -0.27009696 -56.008434 -30.84062 -66.654953
595067533.76688 -31.642445 -56.457649 -0.27296728 -57.261616 -0.27123213 -57.262672 -30.867386 -67.815033
608069034.51726 -31.63269 -57.406006 -0.27401689 -58.515419 -0.27247733 -58.515625 -30.843672 -69.225174
621070535.26763 -31.706228 -58.469841 -0.27522695 -59.770298 -0.27335593 -59.769634 -30.757429 -70.720718
634072036.01801 -31.659309 -59.014534 -0.27680939 -61.024723 -0.2747075 -61.022945 -30.703247 -72.732048
647073536.76838 -31.514832 -60.236397 -0.27751759 -62.279633 -0.27643442 -62.276783 -30.715054 -74.473068
660075037.51876 -31.520811 -61.630936 -0.27911079 -63.538025 -0.27747101 -63.534885 -30.634142 -75.789696
673076538.26913 -31.655472 -62.540771 -0.28103369 -64.794334 -0.27863282 -64.794762 -30.55554 -77.016296
686078039.01951 -31.642241 -63.140064 -0.28267783 -66.050789 -0.28025797 -66.051491 -30.542952 -78.272629
699079539.76988 -31.596853 -64.100708 -0.28335735 -67.304474 -0.28116715 -67.306252 -30.563408 -79.61618
712081040.52026 -31.638075 -65.275368 -0.28345749 -68.556847 -0.28238869 -68.557777 -30.519577 -80.791931
725082541.27064 -31.666595 -66.353836 -0.28606156 -69.807953 -0.28392136 -69.806648 -30.494743 -82.077927
738084042.02101 -31.697906 -67.384239 -0.28734159 -71.058037 -0.28479376 -71.058403 -30.491304 -83.393906
751085542.77139 -31.724333 -68.466934 -0.28750956 -72.309166 -0.28580561 -72.309181 -30.482597 -84.793236
764087043.52176 -31.698263 -69.603294 -0.28944397 -73.564064 -0.2868799 -73.56192 -30.481234 -86.21936
777088544.27214 -31.680334 -71.342926 -0.29100373 -74.82016 -0.28913552 -74.818878 -30.431683 -87.760399
790090045.02251 -31.691721 -73.155724 -0.29198727 -76.075912 -0.29136738 -76.076523 -30.439911 -89.274231
803091545.77289 -31.719963 -74.437271 -0.29328004 -77.329956 -0.29171172 -77.332336 -30.470076 -90.761673
816093046.52326 -31.730869 -75.585266 -0.29366466 -78.584213 -0.29185432 -78.584549 -30.47484 -92.287399
829094547.27364 -31.667963 -76.839302 -0.29575631 -79.836006 -0.29383785 -79.83783 -30.443378 -93.536102
842096048.02401 -31.707766 -78.307358 -0.29623494 -81.08429 -0.2947351 -81.088547 -30.432247 -94.969467
855097548.77439 -31.814152 -79.446175 -0.29690006 -82.336212 -0.29441839 -82.342026 -30.450304 -96.335083
868099049.52476 -31.852442 -80.278473 -0.29710904 -83.592094 -0.29652333 -83.592873 -30.453693 -97.905052
881100550.27514 -31.825317 -81.417809 -0.29997057 -84.845413 -0.29847789 -84.845757 -30.401587 -99.432671
894102051.02551 -31.786598 -82.934685 -0.3022331 -86.098595 -0.30101764 -86.098366 -30.378757 -101.20509
907103551.77589 -31.882708 -84.509605 -0.30185899 -87.350304 -0.30106652 -87.348778 -30.400173 -102.88641
920105052.52626 -32.027275 -85.75885 -0.30131608 -88.60025 -0.30117238 -88.597786 -30.40337 -104.41549
933106553.27664 -32.018192 -86.674843 -0.30431157 -89.849358 -0.30317441 -89.850685 -30.374949 -106.01356
946108054.02701 -31.965643 -88.187134 -0.30632415 -91.101509 -0.30415615 -91.105583 -30.372023 -107.72362
959109554.77739 -32.011654 -89.818031 -0.3063755 -92.355721 -0.30558488 -92.356232 -30.386337 -109.30695
972111055.52776 -32.093674 -90.926376 -0.30670601 -93.610329 -0.3058458 -93.609184 -30.413052 -110.99757
985112556.27814 -32.114922 -92.037766 -0.30841205 -94.861633 -0.30648389 -94.863716 -30.407932 -112.66779
998114057.02851 -32.096565 -93.294273 -0.30854756 -96.116737 -0.30870503 -96.118568 -30.456036 -114.38997
1011115557.7789 -32.136353 -94.719513 -0.30830747 -97.369865 -0.30821788 -97.373383 -30.51856 -116.02959
1024117058.5293 -32.187019 -96.495911 -0.31034383 -98.620659 -0.30950132 -98.628555 -30.575882 -117.66445
1037118559.2796 -32.208225 -97.974693 -0.31162578 -99.871284 -0.3119376 -99.877373 -30.588556 -119.20105
1050120060.03 -32.274975 -99.328751 -0.31261417 -101.11954 -0.31265843 -101.1276 -30.60807 -120.99074
1063121560.7804 -32.284725 -100.51762 -0.31364778 -102.37353 -0.31361428 -102.3757 -30.602415 -122.94299
1076123061.5308 -32.220951 -102.18961 -0.31501225 -103.62218 -0.31540048 -103.62629 -30.568758 -124.81723
1089124562.2811 -32.247475 -103.90597 -0.316928 -104.87206 -0.31716228 -104.87804 -30.521374 -126.51594
1102126063.0315 -32.295013 -105.06264 -0.31782287 -106.12366 -0.31741259 -106.12507 -30.503162 -128.42287
1115127563.7819 -32.31876 -106.07678 -0.31775787 -107.37021 -0.31805089 -107.37366 -30.548071 -130.06154
1128129064.5323 -32.221745 -107.39496 -0.31909779 -108.62417 -0.32010388 -108.6256 -30.606735 -131.74686
1141130565.2826 -32.175678 -109.41951 -0.3216092 -109.87634 -0.32148585 -109.87988 -30.633085 -133.37282
1154132066.033 -32.241409 -110.99018 -0.32260308 -111.13118 -0.32196662 -111.13029 -30.660551 -135.20558
1167133566.7834 -32.276764 -112.21038 -0.32219765 -112.37711 -0.32160237 -112.37921 -30.724146 -136.99925
1180135067.5338 -32.2369 -113.39766 -0.32407334 -113.62685 -0.32289875 -113.62969 -30.730837 -138.6382
1193136568.2841 -32.180603 -115.20781 -0.32648569 -114.87635 -0.32488647 -114.88119 -30.708273 -140.21465
1206138069.0345 -32.235069 -116.86925 -0.32757381 -116.12489 -0.32617319 -116.127 -30.664824 -142.12581
1219139569.7849 -32.351345 -118.15819 -0.32798672 -117.3643 -0.32690924 -117.36743 -30.676214 -144.05855
1232141070.5353 -32.377766 -119.17585 -0.32857412 -118.6073 -0.32805845 -118.60999 -30.699579 -146.00836
1245142571.2856 -32.382954 -120.7309 -0.33102208 -119.85088 -0.32968134 -119.85337 -30.690121 -147.77954
1258144072.036 -32.413406 -122.43614 -0.3317582 -121.10109 -0.33050206 -121.09875 -30.708244 -149.74837
1271145572.7864 -32.518318 -123.83477 -0.33192161 -122.34848 -0.33128545 -122.35062 -30.757776 -151.70821
1284147073.5368 -32.598526 -125.12285 -0.33262375 -123.59874 -0.33153781 -123.59933 -30.785452 -153.43715
1297148574.2871 -32.552578 -126.23635 -0.33387756 -124.85031 -0.33364466 -124.85471 -30.783369 -155.05809
1310150075.0375 -32.519005 -127.7136 -0.33540851 -126.10606 -0.33435613 -126.10557 -30.811832 -156.91148
1323151575.7879 -32.557011 -129.20299 -0.33509392 -127.35577 -0.33426464 -127.35904 -30.808914 -158.74771
1336153076.5383 -32.566601 -130.56641 -0.33549517 -128.60359 -0.33508584 -128.60722 -30.832275 -160.71866
1349154577.2886 -32.581921 -131.99725 -0.33686274 -129.85135 -0.33559313 -129.85561 -30.820929 -162.61172
1362156078.039 -32.561913 -133.61018 -0.3381348 -131.10593 -0.3372224 -131.10266 -30.762793 -164.49454
1375157578.7894 -32.518211 -135.21034 -0.33865049 -132.35484 -0.33858281 -132.35339 -30.751642 -166.31709
1388159079.5398 -32.499943 -136.5657 -0.33919317 -133.59615 -0.3393569 -133.60034 -30.739021 -168.07616
1401160580.2901 -32.58231 -138.00696 -0.33924344 -134.8436 -0.33896875 -134.84584 -30.7449 -169.74156
1414162081.0405 -32.609344 -139.09135 -0.34012172 -136.09453 -0.3395395 -136.0956 -30.760366 -171.57155
1427163581.7909 -32.602428 -140.2655 -0.34138849 -137.34372 -0.34111884 -137.34602 -30.80142 -173.49083
1440165082.5413 -32.600704 -141.64581 -0.34272245 -138.59653 -0.34181798 -138.59558 -30.832094 -175.10229
1453166583.2916 -32.68885 -143.25182 -0.34305561 -139.84723 -0.34294862 -139.84773 -30.84684 -176.87411
1466168084.042 -32.737873 -144.44084 -0.34450531 -141.09692 -0.3447735 -141.09666 -30.849903 -178.63382
1479169584.7924 -32.667694 -145.51698 -0.34607852 -142.34395 -0.34590754 -142.34697 -30.856272 179.58031
1492171085.5428 -32.646679 -147.06566 -0.34700373 -143.59076 -0.34649295 -143.59601 -30.892349 177.70052
1505172586.2931 -32.720951 -148.6618 -0.34786204 -144.84073 -0.34678203 -144.84268 -30.884676 176.0013
1518174087.0435 -32.80534 -149.82585 -0.34790197 -146.08611 -0.3479723 -146.08803 -30.905283 174.00948
1531175587.7939 -32.80682 -150.55411 -0.34860665 -147.3351 -0.35008276 -147.33609 -30.894337 172.07469
1544177088.5443 -32.753857 -151.75674 -0.35088626 -148.5851 -0.3507188 -148.58621 -30.920336 170.12743
1557178589.2946 -32.729435 -153.1761 -0.35260561 -149.83388 -0.35154751 -149.83559 -30.937639 168.34349
1570180090.045 -32.778549 -154.62161 -0.35293931 -151.08257 -0.35254139 -151.08524 -30.964512 166.82416
1583181590.7954 -32.804325 -155.98976 -0.35289505 -152.3311 -0.35357568 -152.33379 -30.997656 164.82202
1596183091.5458 -32.780727 -157.51407 -0.35427874 -153.57971 -0.3544006 -153.58446 -31.02433 162.99271
1609184592.2961 -32.731655 -159.10742 -0.35604572 -154.83258 -0.35535482 -154.83173 -31.019497 160.97169
1622186093.0465 -32.698765 -160.3342 -0.35736197 -156.08215 -0.35735306 -156.08191 -30.984449 159.08022
1635187593.7969 -32.700466 -161.63092 -0.35864848 -157.33069 -0.35848793 -157.3306 -30.968689 157.40602
1648189094.5473 -32.72657 -162.85724 -0.35960054 -158.57884 -0.35900062 -158.58023 -30.999498 155.27106
1661190595.2976 -32.731525 -164.14822 -0.36059481 -159.82973 -0.36010155 -159.82884 -31.051413 153.41847
1674192096.048 -32.680576 -165.39851 -0.36162126 -161.07831 -0.36202794 -161.07767 -31.080988 151.55142
1687193596.7984 -32.67799 -167.06206 -0.36235338 -162.32881 -0.36247873 -162.32718 -31.115379 149.62103
1700195097.5488 -32.693382 -168.70358 -0.36304408 -163.57419 -0.36305887 -163.57637 -31.165241 147.61757
1713196598.2991 -32.729 -170.18927 -0.36435989 -164.8206 -0.36357075 -164.82237 -31.182005 145.80151
1726198099.0495 -32.70966 -171.16219 -0.36520511 -166.06375 -0.36511704 -166.06775 -31.152136 143.82642
1739199599.7999 -32.644825 -172.28648 -0.36578122 -167.31158 -0.36692989 -167.31511 -31.175564 141.79584
1752201100.5503 -32.629555 -173.97787 -0.36617446 -168.55791 -0.3676351 -168.56293 -31.15893 139.78352
1765202601.3007 -32.640587 -175.39487 -0.36812183 -169.80592 -0.36714119 -169.81186 -31.170094 137.73689
1778204102.051 -32.604546 -176.44269 -0.36864924 -171.05786 -0.37032515 -171.06197 -31.177713 135.73595
1791205602.8014 -32.509762 -177.66664 -0.36978301 -172.3112 -0.37081182 -172.31337 -31.210457 133.84044
1804207103.5518 -32.447803 -178.96472 -0.37004912 -173.55812 -0.37147221 -173.56389 -31.265099 131.8869
1817208604.3022 -32.481796 179.73048 -0.37153479 -174.80811 -0.37189218 -174.81041 -31.300381 129.95378
1830210105.0525 -32.499077 178.66438 -0.37232289 -176.05463 -0.37206638 -176.05853 -31.34754 128.42577
1843211605.8029 -32.441971 177.70422 -0.37364626 -177.30533 -0.373328 -177.30585 -31.345438 126.49812
1856213106.5533 -32.363983 176.31789 -0.37348646 -178.5554 -0.37512082 -178.55594 -31.345625 124.2456
1869214607.3037 -32.337925 174.85883 -0.37549391 -179.80717 -0.37597355 -179.80635 -31.323502 122.14557
1882216108.054 -32.270779 173.5835 -0.37680098 178.94385 -0.37678903 178.94536 -31.304018 120.2049
1895217608.8044 -32.222557 172.39999 -0.37759084 177.69852 -0.37775162 177.69276 -31.31883 118.22552
1908219109.5548 -32.197098 171.2218 -0.37817943 176.45055 -0.37730473 176.4496 -31.356361 116.23974
1921220610.3052 -32.206512 170.40125 -0.3790977 175.20718 -0.37870815 175.20314 -31.416256 114.49155
1934222111.0555 -32.184402 168.9288 -0.3794378 173.96077 -0.37969309 173.95729 -31.462635 112.44064
1947223611.8059 -32.140644 167.31639 -0.38021472 172.71626 -0.3803716 172.71152 -31.479937 110.25774
1960225112.5563 -32.117664 165.80533 -0.38162646 171.46701 -0.38192126 171.46562 -31.496235 107.94954
1973226613.3067 -32.066685 164.74649 -0.38273376 170.22086 -0.38410866 170.21495 -31.508221 105.57969
1986228114.057 -32.014721 163.60463 -0.38455796 168.97372 -0.38596004 168.97153 -31.505167 103.81835
1999229614.8074 -31.967983 162.59169 -0.38571104 167.72678 -0.38707018 167.7238 -31.514988 101.82647
2012231115.5578 -31.967058 161.44298 -0.38776165 166.48163 -0.3878628 166.47458 -31.557993 100.03911
2025232616.3082 -31.931267 160.74742 -0.38747722 165.23215 -0.38950375 165.22647 -31.574717 98.102211
2038234117.0585 -31.86813 159.87027 -0.38840958 163.98344 -0.38973376 163.97765 -31.575665 96.308792
2051235617.8089 -31.82757 158.64613 -0.38897112 162.73079 -0.39057776 162.72983 -31.563969 94.112625
2064237118.5593 -31.845293 157.43814 -0.39071527 161.48001 -0.39166069 161.4774 -31.573647 92.031792
2077238619.3097 -31.875063 156.2215 -0.39203084 160.22795 -0.39271492 160.22591 -31.585932 89.989281
2090240120.06 -31.82575 155.38356 -0.39366564 158.97853 -0.39452568 158.97308 -31.617826 88.057777
2103241620.8104 -31.731647 154.34598 -0.39406115 157.73151 -0.39539707 157.7236 -31.653023 86.035622
2116243121.5608 -31.675077 153.30196 -0.39487818 156.48669 -0.39523208 156.47858 -31.730463 83.937988
2129244622.3112 -31.597948 152.10678 -0.39515316 155.24403 -0.39498284 155.23518 -31.776505 81.755844
2142246123.0615 -31.554018 151.14999 -0.39630625 153.99493 -0.39648253 153.98805 -31.813511 79.825226
2155247623.8119 -31.509476 150.13461 -0.39727125 152.74524 -0.39866331 152.74043 -31.802301 77.886421
2168249124.5623 -31.546747 149.2507 -0.39848951 151.49507 -0.39946708 151.49083 -31.771185 75.887512
2181250625.3127 -31.602512 148.45892 -0.39952096 150.24631 -0.40101516 150.24144 -31.772173 73.972977
2194252126.063 -31.690075 147.30115 -0.40070078 149.00159 -0.40185609 148.99309 -31.7813 72.214928
2207253626.8134 -31.694235 146.41432 -0.40145382 147.7565 -0.40248129 147.75002 -31.759529 70.4076
2220255127.5638 -31.628212 145.56895 -0.4019216 146.51614 -0.40309757 146.50691 -31.773643 68.482315
2233256628.3142 -31.509201 144.34686 -0.40354687 145.27402 -0.40367275 145.2614 -31.792494 66.329132
2246258129.0645 -31.40765 142.82361 -0.4048315 144.0249 -0.40529871 144.02058 -31.812233 64.58976
2259259629.8149 -31.331522 141.6649 -0.40638268 142.77586 -0.40708566 142.77199 -31.84152 62.614822
2272261130.5653 -31.286419 141.06662 -0.40682849 141.53012 -0.40826386 141.52475 -31.845724 60.699078
2285262631.3157 -31.224806 140.62456 -0.40895492 140.2861 -0.40919918 140.27765 -31.897457 58.65332
2298264132.066 -31.18844 139.71631 -0.40981758 139.03964 -0.40930772 139.02979 -31.956476 56.571568
2311265632.8164 -31.198601 138.79979 -0.41032845 137.79088 -0.41032588 137.78352 -31.990276 54.808952
2324267133.5668 -31.190975 138.04933 -0.41079777 136.5426 -0.41107714 136.53632 -31.943186 52.696884
2337268634.3172 -31.111849 137.11063 -0.41145471 135.29259 -0.41258618 135.28479 -31.940712 50.678917
2350270135.0675 -31.00955 135.79962 -0.4135966 134.03712 -0.41394225 134.03293 -31.896954 48.727467
2363271635.8179 -30.957504 134.45959 -0.414029 132.78253 -0.41452584 132.78253 -31.900181 46.786236
2376273136.5683 -30.93972 133.41183 -0.4139255 131.53654 -0.41517192 131.53229 -31.901175 44.811497
2389274637.3187 -30.932011 132.88747 -0.4146533 130.2892 -0.41542822 130.28268 -31.968075 42.783993
2402276138.069 -30.887693 132.66118 -0.41604364 129.04456 -0.41589025 129.04033 -32.053848 41.027245
2415277638.8194 -30.864735 132.17369 -0.41742301 127.80101 -0.4173235 127.79848 -32.138237 39.398384
