! .\\filter.s2p
!
! written by LeCroy Virtual Probe(tm)
!
! freq S11 S21 
! S12 S22 
! 
# MHz S MA R 50.00
    0.000   0.068708  -0.000154   1.001828  -0.000014 
  0.997913  -0.000007   0.013986   0.000050 
   10.000   0.070218  -5.424856   1.001509  -2.160340 
  0.997520  -2.123073   0.013907  12.949114 
   20.000   0.074338  -9.989516   1.001377  -4.311306 
  0.997285  -4.258722   0.013467  20.213085 
   30.000   0.080053 -13.277006   1.001176  -6.447858 
  0.997248  -6.412192   0.012867  16.940563 
   40.000   0.085918 -15.373517   1.000809  -8.571023 
  0.997587  -8.577298   0.013641   2.746439 
   50.000   0.090360 -16.688649   1.000250 -10.686125 
  0.998339 -10.738756   0.017284 -11.506810 
   60.000   0.092068 -17.783730   0.999546 -12.799487 
  0.999308 -12.880468   0.022668 -18.306534 
   70.000   0.090400 -19.262065   0.998778 -14.916937 
  1.000138 -14.995704   0.027551 -20.102296 
   80.000   0.085643 -21.670412   0.998047 -17.042573 
  1.000502 -17.090571   0.030339 -20.280753 
   90.000   0.078889 -25.332737   0.997451 -19.176357 
  1.000276 -19.178435   0.030478 -21.058446 
  100.000   0.071476 -30.091563   0.997018 -21.312623 
  0.999562 -21.270626   0.028385 -23.955292 
  110.000   0.064165 -35.143643   0.996652 -23.442914 
  0.998598 -23.370376   0.025071 -29.935269 
  120.000   0.056640 -39.339659   0.996164 -25.562165 
  0.997612 -25.472868   0.021473 -39.151864 
  130.000   0.047861 -41.878921   0.995395 -27.672054 
  0.996716 -27.570011   0.017857 -51.420055 
  140.000   0.036973 -42.789317   0.994327 -29.779519 
  0.995885 -29.657083   0.014100 -69.148105 
  150.000   0.023984 -43.206009   0.993125 -31.891630 
  0.995026 -31.737336   0.011447 -100.802298 
  160.000   0.009879 -49.050574   0.992069 -34.009925 
  0.994093 -33.820298   0.013750 -140.250462 
  170.000   0.005265 176.908967   0.991417 -36.127654 
  0.993133 -35.915667   0.020956 -161.542249 
  180.000   0.017604 159.833978   0.991252 -38.233253 
  0.992252 -38.028431   0.029618 -169.809475 
  190.000   0.028007 158.928518   0.991430 -40.318720 
  0.991556 -40.157811   0.037635 -173.217495 
  200.000   0.035898 158.570360   0.991676 -42.387047 
  0.991125 -42.298269   0.044046 -175.337601 
  210.000   0.041688 157.244934   0.991745 -44.452498 
  0.990982 -44.441173   0.048758 -177.748889 
  220.000   0.046194 154.991486   0.991563 -46.533829 
  0.991078 -46.577931   0.052319 179.055490 
  230.000   0.050017 152.634255   0.991238 -48.644327 
  0.991310 -48.703452   0.055404 175.428442 
  240.000   0.053042 151.157371   0.990974 -50.784468 
  0.991572 -50.817471   0.058192 172.162128 
  250.000   0.054529 151.151740   0.990909 -52.941539 
  0.991800 -52.923063   0.060178 169.849038 
  260.000   0.053688 152.753951   0.991018 -55.096444 
  0.991984 -55.023890   0.060578 168.542474 
  270.000   0.050219 155.959216   0.991111 -57.233017 
  0.992149 -57.121502   0.058913 167.881682 
  280.000   0.044551 160.963626   0.990941 -59.344997 
  0.992312 -59.214175   0.055316 167.388708 
  290.000   0.037799 168.456451   0.990335 -61.438110 
  0.992432 -61.298904   0.050463 166.747149 
  300.000   0.031596 179.693465   0.989305 -63.527562 
  0.992420 -63.375172   0.045246 166.050814 
  310.000   0.027827 -164.647328   0.988101 -65.630700 
  0.992190 -65.447493   0.040362 165.961140 
  320.000   0.027885 -147.412550   0.987123 -67.757618 
  0.991738 -67.523390   0.036120 167.538176 
  330.000   0.031572 -133.807000   0.986739 -69.905593 
  0.991146 -69.609171   0.032610 171.749570 
  340.000   0.037485 -125.547893   0.987084 -72.060924 
  0.990527 -71.706272   0.030014 178.925215 
  350.000   0.044218 -121.318070   0.987976 -74.207749 
  0.989946 -73.811693   0.028685 -171.657223 
  360.000   0.050740 -119.628578   0.988984 -76.338165 
  0.989376 -75.921541   0.028909 -161.758952 
  370.000   0.056353 -119.587096   0.989644 -78.457646 
  0.988722 -78.035547   0.030659 -153.266502 
  380.000   0.060649 -120.766544   0.989686 -80.581897 
  0.987908 -80.158788   0.033647 -147.088851 
  390.000   0.063481 -123.003190   0.989158 -82.726359 
  0.986959 -82.298530   0.037489 -143.082866 
  400.000   0.064934 -126.268597   0.988374 -84.894464 
  0.986014 -84.458454   0.041795 -140.696910 
  410.000   0.065284 -130.578094   0.987709 -87.072252 
  0.985256 -86.633770   0.046201 -139.459570 
  420.000   0.064917 -135.898775   0.987373 -89.233652 
  0.984795 -88.811805   0.050429 -139.087732 
  430.000   0.064204 -142.070187   0.987295 -91.353597 
  0.984598 -90.977399   0.054310 -139.396860 
  440.000   0.063323 -148.808499   0.987188 -93.422545 
  0.984499 -93.120343   0.057721 -140.206735 
  450.000   0.062158 -155.844440   0.986761 -95.452974 
  0.984301 -95.240561   0.060492 -141.344876 
  460.000   0.060394 -163.136911   0.985937 -97.473340 
  0.983916 -97.347239   0.062352 -142.718553 
  470.000   0.057816 -170.985754   0.984933 -99.512919 
  0.983434 -99.452294   0.063007 -144.384263 
  480.000   0.054613 -179.913315   0.984125 -101.587608 
  0.983085 -101.562037   0.062302 -146.547025 
  490.000   0.051423 169.697784   0.983835 -103.694895 
  0.983105 -103.672929   0.060356 -149.466267 
  500.000   0.048989 158.046930   0.984152 -105.818219 
  0.983582 -105.773668   0.057540 -153.304013 
  510.000   0.047633 145.987774   0.984874 -107.936981 
  0.984383 -107.852404   0.054283 -158.002272 
  520.000   0.047037 134.439242   0.985583 -110.038074 
  0.985188 -109.905218   0.050843 -163.308022 
  530.000   0.046578 123.734431   0.985857 -112.123170 
  0.985638 -111.940972   0.047243 -168.958799 
  540.000   0.045823 113.603443   0.985511 -114.206882 
  0.985526 -113.978886   0.043426 -174.887129 
  550.000   0.044750 103.621326   0.984710 -116.305154 
  0.984910 -116.039312   0.039468 178.770113 
  560.000   0.043579  93.630953   0.983873 -118.422996 
  0.984085 -118.132645   0.035634 171.906797 
  570.000   0.042441  83.807584   0.983411 -120.550131 
  0.983418 -120.253129   0.032212 164.793003 
  580.000   0.041222  74.379294   0.983503 -122.667387 
  0.983142 -122.381647   0.029246 158.155073 
  590.000   0.039696  65.375312   0.984012 -124.759351 
  0.983222 -124.496748   0.026484 152.794215 
  600.000   0.037677  56.649556   0.984578 -126.825223 
  0.983388 -126.588323   0.023609 149.150490 
  610.000   0.035040  47.993514   0.984843 -128.881398 
  0.983329 -128.665482   0.020488 147.337858 
  620.000   0.031676  39.089382   0.984656 -130.953258 
  0.982931 -130.752752   0.017244 147.590124 
  630.000   0.027531  29.254470   0.984143 -133.060468 
  0.982396 -132.875743   0.014166 150.859734 
  640.000   0.022791  16.979938   0.983598 -135.204570 
  0.982169 -135.044419   0.011638 159.259342 
  650.000   0.018180  -0.571399   0.983258 -137.367155 
  0.982663 -137.243630   0.010211 175.016122 
  660.000   0.015160 -26.058999   0.983125 -139.520794 
  0.983971 -139.436894   0.010563 -164.415377 
  670.000   0.014948 -54.729941   0.982981 -141.645895 
  0.985679 -141.583166   0.012818 -146.933911 
  680.000   0.016585 -77.410733   0.982580 -143.741832 
  0.986952 -143.658683   0.016382 -135.829079 
  690.000   0.018199 -93.807593   0.981893 -145.824963 
  0.986881 -145.672222   0.020638 -129.620997 
  700.000   0.018916 -107.577359   0.981202 -147.915721 
  0.984941 -147.663780   0.025225 -126.507700 
  710.000   0.018790 -121.162259   0.981004 -150.024213 
  0.981316 -149.686086   0.029971 -125.298987 
  720.000   0.018208 -135.373877   0.981735 -152.142366 
  0.976887 -151.779098   0.034784 -125.193789 
  730.000   0.017402 -149.972334   0.983477 -154.248352 
  0.972898 -153.950504   0.039540 -125.623870 
  740.000   0.016297 -164.722312   0.985791 -156.321601 
  0.970477 -156.171370   0.044023 -126.234889 
  750.000   0.014712 179.546828   0.987813 -158.361084 
  0.970205 -158.388482   0.047972 -126.867900 
  760.000   0.012728 160.220037   0.988633 -160.394849 
  0.971922 -160.548671   0.051164 -127.475391 
  770.000   0.011132 132.975087   0.987767 -162.471901 
  0.974832 -162.623893   0.053471 -128.012449 
  780.000   0.011671  98.307647   0.985453 -164.637628 
  0.977890 -164.623852   0.054849 -128.377832 
  790.000   0.015520  69.011228   0.982562 -166.905644 
  0.980251 -166.589003   0.055295 -128.420296 
  800.000   0.021979  50.624406   0.980149 -169.243061 
  0.981542 -168.569219   0.054858 -127.968559 
  810.000   0.030017  39.423956   0.978906 -171.579673 
  0.981864 -170.601531   0.053664 -126.844480 
  820.000   0.038846  32.072039   0.978827 -173.838719 
  0.981569 -172.698300   0.051937 -124.849280 
  830.000   0.047810  26.652549   0.979266 -175.973518 
  0.981019 -174.849098   0.049971 -121.762103 
  840.000   0.056392  22.064041   0.979380 -177.990527 
  0.980454 -177.031347   0.048059 -117.395479 
  850.000   0.064262  17.703381   0.978682 -179.944341 
  0.980003 -179.221781   0.046427 -111.709399 
  860.000   0.071210  13.310124   0.977381 178.091933 
  0.979763 178.597696   0.045168 -104.929368 
  870.000   0.077019   8.825249   0.976277 176.064863 
  0.979853 176.440199   0.044222 -97.559590 
  880.000   0.081380   4.230539   0.976274 173.964919 
  0.980370 174.316277   0.043394 -90.253171 
  890.000   0.083998  -0.571246   0.977800 171.824491 
  0.981280 172.233531   0.042462 -83.603528 
  900.000   0.084827  -5.758320   0.980474 169.692132 
  0.982356 170.192061   0.041285 -77.954428 
  910.000   0.084235 -11.441065   0.983213 167.599380 
  0.983213 168.178646   0.039835 -73.297188 
  920.000   0.082807 -17.450212   0.984740 165.539539 
  0.983485 166.164871   0.038100 -69.279871 
  930.000   0.080838 -23.297425   0.984262 163.471807 
  0.983046 164.114349   0.035955 -65.382570 
  940.000   0.077985 -28.463172   0.981920 161.349269 
  0.982127 161.998113   0.033129 -61.223870 
  950.000   0.073499 -32.819418   0.978712 159.153722 
  0.981242 159.811803   0.029314 -56.854644 
  960.000   0.066876 -36.862035   0.975943 156.915557 
  0.980898 157.584514   0.024317 -53.024911 
  970.000   0.058447 -41.725096   0.974500 154.704306 
  0.981251 155.371182   0.018216 -51.778209 
  980.000   0.049598 -48.965754   0.974382 152.591976 
  0.981893 153.228038   0.011588 -59.155495 
  990.000   0.042359 -59.609061   0.974769 150.607244 
  0.981988 151.181388   0.006816 -97.394527 
 1000.000   0.038016 -72.331144   0.974652 148.710625 
  0.980737 149.208176   0.009620 -152.177585 
 1010.000   0.035629 -84.065687   0.973610 146.809504 
  0.977959 147.243938   0.016710 -172.068349 
 1020.000   0.032899 -94.084917   0.972204 144.806985 
  0.974370 145.215699   0.025161 178.318769 
 1030.000   0.028544 -105.477778   0.971721 142.655291 
  0.971349 143.081840   0.035222 171.619619 
 1040.000   0.023892 -124.114320   0.973395 140.384974 
  0.970290 140.856756   0.047318 167.045496 
 1050.000   0.023116 -151.554368   0.977519 138.091502 
  0.971820 138.604215   0.061048 164.585885 
 1060.000   0.028021 -173.589498   0.982938 135.880740 
  0.975339 136.398118   0.075078 163.850537 
 1070.000   0.034364 176.203710   0.987391 133.801646 
  0.979205 134.272968   0.087658 164.154151 
 1080.000   0.037926 172.865203   0.988688 131.812929 
  0.981579 132.198919   0.097397 164.769891 
 1090.000   0.037005 172.421668   0.986033 129.810488 
  0.981427 130.101077   0.103898 165.110998 
 1100.000   0.032126 172.867075   0.980559 127.696936 
  0.979064 127.910231   0.107922 164.882456 
 1110.000   0.025365 173.667498   0.974749 125.447242 
  0.975940 125.614330   0.110994 164.195736 
 1120.000   0.019381 176.820481   0.971150 123.133776 
  0.973802 123.282732   0.114653 163.565706 
 1130.000   0.016712 -172.024056   0.971043 120.897751 
  0.973645 121.046311   0.119787 163.678364 
 1140.000   0.019845 -153.470672   0.973682 118.873913 
  0.974995 119.032637   0.126344 165.008740 
 1150.000   0.029589 -138.706347   0.976577 117.101442 
  0.976082 117.283868   0.133510 167.556975 
 1160.000   0.043909 -129.467120   0.976943 115.473874 
  0.974985 115.706813   0.140125 170.857669 
 1170.000   0.059469 -123.074801   0.973601 113.771121 
  0.971153 114.094766   0.145157 174.181078 
 1180.000   0.072736 -118.290986   0.968051 111.763514 
  0.966269 112.216096   0.148104 176.772237 
 1190.000   0.080843 -114.901802   0.963914 109.329721 
  0.963859 109.923759   0.149209 178.034046 
 1200.000   0.082227 -113.237821   0.965195 106.525001 
  0.967872 107.234608   0.149504 177.657490 
 1210.000   0.077027 -114.284932   0.974356 103.570020 
  0.980906 104.343213   0.150639 175.779790 
 1220.000   0.067758 -120.164801   0.990956 100.768348 
  1.002621 101.558133   0.154292 173.163621 
 1230.000   0.060510 -133.409310   1.011215  98.383751 
  1.028866  99.175980   0.161048 171.114440 
 1240.000   0.063313 -150.276894   1.028823  96.521448 
  1.052184  97.339972   0.169455 170.921875 
 1250.000   0.076906 -160.033942   1.037293  95.064738 
  1.064359  95.950341   0.176399 173.215106 
 1260.000   0.094183 -160.486281   1.033197  93.715628 
  1.060443  94.692226   0.178884 177.800231 
 1270.000   0.109190 -155.497461   1.018094  92.139450 
  1.041597  93.188362   0.175811 -176.055793 
 1280.000   0.119265 -148.454424   0.997457  90.126261 
  1.014243  91.183181   0.168262 -169.271538 
 1290.000   0.123628 -141.540441   0.977710  87.669763 
  0.986554  88.644856   0.158410 -162.743246 
 1300.000   0.122304 -136.189620   0.963622  84.945848 
  0.965142  85.757988   0.148309 -157.243399 
 1310.000   0.115997 -133.497626   0.957016  82.222936 
  0.953280  82.837660   0.139399 -153.308019 
 1320.000   0.106578 -134.464753   0.956717  79.741937 
  0.950574  80.198747   0.132489 -151.093285 
 1330.000   0.097363 -139.719783   0.959558  77.613776 
  0.953775  78.026481   0.127744 -150.308503 
 1340.000   0.091955 -148.354414   0.962087  75.786018 
  0.958464  76.305847   0.124541 -150.377086 
 1350.000   0.091236 -157.418796   0.962211  74.091948 
  0.961063  74.843543   0.121558 -150.804996 
 1360.000   0.092101 -164.394790   0.959936  72.347347 
  0.960313  73.368574   0.117346 -151.482752 
 1370.000   0.090492 -169.158025   0.956903  70.437681 
  0.957435  71.657891   0.111090 -152.693467 
 1380.000   0.084471 -173.006576   0.955187  68.355294 
  0.954994  69.626673   0.102962 -154.916132 
 1390.000   0.074728 -177.494862   0.956103  66.180647 
  0.955227  67.345325   0.093906 -158.608723 
 1400.000   0.063694 176.021140   0.959530  64.024703 
  0.958768  64.983262   0.085136 -164.066663 
 1410.000   0.054257 167.003217   0.964040  61.962546 
  0.964332  62.712628   0.077722 -171.347000 
 1420.000   0.048233 156.896249   0.967731  59.994004 
  0.969445  60.623954   0.072425 179.776646 
 1430.000   0.045204 148.790781   0.969307  58.052559 
  0.971798  58.695127   0.069681 169.865697 
 1440.000   0.043319 144.631558   0.968746  56.052779 
  0.970500  56.822757   0.069550 159.776219 
 1450.000   0.041126 144.095743   0.967161  53.944349 
  0.966515  54.891789   0.071627 150.345859 
 1460.000   0.038245 145.761105   0.966046  51.740283 
  0.962050  52.841958   0.075173 141.979086 
 1470.000   0.035008 148.032723   0.966395  49.506212 
  0.959327  50.694479   0.079517 134.582601 
 1480.000   0.032038 149.515152   0.968218  47.319727 
  0.959492  48.527505   0.084388 127.887849 
 1490.000   0.030046 149.418828   0.970654  45.224956 
  0.962207  46.420181   0.089893 121.802020 
 1500.000   0.029681 148.136438   0.972556  43.209031 
  0.966024  44.401519   0.096167 116.525030 
 1510.000   0.031253 147.166254   0.973193  41.211998 
  0.969258  42.433454   0.102949 112.374030 
 1520.000   0.034585 147.752177   0.972637  39.163230 
  0.970864  40.434762   0.109497 109.491956 
 1530.000   0.039202 149.790607   0.971647  37.021596 
  0.970879  38.330128   0.114953 107.718024 
 1540.000   0.044615 152.189698   0.971145  34.797168 
  0.970192  36.096320   0.118866 106.683868 
 1550.000   0.050495 153.704322   0.971613  32.543151 
  0.969834  33.777956   0.121457 106.013867 
 1560.000   0.056813 153.499039   0.972803  30.324074 
  0.970276  31.463595   0.123473 105.493449 
 1570.000   0.063911 151.404549   0.973879  28.180160 
  0.971178  29.238104   0.125749 105.137602 
 1580.000   0.072305 147.947787   0.973933  26.108264 
  0.971675  27.140197   0.128758 105.127962 
 1590.000   0.082163 144.021543   0.972532  24.068922 
  0.970988  25.147205   0.132375 105.643893 
 1600.000   0.092905 140.327492   0.969996  22.013134 
  0.968979  23.192504   0.135998 106.698533 
 1610.000   0.103344 137.051671   0.967241  19.912902 
  0.966305  21.204719   0.138944 108.107303 
 1620.000   0.112302 133.967592   0.965266  17.777910 
  0.964062  19.146009   0.140828 109.592682 
 1630.000   0.119164 130.729194   0.964592  15.647776 
  0.963109  17.026161   0.141697 110.934906 
 1640.000   0.124027 127.114063   0.964989  13.564594 
  0.963544  14.885400   0.141862 112.068976 
 1650.000   0.127410 123.137402   0.965641  11.543910 
  0.964645  12.760743   0.141598 113.082039 
 1660.000   0.129763 119.020373   0.965626   9.562321 
  0.965296  10.660332   0.140940 114.124220 
 1670.000   0.131123 115.030840   0.964420   7.567947 
  0.964611   8.560625   0.139667 115.291203 
 1680.000   0.131158 111.301693   0.962137   5.507663 
  0.962409   6.426209   0.137488 116.546197 
 1690.000   0.129533 107.758862   0.959393   3.353974 
  0.959255   4.238386   0.134268 117.729163 
 1700.000   0.126241 104.200272   0.956914   1.117501 
  0.956070   2.013110   0.130126 118.640011 
 1710.000   0.121634 100.445074   0.955154  -1.161128 
  0.953602  -0.204480   0.125341 119.133921 
 1720.000   0.116151  96.435512   0.954141  -3.432327 
  0.952088  -2.365395   0.120143 119.162338 
 1730.000   0.110016  92.225146   0.953584  -5.658535 
  0.951285  -4.445240   0.114578 118.734140 
 1740.000   0.103157  87.866067   0.953125  -7.824519 
  0.950794  -6.459092   0.108550 117.831695 
 1750.000   0.095385  83.282628   0.952563  -9.935148 
  0.950434  -8.454200   0.101998 116.352269 
 1760.000   0.086698  78.227678   0.951933 -12.005698 
  0.950426 -10.485801   0.095071 114.126889 
 1770.000   0.077463  72.361302   0.951432 -14.052919 
  0.951292 -12.589164   0.088140 111.018419 
 1780.000   0.068328  65.434821   0.951266 -16.091148 
  0.953493 -14.763039   0.081624 107.032923 
 1790.000   0.059914  57.496750   0.951525 -18.134264 
  0.957052 -16.973548   0.075759 102.337629 
 1800.000   0.052489  48.974532   0.952166 -20.199007 
  0.961365 -19.176500   0.070526  97.147614 
 1810.000   0.045891  40.516596   0.953102 -22.304608 
  0.965367 -21.344283   0.065785  91.587549 
 1820.000   0.039736  32.701739   0.954315 -24.465577 
  0.967992 -23.481337   0.061476  85.679090 
 1830.000   0.033721  25.892048   0.955877 -26.681622 
  0.968671 -25.619186   0.057666  79.476920 
 1840.000   0.027791  20.346387   0.957862 -28.932448 
  0.967616 -27.794678   0.054417  73.223272 
 1850.000   0.022116  16.536520   0.960190 -31.182053 
  0.965695 -30.024518   0.051582  67.317094 
 1860.000   0.017008  15.592730   0.962530 -33.392850 
  0.963984 -32.291261   0.048788  62.084771 
 1870.000   0.012903  19.856218   0.964347 -35.542549 
  0.963247 -34.549914   0.045640  57.597072 
 1880.000   0.010475  32.146190   0.965114 -37.636085 
  0.963625 -36.751557   0.041937  53.746434 
 1890.000   0.010483  49.430587   0.964611 -39.704432 
  0.964677 -38.869922   0.037699  50.488472 
 1900.000   0.012841  61.978192   0.963120 -41.789205 
  0.965719 -40.915965   0.033041  48.067394 
 1910.000   0.016688  67.417877   0.961367 -43.920427 
  0.966249 -42.932655   0.028034  47.159364 
 1920.000   0.021288  68.626213   0.960201 -46.100593 
  0.966220 -44.972931   0.022721  49.069857 
 1930.000   0.026116  67.726969   0.960195 -48.304303 
  0.966031 -47.073006   0.017316  56.421020 
 1940.000   0.030782  65.619989   0.961376 -50.493385 
  0.966233 -49.235198   0.012709  74.907387 
 1950.000   0.035043  62.619373   0.963222 -52.638180 
  0.967150 -51.429898   0.011242 108.799039 
 1960.000   0.038802  58.878768   0.964924 -54.734027 
