! C:\LeCroy\WavePulser\Results\WavePulserDemoBoard.s4p
!
! Tue Nov  5 13:09:32 2019
!
!!Measured using Teledyne LeCroy WavePulser LCRY4096E1
!SingleEnded 
!
! freq S11 S12 S13 S14 
! S21 S22 S23 S24 
! S31 S32 S33 S34 
! S41 S42 S43 S44 
! 
# MHz S MA R 50.00  
0.000000000   0.005952   0.000000   0.000254 180.000000   0.001923 180.000000   0.985358   0.000000 
  0.000254 180.000000   0.001971 180.000000   0.995694   0.000000   0.013998 180.000000 
  0.001923 180.000000   0.995694   0.000000   0.001602 180.000000   0.010597 180.000000 
  0.985358   0.000000   0.013998 180.000000   0.010597 180.000000   0.002693 180.000000 
25.000000000   0.034746  71.578254   0.031279  78.493269   0.011710 -105.636019   0.982093  -9.647859 
  0.031279  78.493269   0.041607  74.663951   0.991717  -9.615583   0.004498 -125.765399 
  0.011710 -105.636019   0.991717  -9.615583   0.040660  72.164009   0.037806  79.490006 
  0.982093  -9.647859   0.004498 -125.765399   0.037806  79.490006   0.041396  73.462128 
50.000000000   0.069863  63.047638   0.059972  68.360052   0.025167 -118.373526   0.973894 -19.065050 
  0.059972  68.360052   0.073589  59.844139   0.984174 -18.944433   0.025538 -118.065993 
  0.025167 -118.373526   0.984174 -18.944433   0.070860  61.880040   0.059362  67.957499 
  0.973894 -19.065050   0.025538 -118.065993   0.059362  67.957499   0.070676  60.959655 
75.000000000   0.099063  53.033734   0.087622  59.262889   0.036107 -132.050676   0.965108 -28.234697 
  0.087622  59.262889   0.099159  50.199623   0.976630 -28.105365   0.034363 -134.455667 
  0.036107 -132.050676   0.976630 -28.105365   0.101084  52.451611   0.089399  59.689282 
  0.965108 -28.234697   0.034363 -134.455667   0.089399  59.689282   0.099886  52.992788 
100.000000000   0.126441  43.809683   0.113902  49.823879   0.046895 -144.606586   0.956743 -37.266975 
  0.113902  49.823879   0.122416  42.158456   0.968899 -37.201959   0.047740 -144.720261 
  0.046895 -144.606586   0.968899 -37.201959   0.126088  43.296793   0.113616  49.247143 
  0.956743 -37.266975   0.047740 -144.720261   0.113616  49.247143   0.126969  42.925668 
125.000000000   0.149902  34.286242   0.138068  40.537733   0.055872 -157.748997   0.948959 -46.286197 
  0.138068  40.537733   0.146052  34.767663   0.959747 -46.241487   0.055546 -160.075548 
  0.055872 -157.748997   0.959747 -46.241487   0.150146  34.430170   0.138468  40.313077 
  0.948959 -46.286197   0.055546 -160.075548   0.138468  40.313077   0.148739  34.184370 
150.000000000   0.170390  25.673498   0.159885  31.213511   0.063819 -169.573419   0.938446 -55.221856 
  0.159885  31.213511   0.170271  26.124859   0.949423 -55.126134   0.063787 -170.082210 
  0.063819 -169.573419   0.949423 -55.126134   0.169862  26.068051   0.159090  30.538964 
  0.938446 -55.221856   0.063787 -170.082210   0.159090  30.538964   0.171735  25.722611 
175.000000000   0.189786  17.061327   0.178506  22.275038   0.071243 178.138588   0.929396 -63.933023 
  0.178506  22.275038   0.190588  16.688841   0.939512 -63.863483   0.071045 176.690072 
  0.071243 178.138588   0.939512 -63.863483   0.191313  17.613348   0.178458  21.909279 
  0.929396 -63.933023   0.071045 176.690072   0.178458  21.909279   0.190102  16.273992 
200.000000000   0.206248   8.335981   0.195312  13.658350   0.076469 165.831083   0.920313 -72.668137 
  0.195312  13.658350   0.205370   7.299618   0.930174 -72.469937   0.076263 165.503131 
  0.076469 165.831083   0.930174 -72.469937   0.206475   8.362662   0.195067  12.709204 
  0.920313 -72.668137   0.076263 165.503131   0.195067  12.709204   0.205431   8.091948 
225.000000000   0.220508  -0.141940   0.209716   5.231451   0.080094 154.619397   0.911781 -81.169641 
  0.209716   5.231451   0.216670  -0.983919   0.923141 -80.971455   0.080149 153.524547 
  0.080094 154.619397   0.923141 -80.971455   0.219914   0.051719   0.208968   4.392795 
  0.911781 -81.169641   0.080149 153.524547   0.208968   4.392795   0.220480  -1.053783 
250.000000000   0.232733  -8.996550   0.222965  -3.014602   0.083454 143.753977   0.905503 -89.762883 
  0.222965  -3.014602   0.228173  -9.487394   0.916913 -89.557990   0.083003 143.562198 
  0.083454 143.753977   0.916913 -89.557990   0.229231  -8.868005   0.222185  -4.086144 
  0.905503 -89.762883   0.083003 143.562198   0.222185  -4.086144   0.226724  -9.538237 
275.000000000   0.239347 -17.708393   0.233546 -11.469822   0.085294 133.121813   0.896921 -98.192680 
  0.233546 -11.469822   0.233872 -17.852976   0.909436 -98.015650   0.085795 132.379324 
  0.085294 133.121813   0.909436 -98.015650   0.234756 -16.636792   0.232891 -12.461870 
  0.896921 -98.192680   0.085795 132.379324   0.232891 -12.461870   0.235962 -16.823137 
300.000000000   0.244313 -25.624261   0.241468 -19.450784   0.087098 123.124595   0.893064 -106.510876 
  0.241468 -19.450784   0.240507 -25.328473   0.904733 -106.415029   0.086612 122.716525 
  0.087098 123.124595   0.904733 -106.415029   0.240346 -24.335285   0.241416 -20.809308 
  0.893064 -106.510876   0.086612 122.716525   0.241416 -20.809308   0.243288 -25.157381 
325.000000000   0.248363 -33.626881   0.249151 -27.495924   0.087628 112.629589   0.888535 -114.977916 
  0.249151 -27.495924   0.246753 -33.672174   0.899038 -114.823691   0.088166 112.148479 
  0.087628 112.629589   0.899038 -114.823691   0.245320 -31.942656   0.248455 -28.948153 
  0.888535 -114.977916   0.088166 112.148479   0.248455 -28.948153   0.247748 -33.071689 
350.000000000   0.250212 -41.501882   0.253303 -35.694809   0.086921 103.271140   0.884814 -123.265775 
  0.253303 -35.694809   0.248796 -42.263361   0.895851 -123.057779   0.086778 102.576513 
  0.086921 103.271140   0.895851 -123.057779   0.247580 -40.463593   0.253283 -37.333044 
  0.884814 -123.265775   0.086778 102.576513   0.253283 -37.333044   0.249604 -41.367049 
375.000000000   0.250905 -49.345660   0.255809 -43.417665   0.086302  93.757899   0.883391 -131.649283 
  0.255809 -43.417665   0.246258 -50.712672   0.894442 -131.428095   0.086485  92.909254 
  0.086302  93.757899   0.894442 -131.428095   0.243384 -48.235995   0.255574 -45.361840 
  0.883391 -131.649283   0.086485  92.909254   0.255574 -45.361840   0.248558 -48.956221 
400.000000000   0.250234 -57.355758   0.257905 -51.348080   0.083813  84.932195   0.881045 -140.021586 
  0.257905 -51.348080   0.242374 -58.376228   0.893176 -139.748309   0.082702  83.848777 
  0.083813  84.932195   0.893176 -139.748309   0.240481 -55.392757   0.257123 -53.472221 
  0.881045 -140.021586   0.082702  83.848777   0.257123 -53.472221   0.247715 -56.902477 
425.000000000   0.246749 -65.642060   0.257147 -59.422018   0.081664  76.831901   0.880798 -148.307327 
  0.257147 -59.422018   0.238578 -66.367825   0.893505 -148.138768   0.080238  76.511252 
  0.081664  76.831901   0.893505 -148.138768   0.236931 -62.749109   0.256774 -61.612341 
  0.880798 -148.307327   0.080238  76.511252   0.256774 -61.612341   0.242704 -64.688777 
450.000000000   0.240239 -73.787249   0.254357 -67.443437   0.078027  69.376079   0.882283 -156.741031 
  0.254357 -67.443437   0.231765 -74.328046   0.893736 -156.542581   0.076922  69.645369 
  0.078027  69.376079   0.893736 -156.542581   0.232015 -70.583010   0.254215 -70.051343 
  0.882283 -156.741031   0.076922  69.645369   0.254215 -70.051343   0.237630 -72.401189 
475.000000000   0.231513 -81.780832   0.249160 -75.470533   0.075671  63.869390   0.882096 -165.162197 
  0.249160 -75.470533   0.224488 -82.223386   0.894245 -164.964784   0.075672  63.825497 
  0.075671  63.869390   0.894245 -164.964784   0.222732 -78.324779   0.248715 -78.150081 
  0.882096 -165.162197   0.075672  63.825497   0.248715 -78.150081   0.229130 -80.196082 
500.000000000   0.221746 -89.387227   0.242354 -83.358693   0.074039  57.476499   0.885479 -173.506007 
  0.242354 -83.358693   0.216230 -90.617243   0.896198 -173.274589   0.072864  57.012988 
  0.074039  57.476499   0.896198 -173.274589   0.213331 -85.885591   0.243381 -86.534666 
  0.885479 -173.506007   0.072864  57.012988   0.243381 -86.534666   0.220238 -87.698119 
525.000000000   0.212170 -97.275800   0.234042 -91.438970   0.070410  52.680840   0.889141 177.849458 
  0.234042 -91.438970   0.203488 -99.840174   0.901809 178.218798   0.069544  53.066013 
  0.070410  52.680840   0.901809 178.218798   0.200032 -93.846296   0.233568 -95.149171 
  0.889141 177.849458   0.069544  53.066013   0.233568 -95.149171   0.209114 -95.583225 
550.000000000   0.200372 -105.579958   0.222999 -99.647122   0.069491  50.379929   0.890731 169.303351 
  0.222999 -99.647122   0.185154 -108.017834   0.905542 169.547452   0.068520  50.433205 
  0.069491  50.379929   0.905542 169.547452   0.184932 -100.848297   0.222999 -103.449773 
  0.890731 169.303351   0.068520  50.433205   0.222999 -103.449773   0.195743 -103.267595 
575.000000000   0.186316 -114.325082   0.209451 -107.829033   0.070668  47.222659   0.895146 160.701838 
  0.209451 -107.829033   0.169987 -115.139699   0.908986 160.816491   0.069743  47.950620 
  0.070668  47.222659   0.908986 160.816491   0.170495 -108.100768   0.209985 -112.303852 
  0.895146 160.701838   0.069743  47.950620   0.209985 -112.303852   0.180214 -110.859254 
600.000000000   0.168128 -123.325566   0.193538 -115.943976   0.072297  44.697655   0.898897 151.977129 
  0.193538 -115.943976   0.155552 -123.536880   0.910719 152.117837   0.071833  45.222790 
  0.072297  44.697655   0.910719 152.117837   0.152534 -115.696403   0.194182 -120.928350 
  0.898897 151.977129   0.071833  45.222790   0.194182 -120.928350   0.164203 -118.008074 
625.000000000   0.147059 -131.752413   0.175438 -123.893641   0.076834  42.215009   0.902912 143.145430 
  0.175438 -123.893641   0.137723 -132.982206   0.915370 143.386128   0.076138  42.578164 
  0.076834  42.215009   0.915370 143.386128   0.132455 -122.139682   0.176976 -129.867246 
  0.902912 143.145430   0.076138  42.578164   0.176976 -129.867246   0.146850 -125.863981 
650.000000000   0.125466 -139.266120   0.155512 -131.649807   0.083387  38.435329   0.904261 134.266845 
  0.155512 -131.649807   0.116321 -143.023695   0.917462 134.464625   0.081973  39.201623 
  0.083387  38.435329   0.917462 134.464625   0.113424 -128.578004   0.156294 -138.905948 
  0.904261 134.266845   0.081973  39.201623   0.156294 -138.905948   0.125567 -133.346731 
675.000000000   0.104691 -146.873868   0.133213 -139.053341   0.091360  33.386110   0.907138 125.480212 
  0.133213 -139.053341   0.091102 -153.713145   0.920439 125.648309   0.090885  34.771314 
  0.091360  33.386110   0.920439 125.648309   0.089114 -135.235379   0.134068 -147.455436 
  0.907138 125.480212   0.090885  34.771314   0.134068 -147.455436   0.103080 -139.971877 
700.000000000   0.081093 -154.621629   0.109733 -145.246282   0.100136  27.492922   0.910572 116.451623 
  0.109733 -145.246282   0.062561 -161.965886   0.922739 116.557889   0.100072  28.477572 
  0.100136  27.492922   0.922739 116.557889   0.063256 -135.540520   0.110997 -156.186008 
  0.910572 116.451623   0.100072  28.477572   0.110997 -156.186008   0.078271 -144.809947 
725.000000000   0.057485 -159.861522   0.085534 -150.444074   0.110635  20.650667   0.910782 107.331378 
  0.085534 -150.444074   0.039473 -165.615891   0.922221 107.559304   0.110863  21.814703 
  0.110635  20.650667   0.922221 107.559304   0.043027 -126.154006   0.085566 -164.765564 
  0.910782 107.331378   0.110863  21.814703   0.085566 -164.765564   0.054758 -143.832154 
750.000000000   0.033617 -163.631234   0.059586 -151.059111   0.121402  12.584248   0.908610  98.260254 
  0.059586 -151.059111   0.016452 -176.276333   0.922207  98.446006   0.122160  13.429409 
  0.121402  12.584248   0.922207  98.446006   0.032336 -97.988805   0.059537 -172.208218 
  0.908610  98.260254   0.122160  13.429409   0.059537 -172.208218   0.034852 -132.500430 
775.000000000   0.009825 -131.183732   0.038317 -139.300626   0.132398   3.943577   0.906644  89.285231 
  0.038317 -139.300626   0.011339  -4.451432   0.918889  89.332888   0.133070   4.790752 
  0.132398   3.943577   0.918889  89.332888   0.038360 -67.825072   0.032503 -177.451748 
  0.906644  89.285231   0.133070   4.790752   0.032503 -177.451748   0.026048 -91.476681 
800.000000000   0.023612 -39.604348   0.028681 -101.421520   0.143169  -5.522908   0.904760  80.154034 
  0.028681 -101.421520   0.038603 -16.955210   0.914801  80.207428   0.144295  -4.796526 
  0.143169  -5.522908   0.914801  80.207428   0.054841 -52.111233   0.007397 -140.848223 
  0.904760  80.154034   0.144295  -4.796526   0.007397 -140.848223   0.040953 -59.693771 
825.000000000   0.049791 -40.199558   0.043722 -70.858875   0.152781 -15.308412   0.898483  71.018728 
  0.043722 -70.858875   0.065459 -27.538404   0.907037  71.168942   0.153787 -14.658949 
  0.152781 -15.308412   0.907037  71.168942   0.079076 -49.558172   0.023871 -42.723883 
  0.898483  71.018728   0.153787 -14.658949   0.023871 -42.723883   0.064139 -54.747601 
850.000000000   0.071618 -46.943072   0.064423 -64.879490   0.161599 -25.196816   0.891374  62.101033 
  0.064423 -64.879490   0.090099 -37.824185   0.900173  62.328606   0.162790 -24.486495 
  0.161599 -25.196816   0.900173  62.328606   0.103226 -53.451504   0.049481 -43.711309 
  0.891374  62.101033   0.162790 -24.486495   0.049481 -43.711309   0.085858 -58.035362 
875.000000000   0.094165 -52.152422   0.087761 -65.105404   0.170148 -35.167008   0.885453  53.217140 
  0.087761 -65.105404   0.113427 -47.303966   0.894311  53.480887   0.172041 -34.462337 
  0.170148 -35.167008   0.894311  53.480887   0.128175 -59.275641   0.075120 -49.924718 
  0.885453  53.217140   0.172041 -34.462337   0.075120 -49.924718   0.107230 -62.187144 
900.000000000   0.118520 -60.697986   0.112128 -70.050108   0.177838 -45.600507   0.878797  44.285967 
  0.112128 -70.050108   0.134816 -57.222171   0.888187  44.524486   0.180113 -45.187100 
  0.177838 -45.600507   0.888187  44.524486   0.150274 -67.801588   0.099840 -58.385504 
  0.878797  44.285967   0.180113 -45.187100   0.099840 -58.385504   0.129160 -69.118784 
925.000000000   0.137617 -69.493900   0.134607 -76.676422   0.183057 -55.921799   0.870183  35.415314 
  0.134607 -76.676422   0.151903 -66.346515   0.877542  35.637560   0.184991 -55.568614 
  0.183057 -55.921799   0.877542  35.637560   0.165843 -75.187321   0.121601 -66.823162 
  0.870183  35.415314   0.184991 -55.568614   0.121601 -66.823162   0.145897 -76.053379 
950.000000000   0.157462 -77.811671   0.154887 -84.189403   0.188196 -65.844406   0.861314  26.690291 
  0.154887 -84.189403   0.169255 -74.586585   0.868778  27.071884   0.190388 -65.590423 
  0.188196 -65.844406   0.868778  27.071884   0.184558 -82.159695   0.142706 -75.104720 
  0.861314  26.690291   0.190388 -65.590423   0.142706 -75.104720   0.165252 -82.635337 
975.000000000   0.173985 -87.409204   0.172099 -91.617958   0.192882 -76.138959   0.852928  18.008511 
  0.172099 -91.617958   0.185281 -83.424717   0.861449  18.338824   0.194656 -75.941317 
  0.192882 -76.138959   0.861449  18.338824   0.200062 -90.509413   0.161548 -83.876660 
  0.852928  18.008511   0.194656 -75.941317   0.161548 -83.876660   0.181819 -91.092744 
1000.000000000   0.185968 -96.101492   0.189033 -99.015846   0.194851 -86.313946   0.843348   9.413788 
  0.189033 -99.015846   0.199695 -91.902669   0.850796   9.735644   0.196897 -86.092622 
  0.194851 -86.313946   0.850796   9.735644   0.212681 -98.140521   0.177484 -92.254794 
  0.843348   9.413788   0.196897 -86.092622   0.177484 -92.254794   0.194191 -98.629458 
1025.000000000   0.197065 -104.601700   0.203632 -107.090380   0.196285 -95.853127   0.835192   1.049185 
  0.203632 -107.090380   0.213036 -101.233894   0.841820   1.368923   0.198108 -95.760818 
  0.196285 -95.853127   0.841820   1.368923   0.224941 -106.328367   0.192358 -100.494132 
  0.835192   1.049185   0.198108 -95.760818   0.192358 -100.494132   0.207713 -106.656583 
1050.000000000   0.205729 -112.803641   0.214588 -114.820588   0.198229 -105.381926   0.830189  -7.375944 
  0.214588 -114.820588   0.219956 -110.421385   0.835089  -6.939767   0.199824 -105.225939 
  0.198229 -105.381926   0.835089  -6.939767   0.232520 -114.521195   0.204535 -108.833304 
  0.830189  -7.375944   0.199824 -105.225939   0.204535 -108.833304   0.215470 -115.188274 
1075.000000000   0.214157 -121.094147   0.225191 -122.356552   0.199000 -114.993286   0.823892 -15.873379 
  0.225191 -122.356552   0.224658 -118.883519   0.830227 -15.280458   0.200507 -114.756584 
  0.199000 -114.993286   0.830227 -15.280458   0.238330 -122.388690   0.214831 -116.693258 
  0.823892 -15.873379   0.200507 -114.756584   0.214831 -116.693258   0.220184 -122.814511 
1100.000000000   0.219026 -129.520547   0.233822 -130.231618   0.198430 -124.327159   0.817697 -24.245085 
  0.233822 -130.231618   0.227030 -126.599430   0.825384 -23.692739   0.200604 -123.915512 
  0.198430 -124.327159   0.825384 -23.692739   0.241656 -130.053016   0.224666 -124.676421 
  0.817697 -24.245085   0.200604 -123.915512   0.224666 -124.676421   0.224226 -130.115957 
1125.000000000   0.223125 -137.533655   0.239783 -138.011825   0.197427 -133.273784   0.812383 -32.564449 
  0.239783 -138.011825   0.233076 -134.059286   0.819940 -32.063478   0.200502 -133.070590 
  0.197427 -133.273784   0.819940 -32.063478   0.244975 -137.478820   0.232079 -132.808034 
  0.812383 -32.564449   0.200502 -133.070590   0.232079 -132.808034   0.228366 -137.394187 
1150.000000000   0.225048 -146.030505   0.243916 -145.709661   0.196231 -141.954170   0.808830 -40.827954 
  0.243916 -145.709661   0.235997 -142.823333   0.814961 -40.347385   0.199023 -141.876930 
  0.196231 -141.954170   0.814961 -40.347385   0.246162 -145.319059   0.237081 -140.911602 
  0.808830 -40.827954   0.199023 -141.876930   0.237081 -140.911602   0.230013 -145.188004 
1175.000000000   0.223757 -153.853519   0.246343 -153.327472   0.195231 -150.292428   0.806283 -49.191861 
  0.246343 -153.327472   0.235266 -150.758561   0.811397 -48.553920   0.198545 -150.220143 
  0.195231 -150.292428   0.811397 -48.553920   0.245085 -152.695811   0.240047 -148.703245 
  0.806283 -49.191861   0.198545 -150.220143   0.240047 -148.703245   0.229058 -152.311937 
1200.000000000   0.224476 -161.675908   0.247227 -160.997752   0.194448 -158.642010   0.803221 -57.532149 
  0.247227 -160.997752   0.234851 -159.334600   0.810066 -56.798328   0.197849 -158.827745 
  0.194448 -158.642010   0.810066 -56.798328   0.244429 -160.409627   0.242729 -156.691520 
  0.803221 -57.532149   0.197849 -158.827745   0.242729 -156.691520   0.230023 -159.888572 
1225.000000000   0.221850 -170.298814   0.246018 -168.610431   0.192629 -166.601892   0.801138 -65.838074 
  0.246018 -168.610431   0.227413 -167.382222   0.808736 -65.132355   0.195847 -166.761254 
  0.192629 -166.601892   0.808736 -65.132355   0.239035 -168.225005   0.241262 -164.758513 
  0.801138 -65.838074   0.195847 -166.761254   0.241262 -164.758513   0.224564 -168.121927 
1250.000000000   0.216492 -178.256282   0.244045 -176.259540   0.192359 -174.139608   0.800241 -74.130065 
  0.244045 -176.259540   0.224698 -174.242062   0.808182 -73.436546   0.196282 -174.521166 
  0.192359 -174.139608   0.808182 -73.436546   0.233892 -175.274169   0.239968 -172.276471 
  0.800241 -74.130065   0.196282 -174.521166   0.239968 -172.276471   0.217040 -174.811183 
1275.000000000   0.211785 173.468076   0.239112 175.725632   0.192059 178.118421   0.800589 -82.528090 
  0.239112 175.725632   0.221685 176.962729   0.807915 -81.845553   0.195137 177.524047 
  0.192059 178.118421   0.807915 -81.845553   0.228672 176.985467   0.237133 179.323931 
  0.800589 -82.528090   0.195137 177.524047   0.237133 179.323931   0.212813 178.202060 
