! File created by SignalIntegrity v1.1.15: Signal and Power Integrity Tools
! https://github.com/TeledyneLeCroy/SignalIntegrity
# MHz S MA R 50.0
0.0 1.0 0.0 0.001451 0.0 0.0 0.0 1.0 180.0
1000.0 1.0 0.0 0.001451 -0.290079 0.0 0.0 1.0 180.0
2000.0 1.0 0.0 0.001452 -0.580968 0.0 0.0 1.0 180.0
3000.0 1.0 0.0 0.001453 -0.873483 0.0 0.0 1.0 180.0
4000.0 1.0 0.0 0.001456 -1.168442 0.0 0.0 1.0 180.0
5000.0 1.0 0.0 0.001458 -1.466672 0.0 0.0 1.0 180.0
6000.0 1.0 0.0 0.001461 -1.769009 0.0 0.0 1.0 180.0
7000.0 1.0 0.0 0.001465 -2.076305 0.0 0.0 1.0 180.0
8000.0 1.0 0.0 0.00147 -2.389424 0.0 0.0 1.0 180.0
9000.0 1.0 0.0 0.001475 -2.709252 0.0 0.0 1.0 180.0
10000.0 1.0 0.0 0.001481 -3.036694 0.0 0.0 1.0 180.0
11000.0 1.0 0.0 0.001487 -3.37268 0.0 0.0 1.0 180.0
12000.0 1.0 0.0 0.001494 -3.718169 0.0 0.0 1.0 180.0
13000.0 1.0 0.0 0.001502 -4.074149 0.0 0.0 1.0 180.0
14000.0 1.0 0.0 0.00151 -4.441643 0.0 0.0 1.0 180.0
15000.0 1.0 0.0 0.001519 -4.821709 0.0 0.0 1.0 180.0
16000.0 1.0 0.0 0.001529 -5.21545 0.0 0.0 1.0 180.0
17000.0 1.0 0.0 0.001539 -5.62401 0.0 0.0 1.0 180.0
18000.0 1.0 0.0 0.00155 -6.048582 0.0 0.0 1.0 180.0
19000.0 1.0 0.0 0.001562 -6.490412 0.0 0.0 1.0 180.0
20000.0 1.0 0.0 0.001575 -6.950802 0.0 0.0 1.0 180.0
21000.0 1.0 0.0 0.001588 -7.431113 0.0 0.0 1.0 180.0
22000.0 1.0 0.0 0.001602 -7.932772 0.0 0.0 1.0 180.0
23000.0 1.0 0.0 0.001617 -8.457272 0.0 0.0 1.0 180.0
24000.0 1.0 0.0 0.001632 -9.006181 0.0 0.0 1.0 180.0
25000.0 1.0 0.0 0.001649 -9.581142 0.0 0.0 1.0 180.0
26000.0 1.0 0.0 0.001666 -10.183878 0.0 0.0 1.0 180.0
27000.0 1.0 0.0 0.001684 -10.816196 0.0 0.0 1.0 180.0
28000.0 1.0 0.0 0.001703 -11.47999 0.0 0.0 1.0 180.0
29000.0 1.0 0.0 0.001723 -12.177242 0.0 0.0 1.0 180.0
30000.0 1.0 0.0 0.001743 -12.910025 0.0 0.0 1.0 180.0
31000.0 1.0 0.0 0.001765 -13.680502 0.0 0.0 1.0 180.0
32000.0 1.0 0.0 0.001787 -14.490927 0.0 0.0 1.0 180.0
33000.0 1.0 0.0 0.00181 -15.34364 0.0 0.0 1.0 180.0
34000.0 1.0 0.0 0.001834 -16.241063 0.0 0.0 1.0 180.0
35000.0 1.0 0.0 0.001858 -17.185689 0.0 0.0 1.0 180.0
36000.0 1.0 0.0 0.001884 -18.180077 0.0 0.0 1.0 180.0
37000.0 1.0 0.0 0.001909 -19.226828 0.0 0.0 1.0 180.0
38000.0 1.0 0.0 0.001936 -20.328571 0.0 0.0 1.0 180.0
39000.0 1.0 0.0 0.001963 -21.487934 0.0 0.0 1.0 180.0
40000.0 1.0 0.0 0.001991 -22.707509 0.0 0.0 1.0 180.0
41000.0 1.0 0.0 0.002018 -23.989815 0.0 0.0 1.0 180.0
42000.0 1.0 0.0 0.002046 -25.337247 0.0 0.0 1.0 180.0
43000.0 1.0 0.0 0.002074 -26.752016 0.0 0.0 1.0 180.0
44000.0 1.0 0.0 0.002102 -28.236086 0.0 0.0 1.0 180.0
45000.0 1.0 0.0 0.00213 -29.791092 0.0 0.0 1.0 180.0
46000.0 1.0 0.0 0.002156 -31.418257 0.0 0.0 1.0 180.0
47000.0 1.0 0.0 0.002182 -33.118299 0.0 0.0 1.0 180.0
48000.0 1.0 0.0 0.002207 -34.891326 0.0 0.0 1.0 180.0
49000.0 1.0 0.0 0.00223 -36.736743 0.0 0.0 1.0 180.0
50000.0 1.0 0.0 0.002251 -38.653146 0.0 0.0 1.0 180.0
51000.0 1.0 0.0 0.00227 -40.638234 0.0 0.0 1.0 180.0
52000.0 1.0 0.0 0.002286 -42.688733 0.0 0.0 1.0 180.0
53000.0 1.0 0.0 0.0023 -44.800338 0.0 0.0 1.0 180.0
54000.0 1.0 0.0 0.00231 -46.967693 0.0 0.0 1.0 180.0
55000.0 1.0 0.0 0.002317 -49.184399 0.0 0.0 1.0 180.0
56000.0 1.0 0.0 0.002319 -51.443066 0.0 0.0 1.0 180.0
57000.0 1.0 0.0 0.002318 -53.735413 0.0 0.0 1.0 180.0
58000.0 1.0 0.0 0.002313 -56.052406 0.0 0.0 1.0 180.0
59000.0 1.0 0.0 0.002303 -58.384436 0.0 0.0 1.0 180.0
60000.0 1.0 0.0 0.002289 -60.721539 0.0 0.0 1.0 180.0
61000.0 1.0 0.0 0.00227 -63.053619 0.0 0.0 1.0 180.0
62000.0 1.0 0.0 0.002248 -65.370693 0.0 0.0 1.0 180.0
63000.0 1.0 0.0 0.002222 -67.663124 0.0 0.0 1.0 180.0
64000.0 1.0 0.0 0.002192 -69.921832 0.0 0.0 1.0 180.0
65000.0 1.0 0.0 0.002159 -72.138479 0.0 0.0 1.0 180.0
66000.0 1.0 0.0 0.002123 -74.30561 0.0 0.0 1.0 180.0
67000.0 1.0 0.0 0.002084 -76.416753 0.0 0.0 1.0 180.0
68000.0 1.0 0.0 0.002044 -78.466473 0.0 0.0 1.0 180.0
69000.0 1.0 0.0 0.002002 -80.450386 0.0 0.0 1.0 180.0
70000.0 1.0 0.0 0.001958 -82.365136 0.0 0.0 1.0 180.0
71000.0 1.0 0.0 0.001914 -84.208342 0.0 0.0 1.0 180.0
72000.0 1.0 0.0 0.001869 -85.978522 0.0 0.0 1.0 180.0
73000.0 1.0 0.0 0.001824 -87.675001 0.0 0.0 1.0 180.0
74000.0 1.0 0.0 0.001779 -89.297816 0.0 0.0 1.0 180.0
75000.0 1.0 0.0 0.001734 -90.847611 0.0 0.0 1.0 180.0
76000.0 1.0 0.0 0.001689 -92.325538 0.0 0.0 1.0 180.0
77000.0 1.0 0.0 0.001645 -93.733167 0.0 0.0 1.0 180.0
78000.0 1.0 0.0 0.001602 -95.072391 0.0 0.0 1.0 180.0
79000.0 1.0 0.0 0.00156 -96.345356 0.0 0.0 1.0 180.0
80000.0 1.0 0.0 0.001519 -97.554391 0.0 0.0 1.0 180.0
81000.0 1.0 0.0 0.001478 -98.701945 0.0 0.0 1.0 180.0
82000.0 1.0 0.0 0.001439 -99.790544 0.0 0.0 1.0 180.0
83000.0 1.0 0.0 0.001401 -100.822743 0.0 0.0 1.0 180.0
84000.0 1.0 0.0 0.001364 -101.801099 0.0 0.0 1.0 180.0
85000.0 1.0 0.0 0.001329 -102.728138 0.0 0.0 1.0 180.0
86000.0 1.0 0.0 0.001294 -103.60634 0.0 0.0 1.0 180.0
87000.0 1.0 0.0 0.001261 -104.438116 0.0 0.0 1.0 180.0
88000.0 1.0 0.0 0.001228 -105.225802 0.0 0.0 1.0 180.0
89000.0 1.0 0.0 0.001197 -105.971648 0.0 0.0 1.0 180.0
90000.0 1.0 0.0 0.001167 -106.677812 0.0 0.0 1.0 180.0
91000.0 1.0 0.0 0.001138 -107.346359 0.0 0.0 1.0 180.0
92000.0 1.0 0.0 0.00111 -107.979258 0.0 0.0 1.0 180.0
93000.0 1.0 0.0 0.001083 -108.578381 0.0 0.0 1.0 180.0
94000.0 1.0 0.0 0.001057 -109.145506 0.0 0.0 1.0 180.0
95000.0 1.0 0.0 0.001032 -109.68232 0.0 0.0 1.0 180.0
96000.0 1.0 0.0 0.001008 -110.190419 0.0 0.0 1.0 180.0
97000.0 1.0 0.0 0.000985 -110.671314 0.0 0.0 1.0 180.0
98000.0 1.0 0.0 0.000962 -111.126431 0.0 0.0 1.0 180.0
99000.0 1.0 0.0 0.00094 -111.557118 0.0 0.0 1.0 180.0
100000.0 1.0 0.0 0.000919 -111.964647 0.0 0.0 1.0 180.0
101000.0 1.0 0.0 0.000899 -112.350219 0.0 0.0 1.0 180.0
102000.0 1.0 0.0 0.00088 -112.714967 0.0 0.0 1.0 180.0
103000.0 1.0 0.0 0.000861 -113.059959 0.0 0.0 1.0 180.0
104000.0 1.0 0.0 0.000843 -113.386202 0.0 0.0 1.0 180.0
105000.0 1.0 0.0 0.000825 -113.694647 0.0 0.0 1.0 180.0
106000.0 1.0 0.0 0.000808 -113.986191 0.0 0.0 1.0 180.0
107000.0 1.0 0.0 0.000792 -114.26168 0.0 0.0 1.0 180.0
108000.0 1.0 0.0 0.000776 -114.521911 0.0 0.0 1.0 180.0
109000.0 1.0 0.0 0.00076 -114.767639 0.0 0.0 1.0 180.0
110000.0 1.0 0.0 0.000746 -114.999574 0.0 0.0 1.0 180.0
111000.0 1.0 0.0 0.000731 -115.218388 0.0 0.0 1.0 180.0
112000.0 1.0 0.0 0.000717 -115.424716 0.0 0.0 1.0 180.0
113000.0 1.0 0.0 0.000704 -115.619158 0.0 0.0 1.0 180.0
114000.0 1.0 0.0 0.000691 -115.80228 0.0 0.0 1.0 180.0
115000.0 1.0 0.0 0.000678 -115.974619 0.0 0.0 1.0 180.0
116000.0 1.0 0.0 0.000666 -116.136681 0.0 0.0 1.0 180.0
117000.0 1.0 0.0 0.000654 -116.288948 0.0 0.0 1.0 180.0
118000.0 1.0 0.0 0.000643 -116.431873 0.0 0.0 1.0 180.0
119000.0 1.0 0.0 0.000631 -116.565887 0.0 0.0 1.0 180.0
120000.0 1.0 0.0 0.000621 -116.6914 0.0 0.0 1.0 180.0
121000.0 1.0 0.0 0.00061 -116.808796 0.0 0.0 1.0 180.0
122000.0 1.0 0.0 0.0006 -116.918445 0.0 0.0 1.0 180.0
123000.0 1.0 0.0 0.00059 -117.020693 0.0 0.0 1.0 180.0
124000.0 1.0 0.0 0.00058 -117.115872 0.0 0.0 1.0 180.0
125000.0 1.0 0.0 0.000571 -117.204295 0.0 0.0 1.0 180.0
126000.0 1.0 0.0 0.000562 -117.286261 0.0 0.0 1.0 180.0
127000.0 1.0 0.0 0.000553 -117.362054 0.0 0.0 1.0 180.0
128000.0 1.0 0.0 0.000545 -117.431943 0.0 0.0 1.0 180.0
129000.0 1.0 0.0 0.000536 -117.496185 0.0 0.0 1.0 180.0
130000.0 1.0 0.0 0.000528 -117.555023 0.0 0.0 1.0 180.0
131000.0 1.0 0.0 0.00052 -117.608691 0.0 0.0 1.0 180.0
132000.0 1.0 0.0 0.000513 -117.65741 0.0 0.0 1.0 180.0
133000.0 1.0 0.0 0.000505 -117.701391 0.0 0.0 1.0 180.0
134000.0 1.0 0.0 0.000498 -117.740835 0.0 0.0 1.0 180.0
135000.0 1.0 0.0 0.000491 -117.775934 0.0 0.0 1.0 180.0
136000.0 1.0 0.0 0.000484 -117.80687 0.0 0.0 1.0 180.0
137000.0 1.0 0.0 0.000477 -117.833819 0.0 0.0 1.0 180.0
138000.0 1.0 0.0 0.00047 -117.856947 0.0 0.0 1.0 180.0
139000.0 1.0 0.0 0.000464 -117.876414 0.0 0.0 1.0 180.0
140000.0 1.0 0.0 0.000458 -117.892371 0.0 0.0 1.0 180.0
141000.0 1.0 0.0 0.000452 -117.904963 0.0 0.0 1.0 180.0
142000.0 1.0 0.0 0.000446 -117.91433 0.0 0.0 1.0 180.0
143000.0 1.0 0.0 0.00044 -117.920605 0.0 0.0 1.0 180.0
144000.0 1.0 0.0 0.000434 -117.923914 0.0 0.0 1.0 180.0
145000.0 1.0 0.0 0.000429 -117.92438 0.0 0.0 1.0 180.0
146000.0 1.0 0.0 0.000423 -117.922119 0.0 0.0 1.0 180.0
147000.0 1.0 0.0 0.000418 -117.917242 0.0 0.0 1.0 180.0
148000.0 1.0 0.0 0.000413 -117.909856 0.0 0.0 1.0 180.0
149000.0 1.0 0.0 0.000408 -117.900063 0.0 0.0 1.0 180.0
150000.0 1.0 0.0 0.000403 -117.887962 0.0 0.0 1.0 180.0
151000.0 1.0 0.0 0.000398 -117.873647 0.0 0.0 1.0 180.0
152000.0 1.0 0.0 0.000393 -117.857207 0.0 0.0 1.0 180.0
153000.0 1.0 0.0 0.000389 -117.838729 0.0 0.0 1.0 180.0
154000.0 1.0 0.0 0.000384 -117.818296 0.0 0.0 1.0 180.0
155000.0 1.0 0.0 0.00038 -117.795988 0.0 0.0 1.0 180.0
156000.0 1.0 0.0 0.000375 -117.771882 0.0 0.0 1.0 180.0
157000.0 1.0 0.0 0.000371 -117.746049 0.0 0.0 1.0 180.0
158000.0 1.0 0.0 0.000367 -117.718562 0.0 0.0 1.0 180.0
159000.0 1.0 0.0 0.000363 -117.689487 0.0 0.0 1.0 180.0
160000.0 1.0 0.0 0.000359 -117.65889 0.0 0.0 1.0 180.0
161000.0 1.0 0.0 0.000355 -117.626833 0.0 0.0 1.0 180.0
162000.0 1.0 0.0 0.000351 -117.593376 0.0 0.0 1.0 180.0
163000.0 1.0 0.0 0.000347 -117.558578 0.0 0.0 1.0 180.0
164000.0 1.0 0.0 0.000344 -117.522493 0.0 0.0 1.0 180.0
165000.0 1.0 0.0 0.00034 -117.485175 0.0 0.0 1.0 180.0
166000.0 1.0 0.0 0.000337 -117.446675 0.0 0.0 1.0 180.0
167000.0 1.0 0.0 0.000333 -117.407044 0.0 0.0 1.0 180.0
168000.0 1.0 0.0 0.00033 -117.366328 0.0 0.0 1.0 180.0
169000.0 1.0 0.0 0.000326 -117.324573 0.0 0.0 1.0 180.0
170000.0 1.0 0.0 0.000323 -117.281823 0.0 0.0 1.0 180.0
171000.0 1.0 0.0 0.00032 -117.238121 0.0 0.0 1.0 180.0
172000.0 1.0 0.0 0.000317 -117.193508 0.0 0.0 1.0 180.0
173000.0 1.0 0.0 0.000314 -117.148023 0.0 0.0 1.0 180.0
174000.0 1.0 0.0 0.000311 -117.101705 0.0 0.0 1.0 180.0
175000.0 1.0 0.0 0.000308 -117.054588 0.0 0.0 1.0 180.0
176000.0 1.0 0.0 0.000305 -117.00671 0.0 0.0 1.0 180.0
177000.0 1.0 0.0 0.000302 -116.958103 0.0 0.0 1.0 180.0
178000.0 1.0 0.0 0.000299 -116.908801 0.0 0.0 1.0 180.0
179000.0 1.0 0.0 0.000296 -116.858835 0.0 0.0 1.0 180.0
180000.0 1.0 0.0 0.000294 -116.808235 0.0 0.0 1.0 180.0
181000.0 1.0 0.0 0.000291 -116.757031 0.0 0.0 1.0 180.0
182000.0 1.0 0.0 0.000288 -116.705252 0.0 0.0 1.0 180.0
183000.0 1.0 0.0 0.000286 -116.652923 0.0 0.0 1.0 180.0
184000.0 1.0 0.0 0.000283 -116.600072 0.0 0.0 1.0 180.0
185000.0 1.0 0.0 0.000281 -116.546724 0.0 0.0 1.0 180.0
186000.0 1.0 0.0 0.000278 -116.492904 0.0 0.0 1.0 180.0
187000.0 1.0 0.0 0.000276 -116.438635 0.0 0.0 1.0 180.0
188000.0 1.0 0.0 0.000274 -116.383939 0.0 0.0 1.0 180.0
189000.0 1.0 0.0 0.000271 -116.32884 0.0 0.0 1.0 180.0
190000.0 1.0 0.0 0.000269 -116.273357 0.0 0.0 1.0 180.0
191000.0 1.0 0.0 0.000267 -116.217512 0.0 0.0 1.0 180.0
192000.0 1.0 0.0 0.000264 -116.161325 0.0 0.0 1.0 180.0
193000.0 1.0 0.0 0.000262 -116.104814 0.0 0.0 1.0 180.0
194000.0 1.0 0.0 0.00026 -116.047998 0.0 0.0 1.0 180.0
195000.0 1.0 0.0 0.000258 -115.990894 0.0 0.0 1.0 180.0
196000.0 1.0 0.0 0.000256 -115.93352 0.0 0.0 1.0 180.0
197000.0 1.0 0.0 0.000254 -115.875893 0.0 0.0 1.0 180.0
198000.0 1.0 0.0 0.000252 -115.818028 0.0 0.0 1.0 180.0
199000.0 1.0 0.0 0.00025 -115.759941 0.0 0.0 1.0 180.0
200000.0 1.0 0.0 0.000248 -115.701647 0.0 0.0 1.0 180.0
