! File created by SignalIntegrity v1.3.1: Signal and Power Integrity Tools
! https://github.com/TeledyneLeCroy/SignalIntegrity
# MHz S MA R 50.0
0.0 1.0 0.0 0.8 0.0 0.0 0.0 1.0 180.0
1000.0 1.0 0.0 0.807268 -0.659844 0.0 0.0 1.0 180.0
2000.0 1.0 0.0 0.828867 -1.232486 0.0 0.0 1.0 180.0
3000.0 1.0 0.0 0.864199 -1.647702 0.0 0.0 1.0 180.0
4000.0 1.0 0.0 0.912309 -1.862458 0.0 0.0 1.0 180.0
5000.0 1.0 0.0 0.971933 -1.861898 0.0 0.0 1.0 180.0
6000.0 1.0 0.0 1.041549 -1.653381 0.0 0.0 1.0 180.0
7000.0 1.0 0.0 1.119421 -1.257845 0.0 0.0 1.0 180.0
8000.0 1.0 0.0 1.203641 -0.701899 0.0 0.0 1.0 180.0
9000.0 1.0 0.0 1.292172 -0.012236 0.0 0.0 1.0 180.0
10000.0 1.0 0.0 1.382894 0.787571 0.0 0.0 1.0 180.0
11000.0 1.0 0.0 1.473646 1.678433 0.0 0.0 1.0 180.0
12000.0 1.0 0.0 1.562278 2.645999 0.0 0.0 1.0 180.0
13000.0 1.0 0.0 1.646702 3.680315 0.0 0.0 1.0 180.0
14000.0 1.0 0.0 1.724942 4.775258 0.0 0.0 1.0 180.0
15000.0 1.0 0.0 1.795182 5.927944 0.0 0.0 1.0 180.0
16000.0 1.0 0.0 1.85581 7.138204 0.0 0.0 1.0 180.0
17000.0 1.0 0.0 1.905465 8.408148 0.0 0.0 1.0 180.0
18000.0 1.0 0.0 1.943064 9.74184 0.0 0.0 1.0 180.0
19000.0 1.0 0.0 1.967835 11.145049 0.0 0.0 1.0 180.0
20000.0 1.0 0.0 1.979337 12.625059 0.0 0.0 1.0 180.0
21000.0 1.0 0.0 1.977473 14.190511 0.0 0.0 1.0 180.0
22000.0 1.0 0.0 1.962493 15.85124 0.0 0.0 1.0 180.0
23000.0 1.0 0.0 1.934986 17.618066 0.0 0.0 1.0 180.0
24000.0 1.0 0.0 1.895869 19.502481 0.0 0.0 1.0 180.0
25000.0 1.0 0.0 1.846361 21.516167 0.0 0.0 1.0 180.0
26000.0 1.0 0.0 1.787945 23.670248 0.0 0.0 1.0 180.0
27000.0 1.0 0.0 1.722329 25.974176 0.0 0.0 1.0 180.0
28000.0 1.0 0.0 1.651382 28.43412 0.0 0.0 1.0 180.0
29000.0 1.0 0.0 1.577078 31.050765 0.0 0.0 1.0 180.0
30000.0 1.0 0.0 1.501411 33.81646 0.0 0.0 1.0 180.0
31000.0 1.0 0.0 1.426318 36.711819 0.0 0.0 1.0 180.0
32000.0 1.0 0.0 1.353589 39.702072 0.0 0.0 1.0 180.0
33000.0 1.0 0.0 1.284781 42.733808 0.0 0.0 1.0 180.0
34000.0 1.0 0.0 1.221152 45.733024 0.0 0.0 1.0 180.0
35000.0 1.0 0.0 1.163621 48.605532 0.0 0.0 1.0 180.0
36000.0 1.0 0.0 1.112766 51.24059 0.0 0.0 1.0 180.0
37000.0 1.0 0.0 1.068884 53.518028 0.0 0.0 1.0 180.0
38000.0 1.0 0.0 1.032096 55.318383 0.0 0.0 1.0 180.0
39000.0 1.0 0.0 1.002483 56.535005 0.0 0.0 1.0 180.0
40000.0 1.0 0.0 0.98023 57.08693 0.0 0.0 1.0 180.0
41000.0 1.0 0.0 0.965733 56.931383 0.0 0.0 1.0 180.0
42000.0 1.0 0.0 0.95963 56.074516 0.0 0.0 1.0 180.0
43000.0 1.0 0.0 0.96274 54.577979 0.0 0.0 1.0 180.0
44000.0 1.0 0.0 0.975903 52.557973 0.0 0.0 1.0 180.0
45000.0 1.0 0.0 0.999758 50.173912 0.0 0.0 1.0 180.0
46000.0 1.0 0.0 1.03452 47.60711 0.0 0.0 1.0 180.0
47000.0 1.0 0.0 1.079827 45.03478 0.0 0.0 1.0 180.0
48000.0 1.0 0.0 1.134694 42.607383 0.0 0.0 1.0 180.0
49000.0 1.0 0.0 1.197576 40.435677 0.0 0.0 1.0 180.0
50000.0 1.0 0.0 1.266499 38.588799 0.0 0.0 1.0 180.0
51000.0 1.0 0.0 1.339225 37.100419 0.0 0.0 1.0 180.0
52000.0 1.0 0.0 1.413399 35.978446 0.0 0.0 1.0 180.0
53000.0 1.0 0.0 1.486679 35.214733 0.0 0.0 1.0 180.0
54000.0 1.0 0.0 1.55684 34.79293 0.0 0.0 1.0 180.0
55000.0 1.0 0.0 1.621851 34.694012 0.0 0.0 1.0 180.0
56000.0 1.0 0.0 1.679933 34.899783 0.0 0.0 1.0 180.0
57000.0 1.0 0.0 1.729611 35.394861 0.0 0.0 1.0 180.0
58000.0 1.0 0.0 1.769744 36.167618 0.0 0.0 1.0 180.0
59000.0 1.0 0.0 1.799556 37.210464 0.0 0.0 1.0 180.0
60000.0 1.0 0.0 1.818648 38.519689 0.0 0.0 1.0 180.0
61000.0 1.0 0.0 1.827008 40.094983 0.0 0.0 1.0 180.0
62000.0 1.0 0.0 1.825007 41.938689 0.0 0.0 1.0 180.0
63000.0 1.0 0.0 1.813385 44.054733 0.0 0.0 1.0 180.0
64000.0 1.0 0.0 1.793218 46.447203 0.0 0.0 1.0 180.0
65000.0 1.0 0.0 1.765878 49.118469 0.0 0.0 1.0 180.0
66000.0 1.0 0.0 1.73297 52.066828 0.0 0.0 1.0 180.0
67000.0 1.0 0.0 1.696248 55.283687 0.0 0.0 1.0 180.0
68000.0 1.0 0.0 1.65752 58.750474 0.0 0.0 1.0 180.0
69000.0 1.0 0.0 1.618525 62.435697 0.0 0.0 1.0 180.0
70000.0 1.0 0.0 1.580811 66.292748 0.0 0.0 1.0 180.0
71000.0 1.0 0.0 1.545611 70.259207 0.0 0.0 1.0 180.0
72000.0 1.0 0.0 1.513743 74.258269 0.0 0.0 1.0 180.0
73000.0 1.0 0.0 1.485546 78.202465 0.0 0.0 1.0 180.0
74000.0 1.0 0.0 1.46088 81.99918 0.0 0.0 1.0 180.0
75000.0 1.0 0.0 1.439178 85.556859 0.0 0.0 1.0 180.0
76000.0 1.0 0.0 1.41956 88.790507 0.0 0.0 1.0 180.0
77000.0 1.0 0.0 1.400983 91.625423 0.0 0.0 1.0 180.0
78000.0 1.0 0.0 1.382402 93.998726 0.0 0.0 1.0 180.0
79000.0 1.0 0.0 1.362926 95.859006 0.0 0.0 1.0 180.0
80000.0 1.0 0.0 1.341958 97.164896 0.0 0.0 1.0 180.0
81000.0 1.0 0.0 1.319292 97.883646 0.0 0.0 1.0 180.0
82000.0 1.0 0.0 1.295183 97.990695 0.0 0.0 1.0 180.0
83000.0 1.0 0.0 1.270367 97.471135 0.0 0.0 1.0 180.0
84000.0 1.0 0.0 1.246041 96.323637 0.0 0.0 1.0 180.0
85000.0 1.0 0.0 1.223782 94.566867 0.0 0.0 1.0 180.0
86000.0 1.0 0.0 1.205407 92.247457 0.0 0.0 1.0 180.0
87000.0 1.0 0.0 1.192766 89.447197 0.0 0.0 1.0 180.0
88000.0 1.0 0.0 1.187485 86.285857 0.0 0.0 1.0 180.0
89000.0 1.0 0.0 1.190704 82.916136 0.0 0.0 1.0 180.0
90000.0 1.0 0.0 1.202869 79.509556 0.0 0.0 1.0 180.0
91000.0 1.0 0.0 1.223631 76.236382 0.0 0.0 1.0 180.0
92000.0 1.0 0.0 1.251891 73.245874 0.0 0.0 1.0 180.0
93000.0 1.0 0.0 1.285962 70.653101 0.0 0.0 1.0 180.0
94000.0 1.0 0.0 1.323801 68.534968 0.0 0.0 1.0 180.0
95000.0 1.0 0.0 1.363248 66.934084 0.0 0.0 1.0 180.0
96000.0 1.0 0.0 1.402239 65.86687 0.0 0.0 1.0 180.0
97000.0 1.0 0.0 1.43896 65.332478 0.0 0.0 1.0 180.0
98000.0 1.0 0.0 1.47196 65.320332 0.0 0.0 1.0 180.0
99000.0 1.0 0.0 1.500213 65.815439 0.0 0.0 1.0 180.0
100000.0 1.0 0.0 1.523155 66.801409 0.0 0.0 1.0 180.0
101000.0 1.0 0.0 1.540681 68.261533 0.0 0.0 1.0 180.0
102000.0 1.0 0.0 1.553132 70.178274 0.0 0.0 1.0 180.0
103000.0 1.0 0.0 1.561245 72.531568 0.0 0.0 1.0 180.0
104000.0 1.0 0.0 1.566082 75.296299 0.0 0.0 1.0 180.0
105000.0 1.0 0.0 1.568934 78.439391 0.0 0.0 1.0 180.0
106000.0 1.0 0.0 1.571199 81.917104 0.0 0.0 1.0 180.0
107000.0 1.0 0.0 1.574233 85.673273 0.0 0.0 1.0 180.0
108000.0 1.0 0.0 1.579203 89.639227 0.0 0.0 1.0 180.0
109000.0 1.0 0.0 1.586943 93.735889 0.0 0.0 1.0 180.0
110000.0 1.0 0.0 1.597844 97.878037 0.0 0.0 1.0 180.0
111000.0 1.0 0.0 1.611796 101.980023 0.0 0.0 1.0 180.0
112000.0 1.0 0.0 1.628187 105.96174 0.0 0.0 1.0 180.0
113000.0 1.0 0.0 1.64597 109.753539 0.0 0.0 1.0 180.0
114000.0 1.0 0.0 1.663763 113.299162 0.0 0.0 1.0 180.0
115000.0 1.0 0.0 1.679987 116.556448 0.0 0.0 1.0 180.0
116000.0 1.0 0.0 1.693006 119.49612 0.0 0.0 1.0 180.0
117000.0 1.0 0.0 1.701252 122.099333 0.0 0.0 1.0 180.0
118000.0 1.0 0.0 1.703346 124.354656 0.0 0.0 1.0 180.0
119000.0 1.0 0.0 1.698177 126.25506 0.0 0.0 1.0 180.0
120000.0 1.0 0.0 1.684977 127.795237 0.0 0.0 1.0 180.0
121000.0 1.0 0.0 1.663361 128.969437 0.0 0.0 1.0 180.0
122000.0 1.0 0.0 1.633356 129.769881 0.0 0.0 1.0 180.0
123000.0 1.0 0.0 1.595411 130.185817 0.0 0.0 1.0 180.0
124000.0 1.0 0.0 1.550398 130.203306 0.0 0.0 1.0 180.0
125000.0 1.0 0.0 1.499589 129.805939 0.0 0.0 1.0 180.0
126000.0 1.0 0.0 1.444626 128.976814 0.0 0.0 1.0 180.0
127000.0 1.0 0.0 1.387466 127.702173 0.0 0.0 1.0 180.0
128000.0 1.0 0.0 1.330299 125.977154 0.0 0.0 1.0 180.0
129000.0 1.0 0.0 1.27544 123.813721 0.0 0.0 1.0 180.0
130000.0 1.0 0.0 1.225168 121.250129 0.0 0.0 1.0 180.0
131000.0 1.0 0.0 1.181541 118.359855 0.0 0.0 1.0 180.0
132000.0 1.0 0.0 1.146186 115.256517 0.0 0.0 1.0 180.0
133000.0 1.0 0.0 1.120112 112.090869 0.0 0.0 1.0 180.0
134000.0 1.0 0.0 1.103599 109.0379 0.0 0.0 1.0 180.0
135000.0 1.0 0.0 1.096209 106.276282 0.0 0.0 1.0 180.0
136000.0 1.0 0.0 1.09693 103.966406 0.0 0.0 1.0 180.0
137000.0 1.0 0.0 1.104413 102.23388 0.0 0.0 1.0 180.0
138000.0 1.0 0.0 1.117244 101.162135 0.0 0.0 1.0 180.0
139000.0 1.0 0.0 1.134187 100.793255 0.0 0.0 1.0 180.0
140000.0 1.0 0.0 1.154349 101.133481 0.0 0.0 1.0 180.0
141000.0 1.0 0.0 1.177258 102.159743 0.0 0.0 1.0 180.0
142000.0 1.0 0.0 1.202868 103.825101 0.0 0.0 1.0 180.0
143000.0 1.0 0.0 1.231478 106.062663 0.0 0.0 1.0 180.0
144000.0 1.0 0.0 1.26361 108.788752 0.0 0.0 1.0 180.0
145000.0 1.0 0.0 1.299846 111.90648 0.0 0.0 1.0 180.0
146000.0 1.0 0.0 1.340658 115.31063 0.0 0.0 1.0 180.0
147000.0 1.0 0.0 1.386252 118.893964 0.0 0.0 1.0 180.0
148000.0 1.0 0.0 1.43646 122.554223 0.0 0.0 1.0 180.0
149000.0 1.0 0.0 1.490684 126.200525 0.0 0.0 1.0 180.0
150000.0 1.0 0.0 1.547895 129.757939 0.0 0.0 1.0 180.0
151000.0 1.0 0.0 1.606697 133.16957 0.0 0.0 1.0 180.0
152000.0 1.0 0.0 1.665408 136.396236 0.0 0.0 1.0 180.0
153000.0 1.0 0.0 1.722174 139.414349 0.0 0.0 1.0 180.0
154000.0 1.0 0.0 1.775073 142.212851 0.0 0.0 1.0 180.0
155000.0 1.0 0.0 1.82222 144.789906 0.0 0.0 1.0 180.0
156000.0 1.0 0.0 1.861854 147.149858 0.0 0.0 1.0 180.0
157000.0 1.0 0.0 1.892412 149.300695 0.0 0.0 1.0 180.0
158000.0 1.0 0.0 1.912589 151.252066 0.0 0.0 1.0 180.0
159000.0 1.0 0.0 1.921379 153.01381 0.0 0.0 1.0 180.0
160000.0 1.0 0.0 1.918111 154.594898 0.0 0.0 1.0 180.0
161000.0 1.0 0.0 1.902463 156.00267 0.0 0.0 1.0 180.0
162000.0 1.0 0.0 1.874477 157.242289 0.0 0.0 1.0 180.0
163000.0 1.0 0.0 1.834551 158.316317 0.0 0.0 1.0 180.0
164000.0 1.0 0.0 1.783434 159.224378 0.0 0.0 1.0 180.0
165000.0 1.0 0.0 1.722204 159.962884 0.0 0.0 1.0 180.0
166000.0 1.0 0.0 1.652241 160.524825 0.0 0.0 1.0 180.0
167000.0 1.0 0.0 1.575198 160.899692 0.0 0.0 1.0 180.0
168000.0 1.0 0.0 1.492954 161.073634 0.0 0.0 1.0 180.0
169000.0 1.0 0.0 1.407579 161.030083 0.0 0.0 1.0 180.0
170000.0 1.0 0.0 1.321274 160.751149 0.0 0.0 1.0 180.0
171000.0 1.0 0.0 1.23632 160.220261 0.0 0.0 1.0 180.0
172000.0 1.0 0.0 1.155011 159.426568 0.0 0.0 1.0 180.0
173000.0 1.0 0.0 1.07958 158.371517 0.0 0.0 1.0 180.0
174000.0 1.0 0.0 1.01211 157.077412 0.0 0.0 1.0 180.0
175000.0 1.0 0.0 0.954438 155.596518 0.0 0.0 1.0 180.0
176000.0 1.0 0.0 0.908056 154.01744 0.0 0.0 1.0 180.0
177000.0 1.0 0.0 0.874027 152.464066 0.0 0.0 1.0 180.0
178000.0 1.0 0.0 0.852941 151.083251 0.0 0.0 1.0 180.0
179000.0 1.0 0.0 0.844948 150.021665 0.0 0.0 1.0 180.0
180000.0 1.0 0.0 0.849838 149.398361 0.0 0.0 1.0 180.0
181000.0 1.0 0.0 0.867159 149.282985 0.0 0.0 1.0 180.0
182000.0 1.0 0.0 0.89632 149.687194 0.0 0.0 1.0 180.0
183000.0 1.0 0.0 0.93664 150.570478 0.0 0.0 1.0 180.0
184000.0 1.0 0.0 0.987346 151.855851 0.0 0.0 1.0 180.0
185000.0 1.0 0.0 1.047532 153.448747 0.0 0.0 1.0 180.0
186000.0 1.0 0.0 1.116105 155.253624 0.0 0.0 1.0 180.0
187000.0 1.0 0.0 1.191755 157.185409 0.0 0.0 1.0 180.0
188000.0 1.0 0.0 1.27295 159.175361 0.0 0.0 1.0 180.0
189000.0 1.0 0.0 1.35795 161.172472 0.0 0.0 1.0 180.0
190000.0 1.0 0.0 1.444854 163.14202 0.0 0.0 1.0 180.0
191000.0 1.0 0.0 1.53165 165.062762 0.0 0.0 1.0 180.0
192000.0 1.0 0.0 1.616281 166.923814 0.0 0.0 1.0 180.0
193000.0 1.0 0.0 1.696704 168.721809 0.0 0.0 1.0 180.0
194000.0 1.0 0.0 1.770957 170.458575 0.0 0.0 1.0 180.0
195000.0 1.0 0.0 1.837211 172.139373 0.0 0.0 1.0 180.0
196000.0 1.0 0.0 1.893826 173.771643 0.0 0.0 1.0 180.0
197000.0 1.0 0.0 1.939394 175.364143 0.0 0.0 1.0 180.0
198000.0 1.0 0.0 1.972781 176.926386 0.0 0.0 1.0 180.0
199000.0 1.0 0.0 1.993152 178.468296 0.0 0.0 1.0 180.0
200000.0 1.0 0.0 2.0 180.0 0.0 0.0 1.0 180.0
