! File created by SignalIntegrity v1.1.13: Signal and Power Integrity Tools
! https://github.com/TeledyneLeCroy/SignalIntegrity
# MHz S MA R 50.0
0.0 0.000493 0.0 0.0 0.0 0.999507 0.0 0.0 0.0
0.0 0.0 0.000493 0.0 0.0 0.0 0.999507 0.0
0.999507 0.0 0.0 0.0 0.000493 0.0 0.0 0.0
0.0 0.0 0.999507 0.0 0.0 0.0 0.000493 0.0
1000.0 0.019151 81.755049 0.017001 86.80075 0.997904 -2.774989 0.006353 -95.645824
0.017001 86.80075 0.019151 81.755244 0.006353 -95.645824 0.997904 -2.774962
0.997904 -2.774989 0.006353 -95.645824 0.019151 81.742763 0.017001 86.801013
0.006353 -95.645824 0.997904 -2.774962 0.017001 86.801013 0.019151 81.742959
2000.0 0.037372 80.456103 0.033884 83.688267 0.996376 -5.502586 0.012649 -101.177458
0.033884 83.688267 0.037373 80.456283 0.012649 -101.177459 0.996376 -5.502532
0.996376 -5.502586 0.012649 -101.177459 0.037372 80.431311 0.033884 83.688695
0.012649 -101.177458 0.996376 -5.502532 0.033884 83.688695 0.037373 80.431493
3000.0 0.055279 78.139905 0.050566 80.602964 0.99434 -8.213736 0.018862 -106.667979
0.050566 80.602964 0.055281 78.140102 0.018862 -106.66798 0.99434 -8.213654
0.99434 -8.213736 0.018862 -106.66798 0.055281 78.102542 0.050566 80.603582
0.018862 -106.667979 0.99434 -8.213654 0.050566 80.603582 0.055282 78.102741
4000.0 0.072841 75.539939 0.066967 77.546984 0.991775 -10.907842 0.024966 -112.122664
0.066967 77.546984 0.072843 75.540161 0.024966 -112.122665 0.991775 -10.907733
0.991775 -10.907842 0.024966 -112.122665 0.072843 75.489937 0.066966 77.547848
0.024966 -112.122664 0.991775 -10.907733 0.066966 77.547848 0.072846 75.490162
5000.0 0.089999 72.831929 0.08301 74.524945 0.9887 -13.582574 0.030934 -117.539784
0.08301 74.524945 0.090002 72.83218 0.030934 -117.539785 0.9887 -13.582437
0.9887 -13.582574 0.030934 -117.539785 0.090003 72.769204 0.083008 74.526131
0.030934 -117.539784 0.9887 -13.582437 0.083008 74.526131 0.090005 72.76946
6000.0 0.106692 70.084075 0.098627 71.541805 0.985155 -16.235374 0.036743 -122.915881
0.098627 71.541805 0.106695 70.084358 0.036743 -122.915882 0.985155 -16.235207
0.985155 -16.235374 0.036743 -122.915882 0.106698 70.008533 0.098623 71.543412
0.036743 -122.915881 0.985155 -16.235207 0.098623 71.543412 0.106701 70.008822
7000.0 0.122864 67.330399 0.113759 68.602256 0.98119 -18.863875 0.042371 -128.247173
0.113759 68.602256 0.122868 67.330715 0.042371 -128.247175 0.981189 -18.86368
0.98119 -18.863875 0.042371 -128.247175 0.122873 67.24193 0.113752 68.6044
0.042371 -128.247173 0.981189 -18.86368 0.113752 68.6044 0.122877 67.242253
8000.0 0.138468 64.590707 0.128354 65.710474 0.97686 -21.466076 0.0478 -133.530096
0.128354 65.710474 0.138473 64.591058 0.0478 -133.530098 0.976859 -21.46585
0.97686 -21.466076 0.0478 -133.530098 0.138481 64.489187 0.128345 65.713287
0.0478 -133.530096 0.976859 -21.46585 0.128345 65.713287 0.138485 64.489546
9000.0 0.153463 61.877695 0.142374 62.87 0.972225 -24.040407 0.053018 -138.761548
0.142374 62.87 0.153469 61.878082 0.053018 -138.76155 0.972224 -24.04015
0.972225 -24.040407 0.053018 -138.76155 0.153481 61.76299 0.14236 62.873629
0.053018 -138.761548 0.972224 -24.04015 0.14236 62.873629 0.153486 61.763385
10000.0 0.16782 59.199967 0.155786 60.083685 0.967345 -26.585755 0.058012 -143.939003
0.155786 60.083685 0.167825 59.200389 0.058012 -143.939006 0.967344 -26.585467
0.967345 -26.585755 0.058012 -143.939006 0.167842 59.071929 0.155767 60.088291
0.058012 -143.939003 0.967344 -26.585467 0.155767 60.088291 0.167848 59.07236
11000.0 0.181515 56.563481 0.168568 57.353684 0.96228 -29.101459 0.062775 -149.060564
0.168568 57.353684 0.181521 56.56394 0.062775 -149.060567 0.962279 -29.101139
0.96228 -29.101459 0.062775 -149.060567 0.181543 56.421956 0.168544 57.359438
0.062775 -149.060564 0.962279 -29.101139 0.168544 57.359438 0.181549 56.422424
12000.0 0.194536 53.972343 0.180708 54.681469 0.957088 -31.587284 0.067302 -154.124961
0.180708 54.681469 0.194543 53.972838 0.067302 -154.124964 0.957087 -31.58693
0.957088 -31.587284 0.067302 -154.124964 0.19457 53.817166 0.180678 54.688551
0.067302 -154.124961 0.957087 -31.58693 0.180678 54.688551 0.194577 53.817673
13000.0 0.206877 51.429264 0.1922 52.067872 0.951824 -34.043377 0.071592 -159.131526
0.1922 52.067872 0.206884 51.429796 0.071592 -159.13153 0.951822 -34.042989
0.951824 -34.043377 0.071592 -159.13153 0.206918 51.260268 0.192164 52.076468
0.071592 -159.131526 0.951822 -34.042989 0.192164 52.076468 0.206925 51.260813
14000.0 0.218538 48.935873 0.203044 49.513126 0.946536 -36.470224 0.075646 -164.080158
0.203044 49.513126 0.218546 48.936442 0.075646 -164.080161 0.946534 -36.4698
0.946536 -36.470224 0.075646 -164.080161 0.218586 48.752885 0.203001 49.523429
0.075646 -164.080158 0.946534 -36.4698 0.203001 49.523429 0.218594 48.753468
15000.0 0.229526 46.492925 0.213248 47.016932 0.941271 -38.868597 0.079465 -168.971264
0.213248 47.016932 0.229534 46.493532 0.079465 -168.971267 0.941269 -38.868138
0.941271 -38.868597 0.079465 -168.971267 0.229582 46.295773 0.213197 47.029135
0.079465 -168.971264 0.941269 -38.868138 0.213197 47.029135 0.22959 46.296394
16000.0 0.239852 44.100474 0.222822 44.578514 0.936069 -41.239504 0.083054 -173.805705
0.222822 44.578514 0.23986 44.101119 0.083054 -173.805709 0.936067 -41.239007
0.936069 -41.239504 0.083054 -173.805709 0.239915 43.888982 0.222765 44.59281
0.083054 -173.805705 0.936067 -41.239007 0.222765 44.59281 0.239924 43.889642
17000.0 0.24953 41.757994 0.231783 42.196685 0.930967 -43.584134 0.086419 -178.584737
0.231783 42.196685 0.249539 41.758676 0.086419 -178.584741 0.930964 -43.5836
0.930967 -43.584134 0.086419 -178.584741 0.249601 41.531993 0.231717 42.213264
0.086419 -178.584737 0.930964 -43.5836 0.231717 42.213264 0.24961 41.532692
18000.0 0.258579 39.464493 0.240147 39.869905 0.925994 -45.903817 0.089566 176.690049
0.240147 39.869905 0.258588 39.465214 0.089566 176.690045 0.925991 -45.903244
0.925994 -45.903817 0.089566 176.690045 0.258657 39.223818 0.240074 39.888953
0.089566 176.690049 0.925991 -45.903244 0.240074 39.888953 0.258666 39.224556
19000.0 0.267017 37.2186 0.247934 37.59634 0.921178 -48.199977 0.092503 172.016784
0.247934 37.59634 0.267027 37.219359 0.092503 172.01678 0.921175 -48.199364
0.921178 -48.199977 0.092503 172.01678 0.267103 36.963091 0.247855 37.618036
0.092503 172.016784 0.921175 -48.199364 0.247855 37.618036 0.267113 36.963869
20000.0 0.274867 35.018643 0.255167 35.373916 0.916539 -50.474096 0.095238 167.393369
0.255167 35.373916 0.274877 35.019441 0.095238 167.393364 0.916536 -50.473442
0.916539 -50.474096 0.095238 167.393364 0.274959 34.74815 0.255082 35.398427
0.095238 167.393369 0.916536 -50.473442 0.255082 35.398427 0.274969 34.748967
21000.0 0.282149 32.862711 0.261868 33.200363 0.912098 -52.727684 0.097777 162.817522
0.261868 33.200363 0.28216 32.863547 0.097777 162.817518 0.912095 -52.72699
0.912098 -52.727684 0.097777 162.817518 0.282247 32.577094 0.261776 33.227845
0.097777 162.817522 0.912095 -52.72699 0.261776 33.227845 0.282258 32.577951
22000.0 0.288886 30.748707 0.268058 31.07326 0.907867 -54.962255 0.100131 158.286823
0.268058 31.07326 0.288897 30.749582 0.100131 158.286819 0.907864 -54.961518
0.907867 -54.962255 0.100131 158.286819 0.28899 30.447841 0.267962 31.103853
0.100131 158.286823 0.907864 -54.961518 0.267962 31.103853 0.289001 30.448738
23000.0 0.2951 28.674401 0.27376 28.990069 0.903859 -57.179302 0.102306 153.798745
0.27376 28.990069 0.295111 28.675314 0.102306 153.79874 0.903856 -57.178522
0.903859 -57.179302 0.102306 153.79874 0.295208 28.358173 0.273661 29.023898
0.102306 153.798745 0.903856 -57.178522 0.273661 29.023898 0.295219 28.359109
24000.0 0.300812 26.637457 0.278997 26.948167 0.900083 -59.380282 0.10431 149.350683
0.278997 26.948167 0.300824 26.63841 0.10431 149.350678 0.90008 -59.379458
0.900083 -59.380282 0.10431 149.350678 0.300923 26.305772 0.278895 26.985337
0.10431 149.350683 0.90008 -59.379458 0.278895 26.985337 0.300935 26.306748
25000.0 0.306043 24.635473 0.283788 24.944872 0.896546 -61.566609 0.106152 144.939986
0.283788 24.944872 0.306055 24.636465 0.106152 144.939981 0.896542 -61.56574
0.896546 -61.566609 0.106152 144.939981 0.306156 24.288252 0.283685 24.985468
0.106152 144.939986 0.896542 -61.56574 0.283685 24.985468 0.306168 24.289269
26000.0 0.310811 22.666001 0.288155 22.977464 0.893252 -63.739639 0.107838 140.563969
0.288155 22.977464 0.310824 22.667032 0.107838 140.563964 0.893248 -63.738724
0.893252 -63.739639 0.107838 140.563964 0.310925 22.303186 0.288051 23.021548
0.107838 140.563969 0.893248 -63.738724 0.288051 23.021548 0.310937 22.304244
27000.0 0.315137 20.726569 0.292116 21.043203 0.890204 -65.900669 0.109375 136.219937
0.292116 21.043203 0.315149 20.72764 0.109375 136.219931 0.8902 -65.899708
0.890204 -65.900669 0.109375 136.219931 0.31525 20.348122 0.292013 21.090813
0.109375 136.219937 0.8902 -65.899708 0.292013 21.090813 0.315262 20.34922
28000.0 0.319036 18.814695 0.295687 19.13934 0.887406 -68.050935 0.11077 131.90519
0.295687 19.13934 0.319049 18.815806 0.11077 131.905185 0.887401 -68.049927
0.887406 -68.050935 0.11077 131.905185 0.319147 18.420598 0.295588 19.190488
0.11077 131.90519 0.887401 -68.049927 0.295588 19.190488 0.31916 18.421737
29000.0 0.322524 16.927901 0.298887 17.26313 0.884857 -70.19161 0.112028 127.617041
0.298887 17.26313 0.322537 16.92905 0.112028 127.617036 0.884852 -70.190554
0.884857 -70.19161 0.112028 127.617036 0.322632 16.518159 0.298792 17.317802
0.112028 127.617041 0.884852 -70.190554 0.298792 17.317802 0.322645 16.519339
30000.0 0.325617 15.063716 0.301729 15.411838 0.882559 -72.323806 0.113155 123.352815
0.301729 15.411838 0.32563 15.064905 0.113155 123.35281 0.882554 -72.322701
0.882559 -72.323806 0.113155 123.35281 0.325719 14.638359 0.301641 15.469993
0.113155 123.352815 0.882554 -72.322701 0.301641 15.469993 0.325733 14.639579
31000.0 0.328326 13.219689 0.304227 13.582745 0.88051 -74.448577 0.114156 119.109859
0.304227 13.582745 0.32834 13.220918 0.114156 119.109853 0.880505 -74.447423
0.88051 -74.448577 0.114156 119.109853 0.328422 12.778769 0.304146 13.644314
0.114156 119.109859 0.880505 -74.447423 0.304146 13.644314 0.328436 12.78003
32000.0 0.330664 11.393388 0.306392 11.773151 0.878711 -76.566924 0.115034 114.885539
0.306392 11.773151 0.330678 11.394657 0.115034 114.885534 0.878706 -76.56572
0.878711 -76.566924 0.115034 114.885534 0.330751 10.93698 0.306321 11.838037
0.115034 114.885539 0.878706 -76.56572 0.306321 11.838037 0.330766 10.938282
33000.0 0.33264 9.5824 0.308235 9.980377 0.87716 -78.679799 0.115794 110.677246
0.308235 9.980377 0.332655 9.583709 0.115794 110.677241 0.877155 -78.678544
0.87716 -78.679799 0.115794 110.677241 0.332718 9.110604 0.308175 10.048453
0.115794 110.677246 0.877155 -78.678544 0.308175 10.048453 0.332733 9.111948
34000.0 0.334264 7.784335 0.309764 8.201762 0.875857 -80.788111 0.116438 106.482393
0.309764 8.201762 0.334279 7.785684 0.116438 106.482387 0.875852 -80.786804
0.875857 -80.788111 0.116438 106.482387 0.33433 7.297276 0.309717 8.272877
0.116438 106.482393 0.875852 -80.786804 0.309717 8.272877 0.334345 7.29866
35000.0 0.335542 5.996822 0.310988 6.43467 0.874801 -82.892731 0.116971 102.29841
0.310988 6.43467 0.335557 5.998211 0.116971 102.298404 0.874796 -82.891372
0.874801 -82.892731 0.116971 102.298404 0.335596 5.494646 0.310955 6.508641
0.116971 102.29841 0.874796 -82.891372 0.310955 6.508641 0.335611 5.496072
36000.0 0.33648 4.217505 0.31191 4.676477 0.873991 -84.9945 0.117392 98.122745
0.31191 4.676477 0.336496 4.218934 0.117392 98.12274 0.873985 -84.993089
0.873991 -84.9945 0.117392 98.12274 0.33652 3.700383 0.311893 4.753097
0.117392 98.122745 0.873985 -84.993089 0.311893 4.753097 0.336536 3.70185
37000.0 0.337083 2.444045 0.312536 2.92458 0.873426 -87.094236 0.117706 93.952862
0.312536 2.92458 0.337099 2.445515 0.117706 93.952857 0.87342 -87.092771
0.873426 -87.094236 0.117706 93.952857 0.337107 1.912169 0.312535 3.003616
0.117706 93.952862 0.87342 -87.092771 0.312535 3.003616 0.337123 1.913678
38000.0 0.337353 0.674111 0.312869 1.176386 0.873106 -89.192739 0.117911 89.786231
0.312869 1.176386 0.337369 0.675621 0.117911 89.786227 0.8731 -89.191219
0.873106 -89.192739 0.117911 89.786227 0.337361 0.127695 0.312886 1.257582
0.117911 89.786231 0.8731 -89.191219 0.312886 1.257582 0.337377 0.129245
39000.0 0.337291 -1.094622 0.312908 -0.570686 0.87303 -91.290798 0.11801 85.620329
0.312908 -0.570686 0.337308 -1.093072 0.11801 85.620324 0.873024 -91.289224
0.87303 -91.290798 0.11801 85.620324 0.337282 -1.655344 0.312945 -0.487612
0.11801 85.620329 0.873024 -91.289224 0.312945 -0.487612 0.337299 -1.653752
40000.0 0.336899 -2.864476 0.312656 -2.319213 0.873198 -93.389201 0.118001 81.452631
0.312656 -2.319213 0.336917 -2.862886 0.118001 81.452627 0.873192 -93.387571
0.873198 -93.389201 0.118001 81.452627 0.336872 -3.439251 0.312711 -2.23456
0.118001 81.452631 0.873192 -93.387571 0.312711 -2.23456 0.336889 -3.437619
41000.0 0.336175 -4.637777 0.312108 -4.071767 0.873612 -95.488739 0.117886 77.280609
0.312108 -4.071767 0.336193 -4.636147 0.117886 77.280605 0.873605 -95.487053
0.873612 -95.488739 0.117886 77.280605 0.336129 -5.226337 0.312184 -3.985855
0.117886 77.280609 0.873605 -95.487053 0.312184 -3.985855 0.336147 -5.224662
42000.0 0.335116 -6.416858 0.311263 -5.830921 0.87427 -97.590213 0.117662 73.101726
0.311263 -5.830921 0.335134 -6.415188 0.117662 73.101722 0.874263 -97.588471
0.87427 -97.590213 0.117662 73.101722 0.335051 -7.018917 0.31136 -5.744084
0.117662 73.101726 0.874263 -97.588471 0.31136 -5.744084 0.335069 -7.017201
43000.0 0.333717 -8.204063 0.310116 -7.599249 0.875173 -99.694445 0.117328 68.913428
0.310116 -7.599249 0.333736 -8.202352 0.117328 68.913425 0.875166 -99.692646
0.875173 -99.694445 0.117328 68.913425 0.333633 -8.819321 0.310233 -7.511838
0.117328 68.913428 0.875166 -99.692646 0.310233 -7.511838 0.333651 -8.817564
44000.0 0.331974 -10.001749 0.308659 -9.379332 0.876323 -101.802279 0.116882 64.713147
0.308659 -9.379332 0.331993 -9.999998 0.116882 64.713144 0.876316 -101.800422
0.876323 -101.802279 0.116882 64.713144 0.331871 -10.629898 0.308797 -9.291706
0.116882 64.713147 0.876316 -101.800422 0.308797 -9.291706 0.33189 -10.628099
45000.0 0.32988 -11.812292 0.306887 -11.173758 0.877719 -103.914592 0.116322 60.498289
0.306887 -11.173758 0.329899 -11.8105 0.116322 60.498287 0.877712 -103.912677
0.877719 -103.914592 0.116322 60.498287 0.329757 -12.453011 0.307044 -11.086286
0.116322 60.498289 0.877712 -103.912677 0.307044 -11.086286 0.329776 -12.451172
46000.0 0.327425 -13.638086 0.304788 -12.985121 0.879364 -106.032298 0.115644 56.266237
0.304788 -12.985121 0.327444 -13.636254 0.115644 56.266235 0.879356 -106.030324
0.879364 -106.032298 0.115644 56.266235 0.327284 -14.291049 0.304965 -12.898178
0.115644 56.266237 0.879356 -106.030324 0.304965 -12.898178 0.327304 -14.289169
47000.0 0.3246 -15.481544 0.302353 -14.816025 0.881256 -108.156356 0.114845 52.014345
0.302353 -14.816025 0.32462 -15.479673 0.114845 52.014343 0.881249 -108.154322
0.881256 -108.156356 0.114845 52.014343 0.324442 -16.146422 0.302548 -14.729987
0.114845 52.014345 0.881249 -108.154322 0.302548 -14.729987 0.324462 -16.144501
48000.0 0.321395 -17.345101 0.299569 -16.669079 0.883397 -110.287773 0.113921 47.739938
0.299569 -16.669079 0.321415 -17.34319 0.113921 47.739937 0.88339 -110.28568
0.883397 -110.287773 0.113921 47.739937 0.321219 -18.02156 0.299782 -16.584322
0.113921 47.739938 0.88339 -110.28568 0.299782 -16.584322 0.32124 -18.019598
49000.0 0.317795 -19.231207 0.296423 -18.546894 0.885787 -112.427611 0.112867 43.440312
0.296423 -18.546894 0.317816 -19.229256 0.112867 43.440312 0.88578 -112.425457
0.885787 -112.427611 0.112867 43.440312 0.317604 -19.918914 0.296652 -18.463792
0.112867 43.440312 0.88578 -112.425457 0.296652 -18.463792 0.317625 -19.916912
50000.0 0.313788 -21.142323 0.292899 -20.452082 0.888425 -114.57699 0.111677 39.112735
0.292899 -20.452082 0.313809 -21.140332 0.111677 39.112735 0.888417 -114.574775
0.888425 -114.57699 0.111677 39.112735 0.313582 -21.840951 0.293143 -20.371
0.111677 39.112735 0.888417 -114.574775 0.293143 -20.371 0.313603 -21.838908
51000.0 0.309357 -23.080918 0.288981 -22.387242 0.891309 -116.737089 0.110347 34.754448
0.288981 -22.387242 0.309378 -23.078888 0.110347 34.754449 0.891302 -116.734813
0.891309 -116.737089 0.110347 34.754449 0.309139 -23.790142 0.289238 -22.308536
0.110347 34.754448 0.891302 -116.734813 0.289238 -22.308536 0.30916 -23.788059
52000.0 0.304485 -25.049454 0.284652 -24.354953 0.894437 -118.90915 0.108868 30.362673
0.284652 -24.354953 0.304507 -25.047385 0.108868 30.362675 0.89443 -118.906813
0.894437 -118.90915 0.108868 30.362675 0.304256 -25.76896 0.284919 -24.278968
0.108868 30.362673 0.89443 -118.906813 0.284919 -24.278968 0.304278 -25.766838
53000.0 0.299155 -27.050376 0.279891 -26.35776 0.897805 -121.094475 0.107236 25.934619
0.279891 -26.35776 0.299177 -27.048268 0.107236 25.934622 0.897798 -121.092077
0.897805 -121.094475 0.107236 25.934622 0.298917 -27.77986 0.280166 -26.284826
0.107236 25.934619 0.897798 -121.092077 0.280166 -26.284826 0.298939 -27.777698
54000.0 0.293347 -29.08609 0.274679 -28.398156 0.901409 -123.294425 0.105442 21.467491
0.274679 -28.398156 0.29337 -29.083944 0.105442 21.467495 0.901401 -123.291966
0.901409 -123.294425 0.105442 21.467495 0.293103 -29.825262 0.27496 -28.328583
0.105442 21.467491 0.901401 -123.291966 0.27496 -28.328583 0.293125 -29.823061
55000.0 0.287041 -31.158946 0.268994 -30.478556 0.905239 -125.510413 0.10348 16.958502
0.268994 -30.478556 0.287064 -31.156762 0.10348 16.958508 0.905232 -125.507892
0.905239 -125.510413 0.10348 16.958508 0.286793 -31.90753 0.26928 -30.412637
0.10348 16.958502 0.905232 -125.507892 0.26928 -30.412637 0.286816 -31.90529
56000.0 0.280217 -33.271203 0.262816 -32.601271 0.909288 -127.743895 0.10134 12.404891
0.262816 -32.601271 0.28024 -33.268981 0.10134 12.404897 0.909281 -127.741312
0.909288 -127.743895 0.10134 12.404897 0.279966 -34.028941 0.263102 -32.539275
0.10134 12.404891 0.909281 -127.741312 0.263102 -32.539275 0.27999 -34.026663
57000.0 0.272853 -35.424996 0.256121 -34.768472 0.913542 -129.996356 0.099016 7.803935
0.256121 -34.768472 0.272876 -35.422737 0.099016 7.803944 0.913535 -129.993713
0.913542 -129.996356 0.099016 7.803944 0.272602 -36.19165 0.256406 -34.710647
0.099016 7.803935 0.913535 -129.993713 0.256406 -34.710647 0.272626 -36.189335
58000.0 0.264927 -37.622293 0.248888 -36.982147 0.917986 -132.269296 0.096498 3.152979
0.248888 -36.982147 0.264951 -37.619998 0.096498 3.152989 0.91798 -132.266592
0.917986 -132.269296 0.096498 3.152989 0.26468 -38.397645 0.249168 -36.928713
0.096498 3.152979 0.91798 -132.266592 0.249168 -36.928713 0.264704 -38.395294
59000.0 0.256419 -39.86484 0.241094 -39.244047 0.922601 -134.564207 0.093779 -1.550552
0.241094 -39.244047 0.256443 -39.862509 0.093779 -1.55054 0.922595 -134.561443
0.922601 -134.564207 0.093779 -1.55054 0.256177 -40.648695 0.241367 -39.1952
0.093779 -1.550552 0.922595 -134.561443 0.241367 -39.1952 0.256202 -40.646308
60000.0 0.247308 -42.154097 0.232719 -41.555623 0.927365 -136.882544 0.09085 -6.309122
0.232719 -41.555623 0.247333 -42.151731 0.09085 -6.309108 0.927358 -136.87972
0.927365 -136.882544 0.09085 -6.309108 0.247075 -42.94628 0.232983 -41.511534
0.09085 -6.309122 0.927358 -136.87972 0.232983 -41.511534 0.2471 -42.943859
61000.0 0.237577 -44.491159 0.223744 -43.917952 0.932249 -139.225694 0.087705 -11.125065
0.223744 -43.917952 0.237602 -44.48876 0.087705 -11.125049 0.932243 -139.222811
0.932249 -139.225694 0.087705 -11.125049 0.237354 -45.291521 0.223995 -43.878765
0.087705 -11.125065 0.932243 -139.222811 0.223995 -43.878765 0.237379 -45.289066
62000.0 0.227208 -46.876663 0.214151 -46.331639 0.937222 -141.594936 0.084336 -16.000568
0.214151 -46.331639 0.227233 -46.874232 0.084336 -16.000549 0.937216 -141.591995
0.937222 -141.594936 0.084336 -16.000549 0.226997 -47.685072 0.214387 -46.297478
