! File created by SignalIntegrity v1.1.13: Signal and Power Integrity Tools
! https://github.com/TeledyneLeCroy/SignalIntegrity
# MHz S MA R 50.0
0.0 0.00023 0.0 0.99977 0.0 0.99977 0.0 0.00023 0.0
20.0 7.3e-05 -106.502093 0.998469 -8.823451 0.998469 -8.823451 7.3e-05 -104.807298
40.0 0.000712 -158.522721 0.997481 -17.629034 0.997481 -17.629034 0.000706 -158.075635
60.0 0.001415 -169.035515 0.996544 -26.431656 0.996544 -26.431656 0.001401 -168.558336
80.0 0.002109 -178.276939 0.995636 -35.232738 0.995636 -35.232738 0.002083 -177.729421
100.0 0.002761 172.767509 0.994746 -44.032836 0.994746 -44.032836 0.002722 173.394779
120.0 0.003348 163.913088 0.993869 -52.832242 0.993869 -52.832242 0.003295 164.623473
140.0 0.003853 155.104926 0.993003 -61.631134 0.993003 -61.631134 0.003784 155.899858
160.0 0.004258 146.322959 0.992145 -70.42963 0.992145 -70.42963 0.004174 147.203088
180.0 0.004553 137.559409 0.991294 -79.227815 0.991294 -79.227815 0.004455 138.525024
200.0 0.004729 128.811895 0.990449 -88.025747 0.990449 -88.025747 0.004618 129.863104
220.0 0.004781 120.081097 0.989609 -96.823472 0.989609 -96.823472 0.00466 121.217909
240.0 0.004707 111.37016 0.988774 -105.621018 0.988774 -105.621018 0.004579 112.592532
260.0 0.004508 102.685107 0.987941 -114.418409 0.987941 -114.418409 0.004377 103.992966
280.0 0.004189 94.036371 0.987112 -123.215656 0.987112 -123.215656 0.00406 95.429628
300.0 0.003758 85.442407 0.986286 -132.012767 0.986286 -132.012767 0.003635 86.920966
320.0 0.003225 76.938393 0.985461 -140.809746 0.985461 -140.809746 0.003114 78.502154
340.0 0.002604 68.600181 0.98464 -149.606594 0.98464 -149.606594 0.002509 70.249047
360.0 0.001909 60.626736 0.98382 -158.403312 0.98382 -158.403312 0.001836 62.360608
380.0 0.001159 53.760396 0.983002 -167.199902 0.983002 -167.199902 0.001113 55.57918
400.0 0.000378 55.024639 0.982186 -175.996365 0.982186 -175.996365 0.000363 56.928244
420.0 0.000452 -160.838004 0.981373 175.207292 0.981373 175.207292 0.000432 -158.849666
440.0 0.001251 -161.664669 0.980562 166.411061 0.980562 166.411061 0.001194 -159.591681
460.0 0.002034 -168.68887 0.979753 157.614932 0.979753 157.614932 0.001938 -166.531311
480.0 0.002776 -176.68336 0.978946 148.818892 0.978946 148.818892 0.00264 -174.441306
500.0 0.003458 174.996197 0.978142 140.022926 0.978142 140.022926 0.003283 177.322674
520.0 0.004064 166.530976 0.97734 131.227019 0.97734 131.227019 0.00385 168.941806
540.0 0.004577 157.992573 0.976541 122.431156 0.976541 122.431156 0.004329 160.487693
560.0 0.004985 149.415894 0.975743 113.635325 0.975743 113.635325 0.004706 151.995241
580.0 0.005278 140.82105 0.974948 104.839515 0.974948 104.839515 0.004973 143.484567
600.0 0.005447 132.22172 0.974154 96.043717 0.974154 96.043717 0.005123 134.969351
620.0 0.005487 123.629087 0.973362 87.247927 0.973362 87.247927 0.005151 126.460779
640.0 0.005398 115.054269 0.97257 78.452145 0.97257 78.452145 0.005058 117.969971
660.0 0.00518 106.510524 0.97178 69.656375 0.97178 69.656375 0.004845 109.510189
680.0 0.004838 98.016221 0.970991 60.860622 0.970991 60.860622 0.004517 101.099806
700.0 0.00438 89.600118 0.970202 52.064895 0.970202 52.064895 0.004082 92.767578
720.0 0.003817 81.312584 0.969414 43.269205 0.969414 43.269205 0.00355 84.563881
740.0 0.003161 73.253616 0.968626 34.473561 0.968626 34.473561 0.002935 76.588711
760.0 0.002428 65.657678 0.967839 25.677972 0.967839 25.677972 0.00225 69.076535
780.0 0.001637 59.23948 0.967053 16.882446 0.967053 16.882446 0.001514 62.742064
800.0 0.000812 57.686992 0.966268 8.086988 0.966268 8.086988 0.00075 61.273272
820.0 0.000209 144.688308 0.965484 -0.708401 0.965484 -0.708401 0.000193 148.358252
840.0 0.000952 -165.649273 0.964702 -9.503723 0.964702 -9.503723 0.000875 -161.895692
860.0 0.001783 -168.704031 0.96392 -18.298985 0.96392 -18.298985 0.001638 -164.86684
880.0 0.002583 -175.390172 0.963141 -27.094195 0.963141 -27.094195 0.002367 -171.469398
900.0 0.003325 176.9455 0.962363 -35.889364 0.962363 -35.889364 0.003042 -179.050166
920.0 0.003993 168.884568 0.961587 -44.684505 0.961587 -44.684505 0.003647 172.972439
940.0 0.004569 160.629113 0.960812 -53.47963 0.960812 -53.47963 0.004165 164.800501
960.0 0.005039 152.269071 0.960039 -62.274752 0.960039 -62.274752 0.004585 156.523954
980.0 0.005392 143.851991 0.959267 -71.069881 0.959267 -71.069881 0.004898 148.190353
1000.0 0.00562 135.407097 0.958497 -79.865023 0.958497 -79.865023 0.005095 139.828919
1020.0 0.005715 126.955444 0.957728 -88.660183 0.957728 -88.660183 0.005172 131.460712
1040.0 0.005676 118.515215 0.95696 -97.455361 0.95696 -97.455361 0.005127 123.103913
1060.0 0.005503 110.105442 0.956192 -106.250553 0.956192 -106.250553 0.004962 114.777557
1080.0 0.005201 101.749909 0.955425 -115.045754 0.955425 -115.045754 0.004681 106.505428
1100.0 0.004775 93.483057 0.954658 -123.840952 0.954658 -123.840952 0.00429 98.32197
1120.0 0.004237 85.361397 0.953891 -132.636137 0.953891 -132.636137 0.003799 90.283693
1140.0 0.003598 77.48965 0.953125 -141.431298 0.953125 -141.431298 0.00322 82.495318
1160.0 0.002874 70.092076 0.952359 -150.226424 0.952359 -150.226424 0.002568 75.18111
1180.0 0.002084 63.758564 0.951593 -159.021505 0.951593 -159.021505 0.001859 68.930956
1200.0 0.001253 60.697796 0.950828 -167.816534 0.950828 -167.816534 0.001115 65.953539
1220.0 0.000452 79.576173 0.950064 -176.611507 0.950064 -176.611507 0.000402 84.915262
1240.0 0.000623 -178.870456 0.949301 174.593574 0.949301 174.593574 0.000552 -173.448026
1260.0 0.001453 -170.701652 0.948539 165.798707 0.948539 165.798707 0.001287 -165.195884
1280.0 0.002286 -174.943651 0.947778 157.003885 0.947778 157.003885 0.00202 -169.354549
1300.0 0.003073 178.410267 0.947018 148.209098 0.947018 148.209098 0.002711 -175.917298
1320.0 0.003792 170.911411 0.94626 139.414334 0.94626 139.414334 0.003339 176.667178
1340.0 0.004424 163.020444 0.945504 130.61958 0.945504 130.61958 0.003889 168.859542
1360.0 0.004954 154.923532 0.944749 121.824825 0.944749 121.824825 0.004347 160.845961
1380.0 0.005369 146.711995 0.943995 113.030058 0.943995 113.030058 0.004702 152.717756
1400.0 0.005659 138.437948 0.943243 104.23527 0.943243 104.23527 0.004947 144.527044
1420.0 0.005816 130.135812 0.942491 95.440457 0.942491 95.440457 0.005076 136.308245
1440.0 0.005838 121.832369 0.941741 86.645617 0.941741 86.645617 0.005085 128.088142
1460.0 0.005722 113.552713 0.940991 77.850752 0.940991 77.850752 0.004976 119.89183
1480.0 0.005472 105.325244 0.940241 69.055868 0.940241 69.055868 0.00475 111.74771
1500.0 0.005094 97.187942 0.939491 60.260974 0.939491 60.260974 0.004413 103.693761
1520.0 0.004595 89.199148 0.938742 51.46608 0.938742 51.46608 0.003974 95.788328
1540.0 0.003989 81.460283 0.937993 42.671198 0.937993 42.671198 0.003444 88.132829
1560.0 0.003291 74.172366 0.937244 33.87634 0.937244 33.87634 0.002836 80.928286
1580.0 0.002517 67.807155 0.936495 25.081516 0.936495 25.081516 0.002165 74.646458
1600.0 0.001692 63.798864 0.935747 16.286735 0.935747 16.286735 0.001453 70.721557
1620.0 0.000862 69.218767 0.934999 7.492002 0.934999 7.492002 0.000739 76.224861
1640.0 0.000422 141.871366 0.934252 -1.302681 0.934252 -1.302681 0.000361 148.960869
1660.0 0.001108 -176.566411 0.933506 -10.097316 0.933506 -10.097316 0.000947 -169.393488
1680.0 0.00195 -175.77685 0.932761 -18.891908 0.932761 -18.891908 0.001662 -168.520497
1700.0 0.002769 179.245215 0.932017 -27.686466 0.932017 -27.686466 0.002356 -173.414989
1720.0 0.00353 172.556939 0.931275 -36.481 0.931275 -36.481 0.002999 179.980189
1740.0 0.004213 165.148887 0.930534 -45.275522 0.930534 -45.275522 0.003572 172.655605
1760.0 0.004799 157.379242 0.929794 -54.070045 0.929794 -54.070045 0.004062 164.96944
1780.0 0.005274 149.410558 0.929056 -62.864579 0.929056 -62.864579 0.004456 157.084251
1800.0 0.005627 141.329561 0.928319 -71.659134 0.928319 -71.659134 0.004746 149.086762
1820.0 0.005848 133.189549 0.927583 -80.453716 0.927583 -80.453716 0.004924 141.030273
1840.0 0.005933 125.028567 0.926847 -89.248329 0.926847 -89.248329 0.004986 132.952829
1860.0 0.005879 116.878895 0.926112 -98.042972 0.926112 -98.042972 0.004932 124.886712
1880.0 0.005688 108.773636 0.925378 -106.837641 0.925378 -106.837641 0.004763 116.865024
1900.0 0.005364 100.753466 0.924644 -115.632327 0.924644 -115.632327 0.004483 108.928442
1920.0 0.004914 92.876691 0.92391 -124.427023 0.92391 -124.427023 0.0041 101.135272
1940.0 0.004349 85.23851 0.923176 -133.221715 0.923176 -133.221715 0.003622 93.580714
1960.0 0.003685 78.015074 0.922442 -142.016393 0.922442 -142.016393 0.003063 86.440919
1980.0 0.002937 71.583268 0.921708 -150.811045 0.921708 -150.811045 0.002437 80.092773
2000.0 0.002128 66.929654 0.920975 -159.605661 0.920975 -159.605661 0.001763 75.522839
2020.0 0.001294 67.643813 0.920242 -168.400235 0.920242 -168.400235 0.00107 76.320697
2040.0 0.000578 96.47842 0.91951 -177.194763 0.91951 -177.194763 0.000477 105.239023
2060.0 0.0008 169.140603 0.918778 174.010755 0.918778 174.010755 0.000659 177.984947
2080.0 0.001602 -178.745921 0.918047 165.216316 0.918047 165.216316 0.001318 -169.817815
2100.0 0.002438 179.180812 0.917318 156.421912 0.917318 156.421912 0.002001 -171.807299
2120.0 0.003233 173.709751 0.91659 147.627534 0.91659 147.627534 0.00265 -177.194555
2140.0 0.00396 166.961672 0.915863 138.833171 0.915863 138.833171 0.003239 176.141194
2160.0 0.004597 159.610007 0.915137 130.038811 0.915137 130.038811 0.003755 168.873381
2180.0 0.00513 151.935411 0.914412 121.244442 0.914412 121.244442 0.004182 161.28266
2200.0 0.005544 144.077912 0.913689 112.450054 0.913689 112.450054 0.004512 153.509059
2220.0 0.005829 136.11817 0.912967 103.65564 0.912967 103.65564 0.004735 145.633239
2240.0 0.005979 128.109635 0.912246 94.861195 0.912246 94.861195 0.004848 137.708653
2260.0 0.00599 120.09381 0.911525 86.066718 0.911525 86.066718 0.004848 129.7768
2280.0 0.00586 112.109341 0.910804 77.272211 0.910804 77.272211 0.004735 121.87633
2300.0 0.005594 104.199658 0.910084 68.47768 0.910084 68.47768 0.004512 114.050672
2320.0 0.005198 96.42253 0.909364 59.683133 0.909364 59.683133 0.004185 106.357594
2340.0 0.004681 88.866433 0.908644 50.888582 0.908644 50.888582 0.003763 98.885576
2360.0 0.004057 81.684934 0.907925 42.094038 0.907925 42.094038 0.003255 91.788182
2380.0 0.003341 75.181875 0.907205 33.299513 0.907205 33.299513 0.002676 85.369256
2400.0 0.002555 70.066441 0.906486 24.505016 0.906486 24.505016 0.002043 80.337983
2420.0 0.001729 68.450164 0.905766 15.710556 0.905766 15.710556 0.00138 78.805895
2440.0 0.000939 79.641971 0.905048 6.916138 0.905048 6.916138 0.000748 90.081922
2460.0 0.000636 139.590386 0.904329 -1.878236 0.904329 -1.878236 0.000506 150.114585
2480.0 0.001268 174.456293 0.903612 -10.672567 0.903612 -10.672567 0.001007 -174.93523
2500.0 0.002094 177.755692 0.902896 -19.466862 0.902896 -19.466862 0.001659 -171.551524
2520.0 0.002912 174.192782 0.902181 -28.261128 0.902181 -28.261128 0.002303 -175.030095
2540.0 0.003675 168.375885 0.901467 -37.055376 0.901467 -37.055376 0.002902 179.237377
2560.0 0.00436 161.572344 0.900754 -45.849616 0.900754 -45.849616 0.003436 172.518237
2580.0 0.004946 154.262506 0.900043 -54.64386 0.900043 -54.64386 0.003892 165.292831
2600.0 0.00542 146.669842 0.899333 -63.43812 0.899333 -63.43812 0.004257 157.784632
2620.0 0.005768 138.91538 0.898623 -72.232404 0.898623 -72.232404 0.004522 150.114667
2640.0 0.005983 131.074201 0.897915 -81.026718 0.897915 -81.026718 0.004682 142.358018
2660.0 0.006058 123.200179 0.897207 -89.821065 0.897207 -89.821065 0.004733 134.568559
2680.0 0.005993 115.339105 0.8965 -98.615444 0.8965 -98.615444 0.004674 126.792082
2700.0 0.005789 107.537906 0.895793 -107.40985 0.895793 -107.40985 0.004507 119.075513
2720.0 0.00545 99.854159 0.895086 -116.204278 0.895086 -116.204278 0.004236 111.476431
2740.0 0.004986 92.37028 0.89438 -124.998716 0.89438 -124.998716 0.003868 104.077253
2760.0 0.004407 85.220675 0.893673 -133.793154 0.893673 -133.793154 0.003413 97.012382
2780.0 0.00373 78.653516 0.892967 -142.587581 0.892967 -142.587581 0.002883 90.529994
2800.0 0.002972 73.196924 0.892261 -151.381986 0.892261 -151.381986 0.002294 85.158207
2820.0 0.002162 70.211086 0.891554 -160.176359 0.891554 -160.176359 0.001666 82.257212
2840.0 0.001351 74.35215 0.890849 -168.970694 0.890849 -168.970694 0.001039 86.483155
2860.0 0.000743 106.35357 0.890144 -177.764988 0.890144 -177.764988 0.00057 118.56949
2880.0 0.00099 160.739222 0.889439 173.44076 0.889439 173.44076 0.000759 173.040095
2900.0 0.001753 174.17003 0.888735 164.646545 0.888735 164.646545 0.001341 -173.444106
2920.0 0.002576 173.728978 0.888033 155.852362 0.888033 155.852362 0.001967 -173.80013
2940.0 0.003368 169.269542 0.887331 147.058201 0.887331 147.058201 0.002568 -178.174499
2960.0 0.004094 163.203891 0.886631 138.264052 0.886631 138.264052 0.003115 175.844956
2980.0 0.00473 156.356979 0.885932 129.469903 0.885932 129.469903 0.003593 169.083189
3000.0 0.005259 149.08503 0.885234 120.675744 0.885234 120.675744 0.003988 161.896423
3020.0 0.005669 141.569497 0.884537 111.881564 0.884537 111.881564 0.004291 154.466114
3040.0 0.005948 133.916338 0.883841 103.087356 0.883841 103.087356 0.004494 146.898219
3060.0 0.006089 126.196444 0.883146 94.293116 0.883146 94.293116 0.004593 139.263629
3080.0 0.00609 118.465214 0.882451 85.498844 0.882451 85.498844 0.004585 131.617745
3100.0 0.005949 110.774447 0.881757 76.70454 0.881757 76.70454 0.004472 124.012363
3120.0 0.005671 103.182455 0.881063 67.910213 0.881063 67.910213 0.004255 116.505799
3140.0 0.005263 95.766841 0.880369 59.115868 0.880369 59.115868 0.003942 109.175654
3160.0 0.004734 88.646392 0.879675 50.321518 0.879675 50.321518 0.00354 102.140717
3180.0 0.004099 82.026869 0.878981 41.527172 0.878981 41.527172 0.00306 95.606747
3200.0 0.003376 76.313334 0.878287 32.732842 0.878287 32.732842 0.002515 89.978809
3220.0 0.002589 72.438911 0.877594 23.938538 0.877594 23.938538 0.001926 86.190026
3240.0 0.001777 73.074536 0.876901 15.144267 0.876901 15.144267 0.001319 86.911334
3260.0 0.001049 88.225265 0.876208 6.350035 0.876208 6.350035 0.000777 102.147789
3280.0 0.000851 137.564687 0.875515 -2.444157 0.875515 -2.444157 0.000629 151.572982
3300.0 0.001438 167.057929 0.874824 -11.238311 0.874824 -11.238311 0.001062 -178.84796
3320.0 0.002238 171.879172 0.874133 -20.032431 0.874133 -20.032431 0.00165 -173.940857
3340.0 0.003046 169.463295 0.873444 -28.826526 0.873444 -28.826526 0.002242 -176.270828
3360.0 0.003804 164.417305 0.872755 -37.620604 0.872755 -37.620604 0.002795 178.769132
3380.0 0.004485 158.171145 0.872068 -46.414678 0.872068 -46.414678 0.00329 172.608969
3400.0 0.005067 151.295591 0.871382 -55.208757 0.871382 -55.208757 0.00371 165.819457
3420.0 0.005535 144.063768 0.870697 -64.002853 0.870697 -64.002853 0.004046 158.673723
3440.0 0.005877 136.626271 0.870013 -72.796973 0.870013 -72.796973 0.004288 151.322361
3460.0 0.006084 129.077728 0.869329 -81.591123 0.869329 -81.591123 0.004432 143.860001
3480.0 0.006151 121.486705 0.868647 -90.385305 0.868647 -90.385305 0.004472 136.355208
3500.0 0.006076 113.911911 0.867964 -99.17952 0.867964 -99.17952 0.00441 128.866692
3520.0 0.005861 106.413808 0.867283 -107.973762 0.867283 -107.973762 0.004247 121.454913
3540.0 0.005511 99.066761 0.866601 -116.768026 0.866601 -116.768026 0.003987 114.194241
3560.0 0.005036 91.977274 0.865919 -125.562301 0.865919 -125.562301 0.003637 107.191176
3580.0 0.004448 85.318757 0.865238 -134.356577 0.865238 -134.356577 0.003207 100.61913
3600.0 0.003764 79.409965 0.864556 -143.150844 0.864556 -143.150844 0.002709 94.796858
3620.0 0.003005 74.921918 0.863875 -151.94509 0.863875 -151.94509 0.002159 90.395381
3640.0 0.002205 73.535134 0.863193 -160.739308 0.863193 -160.739308 0.001581 89.095217
3660.0 0.001432 80.506353 0.862512 -169.533492 0.862512 -169.533492 0.001025 96.153106
3680.0 0.000928 112.015685 0.861832 -178.327637 0.861832 -178.327637 0.000663 127.749159
3700.0 0.001188 154.480248 0.861152 172.878256 0.861152 172.878256 0.000848 170.300493
3720.0 0.001911 167.947077 0.860473 164.084184 0.860473 164.084184 0.001361 -176.145856
3740.0 0.002716 168.690557 0.859795 155.29014 0.859795 155.29014 0.001931 -175.315503
3760.0 0.003498 165.089912 0.859118 146.496116 0.859118 146.496116 0.002482 -178.829223
3780.0 0.004217 159.640495 0.858443 137.702103 0.858443 137.702103 0.002987 175.808338
3800.0 0.004847 153.264478 0.857768 128.908088 0.857768 128.908088 0.003428 169.51935
3820.0 0.005371 146.375814 0.857094 120.114062 0.857094 120.114062 0.003792 162.717768
3840.0 0.005773 139.190331 0.856421 111.320016 0.856421 111.320016 0.004069 155.61942
3860.0 0.006045 131.836097 0.85575 102.525942 0.85575 102.525942 0.004253 148.352374
3880.0 0.006177 124.39986 0.855078 93.731837 0.855078 93.731837 0.004339 141.003379
3900.0 0.006168 116.95009 0.854408 84.9377 0.854408 84.9377 0.004325 133.640903
3920.0 0.006018 109.551285 0.853737 76.143532 0.853737 76.143532 0.004213 126.329448
3940.0 0.00573 102.276407 0.853067 67.349341 0.853067 67.349341 0.004004 119.141973
3960.0 0.005312 95.222732 0.852398 58.555133 0.852398 58.555133 0.003706 112.175756
3980.0 0.004775 88.539048 0.851728 49.760917 0.851728 49.760917 0.003325 105.579585
4000.0 0.004134 82.482099 0.851058 40.966706 0.851058 40.966706 0.002874 99.610205
4020.0 0.003409 77.55278 0.850388 32.172509 0.850388 32.172509 0.002366 94.76851
4040.0 0.002628 74.880888 0.849719 23.378335 0.849719 23.378335 0.001821 92.184297
4060.0 0.001842 77.520769 0.849049 14.584192 0.849049 14.584192 0.001274 94.911914
4080.0 0.001186 94.868911 0.848381 5.790084 0.848381 5.790084 0.000819 112.347848
4100.0 0.001066 135.710683 0.847712 -3.003986 0.847712 -3.003986 0.000735 153.277469
4120.0 0.001617 160.896191 0.847045 -11.798022 0.847045 -11.798022 0.001112 178.550882
4140.0 0.002388 166.553414 0.846378 -20.592026 0.846378 -20.592026 0.00164 -175.703932
4160.0 0.00318 165.047923 0.845712 -29.386006 0.845712 -29.386006 0.002181 -177.121403
4180.0 0.003929 160.677523 0.845048 -38.179973 0.845048 -38.179973 0.00269 178.596275
4200.0 0.004602 154.942842 0.844384 -46.973935 0.844384 -46.973935 0.003145 172.94973
4220.0 0.005177 148.476458 0.843721 -55.767904 0.843721 -55.767904 0.003532 166.57154
4240.0 0.005638 141.590476 0.84306 -64.561888 0.84306 -64.561888 0.00384 159.773811
4260.0 0.005972 134.460457 0.842399 -73.355897 0.842399 -73.355897 0.00406 152.732104
4280.0 0.00617 127.198366 0.841739 -82.149934 0.841739 -82.149934 0.004188 145.558385
4300.0 0.006228 119.886316 0.841079 -90.944003 0.841079 -90.944003 0.00422 138.334765
4320.0 0.006143 112.595308 0.84042 -99.738104 0.84042 -99.738104 0.004155 131.132248
4340.0 0.005919 105.398972 0.839762 -108.532231 0.839762 -108.532231 0.003997 124.024462
4360.0 0.005561 98.388208 0.839103 -117.326379 0.839103 -117.326379 0.003748 117.102308
4380.0 0.005078 91.693239 0.838445 -126.120538 0.838445 -126.120538 0.003417 110.49601
4400.0 0.004484 85.525482 0.837787 -134.9147 0.837787 -134.9147 0.003012 104.416985
4420.0 0.003798 80.270648 0.837128 -143.708853 0.837128 -143.708853 0.002547 99.250944
4440.0 0.003043 76.72741 0.83647 -152.502988 0.83647 -152.502988 0.002037 95.796561
4460.0 0.00226 76.81844 0.835812 -161.297097 0.835812 -161.297097 0.001511 95.976506
4480.0 0.001535 85.908031 0.835155 -170.091174 0.835155 -170.091174 0.001024 105.155076
4500.0 0.001124 115.309344 0.834497 -178.885215 0.834497 -178.885215 0.000749 134.645429
4520.0 0.001391 149.570068 0.833841 172.320778 0.833841 172.320778 0.000925 168.995255
4540.0 0.002076 162.472765 0.833185 163.526805 0.833185 163.526805 0.001378 -178.012883
4560.0 0.002858 164.043961 0.83253 154.732857 0.83253 154.732857 0.001894 -176.35246
4580.0 0.003627 161.162763 0.831876 145.938928 0.831876 145.938928 0.0024 -179.144366
4600.0 0.004336 156.266179 0.831224 137.145008 0.831224 137.145008 0.002864 176.048404
4620.0 0.004958 150.327947 0.830572 128.351087 0.830572 128.351087 0.003269 170.199591
