! File created by SignalIntegrity v1.1.13: Signal and Power Integrity Tools
! https://github.com/TeledyneLeCroy/SignalIntegrity
# MHz S MA R 50.0
0.0 0.000493 0.0 0.0 0.0 0.0 0.0 0.0 0.0
0.0 0.0 0.0 0.0 0.999507 0.0 0.0 0.0
0.0 0.0 0.0 0.0 0.0 0.0 0.0 0.0
0.0 0.0 0.000493 0.0 0.0 0.0 0.0 0.0
0.0 0.0 0.0 0.0 0.0 0.0 0.999507 0.0
0.0 0.0 0.0 0.0 0.0 0.0 0.0 0.0
0.0 0.0 0.0 0.0 0.000493 0.0 0.0 0.0
0.0 0.0 0.0 0.0 0.0 0.0 0.0 0.0
0.999507 0.0 0.0 0.0 0.0 0.0 0.0 0.0
0.0 0.0 0.0 0.0 0.0 0.0 0.000493 0.0
0.0 0.0 0.0 0.0 0.0 0.0 0.0 0.0
0.0 0.0 0.999507 0.0 0.0 0.0 0.0 0.0
0.0 0.0 0.0 0.0 0.0 0.0 0.0 0.0
0.000493 0.0 0.0 0.0 0.0 0.0 0.0 0.0
0.0 0.0 0.0 0.0 0.999507 0.0 0.0 0.0
0.0 0.0 0.0 0.0 0.0 0.0 0.0 0.0
0.0 0.0 0.000493 0.0 0.0 0.0 0.0 0.0
0.0 0.0 0.0 0.0 0.0 0.0 0.999507 0.0
0.999507 0.0 0.0 0.0 0.0 0.0 0.0 0.0
0.0 0.0 0.0 0.0 0.000493 0.0 0.0 0.0
0.0 0.0 0.0 0.0 0.0 0.0 0.0 0.0
0.0 0.0 0.999507 0.0 0.0 0.0 0.0 0.0
0.0 0.0 0.0 0.0 0.0 0.0 0.000493 0.0
0.0 0.0 0.0 0.0 0.0 0.0 0.0 0.0
0.0 0.0 0.0 0.0 0.999507 0.0 0.0 0.0
0.0 0.0 0.0 0.0 0.0 0.0 0.0 0.0
0.000493 0.0 0.0 0.0 0.0 0.0 0.0 0.0
0.0 0.0 0.0 0.0 0.0 0.0 0.999507 0.0
0.0 0.0 0.0 0.0 0.0 0.0 0.0 0.0
0.0 0.0 0.000493 0.0 0.0 0.0 0.0 0.0
0.0 0.0 0.0 0.0 0.0 0.0 0.0 0.0
0.999507 0.0 0.0 0.0 0.0 0.0 0.0 0.0
0.0 0.0 0.0 0.0 0.000493 0.0 0.0 0.0
0.0 0.0 0.0 0.0 0.0 0.0 0.0 0.0
0.0 0.0 0.999507 0.0 0.0 0.0 0.0 0.0
0.0 0.0 0.0 0.0 0.0 0.0 0.000493 0.0
1000.0 0.01894 81.690174 0.016705 86.77956 0.002484 85.40718 0.00173 84.910158
0.000708 84.678715 0.000583 84.54449 0.997906 -2.768909 0.006248 -95.685657
0.001679 -96.366358 0.001287 -96.613004 0.000514 -96.986462 0.000433 -97.06438
0.016705 86.77956 0.018721 81.605086 0.003904 85.987632 0.002438 85.350419
0.000882 84.875842 0.000707 84.675008 0.006248 -95.685653 0.997903 -2.770537
0.002071 -96.237678 0.001673 -96.387913 0.000618 -96.879956 0.000515 -96.979198
0.002484 85.40718 0.003904 85.987632 0.018591 81.560205 0.01649 86.758396
0.002437 85.349588 0.001728 84.907298 0.001679 -96.366351 0.002071 -96.237677
0.997903 -2.766732 0.006181 -95.723325 0.001673 -96.386203 0.001289 -96.607612
0.00173 84.910158 0.002438 85.350419 0.01649 86.758396 0.018591 81.56019
0.003903 85.987194 0.002482 85.40539 0.001287 -96.61299 0.001673 -96.387907
0.006181 -95.723325 0.997903 -2.766734 0.002071 -96.2363 0.00168 -96.362216
0.000708 84.678715 0.000882 84.875842 0.002437 85.349588 0.003903 85.987194
0.018721 81.60507 0.016704 86.779478 0.000514 -96.986465 0.000618 -96.879958
0.001673 -96.38621 0.002071 -96.236302 0.997903 -2.770535 0.006249 -95.685079
0.000583 84.54449 0.000707 84.675008 0.001728 84.907298 0.002482 85.40539
0.016704 86.779478 0.01894 81.690178 0.000433 -97.064371 0.000515 -96.97919
0.001289 -96.607623 0.00168 -96.362221 0.006249 -95.685083 0.997906 -2.768903
0.997906 -2.768909 0.006248 -95.685653 0.001679 -96.366351 0.001287 -96.61299
0.000514 -96.986465 0.000433 -97.064371 0.01894 81.67741 0.016705 86.779819
0.002484 85.407464 0.00173 84.910459 0.000708 84.679137 0.000583 84.544902
0.006248 -95.685657 0.997903 -2.770537 0.002071 -96.237677 0.001673 -96.387907
0.000618 -96.879958 0.000515 -96.97919 0.016705 86.779819 0.018721 81.592162
0.003904 85.987907 0.002438 85.350685 0.000882 84.876237 0.000707 84.675409
0.001679 -96.366358 0.002071 -96.237678 0.997903 -2.766732 0.006181 -95.723325
0.001673 -96.38621 0.001289 -96.607623 0.002484 85.407464 0.003904 85.987907
0.018591 81.547186 0.01649 86.758647 0.002437 85.349848 0.001728 84.907581
0.001287 -96.613004 0.001673 -96.387913 0.006181 -95.723325 0.997903 -2.766734
0.002071 -96.236302 0.00168 -96.362221 0.00173 84.910459 0.002438 85.350685
0.01649 86.758647 0.018591 81.547171 0.003903 85.987465 0.002482 85.405661
0.000514 -96.986462 0.000618 -96.879956 0.001673 -96.386203 0.002071 -96.2363
0.997903 -2.770535 0.006249 -95.685083 0.000708 84.679137 0.000882 84.876237
0.002437 85.349848 0.003903 85.987465 0.018721 81.592146 0.016704 86.779735
0.000433 -97.06438 0.000515 -96.979198 0.001289 -96.607612 0.00168 -96.362216
0.006249 -95.685079 0.997906 -2.768903 0.000583 84.544902 0.000707 84.675409
0.001728 84.907581 0.002482 85.405661 0.016704 86.779735 0.01894 81.677414
2000.0 0.036949 80.402059 0.033289 83.646717 0.004934 80.918728 0.003433 79.927417
0.001403 79.469779 0.001156 79.202429 0.996384 -5.490356 0.012437 -101.256
0.003337 -102.622168 0.002559 -103.114819 0.001021 -103.856549 0.000859 -104.011736
0.033289 83.646717 0.036508 80.311854 0.007764 82.074878 0.004842 80.805774
0.00175 79.862691 0.001402 79.462372 0.012437 -101.255992 0.99637 -5.493514
0.004117 -102.361714 0.003325 -102.66512 0.001228 -103.644003 0.001023 -103.842049
0.004934 80.918728 0.007764 82.074878 0.036248 80.270527 0.032859 83.605102
0.004841 80.804112 0.00343 79.9217 0.003337 -102.622154 0.004117 -102.361713
0.996372 -5.48583 0.012302 -101.330481 0.003326 -102.661709 0.002561 -103.104058
0.003433 79.927417 0.004842 80.805774 0.032859 83.605102 0.036248 80.270509
0.007763 82.074001 0.004931 80.915152 0.002559 -103.11479 0.003325 -102.665109
0.012302 -101.330481 0.996372 -5.485833 0.004118 -102.358966 0.00334 -102.613906
0.001403 79.469779 0.00175 79.862691 0.004841 80.804112 0.007763 82.074001
0.036508 80.311804 0.033287 83.646552 0.001021 -103.856555 0.001228 -103.644007
0.003326 -102.661723 0.004118 -102.35897 0.99637 -5.493509 0.012438 -101.25485
0.001156 79.202429 0.001402 79.462372 0.00343 79.9217 0.004931 80.915152
0.033287 83.646552 0.036949 80.402026 0.000859 -104.011718 0.001023 -103.842033
0.002561 -103.104081 0.00334 -102.613916 0.012438 -101.254858 0.996384 -5.490343
0.996384 -5.490356 0.012437 -101.255992 0.003337 -102.622154 0.002559 -103.11479
0.001021 -103.856555 0.000859 -104.011718 0.03695 80.376293 0.033289 83.647134
0.004934 80.919266 0.003433 79.928003 0.001403 79.470604 0.001156 79.203237
0.012437 -101.256 0.99637 -5.493514 0.004117 -102.361713 0.003325 -102.665109
0.001228 -103.644007 0.001023 -103.842033 0.033289 83.647134 0.036509 80.28576
0.007764 82.075368 0.004842 80.806278 0.00175 79.863458 0.001401 79.463156
0.003337 -102.622168 0.004117 -102.361714 0.996372 -5.48583 0.012302 -101.330481
0.003326 -102.661723 0.002561 -103.104081 0.004934 80.919266 0.007764 82.075368
0.036248 80.244237 0.032859 83.605505 0.004841 80.804604 0.00343 79.92225
0.002559 -103.114819 0.003325 -102.66512 0.012302 -101.330481 0.996372 -5.485833
0.004118 -102.35897 0.00334 -102.613916 0.003433 79.928003 0.004842 80.806278
0.032859 83.605505 0.036248 80.244218 0.007763 82.074484 0.004931 80.915664
0.001021 -103.856549 0.001228 -103.644003 0.003326 -102.661709 0.004118 -102.358966
0.99637 -5.493509 0.012438 -101.254858 0.001403 79.470604 0.00175 79.863458
0.004841 80.804604 0.007763 82.074484 0.036509 80.285709 0.033287 83.646967
0.000859 -104.011736 0.001023 -103.842049 0.002561 -103.104058 0.00334 -102.613906
0.012438 -101.25485 0.996384 -5.490343 0.001156 79.203237 0.001401 79.463156
0.00343 79.92225 0.004931 80.915664 0.033287 83.646967 0.03695 80.376259
3000.0 0.054643 78.086806 0.049671 80.5426 0.007324 76.483271 0.005089 75.001059
0.002077 74.327436 0.00171 73.92866 0.994361 -8.195213 0.018541 -106.783016
0.004963 -108.825808 0.003802 -109.561599 0.001515 -110.662369 0.001274 -110.893268
0.049671 80.5426 0.053979 77.98047 0.011545 78.209655 0.007186 76.314954
0.002591 74.914283 0.002074 74.316313 0.018541 -106.783004 0.99433 -8.199696
0.006125 -108.433604 0.004945 -108.889549 0.001822 -110.345299 0.001517 -110.64064
0.007324 76.483271 0.011545 78.209655 0.053586 77.936527 0.049021 80.481854
0.007184 76.312454 0.005085 74.992468 0.004963 -108.825786 0.006125 -108.433602
0.994335 -8.187987 0.018335 -106.892557 0.004946 -108.884443 0.003805 -109.545481
0.005089 75.001059 0.007186 76.314954 0.049021 80.481854 0.053586 77.936503
0.011543 78.208336 0.00732 76.477902 0.003802 -109.561556 0.004945 -108.889532
0.018335 -106.892558 0.994335 -8.187993 0.006126 -108.429492 0.004967 -108.813436
0.002077 74.327436 0.002591 74.914283 0.007184 76.312454 0.011543 78.208336
0.053979 77.980386 0.049668 80.542352 0.001515 -110.662377 0.001822 -110.345306
0.004946 -108.884463 0.006126 -108.429497 0.99433 -8.199688 0.018543 -106.781298
0.00171 73.92866 0.002074 74.316313 0.005085 74.992468 0.00732 76.477902
0.049668 80.542352 0.054644 78.086739 0.001274 -110.893242 0.001517 -110.640616
0.003805 -109.545515 0.004967 -108.813451 0.018543 -106.781309 0.994361 -8.195194
0.994361 -8.195213 0.018541 -106.783004 0.004963 -108.825786 0.003802 -109.561556
0.001515 -110.662377 0.001274 -110.893242 0.054644 78.047968 0.04967 80.543201
0.007324 76.484116 0.005089 75.00198 0.002077 74.328721 0.00171 73.92992
0.018541 -106.783016 0.99433 -8.199696 0.006125 -108.433602 0.004945 -108.889532
0.001822 -110.345306 0.001517 -110.640616 0.04967 80.543201 0.05398 77.941132
0.011545 78.210406 0.007186 76.31575 0.002591 74.915479 0.002074 74.317537
0.004963 -108.825808 0.006125 -108.433604 0.994335 -8.187987 0.018335 -106.892558
0.004946 -108.884463 0.003805 -109.545515 0.007324 76.484116 0.011545 78.210406
0.053587 77.896888 0.049021 80.482436 0.007184 76.313232 0.005085 74.993336
0.003802 -109.561599 0.004945 -108.889549 0.018335 -106.892557 0.994335 -8.187993
0.006126 -108.429497 0.004967 -108.813451 0.005089 75.00198 0.007186 76.31575
0.049021 80.482436 0.053587 77.896863 0.011543 78.209076 0.00732 76.478708
0.001515 -110.662369 0.001822 -110.345299 0.004946 -108.884443 0.006126 -108.429492
0.99433 -8.199688 0.018543 -106.781309 0.002077 74.328721 0.002591 74.915479
0.007184 76.313232 0.011543 78.209076 0.05398 77.941048 0.049668 80.542951
0.001274 -110.893268 0.001517 -110.64064 0.003805 -109.545481 0.004967 -108.813436
0.018543 -106.781298 0.994361 -8.195194 0.00171 73.92992 0.002074 74.317537
0.005085 74.993336 0.00732 76.478708 0.049668 80.542951 0.054645 78.047901
4000.0 0.07199 75.485915 0.065767 77.469972 0.009629 72.112027 0.006679 70.143253
0.002719 69.268569 0.002238 68.740714 0.991814 -10.882843 0.024531 -112.271029
0.006543 -114.971139 0.005006 -115.945261 0.001991 -117.391905 0.001673 -117.696123
0.065767 77.469972 0.071098 75.360847 0.015216 74.401821 0.009445 71.889465
0.003396 70.046875 0.002717 69.253695 0.024531 -112.271013 0.991761 -10.888357
0.008079 -114.449382 0.006517 -115.054679 0.002396 -116.972764 0.001994 -117.362941
0.009629 72.112027 0.015216 74.401821 0.07057 75.313336 0.064895 77.391955
0.009443 71.886115 0.006674 70.131756 0.006543 -114.97111 0.008079 -114.44938
0.991773 -10.872432 0.024251 -112.41309 0.006519 -115.047881 0.005011 -115.923788
0.006679 70.143253 0.009445 71.889465 0.064895 77.391955 0.07057 75.313306
0.015214 74.400054 0.009624 72.104847 0.005006 -115.945203 0.006517 -115.054657
0.024251 -112.413091 0.991773 -10.872439 0.008081 -114.44391 0.006548 -114.954663
0.002719 69.268569 0.003396 70.046875 0.009443 71.886115 0.015214 74.400054
0.071098 75.360729 0.065764 77.469642 0.001991 -117.391916 0.002396 -116.972773
0.006519 -115.047909 0.008081 -114.443917 0.991761 -10.888346 0.024535 -112.268746
0.002238 68.740714 0.002717 69.253695 0.006674 70.131756 0.009624 72.104847
0.065764 77.469642 0.07199 75.485816 0.001673 -117.696089 0.001994 -117.362909
0.005011 -115.923833 0.006548 -114.954683 0.024535 -112.268761 0.991814 -10.882819
0.991814 -10.882843 0.024531 -112.271013 0.006543 -114.97111 0.005006 -115.945203
0.001991 -117.391916 0.001673 -117.696089 0.071992 75.433929 0.065766 77.470816
0.009629 72.113266 0.006678 70.144594 0.002719 69.270405 0.002238 68.742517
0.024531 -112.271029 0.991761 -10.888357 0.008079 -114.44938 0.006517 -115.054657
0.002396 -116.972773 0.001994 -117.362909 0.065766 77.470816 0.071101 75.308183
0.015216 74.402914 0.009445 71.890638 0.003396 70.048591 0.002717 69.255449
0.006543 -114.971139 0.008079 -114.449382 0.991773 -10.872432 0.024251 -112.413091
0.006519 -115.047909 0.005011 -115.923833 0.009629 72.113266 0.015216 74.402914
0.070573 75.260262 0.064894 77.392772 0.009443 71.887264 0.006673 70.133025
0.005006 -115.945261 0.006517 -115.054679 0.024251 -112.41309 0.991773 -10.872439
0.008081 -114.443917 0.006548 -114.954683 0.006678 70.144594 0.009445 71.890638
0.064894 77.392772 0.070573 75.260231 0.015214 74.401131 0.009623 72.106035
0.001991 -117.391905 0.002396 -116.972764 0.006519 -115.047881 0.008081 -114.44391
0.991761 -10.888346 0.024535 -112.268761 0.002719 69.270405 0.003396 70.048591
0.009443 71.887264 0.015214 74.401131 0.071101 75.308065 0.065763 77.470481
0.001673 -117.696123 0.001994 -117.362941 0.005011 -115.923788 0.006548 -114.954663
0.024535 -112.268746 0.991814 -10.882819 0.002238 68.742517 0.002717 69.255449
0.006673 70.133025 0.009623 72.106035 0.065763 77.470481 0.071992 75.433829
5000.0 0.08893 72.777292 0.081503 74.433937 0.011827 67.818761 0.008183 65.36888
0.003324 64.312395 0.002733 63.658471 0.988767 -13.550915 0.030382 -117.717532
0.008065 -121.047964 0.006161 -122.253948 0.002445 -124.029636 0.002053 -124.404028
0.081503 74.433937 0.087808 72.633156 0.018748 70.663383 0.011598 67.543359
0.004155 65.279001 0.00332 64.293718 0.030382 -117.717512 0.988687 -13.557095
0.009966 -120.400232 0.008032 -121.15 0.002943 -123.511691 0.002448 -123.993422
0.011827 67.818761 0.018748 70.663383 0.087142 72.5826 0.080404 74.34094
0.011595 67.539142 0.008177 65.354429 0.008065 -121.047929 0.009966 -120.400229
0.988712 -13.536743 0.030023 -117.888915 0.008034 -121.141515 0.006167 -122.22712
0.008183 65.36888 0.011598 67.543359 0.080404 74.34094 0.087142 72.582563
0.018746 70.661158 0.011821 67.809746 0.006161 -122.253877 0.008032 -121.149973
0.030023 -117.888915 0.988712 -13.536752 0.009968 -120.393405 0.008071 -121.027388
0.003324 64.312395 0.004155 65.279001 0.011595 67.539142 0.018746 70.661158
0.087808 72.633002 0.081499 74.433523 0.002445 -124.029651 0.002943 -123.511703
0.008034 -121.141549 0.009968 -120.393413 0.988688 -13.557083 0.030386 -117.714687
0.002733 63.658471 0.00332 64.293718 0.008177 65.354429 0.011821 67.809746
0.081499 74.433523 0.088931 72.777158 0.002053 -124.403985 0.002448 -123.993382
0.006167 -122.227176 0.008071 -121.027412 0.030386 -117.714706 0.988767 -13.550884
0.988767 -13.550915 0.030382 -117.717512 0.008065 -121.047929 0.006161 -122.253877
0.002445 -124.029651 0.002053 -124.403985 0.088934 72.712068 0.081501 74.435103
0.011827 67.820512 0.008183 65.370756 0.003323 64.314906 0.002733 63.660938
0.030382 -117.717532 0.988687 -13.557095 0.009966 -120.400229 0.008032 -121.149973
0.002943 -123.511703 0.002448 -123.993382 0.081501 74.435103 0.087812 72.56707
0.018747 70.664929 0.011597 67.545028 0.004155 65.281362 0.00332 64.296126
0.008065 -121.047964 0.009966 -120.400232 0.988712 -13.536743 0.030023 -117.888915
0.008034 -121.141549 0.006167 -122.227176 0.011827 67.820512 0.018747 70.664929
0.087146 72.515988 0.080402 74.342074 0.011594 67.540781 0.008177 65.356214
0.006161 -122.253948 0.008032 -121.15 0.030023 -117.888915 0.988712 -13.536752
0.009968 -120.393413 0.008071 -121.027412 0.008183 65.370756 0.011597 67.545028
0.080402 74.342074 0.087146 72.51595 0.018745 70.662684 0.01182 67.811432
0.002445 -124.029636 0.002943 -123.511691 0.008034 -121.141515 0.009968 -120.393405
0.988688 -13.557083 0.030386 -117.714706 0.003323 64.314906 0.004155 65.281362
0.011594 67.540781 0.018745 70.662684 0.087812 72.566915 0.081496 74.434683
0.002053 -124.404028 0.002448 -123.993422 0.006167 -122.22712 0.008071 -121.027388
0.030386 -117.714687 0.988767 -13.550884 0.002733 63.660938 0.00332 64.296126
0.008177 65.356214 0.01182 67.811432 0.081496 74.434683 0.088935 72.711933
6000.0 0.105406 70.030045 0.09681 71.439781 0.0139 63.61705 0.009589 60.692691
0.003883 59.477563 0.00319 58.701226 0.98526 -16.196907 0.036067 -123.118489
0.00952 -127.04586 0.007259 -128.475706 0.002872 -130.560333 0.002409 -131.001056
0.09681 71.439781 0.104047 69.867504 0.022117 67.00597 0.013625 63.29048
0.004861 60.628615 0.003879 59.455018 0.036067 -123.118466 0.985152 -16.203345
0.011775 -126.27684 0.009478 -127.164822 0.00346 -129.947596 0.002875 -130.516846
0.0139 63.61705 0.022117 67.00597 0.103241 69.815069 0.095479 71.33441
0.013622 63.285376 0.009582 60.675226 0.00952 -127.045818 0.011775 -126.276837
0.985195 -16.178372 0.035625 -123.315486 0.00948 -127.154655 0.007266 -128.443519
0.009589 60.692691 0.013625 63.29048 0.095479 71.33441 0.103241 69.815024
0.022114 67.003276 0.013892 63.606167 0.007259 -128.47562 0.009478 -127.16479
0.035625 -123.315486 0.985195 -16.178383 0.011778 -126.268664 0.009527 -127.021185
0.003883 59.477563 0.004861 60.628615 0.013622 63.285376 0.022114 67.003276
0.104047 69.867312 0.096805 71.439283 0.002872 -130.560351 0.00346 -129.94761
0.00948 -127.154696 0.011778 -126.268673 0.985153 -16.203332 0.036072 -123.115085
0.00319 58.701226 0.003879 59.455018 0.009582 60.675226 0.013892 63.606167
0.096805 71.439283 0.105406 70.029875 0.002409 -131.001004 0.002875 -130.516798
0.007266 -128.443586 0.009527 -127.021214 0.036072 -123.115108 0.98526 -16.196871
0.98526 -16.196907 0.036067 -123.118466 0.00952 -127.045818 0.007259 -128.47562
0.002872 -130.560351 0.002409 -131.001004 0.105412 69.951477 0.096806 71.44137
0.013899 63.619463 0.009588 60.695246 0.003882 59.480907 0.00319 58.704513
0.036067 -123.118489 0.985152 -16.203345 0.011775 -126.276837 0.009478 -127.16479
0.00346 -129.94761 0.002875 -130.516798 0.096806 71.44137 0.104054 69.787881
0.022115 67.008107 0.013623 63.292794 0.00486 60.631778 0.003878 59.458236
0.00952 -127.04586 0.011775 -126.27684 0.985195 -16.178372 0.035625 -123.315486
0.00948 -127.154696 0.007266 -128.443586 0.013899 63.619463 0.022115 67.008107
0.103248 69.7348 0.095475 71.335962 0.01362 63.287652 0.009581 60.67767
0.007259 -128.475706 0.009478 -127.164822 0.035625 -123.315486 0.985195 -16.178383
0.011778 -126.268673 0.009527 -127.021214 0.009588 60.695246 0.013623 63.292794
0.095475 71.335962 0.103248 69.734755 0.022113 67.005389 0.013891 63.608501
0.002872 -130.560333 0.00346 -129.947596 0.00948 -127.154655 0.011778 -126.268664
0.985153 -16.203332 0.036072 -123.115108 0.003882 59.480907 0.00486 60.631778
0.01362 63.287652 0.022113 67.005389 0.104054 69.787688 0.096801 71.440865
0.002409 -131.001056 0.002875 -130.516846 0.007266 -128.443519 0.009527 -127.021185
0.036072 -123.115085 0.98526 -16.196871 0.00319 58.704513 0.003878 59.458236
0.009581 60.67767 0.013891 63.608501 0.096801 71.440865 0.105413 69.951305
7000.0 0.121361 67.278601 0.11163 68.492363 0.015832 59.519467 0.010884 56.128472
0.004392 54.781259 0.003604 53.886778 0.981344 -18.818534 0.041568 -128.469753
0.010899 -132.955272 0.008294 -134.599542 0.00327 -136.970191 0.002741 -137.472769
0.11163 68.492363 0.119761 67.098873 0.025303 63.440058 0.015511 59.143641
0.005507 56.112194 0.004388 54.754765 0.041568 -128.469726 0.981208 -18.8248
0.013497 -132.070628 0.010848 -133.08937 0.003944 -136.267366 0.003274 -136.919406
0.015832 59.519467 0.025303 63.440058 0.118815 67.046031 0.110065 68.377407
0.015508 59.137623 0.010876 56.107916 0.010899 -132.955223 0.013497 -132.070625
0.981276 -18.795056 0.041038 -128.688302 0.01085 -133.077526 0.008302 -134.561992
0.010884 56.128472 0.015511 59.143641 0.110065 68.377407 0.118815 67.04598
0.0253 63.43688 0.015823 59.506677 0.008294 -134.599442 0.010848 -133.089332
0.041038 -128.688302 0.981276 -18.79507 0.0135 -132.061108 0.010907 -132.926502
0.004392 54.781259 0.005507 56.112194 0.015508 59.137623 0.0253 63.43688
0.119762 67.09864 0.111624 68.491778 0.00327 -136.970212 0.003944 -136.267382
0.01085 -133.077574 0.0135 -132.06112 0.981209 -18.824785 0.041573 -128.465794
0.003604 53.886778 0.004388 54.754765 0.010876 56.107916 0.015823 59.506677
0.111624 68.491778 0.121362 67.278392 0.002741 -137.472708 0.003274 -136.919348
0.008302 -134.56207 0.010907 -132.926536 0.041573 -128.46582 0.981344 -18.818493
0.981344 -18.818534 0.041568 -128.469726 0.010899 -132.955223 0.008294 -134.599442
0.00327 -136.970212 0.002741 -137.472708 0.121371 67.186567 0.111623 68.494493
