! File created by SignalIntegrity v1.1.13: Signal and Power Integrity Tools
! https://github.com/TeledyneLeCroy/SignalIntegrity
# MHz S MA R 50.0
0.0 0.000493 0.0 0.999507 0.0 0.0 180.0 0.0 0.0
0.999507 0.0 0.000493 0.0 0.0 180.0 0.0 180.0
0.0 180.0 0.0 0.0 0.000493 0.0 0.999507 0.0
0.0 180.0 0.0 180.0 0.999507 0.0 0.000493 0.0
1000.0 0.002025 -34.838204 0.998244 -2.591102 0.0 -8.485567 0.0 -92.959052
0.998244 -2.591102 0.002029 -34.785485 0.0 -92.959053 0.0 -8.497821
0.0 -8.485567 0.0 -92.959053 0.032994 83.687686 0.997714 -3.320053
0.0 -92.959052 0.0 -8.497821 0.997714 -3.320053 0.032993 83.680694
2000.0 0.003619 -57.714674 0.997707 -5.140497 1e-06 -93.540674 0.0 -96.235354
0.997707 -5.140497 0.00363 -57.522485 0.0 -96.262193 1e-06 -93.491661
1e-06 -93.540674 0.0 -96.262193 0.065031 81.458508 0.995626 -6.590765
0.0 -96.235354 1e-06 -93.491661 0.995626 -6.590765 0.06503 81.444482
3000.0 0.0054 -69.380244 0.997284 -7.683125 1e-06 -97.351411 1e-06 -99.313633
0.997284 -7.683125 0.005419 -69.047134 1e-06 -99.342291 1e-06 -92.298452
1e-06 -97.351411 1e-06 -99.342291 0.096651 78.631653 0.992672 -9.842087
1e-06 -99.313633 1e-06 -92.298452 0.992672 -9.842087 0.096652 78.610575
4000.0 0.007238 -76.995651 0.996919 -10.222172 1e-06 -97.802111 1e-06 -102.572295
0.996919 -10.222172 0.007266 -76.533969 1e-06 -102.594498 2e-06 -100.230682
1e-06 -97.802111 1e-06 -102.594498 0.127787 75.644706 0.988835 -13.072418
1e-06 -102.572295 2e-06 -100.230682 0.988835 -13.072418 0.127788 75.616588
5000.0 0.009073 -82.755577 0.99659 -12.758921 2e-06 -101.265428 1e-06 -105.431524
0.99659 -12.758921 0.009111 -82.171258 1e-06 -105.462956 1e-06 -97.74506
2e-06 -101.265428 1e-06 -105.462956 0.158344 72.601666 0.984145 -16.278211
1e-06 -105.431524 1e-06 -97.74506 0.984145 -16.278211 0.158344 72.566523
6000.0 0.010871 -87.517798 0.996284 -15.293947 2e-06 -101.994687 1e-06 -108.450215
0.996284 -15.293947 0.01092 -86.807139 1e-06 -108.475037 2e-06 -101.861437
2e-06 -101.994687 1e-06 -108.475037 0.188223 69.543235 0.978652 -19.455705
1e-06 -108.450215 2e-06 -101.861437 0.978652 -19.455705 0.188223 69.501074
7000.0 0.012608 -91.675103 0.995996 -17.82767 2e-06 -105.417288 2e-06 -94.741232
0.995996 -17.82767 0.012668 -90.836465 2e-06 -94.781737 2e-06 -105.295387
2e-06 -105.417288 2e-06 -94.781737 0.217336 66.49012 0.972417 -22.60115
2e-06 -94.741232 2e-06 -105.295387 0.972417 -22.60115 0.217336 66.440957
8000.0 0.014259 -95.430648 0.995722 -20.360342 3e-06 -108.371936 2e-06 -99.823786
0.995722 -20.360342 0.014333 -94.463589 2e-06 -99.878856 2e-06 -106.106105
3e-06 -108.371936 2e-06 -99.878856 0.245602 63.454754 0.965511 -25.711142
2e-06 -99.823786 2e-06 -106.106105 0.965511 -25.711142 0.245604 63.398615
9000.0 0.015812 -98.909355 0.99546 -22.892012 3e-06 -111.148653 2e-06 -104.532048
0.99546 -22.892012 0.015898 -97.804711 2e-06 -104.588667 3e-06 -109.312648
3e-06 -111.148653 2e-06 -104.588667 0.272955 60.445456 0.95801 -28.782815
2e-06 -104.532048 3e-06 -109.312648 0.95801 -28.782815 0.272956 60.382354
10000.0 0.017245 -102.180413 0.995208 -25.422916 3e-06 -110.373608 2e-06 -108.607514
0.995208 -25.422916 0.017346 -100.934028 2e-06 -108.644634 3e-06 -112.281745
3e-06 -110.373608 2e-06 -108.644634 0.299335 57.468095 0.949994 -31.813492
2e-06 -108.607514 3e-06 -112.281745 0.949994 -31.813492 0.299336 57.39806
11000.0 0.018545 -105.29095 0.994964 -27.953126 3e-06 -113.456132 3e-06 -112.554514
0.994964 -27.953126 0.018662 -103.895966 3e-06 -112.609467 3e-06 -113.336184
3e-06 -113.456132 3e-06 -112.609467 0.324698 54.526981 0.941544 -34.801113
3e-06 -112.554514 3e-06 -113.336184 0.941544 -34.801113 0.3247 54.450043
12000.0 0.019698 -108.272963 0.994729 -30.482753 4e-06 -116.373195 3e-06 -116.457655
0.994729 -30.482753 0.019832 -106.719529 3e-06 -116.510555 4e-06 -116.207575
4e-06 -116.373195 3e-06 -116.510555 0.349015 51.625281 0.93274 -37.74402
3e-06 -116.457655 4e-06 -116.207575 0.93274 -37.74402 0.349016 51.54147
13000.0 0.02069 -111.147359 0.994503 -33.011844 4e-06 -117.663307 3e-06 -111.21271
0.994503 -33.011844 0.020843 -109.424081 3e-06 -111.268189 4e-06 -117.467456
4e-06 -117.663307 3e-06 -111.268189 0.372263 48.76528 0.923663 -40.641073
3e-06 -111.21271 4e-06 -117.467456 0.923663 -40.641073 0.372265 48.674631
14000.0 0.021508 -113.926565 0.994285 -35.540457 4e-06 -120.512096 4e-06 -115.387456
0.994285 -35.540457 0.021682 -112.019442 4e-06 -115.427434 4e-06 -120.33121
4e-06 -120.512096 4e-06 -115.427434 0.39443 45.948541 0.914386 -43.491536
4e-06 -115.387456 4e-06 -120.33121 0.914386 -43.491536 0.394432 45.851092
15000.0 0.022142 -116.620589 0.994075 -38.068749 4e-06 -121.581092 4e-06 -119.119253
0.994075 -38.068749 0.022337 -114.511804 4e-06 -119.157178 4e-06 -121.400892
4e-06 -121.581092 4e-06 -119.157178 0.415517 43.176039 0.904984 -46.294964
4e-06 -119.119253 4e-06 -121.400892 0.904984 -46.294964 0.415518 43.071829
16000.0 0.022579 -119.232014 0.993873 -40.596768 4e-06 -122.559357 4e-06 -122.849416
0.993873 -40.596768 0.0228 -116.904073 4e-06 -122.867598 5e-06 -124.196184
4e-06 -122.559357 4e-06 -122.867598 0.435527 40.448242 0.895522 -49.051402
4e-06 -122.849416 5e-06 -124.196184 0.895522 -49.051402 0.435529 40.337317
17000.0 0.022812 -121.763152 0.99368 -43.124588 5e-06 -125.705612 4e-06 -119.977536
0.99368 -43.124588 0.023059 -119.189106 4e-06 -120.013676 5e-06 -125.493457
5e-06 -125.705612 4e-06 -120.013676 0.454476 37.765194 0.886064 -51.761195
4e-06 -119.977536 5e-06 -125.493457 0.886064 -51.761195 0.454477 37.647598
18000.0 0.022828 -124.208608 0.993496 -45.652323 5e-06 -126.687058 5e-06 -123.68869
0.993496 -45.652323 0.023106 -121.360527 5e-06 -123.7224 5e-06 -126.480481
5e-06 -126.687058 5e-06 -123.7224 0.472381 35.126564 0.876666 -54.424942
5e-06 -123.68869 5e-06 -126.480481 0.876666 -54.424942 0.472382 35.002349
19000.0 0.022621 -126.561403 0.99332 -48.18005 5e-06 -129.467198 5e-06 -127.383194
0.99332 -48.18005 0.022934 -123.401671 5e-06 -127.414631 5e-06 -129.256169
5e-06 -129.467198 5e-06 -127.414631 0.489265 32.53172 0.867381 -57.043544
5e-06 -127.383194 5e-06 -129.256169 0.867381 -57.043544 0.489267 32.40094
20000.0 0.022183 -128.808729 0.993153 -50.707853 5e-06 -130.442331 5e-06 -130.844238
0.993153 -50.707853 0.022537 -125.292117 5e-06 -130.880515 5e-06 -130.240089
5e-06 -130.442331 5e-06 -130.880515 0.505157 29.979757 0.858254 -59.618112
5e-06 -130.844238 5e-06 -130.240089 0.858254 -59.618112 0.505159 29.842467
21000.0 0.021508 -130.930967 0.992993 -53.235915 6e-06 -133.150022 5e-06 -134.269955
0.992993 -53.235915 0.021908 -126.996434 5e-06 -134.296457 6e-06 -132.945882
6e-06 -133.150022 5e-06 -134.296457 0.520085 27.469573 0.84933 -62.149818
5e-06 -134.269955 6e-06 -132.945882 0.84933 -62.149818 0.520085 27.325833
22000.0 0.020591 -132.895488 0.992841 -55.76424 6e-06 -134.11456 6e-06 -137.543551
0.992841 -55.76424 0.021046 -128.468365 6e-06 -137.567373 6e-06 -133.897763
6e-06 -134.11456 6e-06 -137.567373 0.534079 24.999852 0.84064 -64.640236
6e-06 -137.543551 6e-06 -133.897763 0.84064 -64.640236 0.534081 24.849725
23000.0 0.019428 -134.654295 0.992696 -58.293001 6e-06 -135.038871 6e-06 -140.718409
0.992696 -58.293001 0.019951 -129.635952 6e-06 -140.74521 6e-06 -134.811177
6e-06 -135.038871 6e-06 -140.74521 0.547173 22.569161 0.832221 -67.090829
6e-06 -140.718409 6e-06 -134.811177 0.832221 -67.090829 0.547176 22.412714
24000.0 0.018018 -136.132591 0.992556 -60.822295 6e-06 -137.682987 6e-06 -143.899327
0.992556 -60.822295 0.018624 -130.388083 6e-06 -143.923427 6e-06 -137.505128
6e-06 -137.682987 6e-06 -143.923427 0.559402 20.175938 0.8241 -69.503269
6e-06 -143.899327 6e-06 -137.505128 0.8241 -69.503269 0.559404 20.01324
25000.0 0.016362 -137.204006 0.992422 -63.352194 6e-06 -138.903873 7e-06 -142.724364
0.992422 -63.352194 0.017074 -130.55195 7e-06 -142.739164 6e-06 -138.694778
6e-06 -138.903873 7e-06 -142.739164 0.570794 17.818517 0.816299 -71.87935
7e-06 -142.724364 6e-06 -138.694778 0.816299 -71.87935 0.570797 17.649641
26000.0 0.014466 -137.653518 0.992291 -65.882819 7e-06 -141.493822 7e-06 -145.891397
0.992291 -65.882819 0.015319 -129.842952 7e-06 -145.924914 6e-06 -139.514418
7e-06 -141.493822 7e-06 -145.924914 0.581384 15.495177 0.808841 -74.220827
7e-06 -145.891397 6e-06 -139.514418 0.808841 -74.220827 0.581386 15.3202
27000.0 0.012345 -137.06551 0.992161 -68.414263 6e-06 -140.527739 7e-06 -148.973678
0.992161 -68.414263 0.013392 -127.763927 7e-06 -148.985645 6e-06 -140.309934
6e-06 -140.527739 7e-06 -148.985645 0.591204 13.204129 0.801741 -76.529564
7e-06 -148.973678 6e-06 -140.309934 0.801741 -76.529564 0.591205 13.023132
28000.0 0.010031 -134.567072 0.992033 -70.946607 7e-06 -143.523506 8e-06 -148.384627
0.992033 -70.946607 0.011364 -123.41179 8e-06 -148.387433 7e-06 -143.334349
7e-06 -143.523506 8e-06 -148.387433 0.600282 10.943557 0.795016 -78.807449
8e-06 -148.384627 7e-06 -143.334349 0.795016 -78.807449 0.600283 10.756623
29000.0 0.007619 -128.077392 0.991902 -73.479933 7e-06 -144.348822 8e-06 -151.497796
0.991902 -73.479933 0.009383 -115.117249 8e-06 -151.498168 7e-06 -144.115229
7e-06 -144.348822 8e-06 -151.498168 0.608647 8.711611 0.788677 -81.056359
8e-06 -151.497796 7e-06 -144.115229 0.788677 -81.056359 0.608649 8.518829
30000.0 0.005393 -111.972649 0.991769 -76.014307 7e-06 -145.082051 8e-06 -154.558004
0.991769 -76.014307 0.00778 -100.237013 8e-06 -154.544883 7e-06 -146.73897
7e-06 -145.082051 8e-06 -154.544883 0.616328 6.50643 0.782735 -83.278224
8e-06 -154.558004 7e-06 -146.73897 0.782735 -83.278224 0.61633 6.307892
31000.0 0.004314 -76.690869 0.991628 -78.549783 7e-06 -147.696601 9e-06 -157.54269
0.991628 -78.549783 0.007171 -77.622117 9e-06 -157.539446 7e-06 -147.519299
7e-06 -147.696601 9e-06 -157.539446 0.623349 4.32613 0.777198 -85.474959
9e-06 -157.54269 7e-06 -147.519299 0.777198 -85.474959 0.623351 4.121931
32000.0 0.005643 -40.002127 0.991479 -81.086416 7e-06 -148.433895 9e-06 -160.487918
0.991479 -81.086416 0.008121 -54.109078 9e-06 -160.475412 8e-06 -150.061263
7e-06 -148.433895 9e-06 -160.475412 0.629733 2.168855 0.772074 -87.648448
9e-06 -160.487918 8e-06 -150.061263 0.772074 -87.648448 0.629735 1.959096
33000.0 0.008621 -22.70614 0.991317 -83.624221 8e-06 -150.985134 9e-06 -163.382385
0.991317 -83.624221 0.010472 -37.800424 9e-06 -163.375774 8e-06 -150.825052
8e-06 -150.985134 9e-06 -163.375774 0.635504 0.032714 0.767367 -89.800628
9e-06 -163.382385 8e-06 -150.825052 0.767367 -89.800628 0.635506 -0.182502
34000.0 0.012323 -15.708306 0.991141 -86.163218 8e-06 -151.725742 1e-05 -166.258454
0.991141 -86.163218 0.013722 -28.545346 1e-05 -166.24929 8e-06 -151.592011
8e-06 -151.725742 1e-05 -166.24929 0.640679 -2.084147 0.763084 -91.933379
1e-05 -166.258454 8e-06 -151.592011 0.763084 -91.933379 0.640681 -2.304707
35000.0 0.016443 -12.963578 0.990949 -88.703379 8e-06 -152.435425 1e-05 -169.093066
0.990949 -88.703379 0.017546 -23.619953 1e-05 -169.081844 8e-06 -152.291253
8e-06 -152.435425 1e-05 -169.081844 0.645279 -4.183604 0.759226 -94.048631
1e-05 -169.093066 8e-06 -152.291253 0.759226 -94.048631 0.645281 -4.409397
36000.0 0.020883 -12.215446 0.990735 -91.244704 8e-06 -155.298235 1e-05 -169.107714
0.990735 -91.244704 0.021783 -21.1788 1e-05 -169.094304 8e-06 -155.184479
8e-06 -155.298235 1e-05 -169.094304 0.649316 -6.267497 0.7558 -96.148224
1e-05 -169.107714 8e-06 -155.184479 0.7558 -96.148224 0.649318 -6.498403
37000.0 0.025595 -12.537496 0.990499 -93.787126 8e-06 -156.002517 1.1e-05 -171.966307
0.990499 -93.787126 0.02635 -20.214457 1.1e-05 -171.951756 8e-06 -155.899574
8e-06 -156.002517 1.1e-05 -171.951756 0.652806 -8.337692 0.752805 -98.234059
1.1e-05 -171.966307 8e-06 -155.899574 0.752805 -98.234059 0.652807 -8.573588
38000.0 0.030552 -13.493542 0.990236 -96.330576 8e-06 -156.700921 1.1e-05 -174.792211
0.990236 -96.330576 0.0312 -20.178587 1.1e-05 -174.779277 8e-06 -156.610069
8e-06 -156.700921 1.1e-05 -174.779277 0.65576 -10.39601 0.750246 -100.308007
1.1e-05 -174.792211 8e-06 -156.610069 0.750246 -100.308007 0.655761 -10.636763
39000.0 0.035739 -14.852617 0.989944 -98.874974 8e-06 -159.246997 1.1e-05 -177.488279
0.989944 -98.874974 0.036302 -20.75548 1.1e-05 -177.47165 8e-06 -159.171167
8e-06 -159.246997 1.1e-05 -177.47165 0.658186 -12.444312 0.748123 -102.371919
1.1e-05 -177.488279 8e-06 -159.171167 0.748123 -102.371919 0.658189 -12.689788
40000.0 0.041137 -16.483933 0.989618 -101.420201 9e-06 -161.71229 1.2e-05 179.79553
0.989618 -101.420201 0.041634 -21.75545 1.2e-05 179.820806 8e-06 -159.940048
9e-06 -161.71229 1.2e-05 179.820806 0.660096 -14.484419 0.74644 -104.427679
1.2e-05 179.79553 8e-06 -159.940048 0.74644 -104.427679 0.660097 -14.734477
41000.0 0.046733 -18.305918 0.989259 -103.966133 9e-06 -162.765128 1.2e-05 179.420783
0.989259 -103.966133 0.047174 -23.058267 1.2e-05 179.436979 9e-06 -162.716721
9e-06 -162.765128 1.2e-05 179.436979 0.661491 -16.518179 0.745197 -106.477132
1.2e-05 179.420783 9e-06 -162.716721 0.745197 -106.477132 0.661493 -16.772668
42000.0 0.052511 -20.267539 0.988862 -106.512599 9e-06 -163.532977 1.3e-05 176.661272
0.988862 -106.512599 0.052906 -24.585007 1.3e-05 176.677956 9e-06 -163.499156
9e-06 -163.532977 1.3e-05 176.677956 0.662378 -18.547428 0.744397 -108.522166
1.3e-05 176.661272 9e-06 -163.499156 0.744397 -108.522166 0.66238 -18.806192
43000.0 0.058456 -22.333684 0.988423 -109.059425 9e-06 -166.011927 1.3e-05 173.9758
0.988423 -109.059425 0.058812 -26.281023 1.3e-05 174.006548 9e-06 -164.289011
9e-06 -166.011927 1.3e-05 174.006548 0.662755 -20.57402 0.74404 -110.564647
1.3e-05 173.9758 9e-06 -164.289011 0.74404 -110.564647 0.662757 -20.836896
44000.0 0.064554 -24.479497 0.987944 -111.606427 9e-06 -166.839721 1.3e-05 171.33403
0.987944 -111.606427 0.064877 -28.107556 1.3e-05 171.34731 9e-06 -166.852511
9e-06 -166.839721 1.3e-05 171.34731 0.662623 -22.599806 0.744131 -112.606474
1.3e-05 171.33403 9e-06 -166.852511 0.744131 -112.606474 0.662626 -22.866622
45000.0 0.070787 -26.687816 0.98742 -114.153383 9e-06 -167.654612 1.4e-05 168.653472
0.98742 -114.153383 0.071081 -30.037172 1.4e-05 168.662576 9e-06 -167.711839
9e-06 -167.654612 1.4e-05 168.662576 0.66198 -24.626681 0.744668 -114.649541
1.4e-05 168.653472 9e-06 -167.711839 0.744668 -114.649541 0.661981 -24.897255
46000.0 0.07714 -28.945419 0.986851 -116.700057 9e-06 -168.701016 1.4e-05 168.021722
0.986851 -116.700057 0.077409 -32.048793 1.4e-05 168.008276 1e-05 -170.494984
9e-06 -168.701016 1.4e-05 168.008276 0.660818 -26.656517 0.745656 -116.69579
1.4e-05 168.021722 1e-05 -170.494984 0.745656 -116.69579 0.66082 -26.930659
47000.0 0.083595 -31.242592 0.986235 -119.246209 1e-05 -171.144597 1.4e-05 163.48553
0.986235 -119.246209 0.083843 -34.126765 1.4e-05 163.494753 1e-05 -171.231123
1e-05 -171.144597 1.4e-05 163.494753 0.659132 -28.691245 0.747096 -118.747161
1.4e-05 163.48553 1e-05 -171.231123 0.747096 -118.747161 0.659134 -28.968754
48000.0 0.090136 -33.571644 0.985573 -121.791583 1e-05 -172.093177 1.5e-05 160.963306
0.985573 -121.791583 0.090363 -36.259034 1.5e-05 160.943744 1e-05 -173.854506
1e-05 -172.093177 1.5e-05 160.943744 0.656913 -30.73281 0.748988 -120.805629
1.5e-05 160.963306 1e-05 -173.854506 0.748988 -120.805629 0.656915 -31.013469
49000.0 0.096743 -35.926765 0.984865 -124.335901 1e-05 -174.749437 1.5e-05 158.429955
0.984865 -124.335901 0.096953 -38.435795 1.5e-05 158.430321 1e-05 -174.890379
1e-05 -174.749437 1.5e-05 158.430321 0.654147 -32.783175 0.751336 -122.873213
1.5e-05 158.429955 1e-05 -174.890379 0.751336 -122.873213 0.654149 -33.066761
50000.0 0.1034 -38.303136 0.984108 -126.878873 1e-05 -175.909731 1.6e-05 157.596744
0.984108 -126.878873 0.103592 -40.649597 1.6e-05 157.597053 1e-05 -176.065539
1e-05 -175.909731 1.6e-05 157.597053 0.650822 -34.844353 0.754142 -124.951986
1.6e-05 157.596744 1e-05 -176.065539 0.754142 -124.951986 0.650824 -35.130623
51000.0 0.110085 -40.696858 0.983308 -129.420255 1e-05 -176.879276 1.6e-05 153.299635
0.983308 -129.420255 0.110264 -42.893914 1.6e-05 153.295669 1e-05 -177.049125
1e-05 -176.879276 1.6e-05 153.295669 0.646919 -36.918387 0.757405 -127.04398
1.6e-05 153.299635 1e-05 -177.049125 0.757405 -127.04398 0.646922 -37.207085
52000.0 0.116779 -43.104979 0.982461 -131.959685 1.1e-05 -179.695697 1.6e-05 150.930839
0.982461 -131.959685 0.116945 -45.164017 1.6e-05 150.922267 1.1e-05 -179.900303
1.1e-05 -179.695697 1.6e-05 150.922267 0.642421 -39.007352 0.761129 -129.151427
1.6e-05 150.930839 1.1e-05 -179.900303 0.761129 -129.151427 0.642424 -39.298205
53000.0 0.123464 -45.524579 0.981572 -134.496965 1.1e-05 179.073675 1.7e-05 148.414548
0.981572 -134.496965 0.123619 -47.455396 1.7e-05 148.401751 1.1e-05 178.855861
1.1e-05 179.073675 1.7e-05 148.401751 0.637305 -41.113383 0.765311 -131.276391
1.7e-05 148.414548 1.1e-05 178.855861 0.765311 -131.276391 0.637307 -41.406097
54000.0 0.13012 -47.953513 0.980644 -137.031754 1.1e-05 176.125508 1.7e-05 147.543645
0.980644 -137.031754 0.130265 -49.764599 1.7e-05 147.553475 1.1e-05 177.475134
1.1e-05 176.125508 1.7e-05 147.553475 0.631547 -43.238628 0.769954 -133.421194
1.7e-05 147.543645 1.1e-05 177.475134 0.769954 -133.421194 0.631549 -43.532887
55000.0 0.136726 -50.389926 0.979679 -139.56383 1.1e-05 174.781899 1.8e-05 143.602107
0.979679 -139.56383 0.136861 -52.088705 1.8e-05 143.576855 1.1e-05 174.5294
1.1e-05 174.781899 1.8e-05 143.576855 0.625118 -45.385306 0.775054 -135.588028
1.8e-05 143.602107 1.1e-05 174.5294 0.775054 -135.588028 0.625123 -45.680767
56000.0 0.143263 -52.832217 0.97868 -142.092863 1.1e-05 173.306894 1.8e-05 141.227345
0.97868 -142.092863 0.14339 -54.42502 1.8e-05 141.176067 1.2e-05 171.520493
1.1e-05 173.306894 1.8e-05 141.176067 0.617993 -47.555646 0.780612 -137.779325
1.8e-05 141.227345 1.2e-05 171.520493 0.780612 -137.779325 0.617996 -47.851939
57000.0 0.149711 -55.278954 0.977652 -144.61868 1.1e-05 171.740861 1.9e-05 138.77265
0.977652 -144.61868 0.149829 -56.771501 1.9e-05 138.710387 1.2e-05 169.921157
1.1e-05 171.740861 1.9e-05 138.710387 0.610135 -49.751942 0.78662 -139.997355
1.9e-05 138.77265 1.2e-05 169.921157 0.78662 -139.997355 0.610139 -50.048665
58000.0 0.15605 -57.728998 0.9766 -147.140989 1.2e-05 168.530191 1.9e-05 134.997097
0.9766 -147.140989 0.156162 -59.126043 1.9e-05 134.958059 1.2e-05 168.209751
1.2e-05 168.530191 1.9e-05 134.958059 0.601511 -51.976497 0.793076 -142.24463
1.9e-05 134.997097 1.2e-05 168.209751 0.793076 -142.24463 0.601515 -52.273209
59000.0 0.16226 -60.181279 0.975527 -149.659625 1.2e-05 166.734087 2e-05 132.703047
0.975527 -149.659625 0.162365 -61.487198 2e-05 132.633368 1.2e-05 164.955874
1.2e-05 166.734087 2e-05 132.633368 0.592082 -54.231652 0.799971 -144.523542
2e-05 132.703047 1.2e-05 164.955874 0.799971 -144.523542 0.592086 -54.527868
60000.0 0.168321 -62.634904 0.97444 -152.174357 1.2e-05 163.442463 2e-05 131.711929
0.97444 -152.174357 0.168421 -63.853474 2e-05 131.66026 1.2e-05 163.066663
1.2e-05 163.442463 2e-05 131.66026 0.581807 -56.519748 0.807293 -146.836653
2e-05 131.711929 1.2e-05 163.066663 0.807293 -146.836653 0.581813 -56.814933
61000.0 0.174215 -65.089121 0.973345 -154.685096 1.2e-05 161.377726 2.1e-05 127.988496
0.973345 -154.685096 0.17431 -66.223595 2.1e-05 127.93222 1.2e-05 160.995469
1.2e-05 161.377726 2.1e-05 127.93222 0.570645 -58.843125 0.815031 -149.18639
2.1e-05 127.988496 1.2e-05 160.995469 0.815031 -149.18639 0.57065 -59.136685
62000.0 0.179922 -67.543284 0.972247 -157.191662 1.2e-05 159.229735 2.1e-05 125.702845
0.972247 -157.191662 0.180013 -68.596543 2.1e-05 125.618758 1.3e-05 157.461141
1.2e-05 159.229735 2.1e-05 125.618758 0.558549 -61.204109 0.823164 -151.575328
2.1e-05 125.702845 1.3e-05 157.461141 0.823164 -151.575328 0.558554 -61.49538
63000.0 0.185424 -69.996804 0.971154 -159.694 1.3e-05 155.606314 2.2e-05 123.279427
0.971154 -159.694 0.185511 -70.971389 2.2e-05 123.22783 1.2e-05 156.536975
1.3e-05 155.606314 2.2e-05 123.22783 0.545471 -63.604965 0.831673 -154.005944
2.2e-05 123.279427 1.2e-05 156.536975 0.831673 -154.005944 0.545478 -63.893197
