! File created by SignalIntegrity v1.1.14: Signal and Power Integrity Tools
! https://github.com/TeledyneLeCroy/SignalIntegrity
# MHz S MA R 50.0
0.0 0.000493 0.0 0.999507 0.0 0.0 180.0 0.0 180.0
0.0 180.0 0.0 0.0 0.0 180.0 0.0 180.0
0.0 0.0 0.0 180.0 0.0 180.0 0.0 180.0
0.999507 0.0 0.000493 0.0 0.0 180.0 0.0 180.0
0.0 180.0 0.0 180.0 0.0 180.0 0.0 180.0
0.0 0.0 0.0 180.0 0.0 180.0 0.0 180.0
0.0 180.0 0.0 180.0 0.000493 0.0 0.999507 0.0
0.0 180.0 0.0 0.0 0.0 0.0 0.0 0.0
0.0 180.0 0.0 0.0 0.0 0.0 0.0 0.0
0.0 180.0 0.0 180.0 0.999507 0.0 0.000493 0.0
0.0 180.0 0.0 180.0 0.0 0.0 0.0 0.0
0.0 180.0 0.0 180.0 0.0 0.0 0.0 0.0
0.0 180.0 0.0 180.0 0.0 180.0 0.0 180.0
0.000493 0.0 0.999507 0.0 0.0 180.0 0.0 180.0
0.0 180.0 0.0 180.0 0.0 180.0 0.0 180.0
0.0 0.0 0.0 0.0 0.0 180.0 0.0 180.0
0.999507 0.0 0.000493 0.0 0.0 180.0 0.0 180.0
0.0 0.0 0.0 180.0 0.0 180.0 0.0 180.0
0.0 180.0 0.0 0.0 0.0 0.0 0.0 0.0
0.0 180.0 0.0 180.0 0.000493 0.0 0.999507 0.0
0.0 180.0 0.0 0.0 0.0 0.0 0.0 0.0
0.0 180.0 0.0 0.0 0.0 0.0 0.0 0.0
0.0 180.0 0.0 180.0 0.999507 0.0 0.000493 0.0
0.0 180.0 0.0 180.0 0.0 0.0 0.0 0.0
0.0 0.0 0.0 0.0 0.0 180.0 0.0 180.0
0.0 0.0 0.0 0.0 0.0 180.0 0.0 180.0
0.000493 0.0 0.999507 0.0 0.0 180.0 0.0 180.0
0.0 0.0 0.0 0.0 0.0 180.0 0.0 180.0
0.0 0.0 0.0 0.0 0.0 180.0 0.0 180.0
0.999507 0.0 0.000493 0.0 0.0 180.0 0.0 180.0
0.0 180.0 0.0 0.0 0.0 0.0 0.0 0.0
0.0 180.0 0.0 0.0 0.0 0.0 0.0 0.0
0.0 180.0 0.0 180.0 0.000493 0.0 0.999507 0.0
0.0 180.0 0.0 0.0 0.0 0.0 0.0 0.0
0.0 180.0 0.0 0.0 0.0 0.0 0.0 0.0
0.0 180.0 0.0 180.0 0.999507 0.0 0.000493 0.0
1000.0 0.002666 47.04823 0.998262 -2.411573 0.000111 88.939233 1.4e-05 80.179038
0.000356 -92.39622 3e-06 78.33397 0.001064 -93.17111 0.000389 84.288833
2.5e-05 -93.370647 1.1e-05 84.30014 0.000149 -94.473792 9.3e-05 83.5506
0.998262 -2.411573 0.002669 46.973529 1.4e-05 80.177291 0.000111 88.940061
3e-06 78.333734 0.000356 -92.395891 0.000389 84.288807 0.001064 -93.170881
1.1e-05 84.300124 2.5e-05 -93.370523 9.3e-05 83.550602 0.000149 -94.473478
0.000111 88.939233 1.4e-05 80.177291 0.0355 84.044753 0.997616 -3.12808
0.00111 86.895586 0.000395 -95.63258 0.005277 85.537774 0.003355 -96.395758
0.00015 85.539915 9.3e-05 -96.486253 0.00144 84.718979 0.00104 -96.980205
1.4e-05 80.179038 0.000111 88.940061 0.997616 -3.12808 0.0355 84.038062
0.000395 -95.632599 0.00111 86.895857 0.003355 -96.395752 0.005277 85.538054
9.3e-05 -96.48631 0.00015 85.540325 0.00104 -96.980202 0.00144 84.719385
0.000356 -92.39622 3e-06 78.333734 0.00111 86.895586 0.000395 -95.632599
0.002647 46.667673 0.998261 -2.412432 0.0 90.630499 0.0 89.820964
0.000356 -92.396227 3e-06 78.240091 0.00111 -93.104479 0.000395 84.36783
3e-06 78.33397 0.000356 -92.395891 0.000395 -95.63258 0.00111 86.895857
0.998261 -2.412432 0.002649 46.592772 0.0 89.834674 0.0 90.672379
3e-06 78.240359 0.000356 -92.395897 0.000395 84.367848 0.00111 -93.10421
0.001064 -93.17111 0.000389 84.288807 0.005277 85.537774 0.003355 -96.395752
0.0 90.6305 0.0 89.834405 0.035046 83.987695 0.997613 -3.121239
0.001065 86.830087 0.000388 -95.719948 0.005276 85.536593 0.003357 -96.392827
0.000389 84.288833 0.001064 -93.170881 0.003355 -96.395758 0.005277 85.538054
0.0 89.821233 0.0 90.672379 0.997613 -3.121239 0.035046 83.980906
0.000388 -95.719938 0.001065 86.830332 0.003357 -96.392833 0.005276 85.536864
2.5e-05 -93.370647 1.1e-05 84.300124 0.00015 85.539915 9.3e-05 -96.48631
0.000356 -92.396227 3e-06 78.240359 0.001065 86.830087 0.000388 -95.719938
0.002667 47.061866 0.998262 -2.411517 0.000111 -91.061133 1.4e-05 -99.804198
1.1e-05 84.30014 2.5e-05 -93.370523 9.3e-05 -96.486253 0.00015 85.540325
3e-06 78.240091 0.000356 -92.395897 0.000388 -95.719948 0.001065 86.830332
0.998262 -2.411517 0.00267 46.987176 1.4e-05 -99.805842 0.000111 -91.060309
0.000149 -94.473792 9.3e-05 83.550602 0.00144 84.718979 0.00104 -96.980202
0.00111 -93.104479 0.000395 84.367848 0.005276 85.536593 0.003357 -96.392833
0.000111 -91.061133 1.4e-05 -99.805844 0.035499 84.044635 0.997616 -3.128127
9.3e-05 83.5506 0.000149 -94.473478 0.00104 -96.980205 0.00144 84.719385
0.000395 84.36783 0.00111 -93.10421 0.003357 -96.392827 0.005276 85.536864
1.4e-05 -99.804196 0.000111 -91.060309 0.997616 -3.128127 0.035499 84.037943
2000.0 0.004005 51.219219 0.997743 -4.781316 0.000222 87.861496 2.8e-05 70.139363
0.000712 -94.749489 6e-06 70.636046 0.002121 -96.27306 0.000774 78.743607
5.1e-05 -96.668469 2.1e-05 78.75203 0.000296 -98.854788 0.000185 77.230397
0.997743 -4.781316 0.004014 51.012801 2.8e-05 70.135889 0.000222 87.862876
6e-06 70.635557 0.000712 -94.749031 0.000774 78.743555 0.002121 -96.272703
2.1e-05 78.751999 5.1e-05 -96.668309 0.000185 77.230401 0.000296 -98.8542
0.000222 87.861496 2.8e-05 70.135889 0.069991 81.905603 0.995224 -6.204254
0.002214 83.858093 0.000786 -101.098531 0.010485 81.168902 0.006669 -102.663341
0.000298 81.172341 0.000184 -102.842544 0.002855 79.542251 0.002065 -103.832963
2.8e-05 70.139364 0.000222 87.862876 0.995224 -6.204254 0.069991 81.892188
0.000786 -101.098567 0.002214 83.858529 0.006669 -102.663329 0.010485 81.169424
0.000184 -102.842659 0.000298 81.173119 0.002065 -103.832958 0.002855 79.543045
0.000712 -94.749489 6e-06 70.635557 0.002214 83.858093 0.000786 -101.098567
0.003962 50.767577 0.99774 -4.783026 0.0 91.295075 0.0 89.602504
0.000712 -94.749507 6e-06 70.482779 0.002214 -96.142036 0.000786 78.902275
6e-06 70.636046 0.000712 -94.749031 0.000786 -101.098531 0.002214 83.858529
0.99774 -4.783026 0.003971 50.559917 0.0 89.628406 0.0 91.377166
6e-06 70.483335 0.000712 -94.749047 0.000786 78.90231 0.002214 -96.141603
0.002121 -96.27306 0.000774 78.743555 0.010485 81.168902 0.006669 -102.663329
0.0 91.295073 0.0 89.628864 0.069079 81.83999 0.995214 -6.190323
0.002123 83.729291 0.000772 -101.273645 0.010481 81.166557 0.006673 -102.657535
0.000774 78.743607 0.002121 -96.272703 0.006669 -102.663341 0.010485 81.169424
0.0 89.602046 0.0 91.377168 0.995214 -6.190323 0.069079 81.826379
0.000772 -101.273625 0.002123 83.729679 0.006673 -102.657546 0.010481 81.167062
5.1e-05 -96.668469 2.1e-05 78.751999 0.000298 81.172341 0.000184 -102.842659
0.000712 -94.749507 6e-06 70.483335 0.002123 83.729291 0.000772 -101.273625
0.004006 51.23488 0.997743 -4.781204 0.000222 -92.139232 2.8e-05 -109.826657
2.1e-05 78.75203 5.1e-05 -96.668309 0.000184 -102.842544 0.000298 81.173119
6e-06 70.482779 0.000712 -94.749047 0.000772 -101.273645 0.002123 83.729679
0.997743 -4.781204 0.004015 51.028521 2.8e-05 -109.829929 0.000222 -92.137856
0.000296 -98.854788 0.000185 77.230401 0.002855 79.542251 0.002065 -103.832958
0.002214 -96.142036 0.000786 78.90231 0.010481 81.166557 0.006673 -102.657546
0.000222 -92.139232 2.8e-05 -109.829929 0.069989 81.905454 0.995224 -6.204348
0.000185 77.230397 0.000296 -98.8542 0.002065 -103.832963 0.002855 79.543045
0.000786 78.902275 0.002214 -96.141603 0.006673 -102.657535 0.010481 81.167062
2.8e-05 -109.826656 0.000222 -92.137856 0.995224 -6.204348 0.069989 81.892037
3000.0 0.005198 52.581621 0.997342 -7.144126 0.000336 86.691734 4.2e-05 60.086263
0.001066 -97.095624 9e-06 63.571629 0.003165 -99.346594 0.001153 73.242428
7.5e-05 -99.935353 3.2e-05 73.246409 0.00044 -103.183246 0.000275 70.963255
0.997342 -7.144126 0.005215 52.216716 4.2e-05 60.081089 0.000336 86.693557
9e-06 63.570879 0.001066 -97.095068 0.001153 73.242351 0.003165 -99.346084
3.2e-05 73.246364 7.5e-05 -99.935128 0.000275 70.963262 0.00044 -103.182331
0.000336 86.691734 4.2e-05 60.081089 0.10396 79.21668 0.991776 -9.256477
0.003305 80.845567 0.001172 -106.52449 0.015568 76.852843 0.009917 -108.877879
0.000442 76.857313 0.000273 -109.145686 0.004226 74.432024 0.003064 -110.621487
4.2e-05 60.086263 0.000336 86.693557 0.991776 -9.256477 0.103961 79.196534
0.001172 -106.524545 0.003305 80.846191 0.009917 -108.87786 0.015568 76.853659
0.000273 -109.145859 0.000442 76.858514 0.003064 -110.62148 0.004226 74.433261
0.001066 -97.095624 9e-06 63.570879 0.003305 80.845567 0.001172 -106.524545
0.005131 52.092129 0.997335 -7.146666 0.0 92.019005 0.0 89.310383
0.001066 -97.095654 9e-06 63.364458 0.003305 -99.154627 0.001172 73.476706
9e-06 63.571629 0.001066 -97.095068 0.001172 -106.52449 0.003305 80.846191
0.997335 -7.146666 0.005149 51.724184 0.0 89.348809 0.0 92.139394
9e-06 63.365311 0.001066 -97.095095 0.001172 73.47676 0.003305 -99.154005
0.003165 -99.346594 0.001153 73.242351 0.015568 76.852843 0.009917 -108.87786
0.0 92.019006 0.0 89.348717 0.102586 79.13646 0.991755 -9.234957
0.003168 80.656904 0.001151 -106.783249 0.015563 76.849329 0.009923 -108.869205
0.001153 73.242428 0.003165 -99.346084 0.009917 -108.877879 0.015568 76.853659
0.0 89.310475 0.0 92.139393 0.991755 -9.234957 0.102586 79.116016
0.001151 -106.783219 0.003168 80.65746 0.009923 -108.869222 0.015563 76.850118
7.5e-05 -99.935353 3.2e-05 73.246364 0.000442 76.857313 0.000273 -109.145859
0.001066 -97.095654 9e-06 63.365311 0.003168 80.656904 0.001151 -106.783219
0.0052 52.597981 0.997342 -7.143958 0.000336 -93.309325 4.2e-05 -119.862472
3.2e-05 73.246409 7.5e-05 -99.935128 0.000273 -109.145686 0.000442 76.858514
9e-06 63.364458 0.001066 -97.095095 0.001151 -106.783249 0.003168 80.65746
0.997342 -7.143958 0.005218 52.233213 4.2e-05 -119.867345 0.000336 -93.307509
0.00044 -103.183246 0.000275 70.963262 0.004226 74.432024 0.003064 -110.62148
0.003305 -99.154627 0.001172 73.47676 0.015563 76.849329 0.009923 -108.869222
0.000336 -93.309325 4.2e-05 -119.867346 0.103958 79.216485 0.991776 -9.256619
0.000275 70.963255 0.00044 -103.182331 0.003064 -110.621487 0.004226 74.433261
0.001172 73.476706 0.003305 -99.154005 0.009923 -108.869205 0.015563 76.850118
4.2e-05 -119.862471 0.000336 -93.307509 0.991776 -9.256619 0.103958 79.196336
4000.0 0.006312 52.802615 0.997 -9.503308 0.000453 85.391667 5.5e-05 50.026899
0.001418 -99.438257 1.2e-05 56.82833 0.004192 -102.389054 0.001526 67.780871
0.0001 -103.16792 4.2e-05 67.780156 0.000578 -107.447769 0.000363 64.755039
0.997 -9.503308 0.006341 52.262274 5.5e-05 50.020067 0.000453 85.393824
1.2e-05 56.827319 0.001418 -99.437617 0.001526 67.780768 0.004192 -102.388336
4.2e-05 67.780096 0.0001 -103.167568 0.000363 64.755049 0.000578 -107.44644
0.000453 85.391667 5.5e-05 50.020067 0.137295 76.388177 0.987276 -12.281127
0.004379 77.85932 0.001552 -111.917056 0.020476 72.601024 0.013073 -115.033368
0.000581 72.606283 0.00036 -115.389879 0.005535 69.405162 0.004027 -117.333848
5.5e-05 50.026899 0.000453 85.393824 0.987276 -12.281127 0.137296 76.361293
0.001552 -111.91713 0.004378 77.860185 0.013073 -115.033343 0.020476 72.602221
0.00036 -115.390111 0.000581 72.607995 0.004027 -117.333838 0.005535 69.406933
0.001418 -99.438257 1.2e-05 56.827319 0.004379 77.85932 0.001552 -111.91713
0.006221 52.286072 0.996989 -9.506649 0.0 92.820793 0.0 88.920942
0.001418 -99.4383 1.2e-05 56.57063 0.004378 -102.140939 0.001552 68.08453
1.2e-05 56.82833 0.001418 -99.437617 0.001552 -111.917056 0.004378 77.860185
0.996989 -9.506649 0.00625 51.740283 0.0 88.969954 0.0 92.976084
1.2e-05 56.571779 0.001418 -99.437657 0.001552 68.084602 0.004378 -102.140077
0.004192 -102.389054 0.001526 67.780768 0.020476 72.601024 0.013073 -115.033343
0.0 92.820793 0.0 88.969964 0.135449 76.292952 0.987247 -12.251323
0.004195 77.615589 0.001523 -112.253208 0.020469 72.596328 0.01308 -115.021832
0.001526 67.780871 0.004192 -102.388336 0.013073 -115.033368 0.020476 72.602221
0.0 88.920932 0.0 92.976084 0.987247 -12.251323 0.13545 76.265667
0.001523 -112.253169 0.004195 77.616367 0.01308 -115.021855 0.020469 72.597489
0.0001 -103.16792 4.2e-05 67.780096 0.000581 72.606283 0.00036 -115.390111
0.001418 -99.4383 1.2e-05 56.571779 0.004195 77.615589 0.001523 -112.253169
0.006315 52.819214 0.997 -9.503084 0.000453 -94.609685 5.5e-05 -129.904477
4.2e-05 67.780156 0.0001 -103.167568 0.00036 -115.389879 0.000581 72.607995
1.2e-05 56.57063 0.001418 -99.437657 0.001523 -112.253208 0.004195 77.616367
0.997 -9.503084 0.006344 52.279115 5.5e-05 -129.910913 0.000453 -94.607535
0.000578 -107.447769 0.000363 64.755049 0.005535 69.405162 0.004027 -117.333838
0.004378 -102.140939 0.001552 68.084602 0.020469 72.596328 0.01308 -115.021855
0.000453 -94.609685 5.5e-05 -129.910913 0.137292 76.387931 0.987277 -12.281318
0.000363 64.755039 0.000578 -107.44644 0.004027 -117.333848 0.005535 69.406933
0.001552 68.08453 0.004378 -102.140077 0.01308 -115.021832 0.020469 72.597489
5.5e-05 -129.904477 0.000453 -94.607535 0.987277 -12.281318 0.137293 76.361043
5000.0 0.007371 52.407038 0.996697 -11.860139 0.000572 83.936263 6.6e-05 39.956314
0.001767 -101.778899 1.5e-05 50.285255 0.005196 -105.395499 0.00189 62.361419
0.000124 -106.360359 5.2e-05 62.356395 0.000711 -111.634535 0.000447 58.615928
0.996697 -11.860139 0.007413 51.679217 6.6e-05 39.947885 0.000572 83.938649
1.5e-05 50.283985 0.001767 -101.778184 0.00189 62.361291 0.005196 -105.394495
5.2e-05 62.356321 0.000124 -106.359796 0.000447 58.615941 0.000711 -111.632673
0.000572 83.936263 6.6e-05 39.947885 0.169862 73.519215 0.981783 -15.27302
0.005431 74.903178 0.001924 -117.275454 0.025163 68.427283 0.016113 -121.119584
0.000714 68.43311 0.000444 -121.564973 0.006766 64.480849 0.004944 -123.954595
6.6e-05 39.956314 0.000572 83.938649 0.981783 -15.27302 0.169862 73.485587
0.001924 -117.275546 0.005431 74.90436 0.016113 -121.119554 0.025162 68.428978
0.000444 -121.565264 0.000714 68.435456 0.004944 -123.954583 0.006765 64.483279
0.001767 -101.778899 1.5e-05 50.283985 0.005431 74.903178 0.001924 -117.275546
0.007255 51.868101 0.996679 -11.864242 0.0 93.707528 0.0 88.418499
0.001767 -101.778957 1.5e-05 49.979862 0.005431 -105.097145 0.001924 62.72652
1.5e-05 50.285255 0.001767 -101.778184 0.001924 -117.275454 0.005431 74.90436
0.996679 -11.864242 0.007298 51.131913 0.0 88.476851 0.0 93.893293
1.5e-05 49.981304 0.001767 -101.778238 0.001924 62.726609 0.005431 -105.095967
0.005196 -105.395499 0.00189 62.361291 0.025163 68.427283 0.016113 -121.119554
0.0 93.707533 0.0 88.476684 0.167535 73.410234 0.981749 -15.234111
0.0052 74.610288 0.001886 -117.681046 0.025155 68.421386 0.016121 -121.105191
0.00189 62.361419 0.005196 -105.394495 0.016113 -121.119584 0.025162 68.428978
0.0 88.418667 0.0 93.893287 0.981749 -15.234111 0.167536 73.376096
0.001886 -117.680997 0.0052 74.611367 0.016121 -121.105219 0.025153 68.423037
0.000124 -106.360359 5.2e-05 62.356321 0.000714 68.43311 0.000444 -121.565264
0.001767 -101.778957 1.5e-05 49.981304 0.0052 74.610288 0.001886 -117.680997
0.007375 52.423673 0.996697 -11.859859 0.000572 -96.065335 6.6e-05 -139.957634
5.2e-05 62.356395 0.000124 -106.359796 0.000444 -121.564973 0.000714 68.435456
1.5e-05 49.979862 0.001767 -101.778238 0.001886 -117.681046 0.0052 74.611367
0.996697 -11.859859 0.007418 51.696218 6.7e-05 -139.965575 0.000572 -96.062956
0.000711 -111.634535 0.000447 58.615941 0.006766 64.480849 0.004944 -123.954583
0.005431 -105.097145 0.001924 62.726609 0.025155 68.421386 0.016121 -121.105219
0.000572 -96.065335 6.7e-05 -139.965575 0.169858 73.518915 0.981784 -15.27326
0.000447 58.615928 0.000711 -111.632673 0.004944 -123.954595 0.006765 64.483279
0.001924 62.72652 0.005431 -105.095967 0.016121 -121.105191 0.025153 68.423037
6.6e-05 -139.957634 0.000572 -96.062956 0.981784 -15.27326 0.169858 73.485282
6000.0 0.008387 51.628081 0.99642 -14.21527 0.000696 82.312803 7.7e-05 29.863825
0.002114 -104.118392 1.7e-05 43.880029 0.006173 -108.360846 0.002244 56.988059
0.000147 -109.506655 6.2e-05 56.979588 0.000836 -115.729964 0.000528 52.556429
0.99642 -14.21527 0.008445 50.703623 7.7e-05 29.853886 0.000696 82.315325
1.7e-05 43.878509 0.002114 -104.117606 0.002244 56.987907 0.006173 -108.359456
6.2e-05 56.979498 0.000147 -109.505772 0.000528 52.556447 0.000836 -115.727417
0.000696 82.312803 7.7e-05 29.853886 0.201532 70.649594 0.975379 -18.226983
0.006457 71.981403 0.002287 -122.596994 0.029591 64.345179 0.019017 -127.126041
0.00084 64.351409 0.000524 -127.660477 0.007905 59.67769 0.005809 -130.468567
7.7e-05 29.863825 0.000696 82.315325 0.975379 -18.226983 0.201533 70.609215
0.002287 -122.597103 0.006457 71.982998 0.019017 -127.126005 0.029588 64.347521
0.000524 -127.660828 0.00084 64.354542 0.005809 -130.468552 0.007905 59.680934
0.002114 -104.118392 1.7e-05 43.878509 0.006457 71.981403 0.002287 -122.597103
0.008246 51.069256 0.996394 -14.220088 0.0 94.672987 0.0 87.796567
0.002114 -104.118465 1.7e-05 43.529681 0.006457 -108.018987 0.002287 57.405366
1.7e-05 43.880029 0.002114 -104.117606 0.002287 -122.596994 0.006457 71.982998
0.996394 -14.220088 0.008305 50.133067 0.0 87.86232 0.0 94.884058
1.7e-05 43.531405 0.002114 -104.117675 0.002287 57.405473 0.006457 -108.017398
0.006173 -108.360846 0.002244 56.987907 0.029591 64.345179 0.019017 -127.126005
0.0 94.67299 0.0 87.862261 0.198716 70.528871 0.97535 -18.178107
0.006178 71.646085 0.002239 -123.062776 0.02958 64.338058 0.019026 -127.108793
0.002244 56.988059 0.006173 -108.359456 0.019017 -127.126041 0.029588 64.347521
0.0 87.796626 0.0 94.884055 0.97535 -18.178107 0.198717 70.48787
0.002239 -123.062718 0.006178 71.647565 0.019026 -127.108827 0.029578 64.340347
0.000147 -109.506655 6.2e-05 56.979498 0.00084 64.351409 0.000524 -127.660828
0.002114 -104.118465 1.7e-05 43.531405 0.006178 71.646085 0.002239 -123.062718
0.008392 51.644649 0.99642 -14.214933 0.000696 -97.688994 7.7e-05 -150.032663
6.2e-05 56.979588 0.000147 -109.505772 0.000524 -127.660477 0.00084 64.354542
1.7e-05 43.529681 0.002114 -104.117675 0.002239 -123.062776 0.006178 71.647565
0.99642 -14.214933 0.00845 50.720699 7.7e-05 -150.042028 0.000696 -97.686477
0.000836 -115.729964 0.000528 52.556447 0.007905 59.67769 0.005809 -130.468552
0.006457 -108.018987 0.002287 57.405473 0.02958 64.338058 0.019026 -127.108827
0.000696 -97.688994 7.7e-05 -150.042028 0.201527 70.649236 0.97538 -18.227275
0.000528 52.556429 0.000836 -115.727417 0.005809 -130.468567 0.007905 59.680934
0.002287 57.405366 0.006457 -108.017398 0.019026 -127.108793 0.029578 64.340347
7.7e-05 -150.032663 0.000696 -97.686477 0.97538 -18.227275 0.201528 70.608853
7000.0 0.009367 50.589483 0.996163 -16.569085 0.000822 80.519368 8.6e-05 19.733843
0.002457 -106.457267 2e-05 37.575296 0.00712 -111.280475 0.002586 51.664846
0.000169 -112.601217 7.1e-05 51.654216 0.000953 -119.721515 0.000604 46.586239
0.996163 -16.569085 0.009441 49.461109 8.6e-05 19.722516 0.000822 80.521954
2e-05 37.573537 0.002457 -106.456413 0.002586 51.66467 0.00712 -111.278584
7.1e-05 51.654112 0.000169 -112.599888 0.000604 46.586263 0.000953 -119.718103
0.000822 80.519368 8.6e-05 19.722516 0.232193 67.800108 0.968159 -21.13832
0.007454 69.098103 0.002639 -127.878508 0.033727 60.367184 0.021769 -133.043119
0.000957 60.373747 0.0006 -133.666706 0.008944 55.012809 0.006615 -136.862027
8.6e-05 19.733843 0.000822 80.521954 0.968159 -21.13832 0.232195 67.752972
0.002639 -127.878635 0.007453 69.100222 0.021769 -133.043077 0.033723 60.370353
0.0006 -133.667119 0.000957 60.37785 0.006615 -136.862011 0.008943 55.017059
0.002457 -106.457267 2e-05 37.573537 0.007454 69.098103 0.002639 -127.878635
0.0092 50.012499 0.996129 -16.574565 0.0 95.698898 0.0 87.058505
0.002457 -106.457358 2e-05 37.182775 0.007454 -110.902355 0.00264 52.124235
2e-05 37.575296 0.002457 -106.456413 0.002639 -127.878508 0.007453 69.100222
0.996129 -16.574565 0.009276 48.868613 0.0 87.130187 0.0 95.929062
2e-05 37.184769 0.002457 -106.456498 0.00264 52.124359 0.007453 -110.900241
0.00712 -111.280475 0.002586 51.66467 0.033727 60.367184 0.021769 -133.043077
0.0 95.698911 0.0 87.129994 0.228881 67.670058 0.968151 -21.078653
0.007126 68.727602 0.00258 -128.394346 0.033716 60.358812 0.02178 -133.023022
0.002586 51.664846 0.00712 -111.278584 0.021769 -133.043119 0.033723 60.370353
0.0 87.058698 0.0 95.929049 0.968151 -21.078653 0.228883 67.622181
0.00258 -128.394279 0.007126 68.729598 0.02178 -133.023061 0.033712 60.361917
0.000169 -112.601217 7.1e-05 51.654112 0.000957 60.373747 0.0006 -133.667119
0.002457 -106.457358 2e-05 37.184769 0.007126 68.727602 0.00258 -128.394279
