! File created by SignalIntegrity v1.1.14: Signal and Power Integrity Tools
! https://github.com/TeledyneLeCroy/SignalIntegrity
# MHz S MA R 50.0
0.0 0.000493 0.0 0.999507 0.0 0.0 180.0 0.0 180.0
0.999507 0.0 0.000493 0.0 0.0 180.0 0.0 0.0
0.0 180.0 0.0 180.0 0.000493 0.0 0.999507 0.0
0.0 180.0 0.0 0.0 0.999507 0.0 0.000493 0.0
1000.0 0.002043 -34.550521 0.998264 -2.591083 0.0 -92.239897 0.0 -91.801437
0.998264 -2.591083 0.002046 -34.496423 0.0 -91.808273 0.0 -92.224371
0.0 -92.239897 0.0 -91.808217 0.032995 83.671554 0.997723 -3.320056
0.0 -91.801494 0.0 -92.224371 0.997723 -3.320056 0.032995 83.664559
2000.0 0.003643 -57.216604 0.997746 -5.140527 1e-06 -94.465253 0.0 -93.623262
0.997746 -5.140527 0.003654 -57.021822 0.0 -93.636671 1e-06 -94.434638
1e-06 -94.465253 0.0 -93.636652 0.065032 81.44214 0.995645 -6.590673
0.0 -93.623281 1e-06 -94.434638 0.995645 -6.590673 0.065032 81.428103
3000.0 0.005429 -68.824659 0.997344 -7.683148 1e-06 -96.680013 1e-06 -95.460775
0.997344 -7.683148 0.005448 -68.495307 1e-06 -95.480461 1e-06 -96.63452
1e-06 -96.680013 1e-06 -95.48047 0.096654 78.615224 0.9927 -9.841925
1e-06 -95.460766 1e-06 -96.63452 0.9927 -9.841925 0.096655 78.594145
4000.0 0.00727 -76.419334 0.996999 -10.222214 1e-06 -98.881225 1e-06 -97.317717
0.996999 -10.222214 0.007298 -75.962444 1e-06 -97.343296 1e-06 -98.82109
1e-06 -98.881225 1e-06 -97.343287 0.127793 75.628257 0.988873 -13.072133
1e-06 -97.317726 1e-06 -98.82109 0.988873 -13.072133 0.127793 75.60014
5000.0 0.009108 -82.172565 0.996689 -12.758969 1e-06 -101.065691 1e-06 -99.198014
0.996689 -12.758969 0.009147 -81.590926 1e-06 -99.228926 1e-06 -100.991201
1e-06 -101.065691 1e-06 -99.228922 0.158352 72.585232 0.984192 -16.27779
1e-06 -99.198017 1e-06 -100.991201 0.984192 -16.27779 0.158352 72.550087
6000.0 0.010909 -86.928411 0.996404 -15.294039 2e-06 -103.230322 1e-06 -101.105029
0.996404 -15.294039 0.010959 -86.22205 1e-06 -101.140656 2e-06 -103.141817
2e-06 -103.230322 1e-06 -101.140654 0.188235 69.526824 0.978709 -19.455081
1e-06 -101.105031 2e-06 -103.141817 0.978709 -19.455081 0.188235 69.484663
7000.0 0.012648 -91.07884 0.996136 -17.827788 2e-06 -105.372271 2e-06 -103.041493
0.996136 -17.827788 0.01271 -90.245878 2e-06 -103.081147 2e-06 -105.270143
2e-06 -105.372271 2e-06 -103.08115 0.217352 66.473743 0.972483 -22.600319
2e-06 -103.041491 2e-06 -105.270143 0.972483 -22.600319 0.217353 66.424582
8000.0 0.014303 -94.83003 0.995881 -20.36045 2e-06 -107.488984 2e-06 -105.009379
0.995881 -20.36045 0.014378 -93.867061 2e-06 -105.052341 2e-06 -107.373687
2e-06 -107.488983 2e-06 -105.052345 0.245623 63.438428 0.965587 -25.710116
2e-06 -105.009375 2e-06 -107.373687 0.965587 -25.710116 0.245624 63.382286
9000.0 0.015857 -98.300511 0.995639 -22.892191 3e-06 -109.57824 2e-06 -107.009928
0.995639 -22.892191 0.015947 -97.202739 2e-06 -107.05546 3e-06 -109.450276
3e-06 -109.57824 2e-06 -107.055462 0.27298 60.429173 0.958096 -28.781483
2e-06 -107.009926 3e-06 -109.450276 0.958096 -28.781483 0.272981 60.366073
10000.0 0.017293 -101.562945 0.995406 -25.423135 3e-06 -111.638159 2e-06 -109.043692
0.995406 -25.423135 0.017398 -100.324181 2e-06 -109.091051 3e-06 -111.498085
3e-06 -111.638158 2e-06 -109.091057 0.299365 57.451863 0.950089 -31.811866
2e-06 -109.043687 3e-06 -111.498085 0.950089 -31.811866 0.299367 57.38183
11000.0 0.018596 -104.663936 0.995182 -27.953383 3e-06 -113.667208 3e-06 -111.110582
0.995182 -27.953383 0.018718 -103.276501 3e-06 -111.159063 3e-06 -113.51563
3e-06 -113.667209 3e-06 -111.159061 0.324736 54.510801 0.941649 -34.799173
3e-06 -111.110585 3e-06 -113.51563 0.941649 -34.799173 0.324738 54.433863
12000.0 0.019752 -107.634229 0.994966 -30.483025 3e-06 -115.664187 3e-06 -113.209985
0.994966 -30.483025 0.019891 -106.088775 3e-06 -113.258896 3e-06 -115.501759
3e-06 -115.664187 3e-06 -113.258895 0.349059 51.60915 0.932856 -37.741773
3e-06 -113.209986 3e-06 -115.501759 0.932856 -37.741773 0.349061 51.52534
13000.0 0.020746 -110.494281 0.994759 -33.012143 4e-06 -117.628217 3e-06 -115.340833
0.994759 -33.012143 0.020906 -108.779534 3e-06 -115.389534 4e-06 -117.455643
4e-06 -117.628216 3e-06 -115.389536 0.372314 48.749191 0.923788 -40.638482
3e-06 -115.340831 4e-06 -117.455643 0.923788 -40.638482 0.372316 48.658542
14000.0 0.021568 -113.257432 0.99456 -35.540818 4e-06 -119.558714 4e-06 -117.501703
0.99456 -35.540818 0.021749 -111.35984 4e-06 -117.549611 4e-06 -119.376742
4e-06 -119.558714 4e-06 -117.549614 0.39449 45.932489 0.914522 -43.488543
4e-06 -117.5017 4e-06 -119.376742 0.914522 -43.488543 0.394492 45.83504
15000.0 0.022204 -115.931722 0.994369 -38.069133 4e-06 -121.455373 4e-06 -119.690921
0.994369 -38.069133 0.022409 -113.834978 4e-06 -119.737514 4e-06 -121.264798
4e-06 -121.455373 4e-06 -119.737513 0.415584 43.160016 0.905129 -46.291595
4e-06 -119.690922 4e-06 -121.264797 0.905129 -46.291595 0.415586 43.055807
16000.0 0.022645 -118.520872 0.994186 -40.59717 4e-06 -123.318137 4e-06 -121.906643
0.994186 -40.59717 0.022876 -116.205292 4e-06 -121.951454 4e-06 -123.119796
4e-06 -123.318138 4e-06 -121.951451 0.435604 40.43224 0.895678 -49.047643
4e-06 -121.906646 4e-06 -123.119796 0.895678 -49.047643 0.435606 40.321314
17000.0 0.02288 -121.024691 0.994012 -43.125017 5e-06 -125.147173 4e-06 -124.146926
0.994012 -43.125017 0.02314 -118.466376 4e-06 -124.189544 5e-06 -124.941945
5e-06 -125.147172 4e-06 -124.189545 0.454561 37.749197 0.88623 -51.757018
4e-06 -124.146925 5e-06 -124.941945 0.88623 -51.757018 0.454564 37.631603
18000.0 0.0229 -123.439008 0.993846 -45.652767 5e-06 -126.942849 5e-06 -126.409784
0.993846 -45.652767 0.023193 -120.608711 5e-06 -126.449867 5e-06 -126.731657
5e-06 -126.942848 5e-06 -126.449872 0.472476 35.110562 0.876842 -54.420342
5e-06 -126.40978 5e-06 -126.731658 0.876842 -54.420342 0.472479 34.986348
19000.0 0.022697 -125.755099 0.993689 -48.180515 5e-06 -128.705707 5e-06 -128.693246
0.993689 -48.180515 0.023027 -122.616689 5e-06 -128.730519 5e-06 -128.489515
5e-06 -128.705707 5e-06 -128.730518 0.489371 32.515697 0.867567 -57.038491
5e-06 -128.693247 5e-06 -128.489515 0.867567 -57.038491 0.489374 32.384917
20000.0 0.022264 -127.958496 0.99354 -50.708359 5e-06 -130.436454 5e-06 -130.995401
0.99354 -50.708359 0.022636 -124.466823 5e-06 -131.029631 5e-06 -130.216264
5e-06 -130.436454 5e-06 -131.029631 0.505273 29.963702 0.858451 -59.61256
5e-06 -130.9954 5e-06 -130.216264 0.858451 -59.61256 0.505276 29.826412
21000.0 0.021594 -130.026856 0.993399 -53.236402 5e-06 -132.135936 6e-06 -133.314416
0.993399 -53.236402 0.022016 -126.124756 6e-06 -133.345431 5e-06 -131.912789
5e-06 -132.135935 6e-06 -133.345432 0.520211 27.453459 0.849536 -62.143827
6e-06 -133.314415 5e-06 -131.912789 0.849536 -62.143827 0.520215 27.30972
22000.0 0.020683 -131.926293 0.993265 -55.764749 6e-06 -133.805128 6e-06 -135.648567
0.993265 -55.764749 0.021164 -127.540327 6e-06 -135.676244 6e-06 -133.580105
6e-06 -133.805128 6e-06 -135.676246 0.534218 24.983671 0.840859 -64.633728
6e-06 -135.648565 6e-06 -133.580106 0.840859 -64.633728 0.534221 24.833545
23000.0 0.019527 -133.604971 0.993138 -58.293502 6e-06 -135.445127 6e-06 -137.996242
0.993138 -58.293502 0.020079 -128.639287 6e-06 -138.020509 6e-06 -135.219346
6e-06 -135.445127 6e-06 -138.020509 0.547324 22.552891 0.83245 -67.083822
6e-06 -137.996242 6e-06 -135.219346 0.83245 -67.083822 0.547328 22.396444
24000.0 0.018126 -134.981459 0.993017 -60.822768 6e-06 -137.057143 6e-06 -140.355969
0.993017 -60.822768 0.018766 -129.309012 6e-06 -140.37679 6e-06 -136.831754
6e-06 -137.057143 6e-06 -140.376791 0.559564 20.159553 0.824339 -69.495772
6e-06 -140.355967 6e-06 -136.831754 0.824339 -69.495772 0.559567 19.996856
25000.0 0.016482 -135.922403 0.9929 -63.352649 6e-06 -138.642495 7e-06 -142.726393
0.9929 -63.352649 0.017234 -129.372852 7e-06 -142.743779 6e-06 -138.418682
6e-06 -138.642495 7e-06 -142.74378 0.570969 17.802 0.81655 -71.871319
7e-06 -142.726393 6e-06 -138.418683 0.81655 -71.871319 0.570973 17.633125
26000.0 0.014601 -136.196489 0.992788 -65.883243 6e-06 -140.202611 7e-06 -145.106298
0.992788 -65.883243 0.015501 -128.54215 7e-06 -145.120293 6e-06 -139.981589
6e-06 -140.202611 7e-06 -145.120293 0.581572 15.478503 0.809102 -74.212267
7e-06 -145.106298 6e-06 -139.981589 0.809102 -74.212267 0.581576 15.303527
27000.0 0.012501 -135.370796 0.992677 -68.414646 6e-06 -141.739028 7e-06 -147.494592
0.992677 -68.414646 0.013605 -126.323214 7e-06 -147.505274 6e-06 -141.522037
6e-06 -141.739028 7e-06 -147.505273 0.591404 13.187276 0.802014 -76.520463
7e-06 -147.494592 6e-06 -141.522037 0.802014 -76.520463 0.591408 13.006279
28000.0 0.010223 -132.551541 0.992567 -70.946943 7e-06 -143.253396 8e-06 -149.890305
0.992567 -70.946943 0.011618 -121.836921 8e-06 -149.897783 7e-06 -143.041699
7e-06 -143.253397 8e-06 -149.897782 0.600495 10.926497 0.7953 -78.797785
8e-06 -149.890306 7e-06 -143.041699 0.7953 -78.797785 0.600499 10.739564
29000.0 0.007866 -125.665707 0.992454 -73.480215 7e-06 -144.747485 8e-06 -152.292587
0.992454 -73.480215 0.009695 -113.518565 8e-06 -152.296997 7e-06 -144.542362
7e-06 -144.747484 8e-06 -152.296998 0.608874 8.694318 0.788972 -81.046133
8e-06 -152.292586 7e-06 -144.542362 0.788972 -81.046133 0.608878 8.501537
30000.0 0.005734 -109.573374 0.992339 -76.014528 7e-06 -146.223178 8e-06 -154.700691
0.992339 -76.014528 0.008159 -99.046412 8e-06 -154.702199 7e-06 -146.025924
7e-06 -146.223178 8e-06 -154.702198 0.616569 6.488872 0.783042 -83.267415
8e-06 -154.700692 7e-06 -146.025923 0.783042 -83.267415 0.616573 6.290334
31000.0 0.004729 -76.857248 0.992216 -78.54994 7e-06 -147.682491 9e-06 -157.113978
0.992216 -78.54994 0.007587 -77.666015 9e-06 -157.112769 7e-06 -147.494403
7e-06 -147.682492 9e-06 -157.112768 0.623603 4.308285 0.777517 -85.463546
9e-06 -157.113979 7e-06 -147.494403 0.777517 -85.463546 0.623608 4.104087
32000.0 0.005965 -42.620157 0.992085 -81.086494 7e-06 -149.127571 9e-06 -159.531902
0.992085 -81.086494 0.008498 -55.366683 9e-06 -159.528182 7e-06 -148.949947
7e-06 -149.127571 9e-06 -159.528181 0.630002 2.150681 0.772405 -87.63644
9e-06 -159.531902 7e-06 -148.949946 0.772405 -87.63644 0.630007 1.940923
33000.0 0.008835 -25.058651 0.991943 -83.624216 7e-06 -150.560698 9e-06 -161.954002
0.991943 -83.624216 0.010772 -39.378323 9e-06 -161.947999 7e-06 -150.394824
7e-06 -150.560698 9e-06 -161.948 0.635787 0.014185 0.767711 -89.788004
9e-06 -161.954001 7e-06 -150.394825 0.767711 -89.788004 0.635792 -0.201029
34000.0 0.012475 -17.504913 0.991786 -86.163118 8e-06 -151.984293 1e-05 -164.379902
0.991786 -86.163118 0.013959 -29.979373 1e-05 -164.371861 8e-06 -151.83144
8e-06 -151.984292 1e-05 -164.371862 0.640977 -2.103075 0.76344 -91.920141
1e-05 -164.379901 8e-06 -151.83144 0.76344 -91.920141 0.640982 -2.323635
35000.0 0.016561 -14.351636 0.991612 -88.703192 8e-06 -153.400918 1e-05 -166.809301
0.991612 -88.703192 0.017738 -24.830119 1e-05 -166.799485 8e-06 -153.262329
8e-06 -153.400918 1e-05 -166.799485 0.645591 -4.202962 0.759596 -94.034743
1e-05 -166.809301 8e-06 -153.262329 0.759596 -94.034743 0.645596 -4.428754
36000.0 0.020979 -13.320857 0.991418 -91.244411 8e-06 -154.813276 1e-05 -169.241965
0.991418 -91.244411 0.021944 -22.189066 1e-05 -169.23065 8e-06 -154.690156
8e-06 -154.813276 1e-05 -169.23065 0.649643 -6.287333 0.756183 -96.133695
1e-05 -169.241965 8e-06 -154.690156 0.756183 -96.133695 0.649648 -6.518239
37000.0 0.025677 -13.441517 0.9912 -93.786728 8e-06 -156.224213 1.1e-05 -171.677733
0.9912 -93.786728 0.026489 -21.063878 1.1e-05 -171.665208 8e-06 -156.117721
8e-06 -156.224213 1.1e-05 -171.665209 0.653148 -8.358042 0.753203 -98.218873
1.1e-05 -171.677733 8e-06 -156.117722 0.753203 -98.218873 0.653153 -8.593936
38000.0 0.030628 -14.248024 0.990956 -96.330077 8e-06 -157.636711 1.1e-05 -174.116501
0.990956 -96.330077 0.031324 -20.899686 1.1e-05 -174.103068 8e-06 -157.547951
8e-06 -157.636711 1.1e-05 -174.103068 0.656118 -10.416932 0.750658 -100.292149
1.1e-05 -174.116501 8e-06 -157.547951 0.750658 -100.292149 0.656122 -10.657685
39000.0 0.035809 -15.493148 0.990683 -98.874366 8e-06 -159.053884 1.1e-05 -176.558229
0.990683 -98.874366 0.036416 -21.374393 1.1e-05 -176.544201 8e-06 -158.983893
8e-06 -159.053884 1.1e-05 -176.544201 0.658561 -12.465846 0.748551 -102.35539
1.1e-05 -176.558229 8e-06 -158.983893 0.748551 -102.35539 0.658566 -12.711322
40000.0 0.041205 -17.034531 0.990378 -101.419485 9e-06 -160.47897 1.2e-05 -179.002932
0.990378 -101.419485 0.04174 -22.291915 1.2e-05 -178.988632 9e-06 -160.428711
9e-06 -160.47897 1.2e-05 -178.988631 0.660485 -14.506625 0.746883 -104.410458
1.2e-05 -179.002932 9e-06 -160.428711 0.746883 -104.410458 0.66049 -14.756682
41000.0 0.0468 -18.784769 0.990038 -103.965301 9e-06 -161.915325 1.2e-05 178.549314
0.990038 -103.965301 0.047276 -23.52734 1.2e-05 178.563556 9e-06 -161.885677
9e-06 -161.915325 1.2e-05 178.563556 0.661897 -16.541112 0.745657 -106.45922
1.2e-05 178.549313 9e-06 -161.885677 0.745657 -106.45922 0.661902 -16.7956
42000.0 0.052579 -20.687354 0.98966 -106.51166 9e-06 -163.366407 1.3e-05 176.098376
0.98966 -106.51166 0.053006 -24.997829 1.2e-05 176.112223 9e-06 -163.358158
9e-06 -163.366407 1.2e-05 176.112223 0.662799 -18.571153 0.744873 -108.503548
1.3e-05 176.098376 9e-06 -163.358158 0.744873 -108.503548 0.662804 -18.829917
43000.0 0.058527 -22.704174 0.989242 -109.058386 9e-06 -164.835767 1.3e-05 173.644063
0.989242 -109.058386 0.058911 -26.646478 1.3e-05 173.65717 9e-06 -164.849611
9e-06 -164.835766 1.3e-05 173.65717 0.663192 -20.598603 0.744535 -110.545318
1.3e-05 173.644063 9e-06 -164.849611 0.744535 -110.545318 0.663198 -20.861479
44000.0 0.064627 -24.808598 0.988782 -111.605285 9e-06 -166.327035 1.3e-05 171.186122
0.988782 -111.605285 0.064976 -28.432996 1.3e-05 171.198141 9e-06 -166.363564
9e-06 -166.327035 1.3e-05 171.19814 0.663077 -22.62533 0.744644 -112.586423
1.3e-05 171.186123 9e-06 -166.363564 0.744644 -112.586423 0.663082 -22.892145
45000.0 0.070865 -26.98145 0.988278 -114.152142 9e-06 -167.843907 1.4e-05 168.724239
0.988278 -114.152142 0.071182 -30.32808 1.4e-05 168.734815 9e-06 -167.903607
9e-06 -167.843907 1.4e-05 168.734816 0.662449 -24.653215 0.745201 -114.628771
1.4e-05 168.724239 9e-06 -167.903607 0.745201 -114.628771 0.662455 -24.923789
46000.0 0.077223 -29.208557 0.987729 -116.698727 1e-05 -169.390129 1.4e-05 166.258031
0.987729 -116.698727 0.077513 -32.309922 1.4e-05 166.266811 1e-05 -169.473382
1e-05 -169.390128 1.4e-05 166.26681 0.661305 -26.684161 0.746209 -116.674289
1.4e-05 166.258031 1e-05 -169.473382 0.746209 -116.674289 0.66131 -26.958301
47000.0 0.083684 -31.479203 0.987134 -119.244794 1e-05 -170.969485 1.4e-05 163.787046
0.987134 -119.244794 0.08395 -34.361945 1.4e-05 163.793673 1e-05 -171.076567
1e-05 -170.969485 1.4e-05 163.793673 0.659635 -28.720091 0.74767 -118.72493
1.4e-05 163.787046 1e-05 -171.076567 0.74767 -118.72493 0.659641 -28.997598
48000.0 0.090231 -33.785119 0.986492 -121.790083 1e-05 -172.585783 1.5e-05 161.310756
0.986492 -121.790083 0.090475 -36.471319 1.5e-05 161.314876 1e-05 -172.716867
1e-05 -172.585783 1.5e-05 161.314876 0.657432 -30.762959 0.749585 -120.782676
1.5e-05 161.310756 1e-05 -172.716867 0.749585 -120.782676 0.657438 -31.043618
49000.0 0.096845 -36.119809 0.985804 -124.334325 1e-05 -174.242848 1.5e-05 158.828554
0.985804 -124.334325 0.09707 -38.627943 1.5e-05 158.829812 1e-05 -174.398008
1e-05 -174.242848 1.5e-05 158.829812 0.654683 -32.814748 0.751957 -122.849542
1.5e-05 158.828554 1e-05 -174.398008 0.751957 -122.849542 0.654689 -33.098333
50000.0 0.103509 -38.478084 0.985068 -126.877241 1e-05 -175.944505 1.6e-05 156.339747
0.985068 -126.877241 0.103715 -40.823746 1.6e-05 156.337795 1e-05 -176.123721
1e-05 -175.944505 1.6e-05 156.337795 0.651374 -34.877476 0.754787 -124.927582
1.6e-05 156.339747 1e-05 -176.123721 0.754787 -124.927582 0.65138 -35.163746
51000.0 0.110201 -40.855741 0.984287 -129.418547 1e-05 -177.694578 1.6e-05 153.84355
0.984287 -129.418547 0.110392 -43.052189 1.6e-05 153.838043 1e-05 -177.897743
1e-05 -177.694578 1.6e-05 153.838043 0.647488 -36.953199 0.758077 -127.018887
1.6e-05 153.84355 1e-05 -177.897743 0.758077 -127.018887 0.647494 -37.241897
52000.0 0.116904 -43.249324 0.983461 -131.957959 1.1e-05 -179.496883 1.6e-05 151.339083
0.983461 -131.957959 0.117081 -45.307909 1.6e-05 151.329686 1.1e-05 -179.723812
1.1e-05 -179.496882 1.6e-05 151.329685 0.643006 -39.044013 0.761828 -129.125597
1.6e-05 151.339083 1.1e-05 -179.723812 0.761828 -129.125597 0.643012 -39.334865
53000.0 0.123598 -45.655965 0.982593 -134.495191 1.1e-05 178.644778 1.7e-05 148.825362
0.982593 -134.495191 0.123762 -47.586457 1.7e-05 148.811745 1.1e-05 178.394336
1.1e-05 178.644778 1.7e-05 148.811744 0.637906 -41.152055 0.76604 -131.249893
1.7e-05 148.825362 1.1e-05 178.394336 0.76604 -131.249893 0.637912 -41.444768
54000.0 0.130263 -48.073251 0.981685 -137.029963 1.1e-05 176.726612 1.7e-05 146.301296
0.981685 -137.029963 0.130415 -49.884104 1.7e-05 146.283142 1.1e-05 176.452968
1.1e-05 176.726612 1.7e-05 146.283142 0.632164 -43.279509 0.770713 -133.39401
1.7e-05 146.301296 1.1e-05 176.452968 0.770713 -133.39401 0.632169 -43.573766
55000.0 0.136879 -50.499142 0.98074 -139.562001 1.1e-05 174.744836 1.8e-05 143.765679
0.98074 -139.562001 0.13702 -52.197699 1.8e-05 143.742686 1.1e-05 174.448346
1.1e-05 174.744837 1.8e-05 143.742686 0.625752 -45.4286 0.775846 -135.560231
1.8e-05 143.76568 1.1e-05 174.448345 0.775846 -135.560231 0.625758 -45.72406
56000.0 0.143426 -52.931892 0.979761 -142.091044 1.1e-05 172.695676 1.8e-05 141.217194
0.979761 -142.091044 0.143557 -54.524555 1.8e-05 141.189072 1.1e-05 172.376728
1.1e-05 172.695676 1.8e-05 141.189072 0.618641 -47.601597 0.781437 -137.750889
1.8e-05 141.217194 1.1e-05 172.376728 0.781437 -137.750889 0.618647 -47.897888
57000.0 0.149883 -55.370004 0.978754 -144.616845 1.2e-05 170.575353 1.9e-05 138.6544
0.978754 -144.616845 0.150006 -56.862367 1.9e-05 138.620879 1.2e-05 170.234359
1.2e-05 170.575353 1.9e-05 138.620879 0.610797 -49.800807 0.787482 -139.968364
1.9e-05 138.654401 1.2e-05 170.234359 0.787482 -139.968364 0.610803 -50.097528
58000.0 0.156232 -57.812188 0.977721 -147.139175 1.2e-05 168.380085 1.9e-05 136.07574
0.977721 -147.139175 0.156347 -59.209149 1.9e-05 136.036567 1.2e-05 168.017463
1.2e-05 168.380085 1.9e-05 136.036568 0.602187 -52.028574 0.793976 -142.215085
1.9e-05 136.07574 1.2e-05 168.017463 0.793976 -142.215085 0.602193 -52.325283
59000.0 0.162452 -60.257328 0.976668 -149.657823 1.2e-05 166.106072 2e-05 133.479533
0.976668 -149.657823 0.162559 -61.563179 2e-05 133.434482 1.2e-05 165.722237
1.2e-05 166.106073 2e-05 133.434481 0.59277 -54.287268 0.800911 -144.493518
2e-05 133.479534 1.2e-05 165.722236 0.800911 -144.493518 0.592777 -54.583481
60000.0 0.168524 -62.70446 0.975601 -152.172607 1.2e-05 163.749494 2e-05 130.863988
0.975601 -152.172607 0.168625 -63.922961 2e-05 130.812852 1.2e-05 163.34484
1.2e-05 163.749494 2e-05 130.812852 0.582508 -56.579276 0.808275 -146.806164
2e-05 130.863988 1.2e-05 163.34484 0.808275 -146.806164 0.582515 -56.874459
61000.0 0.174428 -65.152752 0.974525 -154.683369 1.2e-05 161.306497 2.1e-05 128.227202
0.974525 -154.683369 0.174523 -66.287193 2.1e-05 128.169806 1.2e-05 160.88139
1.2e-05 161.306498 2.1e-05 128.169805 0.571356 -58.906989 0.816057 -149.155545
2.1e-05 128.227203 1.2e-05 160.88139 0.816057 -149.155545 0.571363 -59.200546
62000.0 0.180146 -67.601493 0.973447 -157.189983 1.3e-05 158.773193 2.1e-05 125.567177
0.973447 -157.189983 0.180236 -68.654745 2.1e-05 125.50337 1.3e-05 158.327953
1.3e-05 158.773193 2.1e-05 125.503371 0.559268 -61.272783 0.824237 -151.54419
2.1e-05 125.567177 1.3e-05 158.327953 0.824237 -151.54419 0.559276 -61.564049
63000.0 0.185659 -70.050076 0.972372 -159.692354 1.3e-05 156.14565 2.2e-05 122.881828
0.972372 -159.692354 0.185744 -71.024634 2.2e-05 122.811495 1.3e-05 155.680542
1.3e-05 156.14565 2.2e-05 122.811495 0.546199 -63.678991 0.832796 -153.97462
2.2e-05 122.881828 1.3e-05 155.680542 0.832796 -153.97462 0.546206 -63.96722
