! File created by SignalIntegrity v1.1.13: Signal and Power Integrity Tools
! https://github.com/TeledyneLeCroy/SignalIntegrity
# MHz S MA R 50.0
0.0 0.000493 0.0 0.999507 0.0 0.0 0.0 0.0 0.0
0.0 0.0 0.0 0.0 0.0 0.0 0.0 0.0
0.0 0.0 0.0 0.0 0.0 0.0 0.0 0.0
0.999507 0.0 0.000493 0.0 0.0 0.0 0.0 0.0
0.0 0.0 0.0 0.0 0.0 0.0 0.0 0.0
0.0 0.0 0.0 0.0 0.0 0.0 0.0 0.0
0.0 0.0 0.0 0.0 0.000493 0.0 0.999507 0.0
0.0 0.0 0.0 0.0 0.0 0.0 0.0 0.0
0.0 0.0 0.0 0.0 0.0 0.0 0.0 0.0
0.0 0.0 0.0 0.0 0.999507 0.0 0.000493 0.0
0.0 0.0 0.0 0.0 0.0 0.0 0.0 0.0
0.0 0.0 0.0 0.0 0.0 0.0 0.0 0.0
0.0 0.0 0.0 0.0 0.0 0.0 0.0 0.0
0.000493 0.0 0.999507 0.0 0.0 0.0 0.0 0.0
0.0 0.0 0.0 0.0 0.0 0.0 0.0 0.0
0.0 0.0 0.0 0.0 0.0 0.0 0.0 0.0
0.999507 0.0 0.000493 0.0 0.0 0.0 0.0 0.0
0.0 0.0 0.0 0.0 0.0 0.0 0.0 0.0
0.0 0.0 0.0 0.0 0.0 0.0 0.0 0.0
0.0 0.0 0.0 0.0 0.000493 0.0 0.999507 0.0
0.0 0.0 0.0 0.0 0.0 0.0 0.0 0.0
0.0 0.0 0.0 0.0 0.0 0.0 0.0 0.0
0.0 0.0 0.0 0.0 0.999507 0.0 0.000493 0.0
0.0 0.0 0.0 0.0 0.0 0.0 0.0 0.0
0.0 0.0 0.0 0.0 0.0 0.0 0.0 0.0
0.0 0.0 0.0 0.0 0.0 0.0 0.0 0.0
0.000493 0.0 0.999507 0.0 0.0 0.0 0.0 0.0
0.0 0.0 0.0 0.0 0.0 0.0 0.0 0.0
0.0 0.0 0.0 0.0 0.0 0.0 0.0 0.0
0.999507 0.0 0.000493 0.0 0.0 0.0 0.0 0.0
0.0 0.0 0.0 0.0 0.0 0.0 0.0 0.0
0.0 0.0 0.0 0.0 0.0 0.0 0.0 0.0
0.0 0.0 0.0 0.0 0.000493 0.0 0.999507 0.0
0.0 0.0 0.0 0.0 0.0 0.0 0.0 0.0
0.0 0.0 0.0 0.0 0.0 0.0 0.0 0.0
0.0 0.0 0.0 0.0 0.999507 0.0 0.000493 0.0
1000.0 0.002653 47.373031 0.998242 -2.41157 0.00011 88.92446 1.4e-05 81.191521
0.000356 -92.423681 3e-06 81.149002 0.001064 -93.189111 0.000389 84.3378
2.5e-05 -93.357119 1.1e-05 84.301644 0.000149 -94.484093 9.3e-05 83.5689
0.998242 -2.41157 0.002656 47.29651 1.4e-05 81.189771 0.00011 88.925152
3e-06 81.148719 0.000356 -92.423343 0.000389 84.337777 0.001064 -93.188878
1.1e-05 84.301648 2.5e-05 -93.356992 9.3e-05 83.568902 0.000149 -94.483781
0.00011 88.92446 1.4e-05 81.189771 0.0355 84.060145 0.997606 -3.128104
0.00111 86.877336 0.000395 -95.581616 0.005278 85.527288 0.003355 -96.379323
0.00015 85.527795 9.2e-05 -96.465723 0.00144 84.711004 0.00104 -96.969239
1.4e-05 81.191521 0.00011 88.925152 0.997606 -3.128104 0.0355 84.05346
0.000395 -95.581634 0.00111 86.877611 0.003355 -96.379317 0.005278 85.527567
9.2e-05 -96.465782 0.00015 85.528207 0.00104 -96.969237 0.00144 84.71141
0.000356 -92.423681 3e-06 81.148719 0.00111 86.877336 0.000395 -95.581634
0.002634 46.998759 0.998241 -2.412434 0.0 171.560197 0.0 87.233267
0.000356 -92.423437 3e-06 81.431845 0.00111 -93.123032 0.000395 84.420005
3e-06 81.149002 0.000356 -92.423343 0.000395 -95.581616 0.00111 86.877611
0.998241 -2.412434 0.002636 46.921932 0.0 87.233267 0.0 171.547178
3e-06 81.432101 0.000356 -92.423099 0.000395 84.420022 0.00111 -93.122758
0.001064 -93.189111 0.000389 84.337777 0.005278 85.527288 0.003355 -96.379317
0.0 171.560197 0.0 87.233266 0.035045 84.00353 0.997603 -3.121259
0.001065 86.81151 0.000388 -95.669409 0.005275 85.526157 0.003356 -96.376468
0.000389 84.3378 0.001064 -93.188878 0.003355 -96.379323 0.005278 85.527567
0.0 87.233267 0.0 171.547179 0.997603 -3.121259 0.035045 83.996748
0.000388 -95.669401 0.001065 86.811759 0.003356 -96.376474 0.005275 85.526427
2.5e-05 -93.357119 1.1e-05 84.301648 0.00015 85.527795 9.2e-05 -96.465782
0.000356 -92.423437 3e-06 81.432101 0.001065 86.81151 0.000388 -95.669401
0.002654 47.3871 0.998242 -2.411509 0.00011 -91.073854 1.4e-05 -98.793783
1.1e-05 84.301644 2.5e-05 -93.356992 9.2e-05 -96.465723 0.00015 85.528207
3e-06 81.431845 0.000356 -92.423099 0.000388 -95.669409 0.001065 86.811759
0.998242 -2.411509 0.002656 47.310597 1.4e-05 -98.795529 0.00011 -91.073162
0.000149 -94.484093 9.3e-05 83.568902 0.00144 84.711004 0.00104 -96.969237
0.00111 -93.123032 0.000395 84.420022 0.005275 85.526157 0.003356 -96.376474
0.00011 -91.073854 1.4e-05 -98.795529 0.035499 84.060027 0.997606 -3.128157
9.3e-05 83.5689 0.000149 -94.483781 0.00104 -96.969239 0.00144 84.71141
0.000395 84.420005 0.00111 -93.122758 0.003356 -96.376468 0.005275 85.526427
1.4e-05 -98.793783 0.00011 -91.073162 0.997606 -3.128157 0.035499 84.053341
2000.0 0.003982 51.694344 0.997703 -4.7813 0.000222 87.827028 2.8e-05 70.208208
0.000711 -94.776474 7e-06 74.09391 0.002121 -96.291588 0.000773 78.794151
5.1e-05 -96.683272 2.2e-05 78.767134 0.000297 -98.867435 0.000186 77.246147
0.997703 -4.7813 0.003991 51.488885 2.8e-05 70.204735 0.000222 87.828154
7e-06 74.093555 0.000711 -94.775967 0.000773 78.7941 0.002121 -96.291216
2.2e-05 78.767141 5.1e-05 -96.720766 0.000186 77.246153 0.000296 -98.864025
0.000222 87.827028 2.8e-05 70.204735 0.069989 81.921155 0.995205 -6.204354
0.002214 83.839269 0.000785 -101.04569 0.010486 81.158383 0.006669 -102.647
0.000298 81.161857 0.000184 -102.822647 0.002855 79.534243 0.002065 -103.822045
2.8e-05 70.208208 0.000222 87.828154 0.995205 -6.204354 0.069989 81.907729
0.000785 -101.045728 0.002214 83.839723 0.006669 -102.646988 0.010486 81.158904
0.000184 -102.822764 0.000298 81.159791 0.002065 -103.82204 0.002855 79.535049
0.000711 -94.776474 7e-06 74.093555 0.002214 83.839269 0.000785 -101.045728
0.003939 51.246282 0.9977 -4.783009 0.0 170.270518 0.0 84.514169
0.000711 -94.775786 6e-06 73.782174 0.002214 -96.160969 0.000786 78.954137
7e-06 74.09391 0.000711 -94.775967 0.000785 -101.04569 0.002214 83.839723
0.9977 -4.783009 0.003948 51.03233 0.0 84.514169 0.0 170.244228
6e-06 73.782527 0.000711 -94.775273 0.000786 78.954173 0.002214 -96.160515
0.002121 -96.291588 0.000773 78.7941 0.010486 81.158383 0.006669 -102.646988
0.0 170.270518 0.0 84.514168 0.069078 81.856023 0.995195 -6.190424
0.002123 83.7101 0.000772 -101.223357 0.010482 81.156082 0.006672 -102.641214
0.000773 78.794151 0.002121 -96.291216 0.006669 -102.647 0.010486 81.158904
0.0 84.514168 0.0 170.244227 0.995195 -6.190424 0.069077 81.842424
0.000772 -101.223338 0.002123 83.710506 0.006672 -102.641225 0.010482 81.156585
5.1e-05 -96.683272 2.2e-05 78.767141 0.000298 81.161857 0.000184 -102.822764
0.000711 -94.775786 6e-06 73.782527 0.002123 83.7101 0.000772 -101.223338
0.003984 51.7104 0.997703 -4.781232 0.000222 -92.171622 2.8e-05 -109.757126
2.2e-05 78.767134 5.1e-05 -96.720766 0.000184 -102.822647 0.000298 81.159791
6e-06 73.782174 0.000711 -94.775273 0.000772 -101.223357 0.002123 83.710506
0.997703 -4.781232 0.003993 51.504996 2.8e-05 -109.760591 0.000222 -92.170497
0.000297 -98.867435 0.000186 77.246153 0.002855 79.534243 0.002065 -103.82204
0.002214 -96.160969 0.000786 78.954173 0.010482 81.156082 0.006672 -102.641225
0.000222 -92.171622 2.8e-05 -109.760591 0.069987 81.921005 0.995205 -6.204404
0.000186 77.246147 0.000296 -98.864025 0.002065 -103.822045 0.002855 79.535049
0.000786 78.954137 0.002214 -96.160515 0.006672 -102.641214 0.010482 81.156585
2.8e-05 -109.757126 0.000222 -92.170497 0.995205 -6.204404 0.069987 81.907577
3000.0 0.005167 53.152096 0.997282 -7.144116 0.000336 86.665353 4.2e-05 60.080121
0.001065 -97.121637 9e-06 66.870307 0.003166 -99.365172 0.001153 73.292133
7.5e-05 -99.940556 3.2e-05 73.249052 0.000439 -103.1917 0.000275 70.98237
0.997282 -7.144116 0.005185 52.78523 4.2e-05 60.074947 0.000336 86.666393
9e-06 66.869375 0.001065 -97.120956 0.001153 73.292056 0.003166 -99.364614
3.2e-05 73.248991 7.5e-05 -99.940242 0.000275 70.982375 0.000439 -103.190772
0.000336 86.665353 4.2e-05 60.074947 0.103957 79.232301 0.991747 -9.256673
0.003305 80.826617 0.001172 -106.47155 0.015569 76.84221 0.009917 -108.861623
0.000442 76.84358 0.000273 -109.126241 0.004226 74.423927 0.003064 -110.610721
4.2e-05 60.080121 0.000336 86.666393 0.991747 -9.256673 0.103956 79.212148
0.001172 -106.471603 0.003305 80.827292 0.009917 -108.861604 0.015569 76.843021
0.000273 -109.126414 0.000442 76.844796 0.003064 -110.610714 0.004226 74.425164
0.001065 -97.121637 9e-06 66.869375 0.003305 80.826617 0.001172 -106.471603
0.005101 52.674167 0.997275 -7.146677 0.0 167.936515 0.0 81.637874
0.001065 -97.121373 9e-06 66.518576 0.003305 -99.173795 0.001172 73.528625
9e-06 66.870307 0.001065 -97.120956 0.001172 -106.47155 0.003305 80.827292
0.997275 -7.146677 0.005118 52.298627 0.0 81.985984 0.0 167.896876
9e-06 66.51933 0.001065 -97.120683 0.001172 73.528678 0.003305 -99.173121
0.003166 -99.365172 0.001153 73.292056 0.015569 76.84221 0.009917 -108.861604
0.0 167.936515 0.0 81.985984 0.102582 79.152554 0.991726 -9.23513
0.003168 80.638608 0.001151 -106.733556 0.015563 76.838707 0.009922 -108.852972
0.001153 73.292133 0.003166 -99.364614 0.009917 -108.861623 0.015569 76.843021
0.0 81.637874 0.0 167.896875 0.991726 -9.23513 0.102582 79.132118
0.001151 -106.733524 0.003168 80.639212 0.009922 -108.852989 0.015563 76.839492
7.5e-05 -99.940556 3.2e-05 73.248991 0.000442 76.84358 0.000273 -109.126414
0.001065 -97.121373 9e-06 66.51933 0.003168 80.638608 0.001151 -106.733524
0.00517 53.171123 0.997282 -7.143983 0.000336 -93.346072 4.2e-05 -119.871845
3.2e-05 73.249052 7.5e-05 -99.940242 0.000273 -109.126241 0.000442 76.844796
9e-06 66.518576 0.001065 -97.120683 0.001151 -106.733556 0.003168 80.639212
0.997282 -7.143983 0.005187 52.79928 4.2e-05 -119.876579 0.000336 -93.345089
0.000439 -103.1917 0.000275 70.982375 0.004226 74.423927 0.003064 -110.610714
0.003305 -99.173795 0.001172 73.528678 0.015563 76.838707 0.009922 -108.852989
0.000336 -93.346072 4.2e-05 -119.876579 0.103955 79.2321 0.991747 -9.256778
0.000275 70.98237 0.000439 -103.190772 0.003064 -110.610721 0.004226 74.425164
0.001172 73.528625 0.003305 -99.173121 0.009922 -108.852972 0.015563 76.839492
4.2e-05 -119.871845 0.000336 -93.345089 0.991747 -9.256778 0.103955 79.211958
4000.0 0.006275 53.447063 0.99692 -9.503345 0.000453 85.353975 5.5e-05 50.075227
0.001418 -99.468655 1.2e-05 60.172849 0.004192 -102.407027 0.001526 67.831329
0.0001 -103.173361 4.2e-05 67.80806 0.000579 -107.46105 0.000363 64.771047
0.99692 -9.503345 0.006303 52.900355 5.5e-05 50.068376 0.000452 85.365725
1.2e-05 60.17176 0.001417 -99.464097 0.001526 67.831224 0.004192 -102.407093
4.2e-05 67.807981 0.0001 -103.172814 0.000363 64.771057 0.000579 -107.459694
0.000453 85.353975 5.5e-05 50.068376 0.137289 76.403823 0.987238 -12.281414
0.004378 77.840818 0.001552 -111.865235 0.020477 72.590207 0.013072 -115.017247
0.000581 72.597154 0.00036 -115.371168 0.005535 69.396967 0.004027 -117.323236
5.5e-05 50.075227 0.000452 85.365725 0.987238 -12.281414 0.137289 76.376938
0.001552 -111.865308 0.004379 77.840921 0.013072 -115.017222 0.020477 72.591453
0.00036 -115.371395 0.000581 72.598895 0.004027 -117.323227 0.005535 69.398739
0.001418 -99.468655 1.2e-05 60.17176 0.004378 77.840818 0.001552 -111.865308
0.006183 52.937795 0.996908 -9.506695 0.0 165.313321 0.0 78.931331
0.001418 -99.467894 1.2e-05 60.009458 0.004378 -102.15951 0.001552 68.136825
1.2e-05 60.172849 0.001417 -99.464097 0.001552 -111.865235 0.004379 77.840921
0.996908 -9.506695 0.006212 52.386736 0.0 79.323524 0.0 165.260247
1.2e-05 60.010749 0.001418 -99.466296 0.001552 68.136896 0.004378 -102.158758
0.004192 -102.407027 0.001526 67.831224 0.020477 72.590207 0.013072 -115.017222
0.0 165.313321 0.0 79.323524 0.135443 76.309093 0.987207 -12.251599
0.004195 77.597718 0.001522 -112.202871 0.02047 72.585521 0.013079 -115.005753
0.001526 67.831329 0.004192 -102.407093 0.013072 -115.017247 0.020477 72.591453
0.0 78.931331 0.0 165.260246 0.987207 -12.251599 0.135444 76.281805
0.001522 -112.202832 0.004196 77.597057 0.013079 -115.005775 0.020469 72.586743
0.0001 -103.173361 4.2e-05 67.807981 0.000581 72.597154 0.00036 -115.371395
0.001418 -99.467894 1.2e-05 60.010749 0.004195 77.597718 0.001522 -112.202832
0.006277 53.460222 0.99692 -9.503091 0.000453 -94.644655 5.5e-05 -129.867745
4.2e-05 67.80806 0.0001 -103.172814 0.00036 -115.371168 0.000581 72.598895
1.2e-05 60.009458 0.001418 -99.466296 0.001522 -112.202871 0.004196 77.597057
0.99692 -9.503091 0.006306 52.913725 5.5e-05 -129.87416 0.000452 -94.632982
0.000579 -107.46105 0.000363 64.771057 0.005535 69.396967 0.004027 -117.323227
0.004378 -102.15951 0.001552 68.136896 0.02047 72.585521 0.013079 -115.005775
0.000453 -94.644655 5.5e-05 -129.87416 0.137286 76.403585 0.987238 -12.281635
0.000363 64.771047 0.000579 -107.459694 0.004027 -117.323236 0.005535 69.398739
0.001552 68.136825 0.004378 -102.158758 0.013079 -115.005753 0.020469 72.586743
5.5e-05 -129.867745 0.000452 -94.632982 0.987238 -12.281635 0.137286 76.376697
5000.0 0.007328 53.105581 0.996597 -11.860151 0.000572 83.912271 6.7e-05 39.574825
0.001767 -101.805214 1.4e-05 53.442484 0.005196 -105.414946 0.00189 62.410885
0.000123 -106.352354 5.2e-05 62.429074 0.000711 -111.644358 0.000447 58.635595
0.996597 -11.860151 0.007368 52.367702 6.7e-05 39.566416 0.000572 83.912425
1.4e-05 53.441384 0.001767 -101.804866 0.00189 62.41076 0.005195 -105.412699
5.2e-05 62.428993 0.000124 -106.389004 0.000447 58.635608 0.000711 -111.645281
0.000572 83.912271 6.7e-05 39.566416 0.169853 73.53488 0.981735 -15.273509
0.00543 74.884304 0.001924 -117.223172 0.025164 68.416326 0.016111 -121.103638
0.000715 68.419581 0.000444 -121.545906 0.006766 64.472536 0.004944 -123.944255
6.7e-05 39.574825 0.000572 83.912425 0.981735 -15.273509 0.169853 73.501255
0.001924 -117.223261 0.00543 74.88541 0.016111 -121.103608 0.025163 68.417974
0.000444 -121.546197 0.000714 68.424852 0.004944 -123.944243 0.006765 64.474979
0.001767 -101.805214 1.4e-05 53.441384 0.00543 74.884304 0.001924 -117.223261
0.007211 52.575628 0.996579 -11.864284 0.0 162.582581 0.0 76.463253
0.001767 -101.806924 1.4e-05 53.221052 0.005431 -105.116653 0.001924 62.779306
1.4e-05 53.442484 0.001767 -101.804866 0.001924 -117.223172 0.00543 74.88541
0.996579 -11.864284 0.007252 51.828329 0.0 76.463253 0.0 162.515969
1.4e-05 53.222508 0.001768 -101.809497 0.001924 62.779396 0.005431 -105.114903
0.005196 -105.414946 0.00189 62.41076 0.025164 68.416326 0.016111 -121.103608
0.0 162.582581 0.0 76.463253 0.167526 73.426401 0.981701 -15.234565
0.0052 74.591368 0.001886 -117.631197 0.025155 68.410459 0.016119 -121.089293
0.00189 62.410885 0.005195 -105.412699 0.016111 -121.103638 0.025163 68.417974
0.0 76.463252 0.0 162.515969 0.981701 -15.234565 0.167527 73.392267
0.001886 -117.631147 0.005199 74.593041 0.016119 -121.08932 0.025154 68.412075
0.000123 -106.352354 5.2e-05 62.428993 0.000715 68.419581 0.000444 -121.546197
0.001767 -101.806924 1.4e-05 53.222508 0.0052 74.591368 0.001886 -117.631147
0.007332 53.120918 0.996597 -11.859885 0.000572 -96.096024 6.6e-05 -139.995895
5.2e-05 62.429074 0.000124 -106.389004 0.000444 -121.545906 0.000714 68.424852
1.4e-05 53.221052 0.001768 -101.809497 0.001886 -117.631197 0.005199 74.593041
0.996597 -11.859885 0.007373 52.386322 6.6e-05 -140.00393 0.000573 -96.095925
0.000711 -111.644358 0.000447 58.635608 0.006766 64.472536 0.004944 -123.944243
0.005431 -105.116653 0.001924 62.779396 0.025155 68.410459 0.016119 -121.08932
0.000572 -96.096024 6.6e-05 -140.00393 0.169849 73.534583 0.981736 -15.273733
0.000447 58.635595 0.000711 -111.645281 0.004944 -123.944255 0.006765 64.474979
0.001924 62.779306 0.005431 -105.114903 0.016119 -121.089293 0.025154 68.412075
6.6e-05 -139.995895 0.000573 -96.095925 0.981736 -15.273733 0.169849 73.500948
6000.0 0.008338 52.372289 0.9963 -14.215335 0.000696 82.280418 7.7e-05 29.512469
0.002113 -104.14438 1.6e-05 46.990517 0.006173 -108.380086 0.002243 57.037683
0.000147 -109.517614 6.1e-05 57.06136 0.000836 -115.742214 0.000528 52.574245
0.9963 -14.215335 0.008394 51.436264 7.7e-05 29.502943 0.000695 82.288493
1.6e-05 46.98924 0.002113 -104.143827 0.002243 57.037531 0.006172 -108.377816
6.1e-05 57.061282 0.000147 -109.557306 0.000528 52.574261 0.000836 -115.737394
0.000696 82.280418 7.7e-05 29.502943 0.201519 70.665267 0.975321 -18.227626
0.006457 71.962304 0.002287 -122.545456 0.029592 64.333983 0.019014 -127.110305
0.00084 64.338778 0.000525 -127.645805 0.007906 59.669255 0.005808 -130.458457
7.7e-05 29.512469 0.000695 82.288493 0.975321 -18.227626 0.20152 70.624889
0.002287 -122.545563 0.006457 71.963451 0.019014 -127.110269 0.029589 64.336312
0.000525 -127.646151 0.00084 64.344192 0.005808 -130.458443 0.007904 59.672466
0.002113 -104.14438 1.6e-05 46.98924 0.006457 71.962304 0.002287 -122.545563
0.008196 51.823877 0.996274 -14.220162 0.0 159.815047 0.0 73.821623
0.002114 -104.146269 1.7e-05 46.919819 0.006456 -108.037619 0.002287 57.456679
1.6e-05 46.990517 0.002113 -104.143827 0.002287 -122.545456 0.006457 71.963451
0.996274 -14.220162 0.008253 50.875924 0.0 73.821623 0.0 159.734778
1.7e-05 46.921906 0.002114 -104.147794 0.002287 57.456786 0.006457 -108.036861
0.006173 -108.380086 0.002243 57.037531 0.029592 64.333983 0.019014 -127.110269
0.0 159.815047 0.0 73.821623 0.198703 70.545053 0.975292 -18.178738
0.006178 71.626772 0.002239 -123.012854 0.029582 64.326869 0.019024 -127.093094
0.002243 57.037683 0.006172 -108.377816 0.019014 -127.110305 0.029589 64.336312
0.0 73.821623 0.0 159.734778 0.975292 -18.178738 0.198704 70.504053
0.002239 -123.012794 0.006178 71.628756 0.019024 -127.093127 0.029579 64.329189
0.000147 -109.517614 6.1e-05 57.061282 0.00084 64.338778 0.000525 -127.646151
0.002114 -104.146269 1.7e-05 46.921906 0.006178 71.626772 0.002239 -123.012794
0.008343 52.386803 0.9963 -14.215001 0.000696 -97.718145 7.7e-05 -150.118987
6.1e-05 57.06136 0.000147 -109.557306 0.000525 -127.645805 0.00084 64.344192
1.7e-05 46.919819 0.002114 -104.147794 0.002239 -123.012854 0.006178 71.628756
0.9963 -14.215001 0.008399 51.452327 7.7e-05 -150.128571 0.000696 -97.718944
0.000836 -115.742214 0.000528 52.574261 0.007906 59.669255 0.005808 -130.458443
0.006456 -108.037619 0.002287 57.456786 0.029582 64.326869 0.019024 -127.093127
0.000696 -97.718145 7.7e-05 -150.128571 0.201514 70.664914 0.975322 -18.227916
0.000528 52.574245 0.000836 -115.737394 0.005808 -130.458457 0.007904 59.672466
0.002287 57.456679 0.006457 -108.036861 0.019024 -127.093094 0.029579 64.329189
7.7e-05 -150.118987 0.000696 -97.718944 0.975322 -18.227916 0.201515 70.62453
7000.0 0.009312 51.370723 0.996023 -16.56913 0.000822 80.487297 8.7e-05 19.460023
0.002456 -106.483821 2e-05 40.878696 0.00712 -111.299262 0.002585 51.714535
0.000169 -112.598584 7.1e-05 51.697509 0.000953 -119.736909 0.000605 46.601298
0.996023 -16.56913 0.009385 50.230942 8.7e-05 19.449044 0.000822 80.49336
2e-05 40.876812 0.002456 -106.484931 0.002585 51.71436 0.00712 -111.298494
7.1e-05 51.697388 0.000169 -112.637322 0.000605 46.601322 0.000953 -119.731166
0.000822 80.487297 8.7e-05 19.449044 0.232176 67.815788 0.968091 -21.13923
0.007454 69.078689 0.002638 -127.82617 0.033729 60.355712 0.021766 -133.02765
0.000958 60.361082 0.0006 -133.651321 0.008945 55.004241 0.006614 -136.85222
8.7e-05 19.460023 0.000822 80.49336 0.968091 -21.13923 0.232177 67.768648
0.002638 -127.826295 0.007453 69.080962 0.021766 -133.027608 0.033725 60.358936
0.0006 -133.651727 0.000957 60.367526 0.006614 -136.852203 0.008943 55.008457
0.002456 -106.483821 2e-05 40.876812 0.007454 69.078689 0.002638 -127.826295
0.009145 50.806026 0.995988 -16.574603 0.0 157.046005 0.0 71.204937
0.002456 -106.485058 2e-05 40.742528 0.007453 -110.921286 0.002639 52.176491
2e-05 40.878696 0.002456 -106.484931 0.002638 -127.82617 0.007453 69.080962
0.995988 -16.574603 0.009218 49.64829 0.0 71.204937 0.0 156.951942
2e-05 40.744516 0.002456 -106.483335 0.002639 52.17661 0.007453 -110.91966
0.00712 -111.299262 0.002585 51.71436 0.033729 60.355712 0.021766 -133.027608
0.0 157.046005 0.0 71.204937 0.228865 67.686256 0.968081 -21.079565
0.007126 68.708325 0.00258 -128.343523 0.033718 60.34736 0.021777 -133.007602
0.002585 51.714535 0.00712 -111.298494 0.021766 -133.02765 0.033725 60.358936
0.0 71.204937 0.0 156.951941 0.968081 -21.079565 0.228865 67.638378
0.00258 -128.343458 0.007126 68.709838 0.021777 -133.007641 0.033714 60.350508
0.000169 -112.598584 7.1e-05 51.697388 0.000958 60.361082 0.0006 -133.651727
0.002456 -106.485058 2e-05 40.744516 0.007126 68.708325 0.00258 -128.343458
0.009319 51.387206 0.996022 -16.568775 0.000822 -99.511105 8.6e-05 -160.218679
