# Hz S DB R 50
!Touchstone multiport model file <C:\work\PySI\TestSignalIntegrity\OysterSimulation\ResampledSimbeor\Cable1_resampled.s2p>
!Created on 22 Aug 18, at 17:55:26.
!Created with Simbeor THz 2018.01(64bit) of Simberian Inc. built on Jul 20 2018

!Output from MultiportParameters of Simbeor.
!Multiport parameters: DataOrigin=Simulation DataOriginName="Project(1).Cable1_resampled_resampled.LNS"
!RESAMPLED_RCM: Max_RMS_Error=0.00174298; FrqLow=0; FrqHigh=4e+10; MaxTimeResolution=1.25e-11; PassivityState=1; ReciprocityState=1;
!RATIONAL COMPACTOR: Precision: Normal; Extract Delay: ON; Extrapolate to DC: ON; Extrapolate to Infinity: OFF; Enforce Passivity: ON; Enforce Reciprocity: ON; Band Limit Factor: 1; Auto-Adjust Config: OFF

!Uncomment the following lines with keywords in square brakets to support IBIS forum specification 2.0.
![Version] 2.0 !This line should be the first in file, preceeding the line starting with #.
![Number of Ports] 2
![Number of Frequencies] 8001
![Two-Port Data Order] 21_12
![Reference] 50 50

!!!!Multiport descriptor profile: InputCount=2 TotalPortCount=2
!DescriptorOutline={DescriptorType=SMatrix InputSpace=Terminal NormalizationType=CommonZo NormalizationCommonZo=50 Ohm OutputFormat=DBMagnitudeAngle}
!InputProfile={Name="IO1" IsTLineInput=False InputNumber=1 PortCount=1 FirstPortNumber=1 InputSpace=Terminal BlockType=SBlock NormalizationType=CommonZo Zo=50}
!InputProfile={Name="IO2" IsTLineInput=False InputNumber=2 PortCount=1 FirstPortNumber=2 InputSpace=Terminal BlockType=SBlock NormalizationType=CommonZo Zo=50}

!!!Global port number to input_name/local_port_number correspondence:
!Port 1 -> "IO1"/local_port_1 (terminal)
!Port 2 -> "IO2"/local_port_1 (terminal)
!!!!End of descriptor profile.

!Frequency Hz 20.0*log(|S[1,1]|) arg(S[1,1]) 20.0*log(|S[2,1]|) arg(S[2,1]) 20.0*log(|S[1,2]|) arg(S[1,2]) 20.0*log(|S[2,2]|) arg(S[2,2])
 0 -44.9813074829132 0 -0.0468354243601823 0 -0.0468354243603685 0 -46.9217932586494 0
 10000000 -43.6406428110865 22.3986903035266 -0.0469993558962197 -8.12770176620938 -0.0469993558962216 -8.12770176620933 -44.9218235487061 28.2643455730021
 20000000 -41.1817241768161 32.5980472040959 -0.0474879890944937 -16.2551335930191 -0.0474879890944937 -16.255133593019 -41.7877248422664 38.1494108955229
 30000000 -38.9882070897699 34.2752658350879 -0.0482918735448387 -24.3820315246983 -0.0482918735448426 -24.3820315246983 -39.2799872735229 38.2971231576796
 40000000 -37.2805800837508 31.8103917427865 -0.049395378688008 -32.5081437246354 -0.049395378688009 -32.5081437246354 -37.4225341084338 34.4500462103179
 50000000 -35.9972914192922 27.3633171172935 -0.0507768998360119 -40.6332368851789 -0.0507768998360109 -40.6332368851789 -36.0572084367435 28.8362066431832
 60000000 -35.0534188983318 21.9784449028003 -0.052409197765968 -48.7571029710445 -0.0524091977659699 -48.7571029710445 -35.0621626686789 22.4114465873355
 70000000 -34.3774402736138 16.201947392633 -0.0542599207607337 -56.8795662495306 -0.0542599207607337 -56.8795662495306 -34.3524489787727 15.6412980690148
 80000000 -33.9115007559528 10.3268064555783 -0.0562923658944085 -65.0004904051029 -0.0562923658944075 -65.0004904051029 -33.8666806726275 8.76500947685522
 90000000 -33.6089442706148 4.49066364776694 -0.0584665354134227 -73.1197853310314 -0.0584665354134227 -73.1197853310314 -33.5586217780156 1.8927723151937
 100000000 -33.4338610375675 -1.278980287792 -0.0607405287410712 -81.2374129537714 -0.0607405287410741 -81.2374129537714 -33.3933392000594 -4.95506033668058
 110000000 -33.3622712368223 -7.03463141832482 -0.0630722757070027 -89.3533912190227 -0.0630722757070027 -89.3533912190227 -33.3462888567805 -11.8284189471925
 120000000 -33.3837307922409 -12.8799170119704 -0.0654215597120618 -97.4677952230054 -0.0654215597120627 -97.4677952230054 -33.4039633552631 -18.8323740028476
 130000000 -33.5023777671925 -18.9398598400746 -0.067752204640419 -105.580754499946 -0.067752204640419 -105.580754499946 -33.5649665308889 -26.1114355904954
 140000000 -33.7371593215714 -25.3338541254987 -0.070034219577286 -113.692445762542 -0.0700342195772831 -113.692445762542 -33.8407340288384 -33.8349264096496
 150000000 -34.1218844220766 -32.1557627925393 -0.0722456332520783 -121.803080972638 -0.0722456332520783 -121.803080972638 -34.2557139131875 -42.1895896215723
 160000000 -34.7066164108517 -39.4632148306225 -0.0743737324884476 -129.912891436241 -0.0743737324884476 -129.912891436241 -34.8474968132457 -51.3885018043294
 170000000 -35.5629938395354 -47.2750182167089 -0.0764154669431772 -138.022109497129 -0.0764154669431753 -138.022109497129 -35.6677932966757 -61.7095753633786
 180000000 -36.7986758053958 -55.5732487095538 -0.0783768993789179 -146.130950089866 -0.0783768993789179 -146.130950089866 -36.7847521432879 -73.5906429440303
 190000000 -38.5948782728443 -64.3042026627787 -0.0802717448217142 -154.239594655146 -0.0802717448217113 -154.239594655146 -38.2836358309431 -87.8506888957728
 200000000 -41.3169701785458 -73.3625911115068 -0.0821192099207216 -162.348179585616 -0.0821192099207206 -162.348179585615 -40.2429344070122 -106.216843264282
 210000000 -45.96148087209 -82.4615833288682 -0.0839414663873543 -170.456790521049 -0.0839414663873553 -170.456790521049 -42.5548777869415 -132.37918753252
 220000000 -58.5494412506218 -88.2067612436681 -0.0857611346294683 -178.565462692742 -0.0857611346294595 -178.565462692741 -44.1778418140352 -170.932166140081
 230000000 -50.8942080985132 73.8386965726948 -0.0875991092230433 173.325813544464 -0.0875991092230443 173.325813544464 -43.2551597980703 146.295187472188
 240000000 -43.2173233737093 64.761496947901 -0.0894729491814625 165.217083582832 -0.0894729491814634 165.217083582832 -40.7613007381894 114.511718182124
 250000000 -39.3073419345283 54.52973480583 -0.0913959220288492 157.10841769375 -0.0913959220288482 157.10841769375 -38.3734489626352 92.3334023482302
 260000000 -36.7860289803536 43.9863521307207 -0.0933766696553115 148.999900124401 -0.0933766696553115 148.999900124401 -36.4764670212581 75.0636236269854
 270000000 -35.0369895710888 33.288455342959 -0.0954193804970509 140.891619430137 -0.0954193804970509 140.891619430137 -35.0429267777023 60.2838367803206
 280000000 -33.8076704520889 22.5057335549878 -0.0975243139374734 132.783660782074 -0.0975243139374773 132.783660782074 -33.9997850939453 46.8913046713078
 290000000 -32.9706964077621 11.6827418058995 -0.0996885223644632 124.676100501934 -0.0996885223644642 124.676100501934 -33.2890673189873 34.3568850713146
 300000000 -32.4537494370027 0.85095584610873 -0.101906640650209 116.56900271361 -0.101906640650213 116.56900271361 -32.8714688490451 22.4108013258622
 310000000 -32.2128827715144 -9.96991714030637 -0.104171648120521 108.462417784038 -0.104171648120521 108.462417784038 -32.7226355307803 10.9097483859701
 320000000 -32.220768811949 -20.77447335662 -0.106475543829225 100.356382136062 -0.106475543829227 100.356382136062 -32.8301746243907 -0.223649177441712
 330000000 -32.4611342486072 -31.5768326440432 -0.108809906022539 92.2509190163717 -0.108809906022539 92.2509190163717 -33.1924389025954 -11.0308589470956
 340000000 -32.9261530012771 -42.4197294220006 -0.111166328719444 84.1460398546619 -0.111166328719445 84.1460398546619 -33.8192852027399 -21.5338290712355
 350000000 -33.6155051118062 -53.3909102687823 -0.113536742498676 76.0417459256234 -0.113536742498676 76.0417459256234 -34.7354724124963 -31.7452915082114
 360000000 -34.5366253075403 -64.6535077125109 -0.115913634292748 67.9380301031136 -0.115913634292749 67.9380301031136 -35.9886873928652 -41.6770389776427
 370000000 -35.7058132690595 -76.5029765153126 -0.118290184035822 59.8348785646249 -0.118290184035821 59.8348785646249 -37.6676336199275 -51.3496608383419
 380000000 -37.1485573987112 -89.4763776794615 -0.120660336058572 51.7322723594042 -0.120660336058575 51.7322723594042 -39.9465971715708 -60.8108950037244
 390000000 -38.8907975470242 -104.56862510211 -0.123018821475147 43.6301887947454 -0.123018821475151 43.6301887947454 -43.2185412315282 -70.1932266731966
 400000000 -40.9059513027799 -123.631161239877 -0.12536114538718 35.5286026236949 -0.125361145387181 35.5286026236949 -48.6709072525242 -80.0539361519314
 410000000 -42.9002945188715 -149.63031909318 -0.12768355012451 27.4274870361277 -0.127683550124516 27.4274870361277 -66.1611083064483 -104.932573050073
 420000000 -43.9031380106285 176.20640710461 -0.129982963288018 19.3268144663517 -0.129982963288018 19.3268144663517 -51.37564866295 89.0280750879462
 430000000 -43.0255957559451 141.568917229654 -0.132256937215221 11.2265572362851 -0.13225693721522 11.2265572362851 -44.7947809443656 79.0702726542941
 440000000 -41.0838224181948 114.733882384684 -0.134503584713752 3.12668805556348 -0.13450358471376 3.12668805556338 -41.2261099552992 70.4551348722338
 450000000 -39.1048162485174 94.9284814629577 -0.136721514487694 -4.97281960001602 -0.136721514487693 -4.97281960001612 -38.831118006692 62.1477663991162
 460000000 -37.4208086133393 79.2257424533025 -0.138909768583064 -13.0719912115749 -0.138909768583066 -13.0719912115748 -37.0816398312472 53.9274357028129
 470000000 -36.0664108658717 65.7850161576583 -0.141067763347993 -21.1708510235906 -0.141067763347997 -21.1708510235906 -35.7544242391159 45.6994569968312
 480000000 -35.0114700660624 53.6431975403177 -0.143195234791043 -29.2694219177566 -0.143195234791041 -29.2694219177566 -34.7368295168881 37.4101595399993
 490000000 -34.2215184526 42.2959445655667 -0.145292188780483 -37.3677253405936 -0.145292188780483 -37.3677253405936 -33.9664076550592 29.0262329901516
 500000000 -33.6692904804042 31.4705080339808 -0.147358856217371 -45.4657812732732 -0.147358856217373 -45.4657812732732 -33.406902344548 20.5265211492099
 510000000 -33.3353325005323 21.0141729896047 -0.149395653105604 -53.5636082340441 -0.149395653105605 -53.5636082340441 -33.0372024963762 11.8967191714197
 520000000 -33.206866995174 10.8371835770452 -0.151403145304776 -61.6612233053493 -0.151403145304774 -61.6612233053493 -32.8458424108788 3.12461664356403
 530000000 -33.2770069856367 0.881078884224376 -0.15338201766807 -69.7586421791864 -0.153382017668071 -69.7586421791864 -32.8282680749936 -5.80489278750694
 540000000 -33.5447874491484 -8.90083524377921 -0.155333047221987 -77.8558792155026 -0.15533304722199 -77.8558792155026 -32.9857112349533 -14.9155993281452
 550000000 -34.0161995160626 -18.5575490562547 -0.157257080025089 -85.95294750946 -0.157257080025091 -85.95294750946 -33.3251896949451 -24.2474966476482
 560000000 -34.7065618162033 -28.1534401280083 -0.159155011342958 -94.0498589642696 -0.159155011342965 -94.0498589642696 -33.8605086267724 -33.8679663189413
 570000000 -35.6450440778976 -37.7855970770005 -0.161027768786906 -102.146624367007 -0.161027768786905 -102.146624367007 -34.6144029611252 -43.890815806862
 580000000 -36.8832766094784 -47.6155115029046 -0.162876298083253 -110.243253465401 -0.162876298083254 -110.243253465401 -35.6222212394533 -54.5127339450122
 590000000 -38.5127774098218 -57.9423776540624 -0.164701551162764 -118.339755044074 -0.164701551162762 -118.339755044074 -36.9376874026073 -66.0907046381534
 600000000 -40.703732090922 -69.4107776612191 -0.166504476284987 -126.436136999077 -0.166504476284986 -126.436136999077 -38.6400594257987 -79.3235459612335
 610000000 -43.8003128000426 -83.7644661216164 -0.168286009938657 -134.532406409891 -0.168286009938657 -134.532406409891 -40.8308940984865 -95.7178505593107
 620000000 -48.5116238938029 -107.7442471807 -0.170047070283713 -142.628569608295 -0.170047070283714 -142.628569608295 -43.5297387273769 -118.775288072597
 630000000 -53.2714719497532 -172.084841207987 -0.171788551926106 -150.724632243718 -0.171788551926104 -150.724632243718 -45.9801369891392 -154.981582409181
 640000000 -48.2306137709595 124.84432480366 -0.173511321838413 -158.82059934482 -0.173511321838412 -158.82059934482 -45.742365590336 159.494762366683
 650000000 -43.4322643838181 101.08502205212 -0.175216216261331 -166.916475377188 -0.175216216261332 -166.916475377189 -43.1672780547351 125.561204121125
 660000000 -40.2394082678073 86.5214287776543 -0.176904038440015 -175.012264297128 -0.176904038440016 -175.012264297128 -40.5709233536621 103.814533146903
 670000000 -37.9561755779687 74.6923499221078 -0.178575557067386 176.892030398432 -0.178575557067391 176.892030398432 -38.505319278543 88.0246674909046
 680000000 -36.2466657164099 63.9406610473513 -0.18023150532234 168.796405625792 -0.180231505322338 168.796405625792 -36.9205603209583 75.1193442909858
 690000000 -34.9434343614268 53.6784879744044 -0.1818725804049 160.700858671989 -0.181872580404903 160.700858671989 -35.7158040777274 63.7833194460922
 700000000 -33.9541853339101 43.6546762934572 -0.183499443483754 152.605387155782 -0.183499443483753 152.605387155782 -34.8135350609693 53.4047437032751
 710000000 -33.2238890426076 33.7489413108433 -0.185112719982284 144.509988991934 -0.185112719982284 144.509988991934 -34.1594460222191 43.6647095647674
 720000000 -32.7179282935666 23.8971577165079 -0.18671300013993 136.414662358622 -0.186713000139932 136.414662358622 -33.7161955609975 34.371974689308
 730000000 -32.4139936804115 14.0582643961409 -0.188300839794198 128.319405667752 -0.188300839794196 128.319405667752 -33.4595394845333 25.3912686126867
 740000000 -32.2980484736466 4.19664629544818 -0.189876761336637 120.224217538018 -0.189876761336638 120.224217538018 -33.3767384751003 16.6134645017473
 750000000 -32.3623990549602 -5.72941794528936 -0.191441254803038 112.129096770481 -0.191441254803035 112.129096770481 -33.4660774799357 7.94711379754882
 760000000 -32.604982578387 -15.7776293634406 -0.192994779063959 104.034042326506 -0.192994779063961 104.034042326506 -33.7367238637545 -0.680763741400221
 770000000 -33.0294517073269 -26.0330239807033 -0.194537763087137 95.9390533078679 -0.194537763087137 95.9390533078679 -34.2091018249965 -9.32359933304538
 780000000 -33.6458395744824 -36.624679169261 -0.196070607247775 87.8441289388481 -0.196070607247777 87.8441289388481 -34.9169991083854 -18.0189457808752
 790000000 -34.4715873856993 -47.7544332002987 -0.197593684666505 79.7492685501751 -0.197593684666507 79.7492685501751 -35.9136862156256 -26.7981933752943
 800000000 -35.53227802068 -59.7508765048091 -0.199107342558936 71.6544715646418 -0.199107342558935 71.6544715646418 -37.2865959771322 -35.7037109452764
 810000000 -36.8594579731209 -73.1760682075559 -0.200611903582737 63.5597374842633 -0.200611903582735 63.5597374842633 -39.1928018906101 -44.8240632882377
 820000000 -38.4751923504644 -89.0361937563203 -0.202107667171329 55.4650658788416 -0.202107667171329 55.4650658788416 -41.9584666735636 -54.4024673307766
 830000000 -40.3248249183026 -109.126070246469 -0.203594910845662 47.3704563758089 -0.203594910845661 47.3704563758089 -46.4575007649238 -65.3964902804537
 840000000 -42.0553762989884 -135.981825372724 -0.205073891496605 39.2759086512412 -0.205073891496604 39.2759086512412 -57.0348176924976 -88.2382766670157
 850000000 -42.7388235596425 -169.624148205361 -0.206544846632993 31.1814224219313 -0.206544846632992 31.1814224219313 -53.0057174687993 115.54701043423
 860000000 -41.7600689003221 157.501925435299 -0.208007995591292 23.0869974384286 -0.208007995591291 23.0869974384286 -44.8306999116787 99.2915685228794
 870000000 -39.9099167011234 131.874944644816 -0.209463540703915 14.9926334789541 -0.209463540703915 14.9926334789541 -40.724124868776 88.8310852520241
 880000000 -38.0342762300806 112.626208833454 -0.210911668424384 6.89833034411343 -0.210911668424384 6.89833034411343 -38.035121179127 79.3921755626512
 890000000 -36.414192800517 97.2643697296944 -0.212352550408647 -1.19591214766639 -0.212352550408639 -1.19591214766639 -36.0971602417589 70.3185246298551
 900000000 -35.0823531875141 84.1531626650112 -0.213786344551602 -9.29009416404394 -0.213786344551599 -9.29009416404396 -34.6409628870579 61.4216223363548
 910000000 -34.0117517030829 72.3865293629336 -0.215213195980101 -17.3842158620682 -0.215213195980102 -17.3842158620681 -33.5314926342432 52.6274085207494
 920000000 -33.1696033752076 61.4577489987873 -0.216633238002023 -25.4782773909394 -0.216633238002018 -25.4782773909394 -32.6921612575216 43.900188519018
 930000000 -32.529262978547 51.0682740320048 -0.21804659301352 -33.5722788942683 -0.218046593013519 -33.5722788942683 -32.0762519289148 35.218981272459
 940000000 -32.071657165337 41.0309100708123 -0.219453373365784 -41.6662205118748 -0.219453373365783 -41.6662205118748 -31.6542748207454 26.5681705127826
 950000000 -31.7845399958719 31.2201491750403 -0.220853682192967 -49.7601023811648 -0.220853682192966 -49.7601023811648 -31.4078059963634 17.9329942366901
 960000000 -31.6616425352872 21.5452869351611 -0.222247614203506 -57.8539246381087 -0.222247614203504 -57.8539246381087 -31.3263693148049 9.29683798080083
 970000000 -31.7022079240779 11.9345736028474 -0.22363525643728 -65.9476874178524 -0.22363525643728 -65.9476874178524 -31.4059567791305 0.639064501312027
 980000000 -31.9110492708001 2.32439972028045 -0.225016688991186 -74.0413908549741 -0.225016688991188 -74.0413908549741 -31.6486022530847 -8.06742213215618
 990000000 -32.2992626751726 -7.35013052769654 -0.226391985715616 -82.1350350834068 -0.226391985715614 -82.1350350834068 -32.0628324440319 -16.8597562659313
 1000000000 -32.8858710510147 -17.1664466556313 -0.227761214885244 -90.2286202360287 -0.227761214885244 -90.2286202360287 -32.6651155100667 -25.7912841502058
 1010000000 -33.7009792908822 -27.2322093458493 -0.229124439846969 -98.3221464439286 -0.229124439846974 -98.3221464439286 -33.4827864730399 -34.9432982861391
 1020000000 -34.7916439806269 -37.7191372615297 -0.230481719648639 -106.415613835343 -0.230481719648639 -106.415613835343 -34.5595709096976 -44.4492744978331
 1030000000 -36.2329804574014 -48.938114130527 -0.23183310965216 -114.509022534254 -0.231833109652159 -114.509022534254 -35.9662249319511 -54.5500017815309
 1040000000 -38.149650013374 -61.5329371084166 -0.233178662135019 -122.602372658627 -0.233178662135019 -122.602372658627 -37.8221011488178 -65.7359611036391
 1050000000 -40.7542156332382 -77.0773867289867 -0.234518426884529 -130.695664318275 -0.234518426884527 -130.695664318275 -40.3404881100337 -79.185116279135
 1060000000 -44.343938942239 -100.309420906844 -0.235852451789618 -138.788897612299 -0.235852451789617 -138.788897612299 -43.902359909514 -98.4670554621059
 1070000000 -48.1175086978563 -145.661261301498 -0.237180783435526 -146.882072626071 -0.237180783435528 -146.882072626071 -48.5519494664077 -137.167620915063
 1080000000 -46.5823701086834 154.694515346872 -0.238503467707135 -154.975189427697 -0.238503467707139 -154.975189427697 -48.3998989385196 155.232267041663
 1090000000 -42.5237978693219 122.160825311044 -0.239820550407879 -163.068248063875 -0.239820550407877 -163.068248063875 -43.7204865455383 117.531739164208
 1100000000 -39.4199317176735 103.527408377256 -0.241132077901526 -171.161248555077 -0.241132077901524 -171.161248555077 -40.172225516447 98.4477266012267
 1110000000 -37.173136154709 89.762157414939 -0.242438097786057 -179.254190889907 -0.242438097786057 -179.254190889907 -37.6564062092371 84.9441196953492
 1120000000 -35.506443025179 78.1475073792463 -0.243738659609024 172.652924981491 -0.243738659609028 172.652924981491 -35.799520365619 73.5930841043069
 1130000000 -34.2437759843902 67.6931067714886 -0.245033815637376 164.560099155173 -0.245033815637376 164.560099155173 -34.3940883428732 63.2547847101115
 1140000000 -33.2757163330137 57.915008510842 -0.246323621694126 156.467331782505 -0.246323621694125 156.467331782505 -33.3246400096903 53.452897956352
 1150000000 -32.5373371412101 48.5010380662213 -0.247608138079862 148.374623080955 -0.24760813807986 148.374623080955 -32.5234693908756 43.9536760467598
 1160000000 -31.9949711460673 39.2388086610683 -0.248887430597589 140.281973346921 -0.248887430597589 140.281973346921 -31.9496345769286 34.6279795981906
