! File created by SignalIntegrity v1.1.14: Signal and Power Integrity Tools
! https://github.com/TeledyneLeCroy/SignalIntegrity
# MHz S MA R 50.0
0.0 1.0 0.0
1000.0 0.999717 -3.604719
2000.0 0.998869 -7.209438
3000.0 0.997457 -10.814157
4000.0 0.995482 -14.418876
5000.0 0.992947 -18.023595
6000.0 0.989853 -21.628314
7000.0 0.986203 -25.233033
8000.0 0.982003 -28.837751
9000.0 0.977254 -32.442468
10000.0 0.971963 -36.047182
11000.0 0.966135 -39.65189
12000.0 0.959774 -43.256586
13000.0 0.952886 -46.861261
14000.0 0.945479 -50.465899
15000.0 0.937558 -54.070478
16000.0 0.92913 -57.674962
17000.0 0.920203 -61.279301
18000.0 0.910784 -64.883424
19000.0 0.900881 -68.487234
20000.0 0.890501 -72.0906
21000.0 0.879652 -75.693348
22000.0 0.868344 -79.295256
23000.0 0.856585 -82.896039
24000.0 0.844385 -86.495339
25000.0 0.831752 -90.092717
26000.0 0.818698 -93.687637
27000.0 0.805234 -97.279454
28000.0 0.791373 -100.867405
29000.0 0.777126 -104.450592
30000.0 0.762511 -108.027979
31000.0 0.747542 -111.598377
32000.0 0.732239 -115.160439
33000.0 0.71662 -118.712657
34000.0 0.700709 -122.253361
35000.0 0.684529 -125.780718
36000.0 0.668107 -129.29274
37000.0 0.651472 -132.787294
38000.0 0.634655 -136.262116
39000.0 0.617688 -139.714825
40000.0 0.600607 -143.142947
41000.0 0.583449 -146.543939
42000.0 0.566251 -149.915214
43000.0 0.549052 -153.254171
44000.0 0.531891 -156.558223
45000.0 0.514808 -159.824831
46000.0 0.497842 -163.051528
47000.0 0.481031 -166.235949
48000.0 0.464411 -169.37586
49000.0 0.448017 -172.469175
50000.0 0.431883 -175.513982
51000.0 0.416039 -178.508556
52000.0 0.400512 178.548631
53000.0 0.385328 175.658896
54000.0 0.370508 172.823347
55000.0 0.35607 170.042876
56000.0 0.342031 167.318167
57000.0 0.328402 164.649698
58000.0 0.315193 162.03775
59000.0 0.30241 159.48242
60000.0 0.290058 156.983627
61000.0 0.278137 154.541132
62000.0 0.266647 152.154544
63000.0 0.255585 149.823342
64000.0 0.244946 147.546884
65000.0 0.234724 145.324424
66000.0 0.224912 143.155124
67000.0 0.215499 141.038067
68000.0 0.206477 138.972272
69000.0 0.197834 136.956701
70000.0 0.18956 134.990276
71000.0 0.181643 133.071882
72000.0 0.174071 131.200381
73000.0 0.166831 129.374618
74000.0 0.159912 127.593428
75000.0 0.1533 125.855643
76000.0 0.146985 124.160096
77000.0 0.140953 122.505628
78000.0 0.135193 120.89109
79000.0 0.129693 119.31535
80000.0 0.124442 117.77729
81000.0 0.119428 116.275815
82000.0 0.114642 114.80985
83000.0 0.110072 113.378345
84000.0 0.105709 111.980273
85000.0 0.101544 110.614634
86000.0 0.097566 109.280455
87000.0 0.093767 107.976788
88000.0 0.090139 106.702714
89000.0 0.086673 105.457341
90000.0 0.083362 104.239801
91000.0 0.080198 103.049258
92000.0 0.077174 101.884897
93000.0 0.074284 100.745934
94000.0 0.071521 99.631607
95000.0 0.068878 98.541181
96000.0 0.066351 97.473946
97000.0 0.063933 96.429213
98000.0 0.061619 95.406319
99000.0 0.059405 94.404623
100000.0 0.057285 93.423506
101000.0 0.055255 92.462368
102000.0 0.053311 91.520634
103000.0 0.051448 90.597744
104000.0 0.049664 89.693162
105000.0 0.047953 88.806365
106000.0 0.046313 87.936854
107000.0 0.04474 87.084143
108000.0 0.043232 86.247764
109000.0 0.041784 85.427264
110000.0 0.040395 84.622209
111000.0 0.039062 83.832175
112000.0 0.037781 83.056756
113000.0 0.036552 82.295558
114000.0 0.03537 81.548201
115000.0 0.034235 80.814317
116000.0 0.033144 80.093552
117000.0 0.032095 79.385562
118000.0 0.031086 78.690016
119000.0 0.030116 78.006591
120000.0 0.029183 77.334979
121000.0 0.028284 76.674879
122000.0 0.02742 76.026001
123000.0 0.026587 75.388063
124000.0 0.025786 74.760793
125000.0 0.025013 74.143928
126000.0 0.024269 73.537213
127000.0 0.023552 72.940402
128000.0 0.022861 72.353255
129000.0 0.022194 71.775541
130000.0 0.021551 71.207034
131000.0 0.020931 70.647519
132000.0 0.020333 70.096782
133000.0 0.019756 69.554622
134000.0 0.019198 69.020838
135000.0 0.01866 68.49524
136000.0 0.018141 67.977639
137000.0 0.017639 67.467857
138000.0 0.017154 66.965716
139000.0 0.016686 66.471046
140000.0 0.016233 65.983683
