! File created by SignalIntegrity v1.1.14: Signal and Power Integrity Tools
! https://github.com/TeledyneLeCroy/SignalIntegrity
# MHz S MA R 50.0
0.0 1.0 0.0
1000.0 1.0 -6.271003
2000.0 1.0 -12.542879
3000.0 1.0 -18.816503
4000.0 1.0 -25.092753
5000.0 1.0 -31.37251
6000.0 1.0 -37.65666
7000.0 1.0 -43.946098
8000.0 1.0 -50.241725
9000.0 1.0 -56.544454
10000.0 1.0 -62.855208
11000.0 1.0 -69.174922
12000.0 1.0 -75.504548
13000.0 1.0 -81.845052
14000.0 1.0 -88.197419
15000.0 1.0 -94.562654
16000.0 1.0 -100.941785
17000.0 1.0 -107.335862
18000.0 1.0 -113.745964
19000.0 1.0 -120.173196
20000.0 1.0 -126.618697
21000.0 1.0 -133.083638
22000.0 1.0 -139.569231
23000.0 1.0 -146.076725
24000.0 1.0 -152.607413
25000.0 1.0 -159.162639
26000.0 1.0 -165.743797
27000.0 1.0 -172.352339
28000.0 1.0 -178.989777
29000.0 1.0 174.342308
30000.0 1.0 167.64226
31000.0 1.0 160.908345
32000.0 1.0 154.13874
33000.0 1.0 147.331523
34000.0 1.0 140.484668
35000.0 1.0 133.59603
36000.0 1.0 126.663333
37000.0 1.0 119.684157
38000.0 1.0 112.655924
39000.0 1.0 105.575871
40000.0 0.999999 98.441036
41000.0 0.999999 91.24823
42000.0 0.999998 83.994003
43000.0 0.999996 76.674611
44000.0 0.999993 69.285974
45000.0 0.999988 61.823619
46000.0 0.999979 54.282622
47000.0 0.999965 46.657529
48000.0 0.999942 38.942265
49000.0 0.999904 31.130022
50000.0 0.999844 23.213123
51000.0 0.99975 15.18286
52000.0 0.999601 7.029296
53000.0 0.999371 -1.258966
54000.0 0.999015 -9.695046
55000.0 0.998471 -18.294087
56000.0 0.997647 -27.073569
57000.0 0.996409 -36.053615
58000.0 0.994563 -45.257224
59000.0 0.991839 -54.710339
60000.0 0.987858 -64.441592
61000.0 0.982104 -74.481476
62000.0 0.973894 -84.860601
63000.0 0.962355 -95.606612
64000.0 0.946432 -106.739349
65000.0 0.924945 -118.264054
66000.0 0.896721 -130.163089
67000.0 0.860824 -142.387749
68000.0 0.816844 -154.853021
69000.0 0.76517 -167.438835
70000.0 0.707107 -180.0
71000.0 0.644752 167.616283
72000.0 0.580631 155.550325
73000.0 0.517242 143.913679
74000.0 0.456675 132.781015
75000.0 0.400403 122.190502
76000.0 0.349271 112.150004
77000.0 0.303592 102.645602
78000.0 0.263294 93.64979
79000.0 0.228062 85.12802
80000.0 0.197452 77.043292
81000.0 0.170968 69.359056
82000.0 0.148113 62.040843
83000.0 0.128419 55.057047
84000.0 0.111458 48.379176
85000.0 0.096851 41.981798
86000.0 0.084265 35.842332
87000.0 0.073413 29.940765
88000.0 0.064046 24.259357
89000.0 0.055952 18.782357
90000.0 0.048949 13.495742
91000.0 0.042882 8.386985
92000.0 0.03762 3.444857
93000.0 0.033048 -1.340753
94000.0 0.029071 -5.978976
95000.0 0.025607 -10.478099
96000.0 0.022585 -14.845664
97000.0 0.019945 -19.088565
98000.0 0.017636 -23.213123
99000.0 0.015614 -27.225154
100000.0 0.01384 -31.130022
101000.0 0.012283 -34.932694
102000.0 0.010913 -38.637776
103000.0 0.009708 -42.249556
104000.0 0.008645 -45.77203
105000.0 0.007707 -49.208932
106000.0 0.006879 -52.563758
107000.0 0.006146 -55.839788
108000.0 0.005496 -59.040105
109000.0 0.004921 -62.167611
110000.0 0.00441 -65.225041
111000.0 0.003956 -68.214977
112000.0 0.003553 -71.139863
113000.0 0.003193 -74.002009
114000.0 0.002873 -76.803606
115000.0 0.002587 -79.546734
116000.0 0.002332 -82.233368
117000.0 0.002104 -84.865385
118000.0 0.001899 -87.444574
119000.0 0.001716 -89.972638
120000.0 0.001552 -92.451199
121000.0 0.001405 -94.88181
122000.0 0.001273 -97.265949
123000.0 0.001154 -99.605031
124000.0 0.001047 -101.900412
125000.0 0.000951 -104.153385
126000.0 0.000864 -106.365192
127000.0 0.000786 -108.537024
128000.0 0.000716 -110.67002
129000.0 0.000652 -112.765277
130000.0 0.000594 -114.823844
131000.0 0.000542 -116.846734
132000.0 0.000495 -118.834916
133000.0 0.000452 -120.789326
134000.0 0.000413 -122.710861
135000.0 0.000378 -124.600387
136000.0 0.000346 -126.458739
137000.0 0.000317 -128.286718
138000.0 0.00029 -130.085099
139000.0 0.000266 -131.854629
140000.0 0.000244 -133.59603
