! File created by SignalIntegrity v1.1.14: Signal and Power Integrity Tools
! https://github.com/TeledyneLeCroy/SignalIntegrity
# MHz S MA R 50.0
0.0 0.398107 0.0
1000.0 0.40014 2.819112
2000.0 0.406121 5.493297
3000.0 0.415718 7.898992
4000.0 0.428436 9.948386
5000.0 0.443687 11.593739
6000.0 0.460853 12.823137
7000.0 0.47934 13.651615
8000.0 0.498607 14.111427
9000.0 0.518188 14.243756
10000.0 0.537691 14.092674
11000.0 0.556803 13.701254
12000.0 0.575277 13.10938
13000.0 0.592929 12.352714
14000.0 0.609624 11.4624
15000.0 0.625272 10.465194
16000.0 0.639817 9.383815
17000.0 0.653233 8.237388
18000.0 0.665515 7.041908
19000.0 0.676674 5.810683
20000.0 0.686739 4.554738
21000.0 0.695742 3.283175
22000.0 0.703727 2.003477
23000.0 0.71074 0.721779
24000.0 0.716832 -0.556914
25000.0 0.722052 -1.828532
26000.0 0.726452 -3.089786
27000.0 0.730084 -4.338036
28000.0 0.732997 -5.571178
29000.0 0.735239 -6.787555
30000.0 0.736857 -7.985877
31000.0 0.737895 -9.165164
32000.0 0.738396 -10.324687
33000.0 0.738399 -11.463926
34000.0 0.737943 -12.582538
35000.0 0.737064 -13.680318
36000.0 0.735794 -14.757183
37000.0 0.734166 -15.813145
38000.0 0.732209 -16.848297
39000.0 0.729951 -17.862793
40000.0 0.727417 -18.856844
41000.0 0.724632 -19.830702
42000.0 0.721618 -20.784652
43000.0 0.718396 -21.719006
44000.0 0.714985 -22.634099
45000.0 0.711404 -23.530281
46000.0 0.707668 -24.407912
47000.0 0.703795 -25.267363
48000.0 0.699799 -26.10901
49000.0 0.695692 -26.933232
50000.0 0.691487 -27.740408
51000.0 0.687197 -28.530918
52000.0 0.682832 -29.30514
53000.0 0.678401 -30.063447
54000.0 0.673914 -30.806211
55000.0 0.669379 -31.533797
56000.0 0.664804 -32.246565
57000.0 0.660197 -32.944869
58000.0 0.655565 -33.629059
59000.0 0.650912 -34.299474
60000.0 0.646246 -34.95645
61000.0 0.641571 -35.600315
62000.0 0.636892 -36.231388
63000.0 0.632213 -36.849984
64000.0 0.62754 -37.456407
65000.0 0.622874 -38.050958
66000.0 0.618221 -38.633927
67000.0 0.613582 -39.205598
68000.0 0.608961 -39.76625
69000.0 0.604361 -40.316153
70000.0 0.599783 -40.855569
71000.0 0.595231 -41.384756
72000.0 0.590705 -41.903963
73000.0 0.586207 -42.413434
74000.0 0.58174 -42.913405
75000.0 0.577305 -43.404108
76000.0 0.572903 -43.885766
77000.0 0.568535 -44.358598
78000.0 0.564201 -44.822817
79000.0 0.559904 -45.27863
80000.0 0.555644 -45.726237
81000.0 0.551421 -46.165834
82000.0 0.547236 -46.597612
83000.0 0.54309 -47.021757
84000.0 0.538983 -47.438447
85000.0 0.534915 -47.847859
86000.0 0.530886 -48.250163
87000.0 0.526898 -48.645524
88000.0 0.522949 -49.034105
89000.0 0.519041 -49.416062
90000.0 0.515172 -49.791548
91000.0 0.511344 -50.160712
92000.0 0.507556 -50.523697
93000.0 0.503808 -50.880644
94000.0 0.5001 -51.231691
95000.0 0.496432 -51.57697
96000.0 0.492803 -51.916612
97000.0 0.489214 -52.250741
98000.0 0.485664 -52.57948
99000.0 0.482153 -52.90295
100000.0 0.47868 -53.221266
101000.0 0.475246 -53.534541
102000.0 0.47185 -53.842885
103000.0 0.468492 -54.146406
104000.0 0.465172 -54.445208
105000.0 0.461889 -54.739392
106000.0 0.458642 -55.029058
107000.0 0.455432 -55.314301
108000.0 0.452259 -55.595216
109000.0 0.44912 -55.871894
110000.0 0.446018 -56.144424
111000.0 0.44295 -56.412893
112000.0 0.439917 -56.677385
113000.0 0.436918 -56.937982
114000.0 0.433953 -57.194766
115000.0 0.431021 -57.447813
116000.0 0.428123 -57.697201
117000.0 0.425257 -57.943003
118000.0 0.422423 -58.185292
119000.0 0.419622 -58.424139
120000.0 0.416851 -58.659612
121000.0 0.414112 -58.891778
122000.0 0.411404 -59.120704
123000.0 0.408725 -59.346452
124000.0 0.406077 -59.569085
125000.0 0.403458 -59.788665
126000.0 0.400869 -60.005249
127000.0 0.398308 -60.218896
128000.0 0.395776 -60.429663
129000.0 0.393271 -60.637604
130000.0 0.390795 -60.842773
131000.0 0.388345 -61.045223
132000.0 0.385923 -61.245005
133000.0 0.383527 -61.442169
134000.0 0.381157 -61.636763
135000.0 0.378813 -61.828836
136000.0 0.376495 -62.018433
137000.0 0.374202 -62.205602
138000.0 0.371933 -62.390385
139000.0 0.369689 -62.572826
140000.0 0.367469 -62.752967
