! File created by SignalIntegrity v1.1.14: Signal and Power Integrity Tools
! https://github.com/TeledyneLeCroy/SignalIntegrity
# MHz S MA R 50.0
0.0 1.0 0.0
1000.0 1.001949 0.640275
2000.0 1.007767 1.265227
3000.0 1.017371 1.860375
4000.0 1.030623 2.412817
5000.0 1.047335 2.911801
6000.0 1.067273 3.349065
7000.0 1.090164 3.718955
8000.0 1.115696 4.018334
9000.0 1.143529 4.246341
10000.0 1.173299 4.404041
11000.0 1.20462 4.494034
12000.0 1.237091 4.520057
13000.0 1.270303 4.486625
14000.0 1.30384 4.398706
15000.0 1.337286 4.261469
16000.0 1.370229 4.080084
17000.0 1.402264 3.859577
18000.0 1.433 3.60473
19000.0 1.462063 3.320027
20000.0 1.489101 3.009619
21000.0 1.513784 2.67733
22000.0 1.535815 2.326658
23000.0 1.554928 1.960809
24000.0 1.57089 1.582727
25000.0 1.583509 1.19513
26000.0 1.592634 0.800558
27000.0 1.598153 0.401412
28000.0 1.6 2e-06
29000.0 1.598153 -0.401408
30000.0 1.592634 -0.800554
31000.0 1.58351 -1.195126
32000.0 1.57089 -1.582723
33000.0 1.554928 -1.960806
34000.0 1.535816 -2.326655
35000.0 1.513785 -2.677327
36000.0 1.489101 -3.009616
37000.0 1.462064 -3.320024
38000.0 1.433 -3.604728
39000.0 1.402264 -3.859575
40000.0 1.370229 -4.080083
41000.0 1.337287 -4.261467
42000.0 1.303841 -4.398705
43000.0 1.270304 -4.486624
44000.0 1.237092 -4.520057
45000.0 1.20462 -4.494034
46000.0 1.173299 -4.404042
47000.0 1.14353 -4.246343
48000.0 1.115696 -4.018336
49000.0 1.090164 -3.718958
50000.0 1.067273 -3.349069
51000.0 1.047335 -2.911806
52000.0 1.030623 -2.412822
53000.0 1.017371 -1.86038
54000.0 1.007767 -1.265233
55000.0 1.001949 -0.64028
56000.0 1.0 -6e-06
57000.0 1.001949 0.640269
58000.0 1.007767 1.265222
59000.0 1.017371 1.86037
60000.0 1.030623 2.412813
61000.0 1.047335 2.911797
62000.0 1.067273 3.349062
63000.0 1.090163 3.718952
64000.0 1.115696 4.018332
65000.0 1.143529 4.246339
66000.0 1.173299 4.40404
67000.0 1.20462 4.494033
68000.0 1.237091 4.520057
69000.0 1.270303 4.486625
70000.0 1.30384 4.398707
71000.0 1.337286 4.26147
72000.0 1.370229 4.080086
73000.0 1.402264 3.859579
74000.0 1.433 3.604733
75000.0 1.462063 3.320029
76000.0 1.4891 3.009622
77000.0 1.513784 2.677333
78000.0 1.535815 2.326661
79000.0 1.554928 1.960812
80000.0 1.57089 1.58273
81000.0 1.583509 1.195133
82000.0 1.592634 0.800561
83000.0 1.598153 0.401415
84000.0 1.6 5e-06
85000.0 1.598153 -0.401404
86000.0 1.592634 -0.800551
87000.0 1.58351 -1.195123
88000.0 1.57089 -1.58272
89000.0 1.554928 -1.960802
90000.0 1.535816 -2.326651
91000.0 1.513785 -2.677324
92000.0 1.489101 -3.009614
93000.0 1.462064 -3.320021
94000.0 1.433001 -3.604726
95000.0 1.402265 -3.859573
96000.0 1.37023 -4.080081
97000.0 1.337287 -4.261466
98000.0 1.303841 -4.398704
99000.0 1.270304 -4.486624
100000.0 1.237092 -4.520057
101000.0 1.20462 -4.494035
102000.0 1.1733 -4.404043
103000.0 1.14353 -4.246344
104000.0 1.115696 -4.018339
105000.0 1.090164 -3.718961
106000.0 1.067274 -3.349073
107000.0 1.047335 -2.91181
108000.0 1.030623 -2.412827
109000.0 1.017371 -1.860385
110000.0 1.007767 -1.265238
111000.0 1.001949 -0.640286
112000.0 1.0 -1.2e-05
113000.0 1.001949 0.640263
114000.0 1.007767 1.265216
115000.0 1.017371 1.860365
116000.0 1.030623 2.412808
117000.0 1.047335 2.911793
118000.0 1.067273 3.349058
119000.0 1.090163 3.718949
120000.0 1.115695 4.018329
121000.0 1.143529 4.246338
122000.0 1.173299 4.404039
123000.0 1.204619 4.494033
124000.0 1.237091 4.520058
125000.0 1.270303 4.486626
126000.0 1.30384 4.398708
127000.0 1.337286 4.261472
128000.0 1.370228 4.080088
129000.0 1.402263 3.859581
130000.0 1.433 3.604735
131000.0 1.462063 3.320032
132000.0 1.4891 3.009625
133000.0 1.513784 2.677336
134000.0 1.535815 2.326664
135000.0 1.554927 1.960816
136000.0 1.57089 1.582733
137000.0 1.583509 1.195137
138000.0 1.592634 0.800565
139000.0 1.598153 0.401419
140000.0 1.6 9e-06
