! File created by SignalIntegrity v1.1.14: Signal and Power Integrity Tools
! https://github.com/TeledyneLeCroy/SignalIntegrity
# MHz S MA R 50.0
0.0 1.0 0.0 2.0 0.0 0.0 0.0 1.0 180.0
1000.0 1.0 0.0 1.999435 -3.604719 0.0 0.0 1.0 180.0
2000.0 1.0 0.0 1.997739 -7.209438 0.0 0.0 1.0 180.0
3000.0 1.0 0.0 1.994915 -10.814157 0.0 0.0 1.0 180.0
4000.0 1.0 0.0 1.990965 -14.418876 0.0 0.0 1.0 180.0
5000.0 1.0 0.0 1.985893 -18.023595 0.0 0.0 1.0 180.0
6000.0 1.0 0.0 1.979705 -21.628314 0.0 0.0 1.0 180.0
7000.0 1.0 0.0 1.972407 -25.233033 0.0 0.0 1.0 180.0
8000.0 1.0 0.0 1.964005 -28.837751 0.0 0.0 1.0 180.0
9000.0 1.0 0.0 1.954509 -32.442468 0.0 0.0 1.0 180.0
10000.0 1.0 0.0 1.943927 -36.047182 0.0 0.0 1.0 180.0
11000.0 1.0 0.0 1.932269 -39.65189 0.0 0.0 1.0 180.0
12000.0 1.0 0.0 1.919547 -43.256586 0.0 0.0 1.0 180.0
13000.0 1.0 0.0 1.905772 -46.861261 0.0 0.0 1.0 180.0
14000.0 1.0 0.0 1.890957 -50.465899 0.0 0.0 1.0 180.0
15000.0 1.0 0.0 1.875115 -54.070478 0.0 0.0 1.0 180.0
16000.0 1.0 0.0 1.85826 -57.674962 0.0 0.0 1.0 180.0
17000.0 1.0 0.0 1.840406 -61.279301 0.0 0.0 1.0 180.0
18000.0 1.0 0.0 1.821568 -64.883424 0.0 0.0 1.0 180.0
19000.0 1.0 0.0 1.801761 -68.487234 0.0 0.0 1.0 180.0
20000.0 1.0 0.0 1.781001 -72.0906 0.0 0.0 1.0 180.0
21000.0 1.0 0.0 1.759305 -75.693348 0.0 0.0 1.0 180.0
22000.0 1.0 0.0 1.736689 -79.295256 0.0 0.0 1.0 180.0
23000.0 1.0 0.0 1.713171 -82.896039 0.0 0.0 1.0 180.0
24000.0 1.0 0.0 1.68877 -86.495339 0.0 0.0 1.0 180.0
25000.0 1.0 0.0 1.663504 -90.092717 0.0 0.0 1.0 180.0
26000.0 1.0 0.0 1.637397 -93.687637 0.0 0.0 1.0 180.0
27000.0 1.0 0.0 1.610469 -97.279454 0.0 0.0 1.0 180.0
28000.0 1.0 0.0 1.582745 -100.867405 0.0 0.0 1.0 180.0
29000.0 1.0 0.0 1.554253 -104.450592 0.0 0.0 1.0 180.0
30000.0 1.0 0.0 1.525022 -108.027979 0.0 0.0 1.0 180.0
31000.0 1.0 0.0 1.495084 -111.598377 0.0 0.0 1.0 180.0
32000.0 1.0 0.0 1.464477 -115.160439 0.0 0.0 1.0 180.0
33000.0 1.0 0.0 1.43324 -118.712657 0.0 0.0 1.0 180.0
34000.0 1.0 0.0 1.401417 -122.253361 0.0 0.0 1.0 180.0
35000.0 1.0 0.0 1.369057 -125.780718 0.0 0.0 1.0 180.0
36000.0 1.0 0.0 1.336214 -129.29274 0.0 0.0 1.0 180.0
37000.0 1.0 0.0 1.302944 -132.787294 0.0 0.0 1.0 180.0
38000.0 1.0 0.0 1.269309 -136.262116 0.0 0.0 1.0 180.0
39000.0 1.0 0.0 1.235376 -139.714825 0.0 0.0 1.0 180.0
40000.0 1.0 0.0 1.201215 -143.142947 0.0 0.0 1.0 180.0
41000.0 1.0 0.0 1.166898 -146.543939 0.0 0.0 1.0 180.0
42000.0 1.0 0.0 1.132502 -149.915214 0.0 0.0 1.0 180.0
43000.0 1.0 0.0 1.098104 -153.254171 0.0 0.0 1.0 180.0
44000.0 1.0 0.0 1.063783 -156.558223 0.0 0.0 1.0 180.0
45000.0 1.0 0.0 1.029617 -159.824831 0.0 0.0 1.0 180.0
46000.0 1.0 0.0 0.995684 -163.051528 0.0 0.0 1.0 180.0
47000.0 1.0 0.0 0.962061 -166.235949 0.0 0.0 1.0 180.0
48000.0 1.0 0.0 0.928821 -169.37586 0.0 0.0 1.0 180.0
49000.0 1.0 0.0 0.896034 -172.469175 0.0 0.0 1.0 180.0
50000.0 1.0 0.0 0.863766 -175.513982 0.0 0.0 1.0 180.0
51000.0 1.0 0.0 0.832078 -178.508556 0.0 0.0 1.0 180.0
52000.0 1.0 0.0 0.801025 178.548631 0.0 0.0 1.0 180.0
53000.0 1.0 0.0 0.770656 175.658896 0.0 0.0 1.0 180.0
54000.0 1.0 0.0 0.741016 172.823347 0.0 0.0 1.0 180.0
55000.0 1.0 0.0 0.712141 170.042876 0.0 0.0 1.0 180.0
56000.0 1.0 0.0 0.684062 167.318167 0.0 0.0 1.0 180.0
57000.0 1.0 0.0 0.656804 164.649698 0.0 0.0 1.0 180.0
58000.0 1.0 0.0 0.630385 162.03775 0.0 0.0 1.0 180.0
59000.0 1.0 0.0 0.60482 159.48242 0.0 0.0 1.0 180.0
60000.0 1.0 0.0 0.580115 156.983627 0.0 0.0 1.0 180.0
61000.0 1.0 0.0 0.556274 154.541132 0.0 0.0 1.0 180.0
62000.0 1.0 0.0 0.533294 152.154544 0.0 0.0 1.0 180.0
63000.0 1.0 0.0 0.51117 149.823342 0.0 0.0 1.0 180.0
64000.0 1.0 0.0 0.489893 147.546884 0.0 0.0 1.0 180.0
65000.0 1.0 0.0 0.469449 145.324424 0.0 0.0 1.0 180.0
66000.0 1.0 0.0 0.449823 143.155124 0.0 0.0 1.0 180.0
67000.0 1.0 0.0 0.430998 141.038067 0.0 0.0 1.0 180.0
68000.0 1.0 0.0 0.412953 138.972272 0.0 0.0 1.0 180.0
69000.0 1.0 0.0 0.395668 136.956701 0.0 0.0 1.0 180.0
70000.0 1.0 0.0 0.37912 134.990276 0.0 0.0 1.0 180.0
71000.0 1.0 0.0 0.363286 133.071882 0.0 0.0 1.0 180.0
72000.0 1.0 0.0 0.348141 131.200381 0.0 0.0 1.0 180.0
73000.0 1.0 0.0 0.333662 129.374618 0.0 0.0 1.0 180.0
74000.0 1.0 0.0 0.319823 127.593428 0.0 0.0 1.0 180.0
75000.0 1.0 0.0 0.3066 125.855643 0.0 0.0 1.0 180.0
76000.0 1.0 0.0 0.293969 124.160096 0.0 0.0 1.0 180.0
77000.0 1.0 0.0 0.281905 122.505628 0.0 0.0 1.0 180.0
78000.0 1.0 0.0 0.270385 120.89109 0.0 0.0 1.0 180.0
79000.0 1.0 0.0 0.259385 119.31535 0.0 0.0 1.0 180.0
80000.0 1.0 0.0 0.248883 117.77729 0.0 0.0 1.0 180.0
81000.0 1.0 0.0 0.238856 116.275815 0.0 0.0 1.0 180.0
82000.0 1.0 0.0 0.229284 114.80985 0.0 0.0 1.0 180.0
83000.0 1.0 0.0 0.220145 113.378345 0.0 0.0 1.0 180.0
84000.0 1.0 0.0 0.211419 111.980273 0.0 0.0 1.0 180.0
85000.0 1.0 0.0 0.203087 110.614634 0.0 0.0 1.0 180.0
86000.0 1.0 0.0 0.195132 109.280455 0.0 0.0 1.0 180.0
87000.0 1.0 0.0 0.187534 107.976788 0.0 0.0 1.0 180.0
88000.0 1.0 0.0 0.180278 106.702714 0.0 0.0 1.0 180.0
89000.0 1.0 0.0 0.173346 105.457341 0.0 0.0 1.0 180.0
90000.0 1.0 0.0 0.166724 104.239801 0.0 0.0 1.0 180.0
91000.0 1.0 0.0 0.160396 103.049258 0.0 0.0 1.0 180.0
92000.0 1.0 0.0 0.154348 101.884897 0.0 0.0 1.0 180.0
93000.0 1.0 0.0 0.148568 100.745934 0.0 0.0 1.0 180.0
94000.0 1.0 0.0 0.143041 99.631607 0.0 0.0 1.0 180.0
95000.0 1.0 0.0 0.137756 98.541181 0.0 0.0 1.0 180.0
96000.0 1.0 0.0 0.132701 97.473946 0.0 0.0 1.0 180.0
97000.0 1.0 0.0 0.127866 96.429213 0.0 0.0 1.0 180.0
98000.0 1.0 0.0 0.123238 95.406319 0.0 0.0 1.0 180.0
99000.0 1.0 0.0 0.11881 94.404623 0.0 0.0 1.0 180.0
100000.0 1.0 0.0 0.11457 93.423506 0.0 0.0 1.0 180.0
