! File created by SignalIntegrity v1.1.14: Signal and Power Integrity Tools
! https://github.com/TeledyneLeCroy/SignalIntegrity
# MHz S MA R 50.0
0.0 1.0 0.0 2.0 0.0 0.0 0.0 1.0 180.0
1000.0 1.0 0.0 2.002515 0.0 0.0 0.0 1.0 180.0
2000.0 1.0 0.0 2.010029 0.0 0.0 0.0 1.0 180.0
3000.0 1.0 0.0 2.022447 0.0 0.0 0.0 1.0 180.0
4000.0 1.0 0.0 2.039612 0.0 0.0 0.0 1.0 180.0
5000.0 1.0 0.0 2.06131 0.0 0.0 0.0 1.0 180.0
6000.0 1.0 0.0 2.087267 0.0 0.0 0.0 1.0 180.0
7000.0 1.0 0.0 2.117157 0.0 0.0 0.0 1.0 180.0
8000.0 1.0 0.0 2.150604 0.0 0.0 0.0 1.0 180.0
9000.0 1.0 0.0 2.187187 0.0 0.0 0.0 1.0 180.0
10000.0 1.0 0.0 2.226447 0.0 0.0 0.0 1.0 180.0
11000.0 1.0 0.0 2.267888 0.0 0.0 0.0 1.0 180.0
12000.0 1.0 0.0 2.310992 0.0 0.0 0.0 1.0 180.0
13000.0 1.0 0.0 2.355214 0.0 0.0 0.0 1.0 180.0
14000.0 1.0 0.0 2.4 0.0 0.0 0.0 1.0 180.0
15000.0 1.0 0.0 2.444786 0.0 0.0 0.0 1.0 180.0
16000.0 1.0 0.0 2.489008 0.0 0.0 0.0 1.0 180.0
17000.0 1.0 0.0 2.532112 0.0 0.0 0.0 1.0 180.0
18000.0 1.0 0.0 2.573553 0.0 0.0 0.0 1.0 180.0
19000.0 1.0 0.0 2.612813 0.0 0.0 0.0 1.0 180.0
20000.0 1.0 0.0 2.649396 0.0 0.0 0.0 1.0 180.0
21000.0 1.0 0.0 2.682843 0.0 0.0 0.0 1.0 180.0
22000.0 1.0 0.0 2.712733 0.0 0.0 0.0 1.0 180.0
23000.0 1.0 0.0 2.73869 0.0 0.0 0.0 1.0 180.0
24000.0 1.0 0.0 2.760388 0.0 0.0 0.0 1.0 180.0
25000.0 1.0 0.0 2.777553 0.0 0.0 0.0 1.0 180.0
26000.0 1.0 0.0 2.789971 0.0 0.0 0.0 1.0 180.0
27000.0 1.0 0.0 2.797485 0.0 0.0 0.0 1.0 180.0
28000.0 1.0 0.0 2.8 0.0 0.0 0.0 1.0 180.0
29000.0 1.0 0.0 2.797485 0.0 0.0 0.0 1.0 180.0
30000.0 1.0 0.0 2.789971 0.0 0.0 0.0 1.0 180.0
31000.0 1.0 0.0 2.777553 0.0 0.0 0.0 1.0 180.0
32000.0 1.0 0.0 2.760388 0.0 0.0 0.0 1.0 180.0
33000.0 1.0 0.0 2.73869 0.0 0.0 0.0 1.0 180.0
34000.0 1.0 0.0 2.712733 0.0 0.0 0.0 1.0 180.0
35000.0 1.0 0.0 2.682843 0.0 0.0 0.0 1.0 180.0
36000.0 1.0 0.0 2.649396 0.0 0.0 0.0 1.0 180.0
37000.0 1.0 0.0 2.612813 0.0 0.0 0.0 1.0 180.0
38000.0 1.0 0.0 2.573553 0.0 0.0 0.0 1.0 180.0
39000.0 1.0 0.0 2.532112 0.0 0.0 0.0 1.0 180.0
40000.0 1.0 0.0 2.489008 0.0 0.0 0.0 1.0 180.0
41000.0 1.0 0.0 2.444786 0.0 0.0 0.0 1.0 180.0
42000.0 1.0 0.0 2.4 0.0 0.0 0.0 1.0 180.0
43000.0 1.0 0.0 2.355214 0.0 0.0 0.0 1.0 180.0
44000.0 1.0 0.0 2.310992 0.0 0.0 0.0 1.0 180.0
45000.0 1.0 0.0 2.267888 0.0 0.0 0.0 1.0 180.0
46000.0 1.0 0.0 2.226447 0.0 0.0 0.0 1.0 180.0
47000.0 1.0 0.0 2.187187 0.0 0.0 0.0 1.0 180.0
48000.0 1.0 0.0 2.150604 0.0 0.0 0.0 1.0 180.0
49000.0 1.0 0.0 2.117157 0.0 0.0 0.0 1.0 180.0
50000.0 1.0 0.0 2.087267 0.0 0.0 0.0 1.0 180.0
51000.0 1.0 0.0 2.06131 0.0 0.0 0.0 1.0 180.0
52000.0 1.0 0.0 2.039612 0.0 0.0 0.0 1.0 180.0
53000.0 1.0 0.0 2.022447 0.0 0.0 0.0 1.0 180.0
54000.0 1.0 0.0 2.010029 0.0 0.0 0.0 1.0 180.0
55000.0 1.0 0.0 2.002515 0.0 0.0 0.0 1.0 180.0
56000.0 1.0 0.0 2.0 0.0 0.0 0.0 1.0 180.0
57000.0 1.0 0.0 2.002515 0.0 0.0 0.0 1.0 180.0
58000.0 1.0 0.0 2.010029 0.0 0.0 0.0 1.0 180.0
59000.0 1.0 0.0 2.022447 0.0 0.0 0.0 1.0 180.0
60000.0 1.0 0.0 2.039612 0.0 0.0 0.0 1.0 180.0
61000.0 1.0 0.0 2.06131 0.0 0.0 0.0 1.0 180.0
62000.0 1.0 0.0 2.087267 0.0 0.0 0.0 1.0 180.0
63000.0 1.0 0.0 2.117157 0.0 0.0 0.0 1.0 180.0
64000.0 1.0 0.0 2.150604 0.0 0.0 0.0 1.0 180.0
65000.0 1.0 0.0 2.187187 0.0 0.0 0.0 1.0 180.0
66000.0 1.0 0.0 2.226447 0.0 0.0 0.0 1.0 180.0
67000.0 1.0 0.0 2.267888 0.0 0.0 0.0 1.0 180.0
68000.0 1.0 0.0 2.310992 0.0 0.0 0.0 1.0 180.0
69000.0 1.0 0.0 2.355214 0.0 0.0 0.0 1.0 180.0
70000.0 1.0 0.0 2.4 0.0 0.0 0.0 1.0 180.0
71000.0 1.0 0.0 2.444786 0.0 0.0 0.0 1.0 180.0
72000.0 1.0 0.0 2.489008 0.0 0.0 0.0 1.0 180.0
73000.0 1.0 0.0 2.532112 0.0 0.0 0.0 1.0 180.0
74000.0 1.0 0.0 2.573553 0.0 0.0 0.0 1.0 180.0
75000.0 1.0 0.0 2.612813 0.0 0.0 0.0 1.0 180.0
76000.0 1.0 0.0 2.649396 0.0 0.0 0.0 1.0 180.0
77000.0 1.0 0.0 2.682843 0.0 0.0 0.0 1.0 180.0
78000.0 1.0 0.0 2.712733 0.0 0.0 0.0 1.0 180.0
79000.0 1.0 0.0 2.73869 0.0 0.0 0.0 1.0 180.0
80000.0 1.0 0.0 2.760388 0.0 0.0 0.0 1.0 180.0
81000.0 1.0 0.0 2.777553 0.0 0.0 0.0 1.0 180.0
82000.0 1.0 0.0 2.789971 0.0 0.0 0.0 1.0 180.0
83000.0 1.0 0.0 2.797485 0.0 0.0 0.0 1.0 180.0
84000.0 1.0 0.0 2.8 0.0 0.0 0.0 1.0 180.0
85000.0 1.0 0.0 2.797485 0.0 0.0 0.0 1.0 180.0
86000.0 1.0 0.0 2.789971 0.0 0.0 0.0 1.0 180.0
87000.0 1.0 0.0 2.777553 0.0 0.0 0.0 1.0 180.0
88000.0 1.0 0.0 2.760388 0.0 0.0 0.0 1.0 180.0
89000.0 1.0 0.0 2.73869 0.0 0.0 0.0 1.0 180.0
90000.0 1.0 0.0 2.712733 0.0 0.0 0.0 1.0 180.0
91000.0 1.0 0.0 2.682843 0.0 0.0 0.0 1.0 180.0
92000.0 1.0 0.0 2.649396 0.0 0.0 0.0 1.0 180.0
93000.0 1.0 0.0 2.612813 0.0 0.0 0.0 1.0 180.0
94000.0 1.0 0.0 2.573553 0.0 0.0 0.0 1.0 180.0
95000.0 1.0 0.0 2.532112 0.0 0.0 0.0 1.0 180.0
96000.0 1.0 0.0 2.489008 0.0 0.0 0.0 1.0 180.0
97000.0 1.0 0.0 2.444786 0.0 0.0 0.0 1.0 180.0
98000.0 1.0 0.0 2.4 0.0 0.0 0.0 1.0 180.0
99000.0 1.0 0.0 2.355214 0.0 0.0 0.0 1.0 180.0
100000.0 1.0 0.0 2.310992 0.0 0.0 0.0 1.0 180.0
101000.0 1.0 0.0 2.267888 0.0 0.0 0.0 1.0 180.0
102000.0 1.0 0.0 2.226447 0.0 0.0 0.0 1.0 180.0
103000.0 1.0 0.0 2.187187 0.0 0.0 0.0 1.0 180.0
104000.0 1.0 0.0 2.150604 0.0 0.0 0.0 1.0 180.0
105000.0 1.0 0.0 2.117157 0.0 0.0 0.0 1.0 180.0
106000.0 1.0 0.0 2.087267 0.0 0.0 0.0 1.0 180.0
107000.0 1.0 0.0 2.06131 0.0 0.0 0.0 1.0 180.0
108000.0 1.0 0.0 2.039612 0.0 0.0 0.0 1.0 180.0
109000.0 1.0 0.0 2.022447 0.0 0.0 0.0 1.0 180.0
110000.0 1.0 0.0 2.010029 0.0 0.0 0.0 1.0 180.0
111000.0 1.0 0.0 2.002515 0.0 0.0 0.0 1.0 180.0
112000.0 1.0 0.0 2.0 0.0 0.0 0.0 1.0 180.0
113000.0 1.0 0.0 2.002515 0.0 0.0 0.0 1.0 180.0
114000.0 1.0 0.0 2.010029 0.0 0.0 0.0 1.0 180.0
115000.0 1.0 0.0 2.022447 0.0 0.0 0.0 1.0 180.0
116000.0 1.0 0.0 2.039612 0.0 0.0 0.0 1.0 180.0
117000.0 1.0 0.0 2.06131 0.0 0.0 0.0 1.0 180.0
118000.0 1.0 0.0 2.087267 0.0 0.0 0.0 1.0 180.0
119000.0 1.0 0.0 2.117157 0.0 0.0 0.0 1.0 180.0
120000.0 1.0 0.0 2.150604 0.0 0.0 0.0 1.0 180.0
121000.0 1.0 0.0 2.187187 0.0 0.0 0.0 1.0 180.0
122000.0 1.0 0.0 2.226447 0.0 0.0 0.0 1.0 180.0
123000.0 1.0 0.0 2.267888 0.0 0.0 0.0 1.0 180.0
124000.0 1.0 0.0 2.310992 0.0 0.0 0.0 1.0 180.0
125000.0 1.0 0.0 2.355214 0.0 0.0 0.0 1.0 180.0
126000.0 1.0 0.0 2.4 0.0 0.0 0.0 1.0 180.0
127000.0 1.0 0.0 2.444786 0.0 0.0 0.0 1.0 180.0
128000.0 1.0 0.0 2.489008 0.0 0.0 0.0 1.0 180.0
129000.0 1.0 0.0 2.532112 0.0 0.0 0.0 1.0 180.0
130000.0 1.0 0.0 2.573553 0.0 0.0 0.0 1.0 180.0
131000.0 1.0 0.0 2.612813 0.0 0.0 0.0 1.0 180.0
132000.0 1.0 0.0 2.649396 0.0 0.0 0.0 1.0 180.0
133000.0 1.0 0.0 2.682843 0.0 0.0 0.0 1.0 180.0
134000.0 1.0 0.0 2.712733 0.0 0.0 0.0 1.0 180.0
135000.0 1.0 0.0 2.73869 0.0 0.0 0.0 1.0 180.0
136000.0 1.0 0.0 2.760388 0.0 0.0 0.0 1.0 180.0
137000.0 1.0 0.0 2.777553 0.0 0.0 0.0 1.0 180.0
138000.0 1.0 0.0 2.789971 0.0 0.0 0.0 1.0 180.0
139000.0 1.0 0.0 2.797485 0.0 0.0 0.0 1.0 180.0
140000.0 1.0 0.0 2.8 0.0 0.0 0.0 1.0 180.0
