! File created by SignalIntegrity v1.1.14: Signal and Power Integrity Tools
! https://github.com/TeledyneLeCroy/SignalIntegrity
# MHz S MA R 50.0
0.0 1.0 0.0 1.588656 0.0 0.0 0.0 1.0 180.0
1000.0 1.0 0.0 1.589327 -0.362425 0.0 0.0 1.0 180.0
2000.0 1.0 0.0 1.591312 -0.734216 0.0 0.0 1.0 180.0
3000.0 1.0 0.0 1.594536 -1.12423 0.0 0.0 1.0 180.0
4000.0 1.0 0.0 1.598876 -1.54037 0.0 0.0 1.0 180.0
5000.0 1.0 0.0 1.604174 -1.989226 0.0 0.0 1.0 180.0
6000.0 1.0 0.0 1.610244 -2.475851 0.0 0.0 1.0 180.0
7000.0 1.0 0.0 1.616884 -3.003661 0.0 0.0 1.0 180.0
8000.0 1.0 0.0 1.623884 -3.57447 0.0 0.0 1.0 180.0
9000.0 1.0 0.0 1.631041 -4.188614 0.0 0.0 1.0 180.0
10000.0 1.0 0.0 1.638159 -4.845152 0.0 0.0 1.0 180.0
11000.0 1.0 0.0 1.645061 -5.542095 0.0 0.0 1.0 180.0
12000.0 1.0 0.0 1.651591 -6.276663 0.0 0.0 1.0 180.0
13000.0 1.0 0.0 1.657613 -7.045512 0.0 0.0 1.0 180.0
14000.0 1.0 0.0 1.663019 -7.844954 0.0 0.0 1.0 180.0
15000.0 1.0 0.0 1.66772 -8.671132 0.0 0.0 1.0 180.0
16000.0 1.0 0.0 1.671652 -9.520168 0.0 0.0 1.0 180.0
17000.0 1.0 0.0 1.674767 -10.388272 0.0 0.0 1.0 180.0
18000.0 1.0 0.0 1.677038 -11.271824 0.0 0.0 1.0 180.0
19000.0 1.0 0.0 1.67845 -12.167427 0.0 0.0 1.0 180.0
20000.0 1.0 0.0 1.679003 -13.071938 0.0 0.0 1.0 180.0
21000.0 1.0 0.0 1.678707 -13.982489 0.0 0.0 1.0 180.0
22000.0 1.0 0.0 1.677579 -14.896485 0.0 0.0 1.0 180.0
23000.0 1.0 0.0 1.675645 -15.811599 0.0 0.0 1.0 180.0
24000.0 1.0 0.0 1.672934 -16.725765 0.0 0.0 1.0 180.0
25000.0 1.0 0.0 1.669481 -17.637156 0.0 0.0 1.0 180.0
26000.0 1.0 0.0 1.665321 -18.544171 0.0 0.0 1.0 180.0
27000.0 1.0 0.0 1.660493 -19.445414 0.0 0.0 1.0 180.0
28000.0 1.0 0.0 1.655037 -20.339674 0.0 0.0 1.0 180.0
29000.0 1.0 0.0 1.648991 -21.225911 0.0 0.0 1.0 180.0
30000.0 1.0 0.0 1.642395 -22.103232 0.0 0.0 1.0 180.0
31000.0 1.0 0.0 1.635287 -22.970881 0.0 0.0 1.0 180.0
32000.0 1.0 0.0 1.627706 -23.828223 0.0 0.0 1.0 180.0
33000.0 1.0 0.0 1.619689 -24.674727 0.0 0.0 1.0 180.0
34000.0 1.0 0.0 1.611269 -25.509958 0.0 0.0 1.0 180.0
35000.0 1.0 0.0 1.602483 -26.333561 0.0 0.0 1.0 180.0
36000.0 1.0 0.0 1.593361 -27.145259 0.0 0.0 1.0 180.0
37000.0 1.0 0.0 1.583935 -27.944834 0.0 0.0 1.0 180.0
38000.0 1.0 0.0 1.574235 -28.73213 0.0 0.0 1.0 180.0
39000.0 1.0 0.0 1.564289 -29.507037 0.0 0.0 1.0 180.0
40000.0 1.0 0.0 1.554122 -30.269489 0.0 0.0 1.0 180.0
41000.0 1.0 0.0 1.54376 -31.019459 0.0 0.0 1.0 180.0
42000.0 1.0 0.0 1.533226 -31.756953 0.0 0.0 1.0 180.0
43000.0 1.0 0.0 1.522542 -32.482007 0.0 0.0 1.0 180.0
44000.0 1.0 0.0 1.511729 -33.194679 0.0 0.0 1.0 180.0
45000.0 1.0 0.0 1.500806 -33.895053 0.0 0.0 1.0 180.0
46000.0 1.0 0.0 1.48979 -34.583228 0.0 0.0 1.0 180.0
47000.0 1.0 0.0 1.4787 -35.259321 0.0 0.0 1.0 180.0
48000.0 1.0 0.0 1.46755 -35.923465 0.0 0.0 1.0 180.0
49000.0 1.0 0.0 1.456354 -36.575801 0.0 0.0 1.0 180.0
50000.0 1.0 0.0 1.445128 -37.216482 0.0 0.0 1.0 180.0
51000.0 1.0 0.0 1.433883 -37.845669 0.0 0.0 1.0 180.0
52000.0 1.0 0.0 1.42263 -38.463532 0.0 0.0 1.0 180.0
53000.0 1.0 0.0 1.411381 -39.070243 0.0 0.0 1.0 180.0
54000.0 1.0 0.0 1.400145 -39.665981 0.0 0.0 1.0 180.0
55000.0 1.0 0.0 1.388932 -40.250929 0.0 0.0 1.0 180.0
56000.0 1.0 0.0 1.37775 -40.825272 0.0 0.0 1.0 180.0
57000.0 1.0 0.0 1.366607 -41.389195 0.0 0.0 1.0 180.0
58000.0 1.0 0.0 1.35551 -41.942888 0.0 0.0 1.0 180.0
59000.0 1.0 0.0 1.344465 -42.486539 0.0 0.0 1.0 180.0
60000.0 1.0 0.0 1.333478 -43.020336 0.0 0.0 1.0 180.0
61000.0 1.0 0.0 1.322555 -43.544469 0.0 0.0 1.0 180.0
62000.0 1.0 0.0 1.311701 -44.059125 0.0 0.0 1.0 180.0
63000.0 1.0 0.0 1.30092 -44.564491 0.0 0.0 1.0 180.0
64000.0 1.0 0.0 1.290216 -45.060751 0.0 0.0 1.0 180.0
65000.0 1.0 0.0 1.279593 -45.548089 0.0 0.0 1.0 180.0
66000.0 1.0 0.0 1.269053 -46.026687 0.0 0.0 1.0 180.0
67000.0 1.0 0.0 1.258601 -46.496723 0.0 0.0 1.0 180.0
68000.0 1.0 0.0 1.248238 -46.958375 0.0 0.0 1.0 180.0
69000.0 1.0 0.0 1.237967 -47.411817 0.0 0.0 1.0 180.0
70000.0 1.0 0.0 1.227789 -47.85722 0.0 0.0 1.0 180.0
71000.0 1.0 0.0 1.217707 -48.294754 0.0 0.0 1.0 180.0
72000.0 1.0 0.0 1.207721 -48.724586 0.0 0.0 1.0 180.0
73000.0 1.0 0.0 1.197834 -49.146877 0.0 0.0 1.0 180.0
74000.0 1.0 0.0 1.188046 -49.561789 0.0 0.0 1.0 180.0
75000.0 1.0 0.0 1.178357 -49.969479 0.0 0.0 1.0 180.0
76000.0 1.0 0.0 1.16877 -50.370101 0.0 0.0 1.0 180.0
77000.0 1.0 0.0 1.159284 -50.763807 0.0 0.0 1.0 180.0
78000.0 1.0 0.0 1.149899 -51.150746 0.0 0.0 1.0 180.0
79000.0 1.0 0.0 1.140616 -51.531062 0.0 0.0 1.0 180.0
80000.0 1.0 0.0 1.131434 -51.904897 0.0 0.0 1.0 180.0
81000.0 1.0 0.0 1.122355 -52.272392 0.0 0.0 1.0 180.0
82000.0 1.0 0.0 1.113377 -52.633682 0.0 0.0 1.0 180.0
83000.0 1.0 0.0 1.104501 -52.988901 0.0 0.0 1.0 180.0
84000.0 1.0 0.0 1.095726 -53.338179 0.0 0.0 1.0 180.0
85000.0 1.0 0.0 1.087051 -53.681644 0.0 0.0 1.0 180.0
86000.0 1.0 0.0 1.078477 -54.01942 0.0 0.0 1.0 180.0
87000.0 1.0 0.0 1.070002 -54.351629 0.0 0.0 1.0 180.0
88000.0 1.0 0.0 1.061626 -54.678391 0.0 0.0 1.0 180.0
89000.0 1.0 0.0 1.053349 -54.999821 0.0 0.0 1.0 180.0
90000.0 1.0 0.0 1.045169 -55.316033 0.0 0.0 1.0 180.0
91000.0 1.0 0.0 1.037086 -55.627139 0.0 0.0 1.0 180.0
92000.0 1.0 0.0 1.029099 -55.933246 0.0 0.0 1.0 180.0
93000.0 1.0 0.0 1.021208 -56.234461 0.0 0.0 1.0 180.0
94000.0 1.0 0.0 1.01341 -56.530887 0.0 0.0 1.0 180.0
95000.0 1.0 0.0 1.005706 -56.822625 0.0 0.0 1.0 180.0
96000.0 1.0 0.0 0.998095 -57.109774 0.0 0.0 1.0 180.0
97000.0 1.0 0.0 0.990575 -57.392429 0.0 0.0 1.0 180.0
98000.0 1.0 0.0 0.983145 -57.670685 0.0 0.0 1.0 180.0
99000.0 1.0 0.0 0.975805 -57.944633 0.0 0.0 1.0 180.0
100000.0 1.0 0.0 0.968553 -58.214363 0.0 0.0 1.0 180.0
101000.0 1.0 0.0 0.961389 -58.479962 0.0 0.0 1.0 180.0
102000.0 1.0 0.0 0.954311 -58.741515 0.0 0.0 1.0 180.0
103000.0 1.0 0.0 0.947319 -58.999107 0.0 0.0 1.0 180.0
104000.0 1.0 0.0 0.940411 -59.252817 0.0 0.0 1.0 180.0
105000.0 1.0 0.0 0.933586 -59.502726 0.0 0.0 1.0 180.0
106000.0 1.0 0.0 0.926844 -59.74891 0.0 0.0 1.0 180.0
107000.0 1.0 0.0 0.920182 -59.991445 0.0 0.0 1.0 180.0
108000.0 1.0 0.0 0.913601 -60.230406 0.0 0.0 1.0 180.0
109000.0 1.0 0.0 0.907099 -60.465863 0.0 0.0 1.0 180.0
110000.0 1.0 0.0 0.900675 -60.697887 0.0 0.0 1.0 180.0
111000.0 1.0 0.0 0.894328 -60.926548 0.0 0.0 1.0 180.0
112000.0 1.0 0.0 0.888057 -61.151911 0.0 0.0 1.0 180.0
113000.0 1.0 0.0 0.881861 -61.374042 0.0 0.0 1.0 180.0
114000.0 1.0 0.0 0.875738 -61.593005 0.0 0.0 1.0 180.0
115000.0 1.0 0.0 0.869689 -61.808862 0.0 0.0 1.0 180.0
116000.0 1.0 0.0 0.863711 -62.021675 0.0 0.0 1.0 180.0
117000.0 1.0 0.0 0.857805 -62.231502 0.0 0.0 1.0 180.0
118000.0 1.0 0.0 0.851968 -62.438401 0.0 0.0 1.0 180.0
119000.0 1.0 0.0 0.8462 -62.642429 0.0 0.0 1.0 180.0
120000.0 1.0 0.0 0.8405 -62.843642 0.0 0.0 1.0 180.0
121000.0 1.0 0.0 0.834867 -63.042093 0.0 0.0 1.0 180.0
122000.0 1.0 0.0 0.829299 -63.237835 0.0 0.0 1.0 180.0
123000.0 1.0 0.0 0.823797 -63.43092 0.0 0.0 1.0 180.0
124000.0 1.0 0.0 0.818359 -63.621397 0.0 0.0 1.0 180.0
125000.0 1.0 0.0 0.812985 -63.809317 0.0 0.0 1.0 180.0
126000.0 1.0 0.0 0.807672 -63.994727 0.0 0.0 1.0 180.0
127000.0 1.0 0.0 0.802421 -64.177674 0.0 0.0 1.0 180.0
128000.0 1.0 0.0 0.79723 -64.358203 0.0 0.0 1.0 180.0
129000.0 1.0 0.0 0.792099 -64.536361 0.0 0.0 1.0 180.0
130000.0 1.0 0.0 0.787027 -64.712189 0.0 0.0 1.0 180.0
131000.0 1.0 0.0 0.782012 -64.885732 0.0 0.0 1.0 180.0
132000.0 1.0 0.0 0.777055 -65.057031 0.0 0.0 1.0 180.0
133000.0 1.0 0.0 0.772154 -65.226126 0.0 0.0 1.0 180.0
134000.0 1.0 0.0 0.767308 -65.393058 0.0 0.0 1.0 180.0
135000.0 1.0 0.0 0.762517 -65.557866 0.0 0.0 1.0 180.0
136000.0 1.0 0.0 0.757779 -65.720588 0.0 0.0 1.0 180.0
137000.0 1.0 0.0 0.753095 -65.881261 0.0 0.0 1.0 180.0
138000.0 1.0 0.0 0.748463 -66.039921 0.0 0.0 1.0 180.0
139000.0 1.0 0.0 0.743882 -66.196605 0.0 0.0 1.0 180.0
140000.0 1.0 0.0 0.739352 -66.351347 0.0 0.0 1.0 180.0
