! File created by SignalIntegrity v1.1.14: Signal and Power Integrity Tools
! https://github.com/TeledyneLeCroy/SignalIntegrity
# MHz S MA R 50.0
0.0 1.0 0.0 2.0 0.0 0.0 0.0 1.0 180.0
1000.0 1.0 0.0 2.0 -6.271003 0.0 0.0 1.0 180.0
2000.0 1.0 0.0 2.0 -12.542879 0.0 0.0 1.0 180.0
3000.0 1.0 0.0 2.0 -18.816503 0.0 0.0 1.0 180.0
4000.0 1.0 0.0 2.0 -25.092753 0.0 0.0 1.0 180.0
5000.0 1.0 0.0 2.0 -31.37251 0.0 0.0 1.0 180.0
6000.0 1.0 0.0 2.0 -37.65666 0.0 0.0 1.0 180.0
7000.0 1.0 0.0 2.0 -43.946098 0.0 0.0 1.0 180.0
8000.0 1.0 0.0 2.0 -50.241725 0.0 0.0 1.0 180.0
9000.0 1.0 0.0 2.0 -56.544454 0.0 0.0 1.0 180.0
10000.0 1.0 0.0 2.0 -62.855208 0.0 0.0 1.0 180.0
11000.0 1.0 0.0 2.0 -69.174922 0.0 0.0 1.0 180.0
12000.0 1.0 0.0 2.0 -75.504548 0.0 0.0 1.0 180.0
13000.0 1.0 0.0 2.0 -81.845052 0.0 0.0 1.0 180.0
14000.0 1.0 0.0 2.0 -88.197419 0.0 0.0 1.0 180.0
15000.0 1.0 0.0 2.0 -94.562654 0.0 0.0 1.0 180.0
16000.0 1.0 0.0 2.0 -100.941785 0.0 0.0 1.0 180.0
17000.0 1.0 0.0 2.0 -107.335862 0.0 0.0 1.0 180.0
18000.0 1.0 0.0 2.0 -113.745964 0.0 0.0 1.0 180.0
19000.0 1.0 0.0 2.0 -120.173196 0.0 0.0 1.0 180.0
20000.0 1.0 0.0 2.0 -126.618697 0.0 0.0 1.0 180.0
21000.0 1.0 0.0 2.0 -133.083638 0.0 0.0 1.0 180.0
22000.0 1.0 0.0 2.0 -139.569231 0.0 0.0 1.0 180.0
23000.0 1.0 0.0 2.0 -146.076725 0.0 0.0 1.0 180.0
24000.0 1.0 0.0 2.0 -152.607413 0.0 0.0 1.0 180.0
25000.0 1.0 0.0 2.0 -159.162639 0.0 0.0 1.0 180.0
26000.0 1.0 0.0 2.0 -165.743797 0.0 0.0 1.0 180.0
27000.0 1.0 0.0 2.0 -172.352339 0.0 0.0 1.0 180.0
28000.0 1.0 0.0 2.0 -178.989777 0.0 0.0 1.0 180.0
29000.0 1.0 0.0 2.0 174.342308 0.0 0.0 1.0 180.0
30000.0 1.0 0.0 2.0 167.64226 0.0 0.0 1.0 180.0
31000.0 1.0 0.0 2.0 160.908345 0.0 0.0 1.0 180.0
32000.0 1.0 0.0 2.0 154.13874 0.0 0.0 1.0 180.0
33000.0 1.0 0.0 2.0 147.331523 0.0 0.0 1.0 180.0
34000.0 1.0 0.0 2.0 140.484668 0.0 0.0 1.0 180.0
35000.0 1.0 0.0 2.0 133.59603 0.0 0.0 1.0 180.0
36000.0 1.0 0.0 2.0 126.663333 0.0 0.0 1.0 180.0
37000.0 1.0 0.0 2.0 119.684157 0.0 0.0 1.0 180.0
38000.0 1.0 0.0 2.0 112.655924 0.0 0.0 1.0 180.0
39000.0 1.0 0.0 1.999999 105.575871 0.0 0.0 1.0 180.0
40000.0 1.0 0.0 1.999999 98.441036 0.0 0.0 1.0 180.0
41000.0 1.0 0.0 1.999997 91.24823 0.0 0.0 1.0 180.0
42000.0 1.0 0.0 1.999995 83.994003 0.0 0.0 1.0 180.0
43000.0 1.0 0.0 1.999992 76.674611 0.0 0.0 1.0 180.0
44000.0 1.0 0.0 1.999986 69.285974 0.0 0.0 1.0 180.0
45000.0 1.0 0.0 1.999975 61.823619 0.0 0.0 1.0 180.0
46000.0 1.0 0.0 1.999958 54.282622 0.0 0.0 1.0 180.0
47000.0 1.0 0.0 1.99993 46.657529 0.0 0.0 1.0 180.0
48000.0 1.0 0.0 1.999883 38.942265 0.0 0.0 1.0 180.0
49000.0 1.0 0.0 1.999808 31.130022 0.0 0.0 1.0 180.0
50000.0 1.0 0.0 1.999689 23.213123 0.0 0.0 1.0 180.0
51000.0 1.0 0.0 1.9995 15.18286 0.0 0.0 1.0 180.0
52000.0 1.0 0.0 1.999203 7.029296 0.0 0.0 1.0 180.0
53000.0 1.0 0.0 1.998741 -1.258966 0.0 0.0 1.0 180.0
54000.0 1.0 0.0 1.99803 -9.695046 0.0 0.0 1.0 180.0
55000.0 1.0 0.0 1.996943 -18.294087 0.0 0.0 1.0 180.0
56000.0 1.0 0.0 1.995294 -27.073569 0.0 0.0 1.0 180.0
57000.0 1.0 0.0 1.992817 -36.053615 0.0 0.0 1.0 180.0
58000.0 1.0 0.0 1.989127 -45.257224 0.0 0.0 1.0 180.0
59000.0 1.0 0.0 1.983679 -54.710339 0.0 0.0 1.0 180.0
60000.0 1.0 0.0 1.975717 -64.441592 0.0 0.0 1.0 180.0
61000.0 1.0 0.0 1.964208 -74.481476 0.0 0.0 1.0 180.0
62000.0 1.0 0.0 1.947787 -84.860601 0.0 0.0 1.0 180.0
63000.0 1.0 0.0 1.924709 -95.606612 0.0 0.0 1.0 180.0
64000.0 1.0 0.0 1.892864 -106.739349 0.0 0.0 1.0 180.0
65000.0 1.0 0.0 1.84989 -118.264054 0.0 0.0 1.0 180.0
66000.0 1.0 0.0 1.793442 -130.163089 0.0 0.0 1.0 180.0
67000.0 1.0 0.0 1.721647 -142.387749 0.0 0.0 1.0 180.0
68000.0 1.0 0.0 1.633688 -154.853021 0.0 0.0 1.0 180.0
69000.0 1.0 0.0 1.530339 -167.438835 0.0 0.0 1.0 180.0
70000.0 1.0 0.0 1.414214 -180.0 0.0 0.0 1.0 180.0
71000.0 1.0 0.0 1.289503 167.616283 0.0 0.0 1.0 180.0
72000.0 1.0 0.0 1.161261 155.550325 0.0 0.0 1.0 180.0
73000.0 1.0 0.0 1.034485 143.913679 0.0 0.0 1.0 180.0
74000.0 1.0 0.0 0.91335 132.781015 0.0 0.0 1.0 180.0
75000.0 1.0 0.0 0.800806 122.190502 0.0 0.0 1.0 180.0
76000.0 1.0 0.0 0.698543 112.150004 0.0 0.0 1.0 180.0
77000.0 1.0 0.0 0.607184 102.645602 0.0 0.0 1.0 180.0
78000.0 1.0 0.0 0.526588 93.64979 0.0 0.0 1.0 180.0
79000.0 1.0 0.0 0.456124 85.12802 0.0 0.0 1.0 180.0
80000.0 1.0 0.0 0.394904 77.043292 0.0 0.0 1.0 180.0
81000.0 1.0 0.0 0.341936 69.359056 0.0 0.0 1.0 180.0
82000.0 1.0 0.0 0.296226 62.040843 0.0 0.0 1.0 180.0
83000.0 1.0 0.0 0.256838 55.057047 0.0 0.0 1.0 180.0
84000.0 1.0 0.0 0.222916 48.379176 0.0 0.0 1.0 180.0
85000.0 1.0 0.0 0.193701 41.981798 0.0 0.0 1.0 180.0
86000.0 1.0 0.0 0.16853 35.842332 0.0 0.0 1.0 180.0
87000.0 1.0 0.0 0.146826 29.940765 0.0 0.0 1.0 180.0
88000.0 1.0 0.0 0.128092 24.259357 0.0 0.0 1.0 180.0
89000.0 1.0 0.0 0.111904 18.782357 0.0 0.0 1.0 180.0
90000.0 1.0 0.0 0.097898 13.495742 0.0 0.0 1.0 180.0
91000.0 1.0 0.0 0.085765 8.386985 0.0 0.0 1.0 180.0
92000.0 1.0 0.0 0.075239 3.444857 0.0 0.0 1.0 180.0
93000.0 1.0 0.0 0.066096 -1.340753 0.0 0.0 1.0 180.0
94000.0 1.0 0.0 0.058142 -5.978976 0.0 0.0 1.0 180.0
95000.0 1.0 0.0 0.051213 -10.478099 0.0 0.0 1.0 180.0
96000.0 1.0 0.0 0.045169 -14.845664 0.0 0.0 1.0 180.0
97000.0 1.0 0.0 0.03989 -19.088565 0.0 0.0 1.0 180.0
98000.0 1.0 0.0 0.035272 -23.213123 0.0 0.0 1.0 180.0
99000.0 1.0 0.0 0.031227 -27.225154 0.0 0.0 1.0 180.0
100000.0 1.0 0.0 0.02768 -31.130022 0.0 0.0 1.0 180.0
