! File created by SignalIntegrity v1.3.3: Signal and Power Integrity Tools

! https://github.com/TeledyneLeCroy/SignalIntegrity

# MHz S MA R 50.0
0.0 0.001819 180.0 0.991869 0.0 0.000233 0.0 2.8e-05 180.0
0.991869 0.0 0.000344 180.0 4.2e-05 0.0 4.6e-05 180.0
0.000233 0.0 4.2e-05 0.0 0.002078 180.0 0.995519 0.0
2.8e-05 180.0 4.6e-05 180.0 0.995519 0.0 0.000961 0.0
100.0 0.00188 -172.060334 0.992033 -1.759057 0.000241 10.942283 5.3e-05 115.502224
0.992033 -1.759057 0.000435 -154.705963 6.6e-05 45.170638 7.1e-05 125.129243
0.000241 10.942283 6.6e-05 45.170638 0.00214 176.184168 0.995664 -1.766573
5.3e-05 115.502224 7.1e-05 125.129243 0.995664 -1.766573 0.00085 4.871425
200.0 0.002029 -165.829251 0.992581 -3.524673 0.00026 20.621873 9.1e-05 87.698552
0.992581 -3.524673 0.000624 -146.435365 0.000115 50.754205 0.000114 100.921183
0.00026 20.621873 0.000115 50.754205 0.002278 171.021693 0.996111 -3.540089
9.1e-05 87.698552 0.000114 100.921183 0.996111 -3.540089 0.000678 19.433887
300.0 0.00225 -162.226611 0.993394 -5.306512 0.000291 28.086655 0.000128 73.421238
0.993394 -5.306512 0.000852 -148.240668 0.000161 49.045143 0.000158 88.29584
0.000291 28.086655 0.000161 49.045143 0.002529 165.339899 0.996794 -5.327401
0.000128 73.421238 0.000158 88.29584 0.996794 -5.327401 0.000532 63.365914
400.0 0.002489 -160.727996 0.994467 -7.1064 0.000329 33.557319 0.000165 59.320984
0.994467 -7.1064 0.001088 -153.412294 0.000209 42.520833 0.000198 78.573965
0.000329 33.557319 0.000209 42.520833 0.002886 155.509039 0.997674 -7.138879
0.000165 59.320984 0.000198 78.573965 0.997674 -7.138879 0.001039 98.890385
500.0 0.002729 -161.296168 0.995626 -8.937037 0.000376 36.957956 0.000193 47.892114
0.995626 -8.937037 0.001318 -160.86068 0.000246 35.124679 0.000233 72.164181
0.000376 36.957956 0.000246 35.124679 0.003128 143.017266 0.998347 -8.979982
0.000193 47.892114 0.000233 72.164181 0.998347 -8.979982 0.001761 101.538029
600.0 0.002934 -162.581382 0.996825 -10.793789 0.000429 38.531258 0.000217 37.001192
0.996825 -10.793789 0.001541 -168.128916 0.000276 26.716558 0.000266 65.167719
0.000429 38.531258 0.000276 26.716558 0.003157 130.466055 0.998786 -10.829117
0.000217 37.001192 0.000266 65.167719 0.998786 -10.829117 0.002285 96.688219
700.0 0.003025 -166.200499 0.997813 -12.700486 0.000483 37.480642 0.000232 28.470909
0.997813 -12.700486 0.001648 -177.759816 0.000291 19.718859 0.000285 59.858538
0.000483 37.480642 0.000291 19.718859 0.00305 122.099221 0.999168 -12.696173
0.000232 28.470909 0.000285 59.858538 0.999168 -12.696173 0.00257 98.070169
800.0 0.00285 -160.83628 0.998271 -14.639548 0.000523 36.705751 0.000252 20.50638
0.998271 -14.639548 0.00163 -169.899718 0.000307 13.709868 0.000303 53.918167
0.000523 36.705751 0.000307 13.709868 0.002806 114.036248 0.999451 -14.593721
0.000252 20.50638 0.000303 53.918167 0.999451 -14.593721 0.002731 100.543972
900.0 0.003815 -154.162208 0.997706 -16.656868 0.000587 35.591656 0.000271 11.429946
0.997706 -16.656868 0.002717 -168.722562 0.000321 8.542595 0.000275 49.646692
0.000587 35.591656 0.000321 8.542595 0.002388 128.88825 0.998882 -16.561036
0.000271 11.429946 0.000275 49.646692 0.998882 -16.561036 0.003066 124.076975
1000.0 0.004712 -168.904769 0.994002 -18.648822 0.000645 30.218578 0.000282 0.365668
0.994002 -18.648822 0.003579 167.988956 0.000347 1.624565 0.000262 61.657379
0.000645 30.218578 0.000347 1.624565 0.004073 135.675599 0.995872 -18.519572
0.000282 0.365668 0.000262 61.657379 0.995872 -18.519572 0.005621 127.157978
1100.0 0.004484 178.794822 0.989537 -20.477955 0.000658 24.10588 0.000277 -9.458553
0.989537 -20.477955 0.003501 151.291748 0.000356 -8.229051 0.000329 68.290491
0.000658 24.10588 0.000356 -8.229051 0.005302 117.089775 0.991746 -20.358767
0.000277 -9.458553 0.000329 68.290491 0.991746 -20.358767 0.00739 113.439804
1200.0 0.004317 173.274205 0.985736 -22.227364 0.000643 19.267052 0.000272 -18.718423
0.985736 -22.227364 0.003563 143.603407 0.00035 -17.816391 0.000395 66.63638
0.000643 19.267052 0.00035 -17.816391 0.00574 105.108565 0.987908 -22.103047
0.000272 -18.718423 0.000395 66.63638 0.987908 -22.103047 0.008355 106.200944
1300.0 0.00411 166.633262 0.982638 -23.91385 0.000609 15.759921 0.000257 -27.670501
0.982638 -23.91385 0.00364 134.797134 0.000331 -26.914452 0.000456 63.43774
0.000609 15.759921 0.000331 -26.914452 0.006309 94.377317 0.984841 -23.78139
0.000257 -27.670501 0.000456 63.43774 0.984841 -23.78139 0.009371 99.96323
1400.0 0.003847 162.126185 0.980386 -25.572182 0.000562 14.000987 0.000244 -36.114076
0.980386 -25.572182 0.003692 128.500456 0.000308 -35.639424 0.00051 59.250034
0.000562 14.000987 0.000308 -35.639424 0.006641 85.039653 0.982642 -25.427869
0.000244 -36.114076 0.00051 59.250034 0.982642 -25.427869 0.010121 95.202609
1500.0 0.003555 157.321335 0.978926 -27.205695 0.000509 14.710669 0.000221 -45.193226
0.978926 -27.205695 0.003747 121.870375 0.000274 -44.657247 0.000557 54.738172
0.000509 14.710669 0.000274 -44.657247 0.007086 76.38463 0.981288 -27.053832
0.000221 -45.193226 0.000557 54.738172 0.981288 -27.053832 0.010904 90.78711
1600.0 0.003213 154.33962 0.978304 -28.839729 0.00046 18.600871 0.000199 -52.967994
0.978304 -28.839729 0.00376 116.720989 0.000238 -52.821856 0.000597 50.010122
0.00046 18.600871 0.000238 -52.821856 0.007362 68.127384 0.980771 -28.679745
0.000199 -52.967994 0.000597 50.010122 0.980771 -28.679745 0.011466 87.07464
1700.0 0.002866 151.879853 0.978377 -30.476779 0.000428 26.228567 0.00017 -61.921705
0.978377 -30.476779 0.003774 111.62245 0.000194 -61.638481 0.000629 45.339797
0.000428 26.228567 0.000194 -61.638481 0.007703 60.633994 0.980973 -30.313826
0.00017 -61.921705 0.000629 45.339797 0.980973 -30.313826 0.012031 83.775038
1800.0 0.002502 151.970273 0.979105 -32.13544 0.000426 36.314454 0.000141 -68.328506
0.979105 -32.13544 0.003748 107.726287 0.000148 -68.487527 0.000651 40.770112
0.000426 36.314454 0.000148 -68.487527 0.007911 53.291057 0.981802 -31.970072
0.000141 -68.328506 0.000651 40.770112 0.981802 -31.970072 0.012414 81.011821
1900.0 0.002178 153.903758 0.980285 -33.815628 0.000464 45.971668 0.000108 -76.194593
0.980285 -33.815628 0.003729 104.148797 9.8e-05 -75.728124 0.000665 36.500448
0.000464 45.971668 9.8e-05 -75.728124 0.00815 46.791202 0.983078 -33.652455
0.000108 -76.194593 0.000665 36.500448 0.983078 -33.652455 0.012802 78.759382
2000.0 0.001909 159.82171 0.981831 -35.529103 0.000534 52.579734 7.5e-05 -77.638922
0.981831 -35.529103 0.003684 101.710118 4.8e-05 -72.738192 0.000671 32.576728
0.000534 52.579734 4.8e-05 -72.738192 0.008285 40.412525 0.984663 -35.368439
7.5e-05 -77.638922 0.000671 32.576728 0.984663 -35.368439 0.01306 77.015275
2100.0 0.00176 168.138228 0.983514 -37.271967 0.000627 55.752901 4.2e-05 -75.400074
0.983514 -37.271967 0.00366 99.750655 1.6e-05 10.277205 0.000669 29.194238
0.000627 55.752901 1.6e-05 10.277205 0.008435 34.945598 0.986358 -37.116988
4.2e-05 -75.400074 0.000669 29.194238 0.986358 -37.116988 0.013356 75.830203
2200.0 0.001751 178.509402 0.985244 -39.049566 0.00073 56.133606 2.5e-05 -25.46637
0.985244 -39.049566 0.003634 98.84631 6e-05 51.637046 0.00066 26.421127
0.00073 56.133606 6e-05 51.637046 0.008514 29.651993 0.988029 -38.899504
2.5e-05 -25.46637 0.00066 26.421127 0.988029 -38.899504 0.013591 75.10427
2300.0 0.001878 -173.416189 0.986813 -40.854363 0.000837 54.607686 4e-05 20.53427
0.986813 -40.854363 0.003651 98.354511 0.000106 50.83542 0.000647 24.457387
0.000837 54.607686 0.000106 50.83542 0.00861 25.316729 0.989503 -40.710556
4e-05 20.53427 0.000647 24.457387 0.989503 -40.710556 0.01392 74.861411
2400.0 0.002102 -167.937761 0.988163 -42.686645 0.000939 51.781235 7.3e-05 24.736149
0.988163 -42.686645 0.003692 98.603026 0.000153 43.080361 0.000632 23.361326
0.000939 51.781235 0.000153 43.080361 0.008677 21.208654 0.990688 -42.546979
7.3e-05 24.736149 0.000632 23.361326 0.990688 -42.546979 0.014261 74.9074
2500.0 0.002365 -166.108729 0.989134 -44.536488 0.001034 48.13641 0.0001 21.84362
0.989134 -44.536488 0.003793 98.879615 0.000192 35.475859 0.000619 23.25991
0.001034 48.13641 0.000192 35.475859 0.00878 18.034834 0.991468 -44.400579
0.0001 21.84362 0.000619 23.25991 0.991468 -44.400579 0.014745 75.200109
2600.0 0.002638 -166.251144 0.989727 -46.401078 0.001116 43.950964 0.000131 14.443921
0.989727 -46.401078 0.003932 99.351831 0.00023 26.315873 0.000611 24.05534
0.001116 43.950964 0.00023 26.315873 0.008903 15.056202 0.991815 -46.265724
0.000131 14.443921 0.000611 24.05534 0.991815 -46.265724 0.01529 75.495267
2700.0 0.002884 -168.414152 0.989849 -48.269856 0.001183 39.475415 0.000153 6.561157
0.989849 -48.269856 0.004131 99.373656 0.000257 17.385607 0.000612 25.607559
0.001183 39.475415 0.000257 17.385607 0.009094 12.842817 0.991686 -48.133498
0.000153 6.561157 0.000612 25.607559 0.991686 -48.133498 0.015992 75.734533
2800.0 0.003092 -171.386144 0.989566 -50.139001 0.001234 34.852619 0.000178 -2.392126
0.989566 -50.139001 0.004361 99.14886 0.000282 7.835436 0.000623 27.501835
0.001234 34.852619 0.000282 7.835436 0.00935 10.64001 0.991124 -49.997987
0.000178 -2.392126 0.000623 27.501835 0.991124 -49.997987 0.016756 75.714251
2900.0 0.003243 -175.367287 0.988849 -51.999109 0.001266 30.250788 0.000193 -11.918091
0.988849 -51.999109 0.004633 98.252879 0.000295 -1.841286 0.000647 29.339757
0.001266 30.250788 0.000295 -1.841286 0.009702 8.875916 0.990151 -51.851517
0.000193 -11.918091 0.000647 29.339757 0.990151 -51.851517 0.017646 75.43705
3000.0 0.003334 -179.552694 0.98782 -53.847218 0.00128 25.776027 0.00021 -21.431442
0.98782 -53.847218 0.004914 96.984212 0.000307 -11.70566 0.000684 30.660108
0.00128 25.776027 0.000307 -11.70566 0.010144 6.839703 0.988867 -53.689774
0.00021 -21.431442 0.000684 30.660108 0.988867 -53.689774 0.018557 74.789453
3100.0 0.003356 175.786847 0.986501 -55.676541 0.001275 21.585566 0.000216 -31.978138
0.986501 -55.676541 0.005213 95.110601 0.000305 -22.105943 0.00073 31.238109
0.001275 21.585566 0.000305 -22.105943 0.010685 4.890989 0.987341 -55.507852
0.000216 -31.978138 0.00073 31.238109 0.987341 -55.507852 0.019532 73.851251
3200.0 0.003307 171.291099 0.985047 -57.486339 0.001252 17.800769 0.000224 -41.907734
0.985047 -57.486339 0.005496 92.952348 0.000302 -32.424974 0.000784 30.931553
0.001252 17.800769 0.000302 -32.424974 0.011312 2.457121 0.985705 -57.304308
0.000224 -41.907734 0.000784 30.931553 0.985705 -57.304308 0.020468 72.577748
3300.0 0.003191 166.712259 0.983503 -59.273325 0.001215 14.61207 0.000223 -53.362047
0.983503 -59.273325 0.005773 90.37913 0.000287 -43.790748 0.000843 29.809187
0.001215 14.61207 0.000287 -43.790748 0.012015 -0.101932 0.984042 -59.077817
0.000223 -53.362047 0.000843 29.809187 0.984042 -59.077817 0.021402 71.095404
3400.0 0.003005 162.686187 0.982029 -61.039606 0.001165 12.189628 0.000222 -63.795342
0.982029 -61.039606 0.006013 87.677756 0.00027 -54.940846 0.000902 27.94305
0.001165 12.189628 0.00027 -54.940846 0.012778 -3.192661 0.982484 -60.830231
0.000222 -63.795342 0.000902 27.94305 0.982484 -60.830231 0.022242 69.388638
3500.0 0.002763 159.090093 0.980664 -62.785474 0.001109 10.774295 0.000215 -76.237335
0.980664 -62.785474 0.00623 84.768089 0.000246 -67.900409 0.000959 25.500925
0.001109 10.774295 0.000246 -67.900409 0.013575 -6.454658 0.981099 -62.563693
0.000215 -76.237335 0.000959 25.500925 0.981099 -62.563693 0.023025 67.601386
3600.0 0.002467 156.781827 0.979544 -64.515624 0.001052 10.556427 0.000206 -87.426344
0.979544 -64.515624 0.006396 81.892503 0.000219 -80.808121 0.001013 22.594639
0.001052 10.556427 0.000219 -80.808121 0.014397 -10.168019 0.979985 -64.282799
0.000206 -87.426344 0.001013 22.594639 0.979985 -64.282799 0.02368 65.722674
3700.0 0.002143 156.039189 0.978676 -66.233142 0.001001 11.705127 0.000194 -101.068679
0.978676 -66.233142 0.00653 79.002315 0.000189 -96.902001 0.00106 19.382235
0.001001 11.705127 0.000189 -96.902001 0.015207 -14.001008 0.979171 -65.992111
0.000194 -101.068679 0.00106 19.382235 0.979171 -65.992111 0.024249 63.898935
3800.0 0.001808 158.530208 0.97815 -67.944222 0.000967 14.150545 0.000179 -113.490967
0.97815 -67.944222 0.006609 76.303478 0.000159 -114.055581 0.0011 15.960497
0.000967 14.150545 0.000159 -114.055581 0.016007 -18.153877 0.978704 -67.697581
0.000179 -113.490967 0.0011 15.960497 0.978704 -67.697581 0.024681 62.113034
3900.0 0.001517 165.506949 0.977926 -69.653277 0.000956 17.558292 0.000166 -128.672785
0.977926 -69.653277 0.006657 73.770925 0.000135 -136.885825 0.001131 12.461006
0.000956 17.558292 0.000135 -136.885825 0.016754 -22.340768 0.97856 -69.404506
0.000166 -128.672785 0.001131 12.461006 0.97856 -69.404506 0.025029 60.505796
4000.0 0.001339 178.932227 0.978043 -71.366415 0.000974 21.227123 0.000148 -143.169068
0.978043 -71.366415 0.006657 71.582164 0.000114 -163.43925 0.001153 8.965279
0.000974 21.227123 0.000114 -163.43925 0.017462 -26.710205 0.978733 -71.118416
0.000148 -143.169068 0.001153 8.965279 0.978733 -71.118416 0.025263 59.046628
4100.0 0.001359 -164.760693 0.978412 -73.08768 0.001021 24.405734 0.000136 -160.317322
0.978412 -73.08768 0.006638 69.723261 0.000112 166.070698 0.001166 5.587211
0.001021 24.405734 0.000112 166.070698 0.018088 -31.024109 0.97915 -72.843574
0.000136 -160.317322 0.001166 5.587211 0.97915 -72.843574 0.025448 57.860696
4200.0 0.001582 -151.50934 0.979029 -74.821547 0.001093 26.496899 0.000118 -178.186656
0.979029 -74.821547 0.006591 68.337988 0.000118 136.115565 0.00117 2.401452
0.001093 26.496899 0.000118 136.115565 0.018657 -35.393246 0.979765 -74.583534
0.000118 -178.186656 0.00117 2.401452 0.979765 -74.583534 0.025572 56.892683
4300.0 0.001934 -144.661107 0.979773 -76.570321 0.001183 27.286954 0.000108 162.428445
0.979773 -76.570321 0.006549 67.392457 0.000137 112.605054 0.001166 -0.488967
0.001183 27.286954 0.000137 112.605054 0.019127 -39.622512 0.980476 -76.340267
0.000108 162.428445 0.001166 -0.488967 0.980476 -76.340267 0.025705 56.235919
4400.0 0.002352 -142.325571 0.980614 -78.33584 0.001282 26.7988 9.5e-05 140.0241
0.980614 -78.33584 0.006507 66.967091 0.000158 91.381777 0.001156 -3.016513
0.001282 26.7988 0.000158 91.381777 0.019537 -43.793128 0.981221 -78.114518
9.5e-05 140.0241 0.001156 -3.016513 0.981221 -78.114518 0.025847 55.795248
4500.0 0.002779 -143.120602 0.981423 -80.118016 0.001383 25.232402 9e-05 118.879328
0.981423 -80.118016 0.006503 66.954716 0.000178 75.151594 0.001141 -5.097309
0.001383 25.232402 0.000178 75.151594 0.019849 -47.748061 0.981895 -79.905565
9e-05 118.879328 0.001141 -5.097309 0.981895 -79.905565 0.026066 55.616311
4600.0 0.003196 -145.553822 0.982168 -81.915857 0.001479 22.795411 8.5e-05 93.017609
0.982168 -81.915857 0.006532 67.332825 0.000197 59.093825 0.001126 -6.692847
0.001479 22.795411 0.000197 59.093825 0.020115 -51.54717 0.982444 -81.711411
8.5e-05 93.017609 0.001126 -6.692847 0.982444 -81.711411 0.026359 55.558711
4700.0 0.003575 -149.193086 0.982736 -83.727051 0.001566 19.714528 8.2e-05 71.20801
0.982736 -83.727051 0.006626 67.890503 0.000209 45.425486 0.001111 -7.77405
0.001566 19.714528 0.000209 45.425486 0.020303 -55.07039 0.982788 -83.5291
8.2e-05 71.20801 0.001111 -7.77405 0.982788 -83.5291 0.026778 55.624395
4800.0 0.00391 -153.376266 0.983118 -85.548341 0.00164 16.162906 8.4e-05 45.463558
0.983118 -85.548341 0.006772 68.522809 0.000219 31.329206 0.001101 -8.381179
0.00164 16.162906 0.000219 31.329206 0.020474 -58.36794 0.982902 -85.354714
8.4e-05 45.463558 0.001101 -8.381179 0.982902 -85.354714 0.027303 55.650921
4900.0 0.004183 -158.041553 0.983234 -87.37602 0.001696 12.312444 8.3e-05 23.099905
0.983234 -87.37602 0.00699 68.98363 0.000219 18.026825 0.001098 -8.591483
0.001696 12.312444 0.000219 18.026825 0.020605 -61.361357 0.982744 -87.184127
8.3e-05 23.099905 0.001098 -8.591483 0.982744 -87.184127 0.027961 55.630906
5000.0 0.004391 -162.793005 0.983109 -89.205639 0.001734 8.291029 9e-05 -0.262212
0.983109 -89.205639 0.007257 69.193515 0.000219 4.247046 0.001104 -8.558736
0.001734 8.291029 0.000219 4.247046 0.020762 -64.107102 0.982329 -89.012751
9e-05 -0.262212 0.001104 -8.558736 0.982329 -89.012751 0.028708 55.423738
5100.0 0.004527 -167.663623 0.982706 -91.033272 0.001751 4.23629 9.2e-05 -23.443313
0.982706 -91.033272 0.007581 68.985928 0.000207 -10.129605 0.00112 -8.45691
0.001751 4.23629 0.000207 -10.129605 0.020925 -66.576292 0.98166 -90.836602
9.2e-05 -23.443313 0.00112 -8.45691 0.98166 -90.836602 0.029548 55.051881
5200.0 0.004588 -172.33432 0.982089 -92.854543 0.001748 0.259309 0.000102 -44.217417
0.982089 -92.854543 0.007927 68.380091 0.000197 -25.025164 0.001147 -8.485113
0.001748 0.259309 0.000197 -25.025164 0.021163 -68.845483 0.980791 -92.651731
0.000102 -44.217417 0.001147 -8.485113 0.980791 -92.651731 0.030424 54.424517
5300.0 0.004575 -176.83859 0.981259 -94.666508 0.001725 -3.506278 0.000109 -66.951162
0.981259 -94.666508 0.0083 67.31822 0.000179 -42.333978 0.001184 -8.797855
0.001725 -3.506278 0.000179 -42.333978 0.021451 -70.936288 0.979757 -94.455504
0.000109 -66.951162 0.001184 -8.797855 0.979757 -94.455504 0.031326 53.606043
5400.0 0.004491 179.150002 0.980309 -96.465993 0.001684 -6.938751 0.000121 -85.392732
0.980309 -96.465993 0.008663 65.893535 0.000164 -60.544104 0.001228 -9.513841
0.001684 -6.938751 0.000164 -60.544104 0.021848 -72.94354 0.978638 -96.245662
0.000121 -85.392732 0.001228 -9.513841 0.978638 -96.245662 0.032195 52.551808
5500.0 0.004343 175.652671 0.979265 -98.251968 0.001628 -9.884204 0.000136 -105.740314
0.979265 -98.251968 0.00902 64.115578 0.000149 -83.507844 0.001277 -10.678044
0.001628 -9.884204 0.000149 -83.507844 0.022318 -74.920799 0.977489 -98.02171
0.000136 -105.740314 0.001277 -10.678044 0.977489 -98.02171 0.033021 51.355985
5600.0 0.004142 173.06983 0.978231 -100.023189 0.001561 -12.194618 0.000149 -122.14902
0.978231 -100.023189 0.00934 62.101203 0.00014 -107.401523 0.001328 -12.296482
0.001561 -12.194618 0.00014 -107.401523 0.022908 -76.957292 0.976392 -99.783594
0.000149 -122.14902 0.001328 -12.296482 0.976392 -99.783594 0.033757 50.001609
5700.0 0.003909 171.521587 0.977242 -101.780955 0.001489 -13.696845 0.000169 -139.395927
0.977242 -101.780955 0.009629 59.88871 0.000144 -134.684822 0.001378 -14.32543
0.001489 -13.696845 0.000144 -134.684822 0.023565 -79.105627 0.975399 -101.533127
0.000169 -139.395927 0.001378 -14.32543 0.975399 -101.533127 0.0344 48.595808
5800.0 0.003664 171.508038 0.976392 -103.526081 0.001417 -14.254303 0.000183 -154.180711
0.976392 -103.526081 0.00986 57.590735 0.000154 -159.388413 0.001425 -16.706838
0.001417 -14.254303 0.000154 -159.388413 0.024319 -81.420553 0.974577 -103.27229
0.000183 -154.180711 0.001425 -16.706838 0.974577 -103.27229 0.034921 47.132612
5900.0 0.003447 173.143698 0.975699 -105.261969 0.001354 -13.775672 0.000203 -168.766908
0.975699 -105.261969 0.010047 55.257377 0.000178 178.428709 0.001467 -19.362149
0.001354 -13.775672 0.000178 178.428709 0.02511 -83.930301 0.973953 -105.004686
0.000203 -168.766908 0.001467 -19.362149 0.973953 -105.004686 0.035331 45.719791
6000.0 0.003295 176.686251 0.975232 -106.990974 0.001308 -12.325902 0.000216 177.667707
0.975232 -106.990974 0.01017 52.988761 0.000201 159.188148 0.001502 -22.213321
0.001308 -12.325902 0.000201 159.188148 0.025955 -86.64408 0.973561 -106.733519
0.000216 177.667707 0.001502 -22.213321 0.973561 -106.733519 0.035621 44.350612
6100.0 0.003254 -178.477427 0.974981 -108.717765 0.001286 -10.15136 0.000233 165.024626
0.974981 -108.717765 0.010249 50.840636 0.000231 143.182732 0.001528 -25.17743
0.001286 -10.15136 0.000231 143.182732 0.026789 -89.564389 0.973396 -108.463122
0.000233 165.024626 0.001528 -25.17743 0.973396 -108.463122 0.035817 43.124154
6200.0 0.003352 -173.149302 0.974976 -110.445215 0.001293 -7.71893 0.000241 152.365375
0.974976 -110.445215 0.01027 48.897785 0.000255 128.02437 0.001545 -28.174613
0.001293 -7.71893 0.000255 128.02437 0.027627 -92.662773 0.973454 -110.19673
0.000241 152.365375 0.001545 -28.174613 0.973454 -110.19673 0.035929 42.022515
