! File created by SignalIntegrity v1.3.3: Signal and Power Integrity Tools
! https://github.com/TeledyneLeCroy/SignalIntegrity
# MHz S MA R 50.0
0.0 0.001816 180.0 0.991861 0.0 0.000235 0.0 2.9e-05 180.0
0.991861 0.0 0.000331 180.0 4.3e-05 0.0 4.7e-05 180.0
0.000235 0.0 4.3e-05 0.0 0.00205 180.0 0.995484 0.0
2.9e-05 180.0 4.7e-05 180.0 0.995484 0.0 0.001012 0.0
100.0 0.001878 -172.114141 0.992028 -1.759187 0.000242 10.975995 5.3e-05 116.468434
0.992028 -1.759187 0.000427 -154.426074 6.6e-05 44.869253 7.1e-05 125.323344
0.000242 10.975995 6.6e-05 44.869253 0.002118 175.793379 0.995639 -1.767349
5.3e-05 116.468434 7.1e-05 125.323344 0.995639 -1.767349 0.000889 5.464362
200.0 0.002024 -165.968706 0.992573 -3.525024 0.000262 20.56599 9.1e-05 88.480539
0.992573 -3.525024 0.000609 -146.110222 0.000115 50.539338 0.000114 101.193033
0.000262 20.56599 0.000115 50.539338 0.002255 170.08997 0.996076 -3.542049
9.1e-05 88.480539 0.000114 101.193033 0.996076 -3.542049 0.000739 20.267388
300.0 0.002246 -162.385179 0.99339 -5.306931 0.000292 28.046774 0.000128 73.782825
0.99339 -5.306931 0.000841 -148.269586 0.000161 48.894633 0.000159 88.400864
0.000292 28.046774 0.000161 48.894633 0.002517 164.170179 0.996769 -5.330161
0.000128 73.782825 0.000159 88.400864 0.996769 -5.330161 0.000592 61.530341
400.0 0.002481 -161.002832 0.994459 -7.107223 0.000331 33.44565 0.000164 59.752328
0.994459 -7.107223 0.001068 -153.594897 0.000209 42.2216 0.000199 78.864632
0.000331 33.44565 0.000209 42.2216 0.002892 153.683449 0.997639 -7.14397
0.000164 59.752328 0.000199 78.864632 0.997639 -7.14397 0.001112 94.861546
500.0 0.002721 -161.61645 0.995621 -8.938034 0.000378 36.881435 0.000191 48.151486
0.995621 -8.938034 0.001301 -161.301847 0.000246 34.74798 0.000234 72.378598
0.000378 36.881435 0.000246 34.74798 0.003179 140.453544 0.998311 -8.988377
0.000191 48.151486 0.000234 72.378598 0.998311 -8.988377 0.001881 98.372282
600.0 0.002921 -163.132896 0.996817 -10.795598 0.000433 38.301996 0.000213 37.330171
0.996817 -10.795598 0.001512 -168.928659 0.000275 25.979284 0.000269 65.643504
0.000433 38.301996 0.000275 25.979284 0.003212 125.260305 0.998611 -10.843166
0.000213 37.330171 0.000269 65.643504 0.998611 -10.843166 0.002462 90.410711
700.0 0.003004 -167.316748 0.997805 -12.704076 0.000487 37.062934 0.000228 29.154466
0.997805 -12.704076 0.001611 -179.608902 0.000287 19.154518 0.00029 59.819201
0.000487 37.062934 0.000287 19.154518 0.002968 115.774741 0.99885 -12.703999
0.000228 29.154466 0.00029 59.819201 0.99885 -12.703999 0.002581 90.07473
800.0 0.002714 -161.998482 0.998159 -14.645343 0.000528 35.825035 0.000247 21.666573
0.998159 -14.645343 0.001476 -170.314167 0.000302 13.367942 0.000309 53.878351
0.000528 35.825035 0.000302 13.367942 0.002674 106.007278 0.999037 -14.597986
0.000247 21.666573 0.000309 53.878351 0.999037 -14.597986 0.002611 91.336429
900.0 0.003699 -151.925881 0.997531 -16.652923 0.000582 34.607645 0.00027 13.145164
0.997531 -16.652923 0.002636 -165.059764 0.000314 9.06444 0.000282 48.143544
0.000582 34.607645 0.000314 9.06444 0.00186 125.532856 0.998404 -16.545321
0.00027 13.145164 0.000282 48.143544 0.998404 -16.545321 0.002503 123.295227
1000.0 0.004738 -167.550196 0.993994 -18.642269 0.000638 30.13878 0.000285 1.133204
0.993994 -18.642269 0.00361 169.695951 0.000345 2.491535 0.000258 60.25272
0.000638 30.13878 0.000345 2.491535 0.003834 139.905362 0.995815 -18.498186
0.000285 1.133204 0.000258 60.25272 0.995815 -18.498186 0.005403 130.291368
1100.0 0.004482 179.121965 0.989532 -20.476534 0.000657 24.022044 0.000277 -9.169581
0.989532 -20.476534 0.003497 151.68092 0.000355 -7.934478 0.000328 68.094956
0.000657 24.022044 0.000355 -7.934478 0.00519 117.798837 0.991722 -20.351478
0.000277 -9.169581 0.000328 68.094956 0.991722 -20.351478 0.007288 114.002896
1200.0 0.004312 173.82114 0.985728 -22.225021 0.000641 19.176432 0.000273 -18.370563
0.985728 -22.225021 0.003554 144.207422 0.000349 -17.474211 0.000393 66.369762
0.000641 19.176432 0.000349 -17.474211 0.005592 105.59955 0.987875 -22.094296
0.000273 -18.370563 0.000393 66.369762 0.987875 -22.094296 0.008225 106.706875
1300.0 0.004105 166.852539 0.982633 -23.912945 0.000609 15.680373 0.000257 -27.499481
0.982633 -23.912945 0.003633 135.005241 0.00033 -26.77457 0.000455 63.363847
0.000609 15.680373 0.00033 -26.77457 0.006228 94.427708 0.984817 -23.776909
0.000257 -27.499481 0.000455 63.363847 0.984817 -23.776909 0.009297 100.097688
1400.0 0.003838 162.501141 0.980378 -25.570732 0.000561 13.926451 0.000244 -35.880712
0.980378 -25.570732 0.003679 128.817796 0.000307 -35.480535 0.000509 59.075581
0.000561 13.926451 0.000307 -35.480535 0.006537 84.961854 0.982609 -25.422134
0.000244 -35.880712 0.000509 59.075581 0.982609 -25.422134 0.010025 95.340784
1500.0 0.003549 157.494561 0.978922 -27.20505 0.000509 14.652421 0.000221 -45.09036
0.978922 -27.20505 0.003739 121.987704 0.000273 -44.577847 0.000557 54.661155
0.000509 14.652421 0.000273 -44.577847 0.007028 76.240244 0.981265 -27.050553
0.000221 -45.09036 0.000557 54.661155 0.981265 -27.050553 0.010846 90.807479
1600.0 0.003203 154.653612 0.978297 -28.838661 0.000459 18.566763 0.000199 -52.759138
0.978297 -28.838661 0.003747 116.903483 0.000237 -52.672346 0.000596 49.918298
0.000459 18.566763 0.000237 -52.672346 0.007288 67.871819 0.980739 -28.675487
0.000199 -52.759138 0.000596 49.918298 0.980739 -28.675487 0.01139 87.090259
1700.0 0.00286 152.038758 0.978372 -30.476279 0.000427 26.150289 0.00017 -61.800882
0.978372 -30.476279 0.003767 111.693362 0.000193 -61.592256 0.000628 45.276148
0.000427 26.150289 0.000193 -61.592256 0.007662 60.421498 0.98095 -30.311276
0.00017 -61.800882 0.000628 45.276148 0.98095 -30.311276 0.011984 83.748683
1800.0 0.002493 152.276298 0.979098 -32.134634 0.000425 36.273884 0.000141 -68.156641
0.979098 -32.134634 0.003736 107.83817 0.000147 -68.439533 0.000651 40.666011
0.000425 36.273884 0.000147 -68.439533 0.007861 52.97791 0.981771 -31.966712
0.000141 -68.156641 0.000651 40.666011 0.981771 -31.966712 0.012352 80.979885
1900.0 0.002173 154.076943 0.980281 -33.815213 0.000463 45.940804 0.000107 -76.117549
0.980281 -33.815213 0.003722 104.196268 9.7e-05 -75.795357 0.000665 36.463183
0.000463 45.940804 9.7e-05 -75.795357 0.008123 46.55855 0.983056 -33.650373
0.000107 -76.117549 0.000665 36.463183 0.983056 -33.650373 0.012763 78.715249
2000.0 0.001903 160.192433 0.981824 -35.528438 0.000533 52.558054 7.5e-05 -77.641237
0.981824 -35.528438 0.003673 101.780523 4.7e-05 -72.830132 0.000671 32.513456
0.000533 52.558054 4.7e-05 -72.830132 0.008253 40.088837 0.984632 -35.365722
7.5e-05 -77.641237 0.000671 32.513456 0.984632 -35.365722 0.013008 76.964439
2100.0 0.001757 168.366659 0.98351 -37.27164 0.000627 55.73264 4.2e-05 -75.113671
0.98351 -37.27164 0.003654 99.779161 1.6e-05 12.122466 0.000669 29.137928
0.000627 55.73264 1.6e-05 12.122466 0.008419 34.717674 0.986336 -37.115293
4.2e-05 -75.113671 0.000669 29.137928 0.986336 -37.115293 0.013323 75.779159
2200.0 0.001749 178.895384 0.985237 -39.049023 0.00073 56.125013 2.5e-05 -24.644861
0.985237 -39.049023 0.003624 98.894562 6e-05 52.105877 0.00066 26.331784
0.00073 56.125013 6e-05 52.105877 0.008495 29.341187 0.987999 -38.897278
2.5e-05 -24.644861 0.00066 26.331784 0.987999 -38.897278 0.013547 75.047808
2300.0 0.001877 -173.216577 0.986809 -40.854067 0.000837 54.602837 4e-05 20.823425
0.986809 -40.854067 0.003646 98.376484 0.000106 51.074293 0.000647 24.397572
0.000837 54.602837 0.000106 51.074293 0.008602 25.105517 0.989482 -40.709143
4e-05 20.823425 0.000647 24.397572 0.989482 -40.709143 0.013891 74.812349
2400.0 0.002102 -167.650159 0.988156 -42.686192 0.000939 51.768542 7.3e-05 24.915149
0.988156 -42.686192 0.003683 98.64124 0.000153 43.340021 0.000632 23.285475
0.000939 51.768542 0.000153 43.340021 0.008667 20.921651 0.990659 -42.545118
7.3e-05 24.915149 0.000632 23.285475 0.990659 -42.545118 0.014222 74.852787
2500.0 0.002365 -165.967062 0.98913 -44.536263 0.001034 48.138702 0.0001 21.946488
0.98913 -44.536263 0.003788 98.896727 0.000192 35.632824 0.000619 23.226616
0.001034 48.138702 0.000192 35.632824 0.008778 17.841744 0.991447 -44.399402
0.0001 21.946488 0.000619 23.226616 0.991447 -44.399402 0.01472 75.154954
2600.0 0.002638 -166.042969 0.98972 -46.400716 0.001116 43.926696 0.000131 14.56484
0.98972 -46.400716 0.003924 99.38276 0.00023 26.445229 0.000611 24.006926
0.001116 43.926696 0.00023 26.445229 0.0089 14.798361 0.991786 -46.264196
0.000131 14.56484 0.000611 24.006926 0.991786 -46.264196 0.015255 75.446035
2700.0 0.002883 -168.30904 0.989845 -48.269665 0.001183 39.470612 0.000153 6.688968
0.989845 -48.269665 0.004126 99.385772 0.000257 17.44034 0.000612 25.574069
0.001183 39.470612 0.000257 17.44034 0.009095 12.671071 0.991665 -48.132513
0.000153 6.688968 0.000612 25.574069 0.991665 -48.132513 0.015969 75.693844
2800.0 0.003091 -171.22948 0.989559 -50.13869 0.001234 34.84319 0.000178 -2.259572
0.989559 -50.13869 0.004353 99.170994 0.000282 7.878808 0.000623 27.419383
0.001234 34.84319 0.000282 7.878808 0.009351 10.416026 0.991096 -49.996708
0.000178 -2.259572 0.000623 27.419383 0.991096 -49.996708 0.016725 75.6704
2900.0 0.003242 -175.284489 0.988845 -51.998954 0.001266 30.244601 0.000193 -11.787999
0.988845 -51.998954 0.004629 98.257878 0.000295 -1.742142 0.000647 29.323002
0.001266 30.244601 0.000295 -1.742142 0.009706 8.730436 0.990131 -51.850698
0.000193 -11.787999 0.000647 29.323002 0.990131 -51.850698 0.017626 75.401195
3000.0 0.003332 -179.4171 0.987814 -53.846954 0.00128 25.773124 0.00021 -21.402168
0.987814 -53.846954 0.004907 96.997737 0.000307 -11.63811 0.000684 30.615672
0.00128 25.773124 0.000307 -11.63811 0.010148 6.650511 0.988839 -53.688723
0.00021 -21.402168 0.000684 30.615672 0.988839 -53.688723 0.018529 74.749478
3100.0 0.003354 175.852439 0.986497 -55.676396 0.001275 21.568857 0.000216 -31.959548
0.986497 -55.676396 0.005209 95.114827 0.000305 -22.074137 0.00073 31.206734
0.001275 21.568857 0.000305 -22.074137 0.01069 4.769513 0.987321 -55.507166
0.000216 -31.959548 0.00073 31.206734 0.987321 -55.507166 0.019514 73.817698
3200.0 0.003304 171.410541 0.985041 -57.486115 0.001252 17.789107 0.000224 -41.856769
0.985041 -57.486115 0.00549 92.958422 0.000302 -32.367419 0.000784 30.914047
0.001252 17.789107 0.000302 -32.367419 0.011319 2.301057 0.985678 -57.303437
0.000224 -41.856769 0.000784 30.914047 0.985678 -57.303437 0.020443 72.539217
3300.0 0.003188 166.773293 0.983499 -59.273212 0.001215 14.603686 0.000223 -53.332269
0.983499 -59.273212 0.005769 90.378726 0.000287 -43.803257 0.000843 29.803557
0.001215 14.603686 0.000287 -43.803257 0.012023 -0.198341 0.984023 -59.077267
0.000223 -53.332269 0.000843 29.803557 0.984023 -59.077267 0.021386 71.063827
3400.0 0.003001 162.796603 0.982023 -61.039438 0.001165 12.17047 0.000222 -63.748029
0.982023 -61.039438 0.006007 87.676148 0.00027 -54.881489 0.000902 27.898735
0.001165 12.17047 0.00027 -54.881489 0.012788 -3.317494 0.982458 -60.829517
0.000222 -63.748029 0.000902 27.898735 0.982458 -60.829517 0.022219 69.350154
3500.0 0.00276 159.147866 0.98066 -62.785393 0.001109 10.77573 0.000215 -76.214155
0.98066 -62.785393 0.006226 84.763962 0.000246 -67.862616 0.000959 25.487782
0.001109 10.77573 0.000246 -67.862616 0.013585 -6.529639 0.98108 -62.563258
0.000215 -76.214155 0.000959 25.487782 0.98108 -62.563258 0.023011 67.570136
3600.0 0.002463 156.899305 0.979538 -64.515494 0.001052 10.526976 0.000206 -87.459714
0.979538 -64.515494 0.00639 81.883676 0.000219 -80.869823 0.001013 22.572772
0.001052 10.526976 0.000219 -80.869823 0.01441 -10.265076 0.97996 -64.282256
0.000206 -87.459714 0.001013 22.572772 0.97996 -64.282256 0.02366 65.685093
3700.0 0.00214 156.107069 0.978672 -66.233075 0.001001 11.687691 0.000194 -101.12352
0.978672 -66.233075 0.006527 78.995243 0.000189 -96.943335 0.00106 19.368847
0.001001 11.687691 0.000189 -96.943335 0.015219 -14.057936 0.979153 -65.991781
0.000194 -101.12352 0.00106 19.368847 0.979153 -65.991781 0.024237 63.867961
3800.0 0.001804 158.678012 0.978144 -67.944133 0.000967 14.1335 0.000179 -113.478551
0.978144 -67.944133 0.006604 76.290318 0.000159 -114.068355 0.0011 15.94545
0.000967 14.1335 0.000159 -114.068355 0.016022 -18.227667 0.97868 -67.697178
0.000179 -113.478551 0.0011 15.94545 0.97868 -67.697178 0.024663 62.074971
3900.0 0.001514 165.599856 0.977923 -69.653222 0.000956 17.537594 0.000166 -128.66535
0.977923 -69.653222 0.006654 73.762474 0.000135 -137.018627 0.001131 12.4528
0.000956 17.537594 0.000135 -137.018627 0.016768 -22.383145 0.978543 -69.404256
0.000166 -128.66535 0.001131 12.4528 0.978543 -69.404256 0.025019 60.474621
4000.0 0.001337 179.163544 0.978037 -71.36635 0.000974 21.209127 0.000148 -143.147476
0.978037 -71.36635 0.006652 71.565717 0.000114 -163.6469 0.001153 8.957015
0.000974 21.209127 0.000114 -163.6469 0.01748 -26.764641 0.97871 -71.118124
0.000148 -143.147476 0.001153 8.957015 0.97871 -71.118124 0.025248 59.008627
4100.0 0.001358 -164.619963 0.978409 -73.087652 0.001021 24.394352 0.000136 -160.366
0.978409 -73.087652 0.006636 69.71354 0.000112 165.977699 0.001166 5.588184
0.001021 24.394352 0.000112 165.977699 0.018103 -31.052781 0.979134 -72.843402
0.000136 -160.366 0.001166 5.588184 0.979134 -72.843402 0.025439 57.831061
4200.0 0.001583 -151.322672 0.979024 -74.821499 0.001093 26.496811 0.000118 -178.384294
0.979024 -74.821499 0.006587 68.321835 0.000118 136.005707 0.00117 2.386433
0.001093 26.496811 0.000118 136.005707 0.018676 -35.432127 0.979742 -74.583351
0.000118 -178.384294 0.00117 2.386433 0.979742 -74.583351 0.025558 56.85553
4300.0 0.001934 -144.558366 0.97977 -76.570301 0.001183 27.288432 0.000108 162.264201
0.97977 -76.570301 0.006546 67.379507 0.000137 112.636796 0.001166 -0.494037
0.001183 27.288432 0.000137 112.636796 0.019142 -39.641301 0.98046 -76.340172
0.000108 162.264201 0.001166 -0.494037 0.98046 -76.340172 0.025697 56.20642
4400.0 0.002353 -142.199521 0.980609 -78.335806 0.001282 26.789824 9.5e-05 140.025541
0.980609 -78.335806 0.006503 66.947625 0.000158 91.445961 0.001156 -3.040332
0.001282 26.789824 0.000158 91.445961 0.019557 -43.819365 0.981199 -78.114424
9.5e-05 140.025541 0.001156 -3.040332 0.981199 -78.114424 0.025835 55.758524
4500.0 0.002779 -143.057383 0.98142 -80.118007 0.001383 25.219859 9e-05 118.954983
0.98142 -80.118007 0.006501 66.943859 0.000178 75.183569 0.001141 -5.103477
0.001383 25.219859 0.000178 75.183569 0.019864 -47.758147 0.98188 -79.905553
9e-05 118.954983 0.001141 -5.103477 0.98188 -79.905553 0.026059 55.587575
4600.0 0.003197 -145.468178 0.982163 -81.915863 0.001479 22.777318 8.5e-05 92.984536
0.982163 -81.915863 0.006528 67.31702 0.000197 59.205955 0.001126 -6.699207
0.001479 22.777318 0.000197 59.205955 0.020135 -51.561773 0.982423 -81.711419
8.5e-05 92.984536 0.001126 -6.699207 0.982423 -81.711419 0.026348 55.523634
4700.0 0.003575 -149.146199 0.982733 -83.727061 0.001566 19.714978 8.2e-05 71.162456
0.982733 -83.727061 0.006624 67.880657 0.000209 45.486975 0.001111 -7.78478
0.001566 19.714978 0.000209 45.486975 0.020318 -55.073253 0.982773 -83.52914
8.2e-05 71.162456 0.001111 -7.78478 0.982773 -83.52914 0.026772 55.597392
4800.0 0.00391 -153.305507 0.983113 -85.548355 0.00164 16.155717 8.4e-05 45.48846
0.983113 -85.548355 0.006768 68.505511 0.000219 31.367106 0.001101 -8.383933
0.00164 16.155717 0.000219 31.367106 0.020494 -58.374064 0.982882 -85.354803
8.4e-05 45.48846 0.001101 -8.383933 0.982882 -85.354803 0.027293 55.618717
4900.0 0.004182 -158.007106 0.983231 -87.37604 0.001696 12.306511 8.3e-05 23.236239
0.983231 -87.37604 0.006988 68.972273 0.000219 18.117011 0.001098 -8.598206
0.001696 12.306511 0.000219 18.117011 0.020619 -61.35816 0.98273 -87.184244
8.3e-05 23.236239 0.001098 -8.598206 0.98273 -87.184244 0.027955 55.606226
5000.0 0.004391 -162.733789 0.983105 -89.205688 0.001734 8.286585 9e-05 -0.14011
0.983105 -89.205688 0.007254 69.181156 0.000219 4.269326 0.001104 -8.576224
0.001734 8.286585 0.000219 4.269326 0.020781 -64.107493 0.98231 -89.01294
9e-05 -0.14011 0.001104 -8.576224 0.98231 -89.01294 0.028699 55.393412
5100.0 0.004526 -167.631465 0.982704 -91.033307 0.001751 4.22748 9.2e-05 -23.30525
0.982704 -91.033307 0.007579 68.977272 0.000207 -10.126545 0.00112 -8.473392
0.001751 4.22748 0.000207 -10.126545 0.020939 -66.568991 0.981647 -90.836756
9.2e-05 -23.30525 0.00112 -8.473392 0.981647 -90.836756 0.029543 55.029077
5200.0 0.004587 -172.284744 0.982085 -92.854596 0.001748 0.255223 0.000102 -44.202192
0.982085 -92.854596 0.007924 68.366586 0.000197 -24.944528 0.001147 -8.491349
0.001748 0.255223 0.000197 -24.944528 0.021181 -68.83954 0.980773 -92.651973
0.000102 -44.202192 0.001147 -8.491349 0.980773 -92.651973 0.030416 54.39683
5300.0 0.004573 -176.810183 0.981257 -94.666539 0.001725 -3.514412 0.000109 -67.046033
0.981257 -94.666539 0.008298 67.310513 0.000179 -42.294563 0.001184 -8.801218
0.001725 -3.514412 0.000179 -42.294563 0.021464 -70.925303 0.979745 -94.455722
0.000109 -67.046033 0.001184 -8.801218 0.979745 -94.455722 0.031322 53.584945
5400.0 0.004489 179.196083 0.980305 -96.466051 0.001684 -6.940915 0.000121 -85.303815
0.980305 -96.466051 0.00866 65.878694 0.000164 -60.499845 0.001228 -9.527126
0.001684 -6.940915 0.000164 -60.499845 0.021865 -72.934682 0.978621 -96.245964
0.000121 -85.303815 0.001228 -9.527126 0.978621 -96.245964 0.032188 52.525314
5500.0 0.004341 175.67269 0.979263 -98.252026 0.001628 -9.885697 0.000136 -105.78265
0.979263 -98.252026 0.009019 64.107667 0.000149 -83.577837 0.001277 -10.686597
0.001628 -9.885697 0.000149 -83.577837 0.02233 -74.90814 0.977477 -98.021958
0.000136 -105.78265 0.001277 -10.686597 0.977477 -98.021958 0.033018 51.335949
5600.0 0.00414 173.115887 0.978228 -100.023274 0.001561 -12.185596 0.000149 -122.180221
0.978228 -100.023274 0.009337 62.089025 0.00014 -107.473825 0.001328 -12.313969
0.001561 -12.185596 0.00014 -107.473825 0.022924 -76.944527 0.976376 -99.783963
0.000149 -122.180221 0.001328 -12.313969 0.976376 -99.783963 0.033751 49.976653
5700.0 0.003907 171.543434 0.97724 -101.780994 0.001489 -13.691361 0.000169 -139.353383
0.97724 -101.780994 0.009627 59.880156 0.000144 -134.738296 0.001378 -14.335613
0.001489 -13.691361 0.000144 -134.738296 0.023576 -79.092082 0.975388 -101.533404
0.000169 -139.353383 0.001378 -14.335613 0.975388 -101.533404 0.034398 48.576759
5800.0 0.003662 171.555134 0.976388 -103.526175 0.001417 -14.257953 0.000183 -154.275473
0.976388 -103.526175 0.009858 57.576664 0.000154 -159.506142 0.001425 -16.71247
0.001417 -14.257953 0.000154 -159.506142 0.024334 -81.405432 0.974562 -103.272693
0.000183 -154.275473 0.001425 -16.71247 0.974562 -103.272693 0.034916 47.109016
5900.0 0.003445 173.172897 0.975697 -105.262041 0.001354 -13.778124 0.000203 -168.785077
0.975697 -105.262041 0.010046 55.248995 0.000178 178.368605 0.001467 -19.354145
0.001354 -13.778124 0.000178 178.368605 0.02512 -83.914333 0.973943 -105.005006
0.000203 -168.785077 0.001467 -19.354145 0.973943 -105.005006 0.03533 45.701909
6000.0 0.003293 176.73924 0.975229 -106.991084 0.001308 -12.333048 0.000216 177.634142
0.975229 -106.991084 0.010168 52.976174 0.000201 159.144821 0.001502 -22.21454
0.001308 -12.333048 0.000201 159.144821 0.025969 -86.626798 0.973548 -106.733983
0.000216 177.634142 0.001502 -22.21454 0.973548 -106.733983 0.035617 44.328122
6100.0 0.003252 -178.45124 0.974979 -108.717833 0.001286 -10.161294 0.000233 164.927927
0.974979 -108.717833 0.010248 50.831716 0.000231 143.17825 0.001528 -25.17875
0.001286 -10.161294 0.000231 143.17825 0.026798 -89.548094 0.973386 -108.463453
0.000233 164.927927 0.001528 -25.17875 0.973386 -108.463453 0.035816 43.106767
6200.0 0.003351 -173.097468 0.974973 -110.445332 0.001293 -7.718661 0.000241 152.336875
0.974973 -110.445332 0.010268 48.883614 0.000255 127.994087 0.001545 -28.187555
0.001293 -7.718661 0.000255 127.994087 0.027639 -92.644003 0.973441 -110.197234
0.000241 152.336875 0.001545 -28.187555 0.973441 -110.197234 0.035927 42.000689
