! File created by SignalIntegrity v1.3.3: Signal and Power Integrity Tools
! https://github.com/TeledyneLeCroy/SignalIntegrity
# MHz S MA R 50.0
0.0 0.0 0.0 1.0 0.0 1.0 0.0 0.0 0.0
10.0 0.0 0.0 0.997227 -0.6096 0.997227 -0.6096 0.0 0.0
20.0 0.0 0.0 0.996023 -1.2192 0.996023 -1.2192 0.0 0.0
30.0 0.0 0.0 0.995077 -1.8288 0.995077 -1.8288 0.0 0.0
40.0 0.0 0.0 0.994265 -2.4384 0.994265 -2.4384 0.0 0.0
50.0 0.0 0.0 0.993539 -3.048 0.993539 -3.048 0.0 0.0
60.0 0.0 0.0 0.992873 -3.6576 0.992873 -3.6576 0.0 0.0
70.0 0.0 0.0 0.992254 -4.2672 0.992254 -4.2672 0.0 0.0
80.0 0.0 0.0 0.991671 -4.8768 0.991671 -4.8768 0.0 0.0
90.0 0.0 0.0 0.991118 -5.4864 0.991118 -5.4864 0.0 0.0
100.0 0.0 0.0 0.990589 -6.096 0.990589 -6.096 0.0 0.0
110.0 0.0 0.0 0.990082 -6.7056 0.990082 -6.7056 0.0 0.0
120.0 0.0 0.0 0.989594 -7.3152 0.989594 -7.3152 0.0 0.0
130.0 0.0 0.0 0.989122 -7.9248 0.989122 -7.9248 0.0 0.0
140.0 0.0 0.0 0.988664 -8.5344 0.988664 -8.5344 0.0 0.0
150.0 0.0 0.0 0.988219 -9.144 0.988219 -9.144 0.0 0.0
160.0 0.0 0.0 0.987786 -9.7536 0.987786 -9.7536 0.0 0.0
170.0 0.0 0.0 0.987363 -10.3632 0.987363 -10.3632 0.0 0.0
180.0 0.0 0.0 0.986949 -10.9728 0.986949 -10.9728 0.0 0.0
190.0 0.0 0.0 0.986545 -11.5824 0.986545 -11.5824 0.0 0.0
200.0 0.0 0.0 0.986149 -12.192 0.986149 -12.192 0.0 0.0
210.0 0.0 0.0 0.98576 -12.8016 0.98576 -12.8016 0.0 0.0
220.0 0.0 0.0 0.985378 -13.4112 0.985378 -13.4112 0.0 0.0
230.0 0.0 0.0 0.985003 -14.0208 0.985003 -14.0208 0.0 0.0
240.0 0.0 0.0 0.984634 -14.6304 0.984634 -14.6304 0.0 0.0
250.0 0.0 0.0 0.984271 -15.24 0.984271 -15.24 0.0 0.0
260.0 0.0 0.0 0.983913 -15.8496 0.983913 -15.8496 0.0 0.0
270.0 0.0 0.0 0.98356 -16.4592 0.98356 -16.4592 0.0 0.0
280.0 0.0 0.0 0.983212 -17.0688 0.983212 -17.0688 0.0 0.0
290.0 0.0 0.0 0.982869 -17.6784 0.982869 -17.6784 0.0 0.0
300.0 0.0 0.0 0.98253 -18.288 0.98253 -18.288 0.0 0.0
310.0 0.0 0.0 0.982195 -18.8976 0.982195 -18.8976 0.0 0.0
320.0 0.0 0.0 0.981864 -19.5072 0.981864 -19.5072 0.0 0.0
330.0 0.0 0.0 0.981537 -20.1168 0.981537 -20.1168 0.0 0.0
340.0 0.0 0.0 0.981213 -20.7264 0.981213 -20.7264 0.0 0.0
350.0 0.0 0.0 0.980893 -21.336 0.980893 -21.336 0.0 0.0
360.0 0.0 0.0 0.980576 -21.9456 0.980576 -21.9456 0.0 0.0
370.0 0.0 0.0 0.980262 -22.5552 0.980262 -22.5552 0.0 0.0
380.0 0.0 0.0 0.979951 -23.1648 0.979951 -23.1648 0.0 0.0
390.0 0.0 0.0 0.979643 -23.7744 0.979643 -23.7744 0.0 0.0
400.0 0.0 0.0 0.979338 -24.384 0.979338 -24.384 0.0 0.0
410.0 0.0 0.0 0.979036 -24.9936 0.979036 -24.9936 0.0 0.0
420.0 0.0 0.0 0.978736 -25.6032 0.978736 -25.6032 0.0 0.0
430.0 0.0 0.0 0.978438 -26.2128 0.978438 -26.2128 0.0 0.0
440.0 0.0 0.0 0.978143 -26.8224 0.978143 -26.8224 0.0 0.0
450.0 0.0 0.0 0.977851 -27.432 0.977851 -27.432 0.0 0.0
460.0 0.0 0.0 0.977561 -28.0416 0.977561 -28.0416 0.0 0.0
470.0 0.0 0.0 0.977272 -28.6512 0.977272 -28.6512 0.0 0.0
480.0 0.0 0.0 0.976986 -29.2608 0.976986 -29.2608 0.0 0.0
490.0 0.0 0.0 0.976702 -29.8704 0.976702 -29.8704 0.0 0.0
500.0 0.0 0.0 0.97642 -30.48 0.97642 -30.48 0.0 0.0
510.0 0.0 0.0 0.97614 -31.0896 0.97614 -31.0896 0.0 0.0
520.0 0.0 0.0 0.975862 -31.6992 0.975862 -31.6992 0.0 0.0
530.0 0.0 0.0 0.975586 -32.3088 0.975586 -32.3088 0.0 0.0
540.0 0.0 0.0 0.975311 -32.9184 0.975311 -32.9184 0.0 0.0
550.0 0.0 0.0 0.975038 -33.528 0.975038 -33.528 0.0 0.0
560.0 0.0 0.0 0.974767 -34.1376 0.974767 -34.1376 0.0 0.0
570.0 0.0 0.0 0.974497 -34.7472 0.974497 -34.7472 0.0 0.0
580.0 0.0 0.0 0.974229 -35.3568 0.974229 -35.3568 0.0 0.0
590.0 0.0 0.0 0.973963 -35.9664 0.973963 -35.9664 0.0 0.0
600.0 0.0 0.0 0.973698 -36.576 0.973698 -36.576 0.0 0.0
610.0 0.0 0.0 0.973435 -37.1856 0.973435 -37.1856 0.0 0.0
620.0 0.0 0.0 0.973172 -37.7952 0.973172 -37.7952 0.0 0.0
630.0 0.0 0.0 0.972912 -38.4048 0.972912 -38.4048 0.0 0.0
640.0 0.0 0.0 0.972653 -39.0144 0.972653 -39.0144 0.0 0.0
650.0 0.0 0.0 0.972395 -39.624 0.972395 -39.624 0.0 0.0
660.0 0.0 0.0 0.972138 -40.2336 0.972138 -40.2336 0.0 0.0
670.0 0.0 0.0 0.971883 -40.8432 0.971883 -40.8432 0.0 0.0
680.0 0.0 0.0 0.971629 -41.4528 0.971629 -41.4528 0.0 0.0
690.0 0.0 0.0 0.971376 -42.0624 0.971376 -42.0624 0.0 0.0
700.0 0.0 0.0 0.971124 -42.672 0.971124 -42.672 0.0 0.0
710.0 0.0 0.0 0.970874 -43.2816 0.970874 -43.2816 0.0 0.0
720.0 0.0 0.0 0.970625 -43.8912 0.970625 -43.8912 0.0 0.0
730.0 0.0 0.0 0.970376 -44.5008 0.970376 -44.5008 0.0 0.0
740.0 0.0 0.0 0.970129 -45.1104 0.970129 -45.1104 0.0 0.0
750.0 0.0 0.0 0.969883 -45.72 0.969883 -45.72 0.0 0.0
760.0 0.0 0.0 0.969639 -46.3296 0.969639 -46.3296 0.0 0.0
770.0 0.0 0.0 0.969395 -46.9392 0.969395 -46.9392 0.0 0.0
780.0 0.0 0.0 0.969152 -47.5488 0.969152 -47.5488 0.0 0.0
790.0 0.0 0.0 0.96891 -48.1584 0.96891 -48.1584 0.0 0.0
800.0 0.0 0.0 0.968669 -48.768 0.968669 -48.768 0.0 0.0
810.0 0.0 0.0 0.968429 -49.3776 0.968429 -49.3776 0.0 0.0
820.0 0.0 0.0 0.96819 -49.9872 0.96819 -49.9872 0.0 0.0
830.0 0.0 0.0 0.967952 -50.5968 0.967952 -50.5968 0.0 0.0
840.0 0.0 0.0 0.967715 -51.2064 0.967715 -51.2064 0.0 0.0
850.0 0.0 0.0 0.967479 -51.816 0.967479 -51.816 0.0 0.0
860.0 0.0 0.0 0.967244 -52.4256 0.967244 -52.4256 0.0 0.0
870.0 0.0 0.0 0.967009 -53.0352 0.967009 -53.0352 0.0 0.0
880.0 0.0 0.0 0.966776 -53.6448 0.966776 -53.6448 0.0 0.0
890.0 0.0 0.0 0.966543 -54.2544 0.966543 -54.2544 0.0 0.0
900.0 0.0 0.0 0.966311 -54.864 0.966311 -54.864 0.0 0.0
910.0 0.0 0.0 0.96608 -55.4736 0.96608 -55.4736 0.0 0.0
920.0 0.0 0.0 0.965849 -56.0832 0.965849 -56.0832 0.0 0.0
930.0 0.0 0.0 0.96562 -56.6928 0.96562 -56.6928 0.0 0.0
940.0 0.0 0.0 0.965391 -57.3024 0.965391 -57.3024 0.0 0.0
950.0 0.0 0.0 0.965163 -57.912 0.965163 -57.912 0.0 0.0
960.0 0.0 0.0 0.964936 -58.5216 0.964936 -58.5216 0.0 0.0
970.0 0.0 0.0 0.964709 -59.1312 0.964709 -59.1312 0.0 0.0
980.0 0.0 0.0 0.964484 -59.7408 0.964484 -59.7408 0.0 0.0
990.0 0.0 0.0 0.964259 -60.3504 0.964259 -60.3504 0.0 0.0
1000.0 0.0 0.0 0.964034 -60.96 0.964034 -60.96 0.0 0.0
1010.0 0.0 0.0 0.963811 -61.5696 0.963811 -61.5696 0.0 0.0
1020.0 0.0 0.0 0.963588 -62.1792 0.963588 -62.1792 0.0 0.0
1030.0 0.0 0.0 0.963365 -62.7888 0.963365 -62.7888 0.0 0.0
1040.0 0.0 0.0 0.963144 -63.3984 0.963144 -63.3984 0.0 0.0
1050.0 0.0 0.0 0.962923 -64.008 0.962923 -64.008 0.0 0.0
1060.0 0.0 0.0 0.962703 -64.6176 0.962703 -64.6176 0.0 0.0
1070.0 0.0 0.0 0.962483 -65.2272 0.962483 -65.2272 0.0 0.0
1080.0 0.0 0.0 0.962264 -65.8368 0.962264 -65.8368 0.0 0.0
1090.0 0.0 0.0 0.962046 -66.4464 0.962046 -66.4464 0.0 0.0
1100.0 0.0 0.0 0.961828 -67.056 0.961828 -67.056 0.0 0.0
1110.0 0.0 0.0 0.961611 -67.6656 0.961611 -67.6656 0.0 0.0
1120.0 0.0 0.0 0.961394 -68.2752 0.961394 -68.2752 0.0 0.0
1130.0 0.0 0.0 0.961178 -68.8848 0.961178 -68.8848 0.0 0.0
1140.0 0.0 0.0 0.960963 -69.4944 0.960963 -69.4944 0.0 0.0
1150.0 0.0 0.0 0.960748 -70.104 0.960748 -70.104 0.0 0.0
1160.0 0.0 0.0 0.960534 -70.7136 0.960534 -70.7136 0.0 0.0
1170.0 0.0 0.0 0.96032 -71.3232 0.96032 -71.3232 0.0 0.0
1180.0 0.0 0.0 0.960107 -71.9328 0.960107 -71.9328 0.0 0.0
1190.0 0.0 0.0 0.959894 -72.5424 0.959894 -72.5424 0.0 0.0
1200.0 0.0 0.0 0.959682 -73.152 0.959682 -73.152 0.0 0.0
1210.0 0.0 0.0 0.959471 -73.7616 0.959471 -73.7616 0.0 0.0
1220.0 0.0 0.0 0.95926 -74.3712 0.95926 -74.3712 0.0 0.0
1230.0 0.0 0.0 0.959049 -74.9808 0.959049 -74.9808 0.0 0.0
1240.0 0.0 0.0 0.958839 -75.5904 0.958839 -75.5904 0.0 0.0
1250.0 0.0 0.0 0.95863 -76.2 0.95863 -76.2 0.0 0.0
1260.0 0.0 0.0 0.958421 -76.8096 0.958421 -76.8096 0.0 0.0
1270.0 0.0 0.0 0.958212 -77.4192 0.958212 -77.4192 0.0 0.0
1280.0 0.0 0.0 0.958004 -78.0288 0.958004 -78.0288 0.0 0.0
1290.0 0.0 0.0 0.957797 -78.6384 0.957797 -78.6384 0.0 0.0
1300.0 0.0 0.0 0.95759 -79.248 0.95759 -79.248 0.0 0.0
1310.0 0.0 0.0 0.957384 -79.8576 0.957384 -79.8576 0.0 0.0
1320.0 0.0 0.0 0.957178 -80.4672 0.957178 -80.4672 0.0 0.0
1330.0 0.0 0.0 0.956972 -81.0768 0.956972 -81.0768 0.0 0.0
1340.0 0.0 0.0 0.956767 -81.6864 0.956767 -81.6864 0.0 0.0
1350.0 0.0 0.0 0.956562 -82.296 0.956562 -82.296 0.0 0.0
1360.0 0.0 0.0 0.956358 -82.9056 0.956358 -82.9056 0.0 0.0
1370.0 0.0 0.0 0.956154 -83.5152 0.956154 -83.5152 0.0 0.0
1380.0 0.0 0.0 0.955951 -84.1248 0.955951 -84.1248 0.0 0.0
1390.0 0.0 0.0 0.955748 -84.7344 0.955748 -84.7344 0.0 0.0
1400.0 0.0 0.0 0.955546 -85.344 0.955546 -85.344 0.0 0.0
1410.0 0.0 0.0 0.955344 -85.9536 0.955344 -85.9536 0.0 0.0
1420.0 0.0 0.0 0.955142 -86.5632 0.955142 -86.5632 0.0 0.0
1430.0 0.0 0.0 0.954941 -87.1728 0.954941 -87.1728 0.0 0.0
1440.0 0.0 0.0 0.954741 -87.7824 0.954741 -87.7824 0.0 0.0
1450.0 0.0 0.0 0.95454 -88.392 0.95454 -88.392 0.0 0.0
1460.0 0.0 0.0 0.95434 -89.0016 0.95434 -89.0016 0.0 0.0
1470.0 0.0 0.0 0.954141 -89.6112 0.954141 -89.6112 0.0 0.0
1480.0 0.0 0.0 0.953942 -90.2208 0.953942 -90.2208 0.0 0.0
1490.0 0.0 0.0 0.953743 -90.8304 0.953743 -90.8304 0.0 0.0
1500.0 0.0 0.0 0.953545 -91.44 0.953545 -91.44 0.0 0.0
1510.0 0.0 0.0 0.953347 -92.0496 0.953347 -92.0496 0.0 0.0
1520.0 0.0 0.0 0.953149 -92.6592 0.953149 -92.6592 0.0 0.0
1530.0 0.0 0.0 0.952952 -93.2688 0.952952 -93.2688 0.0 0.0
1540.0 0.0 0.0 0.952755 -93.8784 0.952755 -93.8784 0.0 0.0
1550.0 0.0 0.0 0.952559 -94.488 0.952559 -94.488 0.0 0.0
1560.0 0.0 0.0 0.952363 -95.0976 0.952363 -95.0976 0.0 0.0
1570.0 0.0 0.0 0.952167 -95.7072 0.952167 -95.7072 0.0 0.0
1580.0 0.0 0.0 0.951972 -96.3168 0.951972 -96.3168 0.0 0.0
1590.0 0.0 0.0 0.951777 -96.9264 0.951777 -96.9264 0.0 0.0
1600.0 0.0 0.0 0.951582 -97.536 0.951582 -97.536 0.0 0.0
1610.0 0.0 0.0 0.951388 -98.1456 0.951388 -98.1456 0.0 0.0
1620.0 0.0 0.0 0.951194 -98.7552 0.951194 -98.7552 0.0 0.0
1630.0 0.0 0.0 0.951001 -99.3648 0.951001 -99.3648 0.0 0.0
1640.0 0.0 0.0 0.950808 -99.9744 0.950808 -99.9744 0.0 0.0
1650.0 0.0 0.0 0.950615 -100.584 0.950615 -100.584 0.0 0.0
1660.0 0.0 0.0 0.950422 -101.1936 0.950422 -101.1936 0.0 0.0
1670.0 0.0 0.0 0.95023 -101.8032 0.95023 -101.8032 0.0 0.0
1680.0 0.0 0.0 0.950038 -102.4128 0.950038 -102.4128 0.0 0.0
1690.0 0.0 0.0 0.949847 -103.0224 0.949847 -103.0224 0.0 0.0
1700.0 0.0 0.0 0.949656 -103.632 0.949656 -103.632 0.0 0.0
1710.0 0.0 0.0 0.949465 -104.2416 0.949465 -104.2416 0.0 0.0
1720.0 0.0 0.0 0.949274 -104.8512 0.949274 -104.8512 0.0 0.0
1730.0 0.0 0.0 0.949084 -105.4608 0.949084 -105.4608 0.0 0.0
1740.0 0.0 0.0 0.948894 -106.0704 0.948894 -106.0704 0.0 0.0
1750.0 0.0 0.0 0.948705 -106.68 0.948705 -106.68 0.0 0.0
1760.0 0.0 0.0 0.948515 -107.2896 0.948515 -107.2896 0.0 0.0
1770.0 0.0 0.0 0.948326 -107.8992 0.948326 -107.8992 0.0 0.0
1780.0 0.0 0.0 0.948138 -108.5088 0.948138 -108.5088 0.0 0.0
1790.0 0.0 0.0 0.947949 -109.1184 0.947949 -109.1184 0.0 0.0
1800.0 0.0 0.0 0.947761 -109.728 0.947761 -109.728 0.0 0.0
1810.0 0.0 0.0 0.947574 -110.3376 0.947574 -110.3376 0.0 0.0
1820.0 0.0 0.0 0.947386 -110.9472 0.947386 -110.9472 0.0 0.0
1830.0 0.0 0.0 0.947199 -111.5568 0.947199 -111.5568 0.0 0.0
1840.0 0.0 0.0 0.947012 -112.1664 0.947012 -112.1664 0.0 0.0
1850.0 0.0 0.0 0.946826 -112.776 0.946826 -112.776 0.0 0.0
1860.0 0.0 0.0 0.946639 -113.3856 0.946639 -113.3856 0.0 0.0
1870.0 0.0 0.0 0.946453 -113.9952 0.946453 -113.9952 0.0 0.0
1880.0 0.0 0.0 0.946268 -114.6048 0.946268 -114.6048 0.0 0.0
1890.0 0.0 0.0 0.946082 -115.2144 0.946082 -115.2144 0.0 0.0
1900.0 0.0 0.0 0.945897 -115.824 0.945897 -115.824 0.0 0.0
1910.0 0.0 0.0 0.945712 -116.4336 0.945712 -116.4336 0.0 0.0
1920.0 0.0 0.0 0.945528 -117.0432 0.945528 -117.0432 0.0 0.0
1930.0 0.0 0.0 0.945343 -117.6528 0.945343 -117.6528 0.0 0.0
1940.0 0.0 0.0 0.945159 -118.2624 0.945159 -118.2624 0.0 0.0
1950.0 0.0 0.0 0.944976 -118.872 0.944976 -118.872 0.0 0.0
1960.0 0.0 0.0 0.944792 -119.4816 0.944792 -119.4816 0.0 0.0
1970.0 0.0 0.0 0.944609 -120.0912 0.944609 -120.0912 0.0 0.0
1980.0 0.0 0.0 0.944426 -120.7008 0.944426 -120.7008 0.0 0.0
1990.0 0.0 0.0 0.944243 -121.3104 0.944243 -121.3104 0.0 0.0
2000.0 0.0 0.0 0.944061 -121.92 0.944061 -121.92 0.0 0.0
2010.0 0.0 0.0 0.943879 -122.5296 0.943879 -122.5296 0.0 0.0
2020.0 0.0 0.0 0.943697 -123.1392 0.943697 -123.1392 0.0 0.0
2030.0 0.0 0.0 0.943515 -123.7488 0.943515 -123.7488 0.0 0.0
2040.0 0.0 0.0 0.943334 -124.3584 0.943334 -124.3584 0.0 0.0
2050.0 0.0 0.0 0.943153 -124.968 0.943153 -124.968 0.0 0.0
2060.0 0.0 0.0 0.942972 -125.5776 0.942972 -125.5776 0.0 0.0
2070.0 0.0 0.0 0.942791 -126.1872 0.942791 -126.1872 0.0 0.0
2080.0 0.0 0.0 0.942611 -126.7968 0.942611 -126.7968 0.0 0.0
2090.0 0.0 0.0 0.94243 -127.4064 0.94243 -127.4064 0.0 0.0
2100.0 0.0 0.0 0.94225 -128.016 0.94225 -128.016 0.0 0.0
2110.0 0.0 0.0 0.942071 -128.6256 0.942071 -128.6256 0.0 0.0
2120.0 0.0 0.0 0.941891 -129.2352 0.941891 -129.2352 0.0 0.0
2130.0 0.0 0.0 0.941712 -129.8448 0.941712 -129.8448 0.0 0.0
2140.0 0.0 0.0 0.941533 -130.4544 0.941533 -130.4544 0.0 0.0
2150.0 0.0 0.0 0.941354 -131.064 0.941354 -131.064 0.0 0.0
2160.0 0.0 0.0 0.941176 -131.6736 0.941176 -131.6736 0.0 0.0
2170.0 0.0 0.0 0.940998 -132.2832 0.940998 -132.2832 0.0 0.0
2180.0 0.0 0.0 0.94082 -132.8928 0.94082 -132.8928 0.0 0.0
2190.0 0.0 0.0 0.940642 -133.5024 0.940642 -133.5024 0.0 0.0
2200.0 0.0 0.0 0.940464 -134.112 0.940464 -134.112 0.0 0.0
2210.0 0.0 0.0 0.940287 -134.7216 0.940287 -134.7216 0.0 0.0
2220.0 0.0 0.0 0.94011 -135.3312 0.94011 -135.3312 0.0 0.0
2230.0 0.0 0.0 0.939933 -135.9408 0.939933 -135.9408 0.0 0.0
2240.0 0.0 0.0 0.939756 -136.5504 0.939756 -136.5504 0.0 0.0
2250.0 0.0 0.0 0.93958 -137.16 0.93958 -137.16 0.0 0.0
2260.0 0.0 0.0 0.939403 -137.7696 0.939403 -137.7696 0.0 0.0
2270.0 0.0 0.0 0.939227 -138.3792 0.939227 -138.3792 0.0 0.0
2280.0 0.0 0.0 0.939052 -138.9888 0.939052 -138.9888 0.0 0.0
2290.0 0.0 0.0 0.938876 -139.5984 0.938876 -139.5984 0.0 0.0
2300.0 0.0 0.0 0.938701 -140.208 0.938701 -140.208 0.0 0.0
2310.0 0.0 0.0 0.938525 -140.8176 0.938525 -140.8176 0.0 0.0
2320.0 0.0 0.0 0.93835 -141.4272 0.93835 -141.4272 0.0 0.0
2330.0 0.0 0.0 0.938176 -142.0368 0.938176 -142.0368 0.0 0.0
2340.0 0.0 0.0 0.938001 -142.6464 0.938001 -142.6464 0.0 0.0
2350.0 0.0 0.0 0.937827 -143.256 0.937827 -143.256 0.0 0.0
2360.0 0.0 0.0 0.937653 -143.8656 0.937653 -143.8656 0.0 0.0
2370.0 0.0 0.0 0.937479 -144.4752 0.937479 -144.4752 0.0 0.0
2380.0 0.0 0.0 0.937305 -145.0848 0.937305 -145.0848 0.0 0.0
2390.0 0.0 0.0 0.937132 -145.6944 0.937132 -145.6944 0.0 0.0
2400.0 0.0 0.0 0.936958 -146.304 0.936958 -146.304 0.0 0.0
2410.0 0.0 0.0 0.936785 -146.9136 0.936785 -146.9136 0.0 0.0
2420.0 0.0 0.0 0.936612 -147.5232 0.936612 -147.5232 0.0 0.0
2430.0 0.0 0.0 0.936439 -148.1328 0.936439 -148.1328 0.0 0.0
2440.0 0.0 0.0 0.936267 -148.7424 0.936267 -148.7424 0.0 0.0
2450.0 0.0 0.0 0.936095 -149.352 0.936095 -149.352 0.0 0.0
2460.0 0.0 0.0 0.935923 -149.9616 0.935923 -149.9616 0.0 0.0
2470.0 0.0 0.0 0.935751 -150.5712 0.935751 -150.5712 0.0 0.0
2480.0 0.0 0.0 0.935579 -151.1808 0.935579 -151.1808 0.0 0.0
2490.0 0.0 0.0 0.935407 -151.7904 0.935407 -151.7904 0.0 0.0
2500.0 0.0 0.0 0.935236 -152.4 0.935236 -152.4 0.0 0.0
2510.0 0.0 0.0 0.935065 -153.0096 0.935065 -153.0096 0.0 0.0
2520.0 0.0 0.0 0.934894 -153.6192 0.934894 -153.6192 0.0 0.0
2530.0 0.0 0.0 0.934723 -154.2288 0.934723 -154.2288 0.0 0.0
2540.0 0.0 0.0 0.934552 -154.8384 0.934552 -154.8384 0.0 0.0
2550.0 0.0 0.0 0.934382 -155.448 0.934382 -155.448 0.0 0.0
2560.0 0.0 0.0 0.934212 -156.0576 0.934212 -156.0576 0.0 0.0
2570.0 0.0 0.0 0.934042 -156.6672 0.934042 -156.6672 0.0 0.0
2580.0 0.0 0.0 0.933872 -157.2768 0.933872 -157.2768 0.0 0.0
2590.0 0.0 0.0 0.933702 -157.8864 0.933702 -157.8864 0.0 0.0
2600.0 0.0 0.0 0.933533 -158.496 0.933533 -158.496 0.0 0.0
2610.0 0.0 0.0 0.933363 -159.1056 0.933363 -159.1056 0.0 0.0
2620.0 0.0 0.0 0.933194 -159.7152 0.933194 -159.7152 0.0 0.0
2630.0 0.0 0.0 0.933025 -160.3248 0.933025 -160.3248 0.0 0.0
2640.0 0.0 0.0 0.932857 -160.9344 0.932857 -160.9344 0.0 0.0
2650.0 0.0 0.0 0.932688 -161.544 0.932688 -161.544 0.0 0.0
2660.0 0.0 0.0 0.93252 -162.1536 0.93252 -162.1536 0.0 0.0
2670.0 0.0 0.0 0.932351 -162.7632 0.932351 -162.7632 0.0 0.0
2680.0 0.0 0.0 0.932183 -163.3728 0.932183 -163.3728 0.0 0.0
2690.0 0.0 0.0 0.932015 -163.9824 0.932015 -163.9824 0.0 0.0
2700.0 0.0 0.0 0.931848 -164.592 0.931848 -164.592 0.0 0.0
2710.0 0.0 0.0 0.93168 -165.2016 0.93168 -165.2016 0.0 0.0
2720.0 0.0 0.0 0.931513 -165.8112 0.931513 -165.8112 0.0 0.0
2730.0 0.0 0.0 0.931345 -166.4208 0.931345 -166.4208 0.0 0.0
2740.0 0.0 0.0 0.931178 -167.0304 0.931178 -167.0304 0.0 0.0
2750.0 0.0 0.0 0.931011 -167.64 0.931011 -167.64 0.0 0.0
2760.0 0.0 0.0 0.930845 -168.2496 0.930845 -168.2496 0.0 0.0
2770.0 0.0 0.0 0.930678 -168.8592 0.930678 -168.8592 0.0 0.0
2780.0 0.0 0.0 0.930512 -169.4688 0.930512 -169.4688 0.0 0.0
2790.0 0.0 0.0 0.930345 -170.0784 0.930345 -170.0784 0.0 0.0
2800.0 0.0 0.0 0.930179 -170.688 0.930179 -170.688 0.0 0.0
2810.0 0.0 0.0 0.930013 -171.2976 0.930013 -171.2976 0.0 0.0
2820.0 0.0 0.0 0.929848 -171.9072 0.929848 -171.9072 0.0 0.0
2830.0 0.0 0.0 0.929682 -172.5168 0.929682 -172.5168 0.0 0.0
2840.0 0.0 0.0 0.929517 -173.1264 0.929517 -173.1264 0.0 0.0
2850.0 0.0 0.0 0.929351 -173.736 0.929351 -173.736 0.0 0.0
2860.0 0.0 0.0 0.929186 -174.3456 0.929186 -174.3456 0.0 0.0
2870.0 0.0 0.0 0.929021 -174.9552 0.929021 -174.9552 0.0 0.0
2880.0 0.0 0.0 0.928857 -175.5648 0.928857 -175.5648 0.0 0.0
2890.0 0.0 0.0 0.928692 -176.1744 0.928692 -176.1744 0.0 0.0
2900.0 0.0 0.0 0.928528 -176.784 0.928528 -176.784 0.0 0.0
2910.0 0.0 0.0 0.928363 -177.3936 0.928363 -177.3936 0.0 0.0
2920.0 0.0 0.0 0.928199 -178.0032 0.928199 -178.0032 0.0 0.0
2930.0 0.0 0.0 0.928035 -178.6128 0.928035 -178.6128 0.0 0.0
2940.0 0.0 0.0 0.927871 -179.2224 0.927871 -179.2224 0.0 0.0
2950.0 0.0 0.0 0.927707 -179.832 0.927707 -179.832 0.0 0.0
2960.0 0.0 0.0 0.927544 179.5584 0.927544 179.5584 0.0 0.0
2970.0 0.0 0.0 0.92738 178.9488 0.92738 178.9488 0.0 0.0
2980.0 0.0 0.0 0.927217 178.3392 0.927217 178.3392 0.0 0.0
2990.0 0.0 0.0 0.927054 177.7296 0.927054 177.7296 0.0 0.0
3000.0 0.0 0.0 0.926891 177.12 0.926891 177.12 0.0 0.0
3010.0 0.0 0.0 0.926728 176.5104 0.926728 176.5104 0.0 0.0
3020.0 0.0 0.0 0.926566 175.9008 0.926566 175.9008 0.0 0.0
3030.0 0.0 0.0 0.926403 175.2912 0.926403 175.2912 0.0 0.0
3040.0 0.0 0.0 0.926241 174.6816 0.926241 174.6816 0.0 0.0
3050.0 0.0 0.0 0.926079 174.072 0.926079 174.072 0.0 0.0
3060.0 0.0 0.0 0.925916 173.4624 0.925916 173.4624 0.0 0.0
3070.0 0.0 0.0 0.925755 172.8528 0.925755 172.8528 0.0 0.0
3080.0 0.0 0.0 0.925593 172.2432 0.925593 172.2432 0.0 0.0
3090.0 0.0 0.0 0.925431 171.6336 0.925431 171.6336 0.0 0.0
3100.0 0.0 0.0 0.92527 171.024 0.92527 171.024 0.0 0.0
3110.0 0.0 0.0 0.925108 170.4144 0.925108 170.4144 0.0 0.0
3120.0 0.0 0.0 0.924947 169.8048 0.924947 169.8048 0.0 0.0
3130.0 0.0 0.0 0.924786 169.1952 0.924786 169.1952 0.0 0.0
3140.0 0.0 0.0 0.924625 168.5856 0.924625 168.5856 0.0 0.0
3150.0 0.0 0.0 0.924464 167.976 0.924464 167.976 0.0 0.0
3160.0 0.0 0.0 0.924303 167.3664 0.924303 167.3664 0.0 0.0
3170.0 0.0 0.0 0.924143 166.7568 0.924143 166.7568 0.0 0.0
3180.0 0.0 0.0 0.923983 166.1472 0.923983 166.1472 0.0 0.0
3190.0 0.0 0.0 0.923822 165.5376 0.923822 165.5376 0.0 0.0
3200.0 0.0 0.0 0.923662 164.928 0.923662 164.928 0.0 0.0
3210.0 0.0 0.0 0.923502 164.3184 0.923502 164.3184 0.0 0.0
3220.0 0.0 0.0 0.923342 163.7088 0.923342 163.7088 0.0 0.0
3230.0 0.0 0.0 0.923183 163.0992 0.923183 163.0992 0.0 0.0
3240.0 0.0 0.0 0.923023 162.4896 0.923023 162.4896 0.0 0.0
3250.0 0.0 0.0 0.922864 161.88 0.922864 161.88 0.0 0.0
3260.0 0.0 0.0 0.922704 161.2704 0.922704 161.2704 0.0 0.0
3270.0 0.0 0.0 0.922545 160.6608 0.922545 160.6608 0.0 0.0
3280.0 0.0 0.0 0.922386 160.0512 0.922386 160.0512 0.0 0.0
3290.0 0.0 0.0 0.922227 159.4416 0.922227 159.4416 0.0 0.0
3300.0 0.0 0.0 0.922068 158.832 0.922068 158.832 0.0 0.0
3310.0 0.0 0.0 0.92191 158.2224 0.92191 158.2224 0.0 0.0
3320.0 0.0 0.0 0.921751 157.6128 0.921751 157.6128 0.0 0.0
3330.0 0.0 0.0 0.921593 157.0032 0.921593 157.0032 0.0 0.0
3340.0 0.0 0.0 0.921435 156.3936 0.921435 156.3936 0.0 0.0
3350.0 0.0 0.0 0.921276 155.784 0.921276 155.784 0.0 0.0
3360.0 0.0 0.0 0.921118 155.1744 0.921118 155.1744 0.0 0.0
3370.0 0.0 0.0 0.920961 154.5648 0.920961 154.5648 0.0 0.0
