! File created by SignalIntegrity v1.2.1: Signal and Power Integrity Tools
! https://github.com/TeledyneLeCroy/SignalIntegrity
# MHz S MA R 42.0
0.0 0.0 180.0 1.0 0.0 1.0 0.0 0.0 180.0
1000.0 0.0 -125.46036 1.0 -3.600002 1.0 -3.600002 0.0 -125.46036
2000.0 0.0 -129.059078 1.0 -7.200005 1.0 -7.200005 0.0 -129.059078
3000.0 0.0 -132.658657 1.0 -10.800007 1.0 -10.800007 0.0 -132.658657
4000.0 0.0 -136.258449 1.0 -14.40001 1.0 -14.40001 0.0 -136.258449
5000.0 0.0 -139.858326 1.0 -18.000012 1.0 -18.000012 0.0 -139.858326
6000.0 0.0 -143.458246 1.0 -21.600015 1.0 -21.600015 0.0 -143.458246
7000.0 0.0 -147.058189 1.0 -25.200017 1.0 -25.200017 0.0 -147.058189
8000.0 0.0 -150.658147 1.0 -28.80002 1.0 -28.80002 0.0 -150.658147
9000.0 0.0 -154.258115 1.0 -32.400022 1.0 -32.400022 0.0 -154.258115
10000.0 0.0 -157.85809 1.0 -36.000025 1.0 -36.000025 0.0 -157.85809
11000.0 1e-06 -161.45807 1.0 -39.600027 1.0 -39.600027 1e-06 -161.45807
12000.0 1e-06 -165.058054 1.0 -43.20003 1.0 -43.20003 1e-06 -165.058054
13000.0 1e-06 -168.65804 1.0 -46.800032 1.0 -46.800032 1e-06 -168.65804
14000.0 1e-06 -172.258028 1.0 -50.400035 1.0 -50.400035 1e-06 -172.258028
15000.0 1e-06 -175.858018 1.0 -54.000037 1.0 -54.000037 1e-06 -175.858018
16000.0 1e-06 -179.45801 1.0 -57.60004 1.0 -57.60004 1e-06 -179.45801
17000.0 1e-06 176.941998 1.0 -61.200042 1.0 -61.200042 1e-06 176.941998
18000.0 1e-06 173.342004 1.0 -64.800045 1.0 -64.800045 1e-06 173.342004
19000.0 1e-06 169.74201 0.999999 -68.400047 0.999999 -68.400047 1e-06 169.74201
20000.0 1e-06 166.142015 0.999999 -72.00005 0.999999 -72.00005 1e-06 166.142015
