! File created by SignalIntegrity v1.2.1: Signal and Power Integrity Tools
! https://github.com/TeledyneLeCroy/SignalIntegrity
# MHz S MA R 42.0
0.0 0.0 180.0 1.0 0.0 1.0 0.0 0.0 180.0
1000.0 0.0 180.0 1.0 -3.6 1.0 -3.6 0.0 168.009165
2000.0 0.0 165.640663 1.0 -7.2 1.0 -7.2 0.0 164.054604
3000.0 0.0 162.897271 1.0 -10.8 1.0 -10.8 0.0 149.349332
4000.0 0.0 156.501434 1.0 -14.4 1.0 -14.4 0.0 -141.340192
5000.0 0.0 0.0 1.0 -18.0 1.0 -18.0 0.0 99.462322
6000.0 0.0 180.0 1.0 -21.6 1.0 -21.6 0.0 116.565051
7000.0 0.0 180.0 1.0 -25.2 1.0 -25.2 0.0 63.434949
8000.0 0.0 120.256437 1.0 -28.8 1.0 -28.8 0.0 90.0
9000.0 0.0 57.994617 1.0 -32.4 1.0 -32.4 0.0 63.434949
10000.0 0.0 82.874984 1.0 -36.0 1.0 -36.0 0.0 99.462322
11000.0 0.0 153.434949 1.0 -39.6 1.0 -39.6 0.0 180.0
12000.0 0.0 -80.537678 1.0 -43.2 1.0 -43.2 0.0 -56.309932
13000.0 0.0 153.434949 1.0 -46.8 1.0 -46.8 0.0 161.565051
14000.0 0.0 26.565051 1.0 -50.4 1.0 -50.4 0.0 -45.0
15000.0 0.0 -161.565051 1.0 -54.0 1.0 -54.0 0.0 180.0
16000.0 0.0 116.565051 1.0 -57.6 1.0 -57.6 0.0 108.434949
17000.0 0.0 90.0 1.0 -61.2 1.0 -61.2 0.0 180.0
18000.0 0.0 90.0 1.0 -64.8 1.0 -64.8 0.0 -135.0
19000.0 0.0 -36.869898 1.0 -68.4 1.0 -68.4 0.0 7.125016
20000.0 0.0 -90.0 1.0 -72.0 1.0 -72.0 0.0 90.0
