! File created by SignalIntegrity v1.2.1: Signal and Power Integrity Tools
! https://github.com/TeledyneLeCroy/SignalIntegrity
# MHz S MA R 42.0
0.0 0.0 180.0 1.0 0.0 1.0 0.0 0.0 180.0
1000.0 0.0 -11.513831 1.0 -3.6 1.0 -3.6 0.0 -11.407162
2000.0 0.0 -5.52754 1.0 -7.2 1.0 -7.2 0.0 -10.201704
3000.0 0.0 -2.256794 1.0 -10.8 1.0 -10.8 0.0 -11.309932
4000.0 0.0 172.321036 1.0 -14.4 1.0 -14.4 0.0 110.556045
5000.0 0.0 138.366461 1.0 -18.0 1.0 -18.0 0.0 166.504267
6000.0 0.0 -19.440035 1.0 -21.6 1.0 -21.6 0.0 -24.120983
7000.0 0.0 -69.443955 1.0 -25.2 1.0 -25.2 0.0 -17.102729
8000.0 0.0 78.690068 1.0 -28.8 1.0 -28.8 0.0 -38.659808
9000.0 0.0 -20.854458 1.0 -32.4 1.0 -32.4 0.0 0.0
10000.0 0.0 135.0 1.0 -36.0 1.0 -36.0 0.0 150.255119
11000.0 0.0 -7.125016 1.0 -39.6 1.0 -39.6 0.0 -49.398705
12000.0 0.0 -141.340192 1.0 -43.2 1.0 -43.2 0.0 0.0
13000.0 0.0 -55.00798 1.0 -46.8 1.0 -46.8 0.0 -40.236358
14000.0 0.0 -12.094757 1.0 -50.4 1.0 -50.4 0.0 -85.914383
15000.0 0.0 -105.945396 1.0 -54.0 1.0 -54.0 0.0 -75.963757
16000.0 0.0 -51.340192 1.0 -57.6 1.0 -57.6 0.0 -14.036243
17000.0 0.0 140.194429 1.0 -61.2 1.0 -61.2 0.0 99.462322
18000.0 0.0 -147.994617 1.0 -64.8 1.0 -64.8 0.0 -149.743563
19000.0 0.0 -90.0 1.0 -68.4 1.0 -68.4 0.0 -7.125016
20000.0 0.0 -159.443955 1.0 -72.0 1.0 -72.0 0.0 -170.537678
