# Hz S DB R 50
!Touchstone multiport model file <C:\work\PySI\TestSignalIntegrity\OysterSimulation\ResampledSimbeor\WeinschelLoad.s1p>
!Created on 22 Aug 18, at 17:55:45.
!Created with Simbeor THz 2018.01(64bit) of Simberian Inc. built on Jul 20 2018

!Output from MultiportParameters of Simbeor.
!Multiport parameters: DataOrigin=Simulation DataOriginName="Project(1).WeinschelLoad_resampled.LNS"
!RESAMPLED_RCM: Max_RMS_Error=0.0203475; FrqLow=0; FrqHigh=4e+10; MaxTimeResolution=1.25e-11; PassivityState=1; ReciprocityState=1; DataSource="p³HÀn"
!RATIONAL COMPACTOR: Precision: Normal; Extract Delay: ON; Extrapolate to DC: ON; Extrapolate to Infinity: OFF; Enforce Passivity: ON; Enforce Reciprocity: ON; Band Limit Factor: 1; Auto-Adjust Config: OFF

!Uncomment the following lines with keywords in square brakets to support IBIS forum specification 2.0.
![Version] 2.0 !This line should be the first in file, preceeding the line starting with #.
![Number of Ports] 1
![Number of Frequencies] 8001
![Reference] 50

!!!!Multiport descriptor profile: InputCount=1 TotalPortCount=1
!DescriptorOutline={DescriptorType=SMatrix InputSpace=Terminal NormalizationType=CommonZo NormalizationCommonZo=50 Ohm OutputFormat=DBMagnitudeAngle}
!InputProfile={Name="IO1" IsTLineInput=False InputNumber=1 PortCount=1 FirstPortNumber=1 InputSpace=Terminal BlockType=SBlock NormalizationType=CommonZo Zo=50}

!!!Global port number to input_name/local_port_number correspondence:
!Port 1 -> "IO1"/local_port_1 (terminal)
!!!!End of descriptor profile.

!Frequency Hz 20.0*log(|S[1,1]|) arg(S[1,1])
 0 -44.3704008587716 180
 10000000 -44.36971099236 -179.884755224625
 20000000 -44.367642972715 -179.769934776543
 30000000 -44.364201532512 -179.655961799116
 40000000 -44.3593945392853 -179.543257074425
 50000000 -44.3532329652102 -179.432237859017
 60000000 -44.3457308451428 -179.323316739087
 70000000 -44.3369052232467 -179.216900511261
 80000000 -44.3267760886317 -179.113389094797
 90000000 -44.3153663005071 -179.013174480732
 100000000 -44.3027015034229 -178.916639723048
 110000000 -44.2888100332372 -178.824157976519
 120000000 -44.2737228145103 -178.736091585389
 130000000 -44.2574732500621 -178.652791226509
 140000000 -44.240097103472 -178.57459511005
 150000000 -44.2216323753196 -178.501828240317
 160000000 -44.202119173995 -178.434801738662
 170000000 -44.18159958189 -178.373812229934
 180000000 -44.1601175178027 -178.319141293373
 190000000 -44.1377185963589 -178.271054978329
 200000000 -44.1144499852412 -178.229803384709
 210000000 -44.0903602609876 -178.195620307598
 220000000 -44.0654992640901 -178.168722945071
 230000000 -44.0399179540823 -178.149311667847
 240000000 -44.0136682652624 -178.13756984909
 250000000 -43.9868029636535 -178.133663752377
 260000000 -43.9593755057548 -178.137742475604
 270000000 -43.9314398995835 -178.149937948398
 280000000 -43.9030505684587 -178.170364980436
 290000000 -43.8742622179316 -178.199121357985
 300000000 -43.8451297062086 -178.236287985843
 310000000 -43.8157079183775 -178.281929071883
 320000000 -43.7860516446863 -178.336092351335
 330000000 -43.756215463099 -178.398809348006
 340000000 -43.7262536262958 -178.470095669641
 350000000 -43.6962199532594 -178.549951334727
 360000000 -43.6661677255509 -178.638361128117
 370000000 -43.6361495883486 -178.73529498292
 380000000 -43.6062174562985 -178.840708386271
 390000000 -43.5764224242011 -178.954542806641
 400000000 -43.5468146825354 -179.076726140523
 410000000 -43.5174434378139 -179.207173176406
 420000000 -43.4883568377346 -179.345786074113
 430000000 -43.4596019010994 -179.492454857641
 440000000 -43.4312244524447 -179.647057919811
 450000000 -43.4032690613396 -179.809462537083
 460000000 -43.3757789862816 -179.979525393027
 470000000 -43.3487961231402 179.842906890981
 480000000 -43.3223609580705 179.657997219208
 490000000 -43.2965125248441 179.465917480429
 500000000 -43.2712883665164 179.266848003443
 510000000 -43.2467245013749 179.060977010409
 520000000 -43.2228553930924 178.848500069129
 530000000 -43.1997139250205 178.629619545377
 540000000 -43.1773313785543 178.404544056329
 550000000 -43.1557374154977 178.173487926136
 560000000 -43.1349600643575 177.936670644658
 570000000 -43.115025710498 177.694316330362
 580000000 -43.0959590900733 177.446653198372
 590000000 -43.0777832876645 177.193913034649
 600000000 -43.0605197375353 176.936330677267
 610000000 -43.0441882284232 176.674143505737
 620000000 -43.0288069117696 176.407590939321
 630000000 -43.0143923132933 176.136913945256
 640000000 -43.0009593478054 175.862354557801
 650000000 -42.988521337152 175.584155408974
 660000000 -42.9770900311705 175.302559271851
 670000000 -42.966675631537 175.017808617242
 680000000 -42.9572868183716 174.730145184521
 690000000 -42.9489307794671 174.439809567384
 700000000 -42.9416132419987 174.147040815201
 710000000 -42.9353385065633 173.852076050635
 720000000 -42.9301094833951 173.555150104109
 730000000 -42.9259277305969 173.256495165664
 740000000 -42.9227934942241 172.956340454663
 750000000 -42.920705750051 172.654911907761
 760000000 -42.9196622468508 172.35243188546
 770000000 -42.9196595510136 172.04911889752
 780000000 -42.9206930923327 171.745187347406
 790000000 -42.922757210777 171.440847295896
 800000000 -42.9258452040839 171.136304243872
 810000000 -42.9299493759942 170.831758934278
 820000000 -42.9350610849613 170.527407173128
 830000000 -42.9411707931679 170.223439669381
 840000000 -42.9482681156867 169.920041893451
 850000000 -42.95634186963 169.617393954023
 860000000 -42.9653801231304 169.31567049282
 870000000 -42.9753702440156 169.015040596861
 880000000 -42.9862989480307 168.715667727751
 890000000 -42.9981523464818 168.41770966745
 900000000 -43.0109159931753 168.121318479942
 910000000 -43.0245749305398 167.826640488189
 920000000 -43.0391137348221 167.533816265706
 930000000 -43.0545165602646 167.242980642071
 940000000 -43.0707671821676 166.954262721683
 950000000 -43.0878490387666 166.667785914997
 960000000 -43.1057452718472 166.383667981539
 970000000 -43.124438766039 166.102021083912
 980000000 -43.1439121867372 165.822951852057
 990000000 -43.1641480166032 165.546561457009
 1000000000 -43.185128590616 165.27294569338
 1010000000 -43.2068361296384 165.002195069846
 1020000000 -43.2292527724848 164.734394906885
 1030000000 -43.2523606064739 164.469625441052
 1040000000 -43.2761416964644 164.207961935095
 1050000000 -43.3005781123694 163.94947479322
 1060000000 -43.3256519551634 163.694229680848
 1070000000 -43.351345381387 163.442287648237
 1080000000 -43.3776406261733 163.193705257347
 1090000000 -43.4045200248159 162.948534711379
 1100000000 -43.4319660329045 162.70682398642
 1110000000 -43.4599612450598 162.46861696469
 1120000000 -43.4884884123037 162.233953568876
 1130000000 -43.5175304580963 162.002869897109
 1140000000 -43.5470704930863 161.77539835813
 1150000000 -43.5770918286084 161.551567806265
 1160000000 -43.6075779889808 161.331403675812
 1170000000 -43.6385127226376 161.114928114512
 1180000000 -43.6698800121493 160.902160115785
 1190000000 -43.701664083174 160.693115649436
 1200000000 -43.7338494123904 160.48780779058
 1210000000 -43.7664207344546 160.286246846542
 1220000000 -43.7993630480347 160.088440481533
 1230000000 -43.832661620962 159.894393838909
 1240000000 -43.8663019945562 159.704109660849
 1250000000 -43.9002699871591 159.517588405322
 1260000000 -43.934551696932 159.334828360203
 1270000000 -43.9691335039547 159.15582575446
 1280000000 -44.0040020716722 158.98057486631
 1290000000 -44.0391443477303 158.809068128293
 1300000000 -44.0745475642429 158.641296229194
 1310000000 -44.1101992375271 158.4772482128
 1320000000 -44.1460871673484 158.316911573452
 1330000000 -44.1821994357084 158.160272348395
 1340000000 -44.2185244052161 158.007315206915
 1350000000 -44.2550507170712 157.858023536277
 1360000000 -44.2917672886936 157.712379524509
 1370000000 -44.3286633110329 157.570364240011
 1380000000 -44.3657282455838 157.43195770808
 1390000000 -44.4029518211356 157.297138984367
 1400000000 -44.4403240302868 157.165886225306
 1410000000 -44.4778351257414 157.038176755603
 1420000000 -44.515475616422 156.913987132811
 1430000000 -44.5532362634108 156.793293209078
 1440000000 -44.5911080757478 156.67607019012
 1450000000 -44.629082306102 156.562292691491
 1460000000 -44.6671504463352 156.451934792234
 1470000000 -44.7053042229745 156.344970085974
 1480000000 -44.7435355926133 156.241371729517
 1490000000 -44.7818367372512 156.141112489067
 1500000000 -44.8202000595884 156.0441647841
 1510000000 -44.8586181782929 155.950500728981
 1520000000 -44.8970839232404 155.860092172422
 1530000000 -44.9355903307522 155.772910734827
 1540000000 -44.9741306388308 155.688927843617
 1550000000 -45.0126982824064 155.608114766605
 1560000000 -45.0512868886056 155.530442643495
 1570000000 -45.0898902720432 155.455882515582
 1580000000 -45.1285024301517 155.384405353712
 1590000000 -45.1671175385502 155.315982084587
 1600000000 -45.2057299464602 155.250583615477
 1610000000 -45.2443341721736 155.1881808574
 1620000000 -45.2829248985763 155.128744746849
 1630000000 -45.3214969687348 155.072246266112
 1640000000 -45.360045381544 155.01865646227
 1650000000 -45.398565287447 154.967946464902
 1660000000 -45.4370519842218 154.920087502592
 1670000000 -45.4755009128426 154.875050918259
 1680000000 -45.5139076534164 154.832808183392
 1690000000 -45.5522679211964 154.793330911224
 1700000000 -45.5905775626733 154.756590868907
 1710000000 -45.6288325517452 154.72255998874
 1720000000 -45.6670289859712 154.691210378474
 1730000000 -45.7051630829018 154.662514330775
 1740000000 -45.743231176492 154.636444331862
 1750000000 -45.7812297135987 154.612973069367
 1760000000 -45.8191552505555 154.592073439468
 1770000000 -45.8570044498313 154.573718553327
 1780000000 -45.8947740767694 154.557881742863
 1790000000 -45.9324609964079 154.544536565911
 1800000000 -45.9700621703796 154.533656810787
 1810000000 -46.0075746538905 154.525216500301
 1820000000 -46.0449955927794 154.519189895245
 1830000000 -46.0823222206515 154.515551497391
 1840000000 -46.1195518560927 154.514276052013
 1850000000 -46.1566818999566 154.515338549986
 1860000000 -46.1937098327277 154.518714229457
 1870000000 -46.230633211957 154.524378577142
 1880000000 -46.2674496697708 154.532307329253
 1890000000 -46.3041569104505 154.542476472081
 1900000000 -46.3407527080801 154.554862242269
 1910000000 -46.3772349042656 154.569441126778
 1920000000 -46.4136014059181 154.586189862572
 1930000000 -46.4498501831044 154.605085436053
 1940000000 -46.485979266963 154.626105082235
 1950000000 -46.5219867476787 154.649226283713
 1960000000 -46.5578707725255 154.674426769399
 1970000000 -46.5936295439631 154.701684513078
 1980000000 -46.6292613177972 154.730977731771
 1990000000 -46.6647644013943 154.762284883944
 2000000000 -46.7001371519544 154.795584667546
 2010000000 -46.7353779748379 154.830856017913
 2020000000 -46.7704853219458 154.86807810554
 2030000000 -46.8054576901509 154.907230333735
 2040000000 -46.8402936197845 154.948292336146
 2050000000 -46.8749916931653 154.991243974217
 2060000000 -46.9095505331832 155.036065334526
 2070000000 -46.9439688019266 155.082736726054
 2080000000 -46.9782451993562 155.131238677374
 2090000000 -47.012378462023 155.181551933783
 2100000000 -47.0463673618319 155.233657454359
 2110000000 -47.0802107048427 155.287536408988
 2120000000 -47.1139073301185 155.343170175316
 2130000000 -47.1474561086083 155.400540335694
 2140000000 -47.180855942071 155.459628674066
 2150000000 -47.2141057620376 155.52041717284
 2160000000 -47.2472045288097 155.582888009726
 2170000000 -47.2801512304907 155.647023554577
 2180000000 -47.312944882057 155.712806366191
 2190000000 -47.345584524459 155.780219189116
 2200000000 -47.378069223754 155.849244950458
 2210000000 -47.4103980702757 155.919866756671
 2220000000 -47.4425701778277 155.992067890361
 2230000000 -47.4745846829127 156.065831807092
 2240000000 -47.5064407439886 156.141142132198
 2250000000 -47.5381375407506 156.217982657613
 2260000000 -47.5696742734445 156.29633733871
 2270000000 -47.6010501622035 156.376190291158
 2280000000 -47.632264446413 156.457525787799
 2290000000 -47.663316384098 156.540328255544
 2300000000 -47.6942052513349 156.624582272305
 2310000000 -47.7249303416908 156.710272563928
 2320000000 -47.7554909656802 156.797384001175
 2330000000 -47.7858864502456 156.885901596729
 2340000000 -47.8161161382614 156.975810502227
 2350000000 -47.8461793880559 157.067096005323
 2360000000 -47.8760755729554 157.159743526792
 2370000000 -47.9058040808453 157.253738617661
 2380000000 -47.9353643137535 157.349066956378
 2390000000 -47.9647556874497 157.445714346019
 2400000000 -47.9939776310603 157.543666711537
 2410000000 -48.0230295867065 157.642910097034
 2420000000 -48.0519110091549 157.743430663089
 2430000000 -48.0806213654821 157.845214684121
 2440000000 -48.1091601347596 157.948248545788
 2450000000 -48.137526807753 158.052518742428
 2460000000 -48.1657208866301 158.158011874554
 2470000000 -48.1937418846928 158.264714646369
 2480000000 -48.2215893261124 158.372613863346
 2490000000 -48.2492627456857 158.481696429838
 2500000000 -48.2767616886006 158.591949346733
 2510000000 -48.3040857102135 158.703359709157
 2520000000 -48.3312343758418 158.815914704215
 2530000000 -48.3582072605636 158.929601608781
 2540000000 -48.3850039490295 159.044407787339
 2550000000 -48.4116240352913 159.160320689841
 2560000000 -48.4380671226297 159.277327849647
 2570000000 -48.4643328234045 159.395416881478
 2580000000 -48.490420758902 159.514575479438
 2590000000 -48.5163305592035 159.634791415057
 2600000000 -48.5420618630538 159.7560525354
 2610000000 -48.5676143177434 159.878346761206
 2620000000 -48.5929875789962 160.00166208508
 2630000000 -48.618181310868 160.12598656972
 2640000000 -48.6431951856493 160.251308346201
 2650000000 -48.6680288837804 160.377615612288
 2660000000 -48.6926820937648 160.504896630812
 2670000000 -48.7171545121036 160.633139728061
 2680000000 -48.7414458432202 160.762333292251
 2690000000 -48.7655557994035 160.89246577201
 2700000000 -48.7894841007524 161.023525674915
 2710000000 -48.8132304751256 161.15550156608
 2720000000 -48.8367946580998 161.288382066773
 2730000000 -48.8601763929283 161.422155853085
 2740000000 -48.8833754305107 161.556811654639
 2750000000 -48.9063915293628 161.692338253335
 2760000000 -48.9292244555945 161.828724482139
 2770000000 -48.9518739828861 161.965959223927
 2780000000 -48.9743398924801 162.104031410341
 2790000000 -48.9966219731624 162.242930020713
 2800000000 -49.0187200212616 162.382644081009
 2810000000 -49.0406338406394 162.523162662831
 2820000000 -49.0623632426934 162.66447488244
 2830000000 -49.0839080463591 162.80656989983
 2840000000 -49.1052680781149 162.949436917835
 2850000000 -49.1264431719913 163.093065181278
 2860000000 -49.1474331695811 163.237443976151
 2870000000 -49.1682379200533 163.382562628843
 2880000000 -49.1888572801695 163.528410505391
 2890000000 -49.209291114302 163.674977010777
 2900000000 -49.2295392944508 163.822251588264
 2910000000 -49.2496017002698 163.970223718753
 2920000000 -49.2694782190875 164.118882920187
 2930000000 -49.2891687459312 164.268218746991
 2940000000 -49.3086731835557 164.418220789533
 2950000000 -49.3279914424681 164.568878673634
 2960000000 -49.3471234409579 164.720182060101
 2970000000 -49.3660691051267 164.872120644291
 2980000000 -49.384828368916 165.024684155723
 2990000000 -49.4034011741412 165.177862357696
 3000000000 -49.4217874705215 165.331645046961
 3010000000 -49.4399872157097 165.486022053416
 3020000000 -49.4580003753281 165.64098323982
 3030000000 -49.4758269229991 165.796518501554
 3040000000 -49.4934668403762 165.952617766403
 3050000000 -49.5109201171778 166.10927099436
 3060000000 -49.5281867512188 166.266468177473
 3070000000 -49.5452667484416 166.424199339703
 3080000000 -49.5621601229512 166.582454536816
 3090000000 -49.5788668970402 166.741223856309
 3100000000 -49.5953871012241 166.900497417347
 3110000000 -49.6117207742691 167.060265370734
 3120000000 -49.6278679632205 167.220517898908
 3130000000 -49.6438287234328 167.381245215957
 3140000000 -49.6596031185952 167.542437567657
 3150000000 -49.6751912207583 167.704085231543
 3160000000 -49.6905931103593 167.866178516989
 3170000000 -49.7058088762457 168.028707765315
 3180000000 -49.7208386156979 168.191663349919
 3190000000 -49.735682434452 168.355035676423
 3200000000 -49.7503404467169 168.518815182844
 3210000000 -49.7648127751964 168.682992339777
 3220000000 -49.7790995511027 168.847557650607
 3230000000 -49.793200914173 169.012501651735
 3240000000 -49.8071170126859 169.177814912811
 3250000000 -49.82084800347 169.343488036999
 3260000000 -49.8343940519158 169.509511661255
 3270000000 -49.8477553319836 169.675876456611
 3280000000 -49.860932026211 169.842573128487
 3290000000 -49.8739243257179 170.009592417006
 3300000000 -49.8867324302077 170.176925097333
 3310000000 -49.899356547971 170.344561980018
 3320000000 -49.9117968958808 170.512493911361
 3330000000 -49.9240536993936 170.680711773779
 3340000000 -49.9361271925404 170.849206486196
 3350000000 -49.9480176179228 171.017969004431
 3360000000 -49.9597252266986 171.186990321609
 3370000000 -49.9712502785766 171.35626146857
 3380000000 -49.9825930417978 171.525773514299
 3390000000 -49.9937537931215 171.695517566354
 3400000000 -50.0047328178063 171.865484771307
 3410000000 -50.0155304095899 172.035666315194
 3420000000 -50.0261468706657 172.206053423969
 3430000000 -50.0365825116599 172.376637363962
 3440000000 -50.0468376516016 172.547409442352
 3450000000 -50.0569126178932 172.718361007634
 3460000000 -50.066807746282 172.889483450095
 3470000000 -50.0765233808216 173.060768202299
 3480000000 -50.0860598738371 173.232206739569
 3490000000 -50.0954175858886 173.403790580472
 3500000000 -50.1045968857253 173.575511287314
 3510000000 -50.1135981502472 173.747360466626
 3520000000 -50.1224217644554 173.919329769661
 3530000000 -50.1310681214074 174.091410892886
 3540000000 -50.1395376221634 174.263595578478
 3550000000 -50.1478306757378 174.435875614819
 3560000000 -50.1559476990416 174.608242836985
 3570000000 -50.1638891168257 174.780689127248
 3580000000 -50.1716553616234 174.953206415557
 3590000000 -50.1792468736884 175.125786680035
 3600000000 -50.1866641009312 175.298421947464
 3610000000 -50.1939074988509 175.471104293767
 3620000000 -50.2009775304739 175.643825844492
 3630000000 -50.2078746662776 175.816578775288
 3640000000 -50.2145993841217 175.989355312376
 3650000000 -50.2211521691741 176.162147733022
 3660000000 -50.227533513834 176.334948365996
 3670000000 -50.2337439176556 176.507749592032
 3680000000 -50.2397838872658 176.680543844281
 3690000000 -50.2456539362855 176.853323608757
 3700000000 -50.2513545852442 177.026081424777
 3710000000 -50.2568863614936 177.198809885393
 3720000000 -50.2622497991226 177.37150163782
 3730000000 -50.2674454388671 177.544149383851
 3740000000 -50.2724738280194 177.716745880271
 3750000000 -50.2773355203354 177.889283939261
 3760000000 -50.2820310759426 178.061756428784
 3770000000 -50.2865610612403 178.23415627298
 3780000000 -50.2909260488072 178.406476452536
 3790000000 -50.2951266172986 178.578710005058
 3800000000 -50.2991633513495 178.750850025421
 3810000000 -50.3030368414708 178.922889666127
 3820000000 -50.306747683946 179.094822137633
 3830000000 -50.3102964807301 179.266640708686
 3840000000 -50.31368383934 179.438338706635
 3850000000 -50.3169103727491 179.609909517743
 3860000000 -50.3199766992819 179.781346587474
 3870000000 -50.3228834424985 179.952643420788
 3880000000 -50.3256312310923 -179.876206417595
 3890000000 -50.328220698771 -179.705209302926
 3900000000 -50.3306524841498 -179.534371550181
 3910000000 -50.3329272306362 -179.363699413821
 3920000000 -50.3350455863133 -179.193199087563
 3930000000 -50.3370082038296 -179.022876704167
 3940000000 -50.3388157402785 -178.852738335235
