! File created by SignalIntegrity v1.3.5: Signal and Power Integrity Tools
! https://github.com/TeledyneLeCroy/SignalIntegrity
# MHz S MA R 39.1
0.0 0.0 180.0 1.0 0.0 1.0 0.0 0.0 180.0
10.0 0.0 -0.824569 0.997904 -0.387445 0.997904 -0.387445 0.0 -0.475257
20.0 0.0 -2.589096 0.997027 -0.704169 0.997027 -0.704169 0.0 -1.547287
30.0 0.0 -26.775475 0.99635 -1.00907 0.99635 -1.00907 0.0 -178.274502
40.0 0.0 0.0 0.995777 -1.307807 0.995777 -1.307807 0.0 -1.67545
50.0 0.0 -178.799085 0.995271 -1.602582 0.995271 -1.602582 0.0 178.687486
60.0 0.0 -2.323981 0.994812 -1.894529 0.994812 -1.894529 0.0 0.0
70.0 0.0 -3.471509 0.994388 -2.184323 0.994388 -2.184323 0.0 -9.462322
80.0 0.0 -1.954937 0.993993 -2.472406 0.993993 -2.472406 0.0 2.385944
90.0 0.0 -6.645278 0.993621 -2.759086 0.993621 -2.759086 0.0 16.220194
100.0 0.0 -164.320476 0.993268 -3.044586 0.993268 -3.044586 0.0 180.0
110.0 0.0 0.0 0.992932 -3.329078 0.992932 -3.329078 0.0 0.0
120.0 0.0 -7.001268 0.99261 -3.612692 0.99261 -3.612692 0.0 -8.275893
130.0 0.0 97.125016 0.9923 -3.895535 0.9923 -3.895535 0.0 0.0
140.0 0.0 -113.629378 0.992002 -4.177691 0.992002 -4.177691 0.0 -9.334998
150.0 0.0 0.0 0.991714 -4.459232 0.991714 -4.459232 0.0 7.954886
160.0 0.0 19.179008 0.991434 -4.740217 0.991434 -4.740217 0.0 153.434949
170.0 0.0 -9.865807 0.991163 -5.020696 0.991163 -5.020696 0.0 -13.147242
180.0 0.0 -33.690068 0.990899 -5.300711 0.990899 -5.300711 0.0 -22.833654
190.0 0.0 180.0 0.990642 -5.580301 0.990642 -5.580301 0.0 -19.983107
200.0 0.0 -3.548682 0.990392 -5.859497 0.990392 -5.859497 0.0 69.443955
210.0 0.0 173.480198 0.990147 -6.138327 0.990147 -6.138327 0.0 175.914383
220.0 0.0 90.0 0.989907 -6.416817 0.989907 -6.416817 0.0 169.215702
230.0 0.0 176.987212 0.989673 -6.694989 0.989673 -6.694989 0.0 176.967297
240.0 0.0 -27.552812 0.989443 -6.972863 0.989443 -6.972863 0.0 -21.317912
250.0 0.0 -23.962489 0.989218 -7.250457 0.989218 -7.250457 0.0 174.559668
260.0 0.0 -8.275893 0.988997 -7.527787 0.988997 -7.527787 0.0 79.380345
270.0 0.0 -116.565051 0.98878 -7.804868 0.98878 -7.804868 0.0 163.201628
280.0 0.0 -79.380345 0.988566 -8.081712 0.988566 -8.081712 0.0 -66.370622
290.0 0.0 -22.833654 0.988357 -8.358332 0.988357 -8.358332 0.0 153.434949
300.0 0.0 0.0 0.98815 -8.63474 0.98815 -8.63474 0.0 110.556045
310.0 0.0 -19.844628 0.987947 -8.910944 0.987947 -8.910944 0.0 -19.573126
320.0 0.0 -4.864514 0.987746 -9.186956 0.987746 -9.186956 0.0 0.0
330.0 0.0 -28.886582 0.987549 -9.462783 0.987549 -9.462783 0.0 -28.072487
340.0 0.0 112.619865 0.987354 -9.738433 0.987354 -9.738433 0.0 -4.441241
350.0 0.0 22.479434 0.987162 -10.013914 0.987162 -10.013914 0.0 9.272602
360.0 0.0 -19.983107 0.986972 -10.289233 0.986972 -10.289233 0.0 -17.102729
370.0 0.0 -48.814075 0.986785 -10.564396 0.986785 -10.564396 0.0 -93.576334
380.0 0.0 180.0 0.9866 -10.83941 0.9866 -10.83941 0.0 172.146687
390.0 0.0 -14.32272 0.986418 -11.114279 0.986418 -11.114279 0.0 -21.801409
400.0 0.0 -17.102729 0.986237 -11.38901 0.986237 -11.38901 0.0 -14.036243
410.0 0.0 -126.869898 0.986059 -11.663607 0.986059 -11.663607 0.0 -168.690068
420.0 0.0 28.61046 0.985882 -11.938075 0.985882 -11.938075 0.0 0.0
430.0 0.0 -35.217593 0.985708 -12.212419 0.985708 -12.212419 0.0 -36.027373
440.0 0.0 0.0 0.985535 -12.486641 0.985535 -12.486641 0.0 -38.659808
450.0 0.0 75.963757 0.985364 -12.760748 0.985364 -12.760748 0.0 180.0
460.0 0.0 165.749967 0.985195 -13.034741 0.985195 -13.034741 0.0 165.302681
470.0 0.0 -45.90938 0.985027 -13.308625 0.985027 -13.308625 0.0 -139.398705
480.0 0.0 -20.323137 0.984861 -13.582402 0.984861 -13.582402 0.0 -22.087172
490.0 0.0 167.471192 0.984697 -13.856077 0.984697 -13.856077 0.0 180.0
500.0 0.0 -15.945396 0.984534 -14.129652 0.984534 -14.129652 0.0 -6.170175
510.0 0.0 -51.632515 0.984373 -14.40313 0.984373 -14.40313 0.0 -126.869898
520.0 0.0 -18.434949 0.984213 -14.676514 0.984213 -14.676514 0.0 -18.434949
530.0 0.0 -19.746837 0.984055 -14.949806 0.984055 -14.949806 0.0 -20.224859
540.0 0.0 158.198591 0.983898 -15.223008 0.983898 -15.223008 0.0 172.874984
550.0 0.0 -156.037511 0.983742 -15.496124 0.983742 -15.496124 0.0 -168.690068
560.0 0.0 -35.217593 0.983587 -15.769155 0.983587 -15.769155 0.0 -116.565051
570.0 0.0 180.0 0.983434 -16.042103 0.983434 -16.042103 0.0 63.434949
580.0 0.0 -63.434949 0.983282 -16.314971 0.983282 -16.314971 0.0 165.963757
590.0 0.0 -11.888658 0.983131 -16.587761 0.983131 -16.587761 0.0 18.434949
600.0 0.0 -80.537678 0.982981 -16.860474 0.982981 -16.860474 0.0 -39.805571
610.0 0.0 -17.102729 0.982832 -17.133112 0.982832 -17.133112 0.0 -45.0
620.0 0.0 116.565051 0.982685 -17.405677 0.982685 -17.405677 0.0 0.0
630.0 0.0 -112.619865 0.982538 -17.678171 0.982538 -17.678171 0.0 -162.897271
640.0 0.0 168.690068 0.982393 -17.950596 0.982393 -17.950596 0.0 -110.556045
650.0 0.0 -32.619243 0.982249 -18.222952 0.982249 -18.222952 0.0 -19.440035
660.0 0.0 180.0 0.982105 -18.495241 0.982105 -18.495241 0.0 180.0
670.0 0.0 180.0 0.981963 -18.767465 0.981963 -18.767465 0.0 180.0
680.0 0.0 75.963757 0.981821 -19.039625 0.981821 -19.039625 0.0 180.0
690.0 0.0 -26.565051 0.981681 -19.311723 0.981681 -19.311723 0.0 -20.556045
700.0 0.0 -75.963757 0.981541 -19.58376 0.981541 -19.58376 0.0 -90.0
710.0 0.0 -29.744881 0.981402 -19.855736 0.981402 -19.855736 0.0 -17.102729
720.0 0.0 -69.443955 0.981264 -20.127654 0.981264 -20.127654 0.0 -122.005383
730.0 0.0 153.434949 0.981127 -20.399514 0.981127 -20.399514 0.0 150.255119
740.0 0.0 0.0 0.980991 -20.671318 0.980991 -20.671318 0.0 90.0
750.0 0.0 123.690068 0.980856 -20.943066 0.980856 -20.943066 0.0 0.0
760.0 0.0 -90.0 0.980721 -21.214759 0.980721 -21.214759 0.0 -51.340192
770.0 0.0 -104.036243 0.980588 -21.4864 0.980588 -21.4864 0.0 -90.0
780.0 0.0 -126.869898 0.980455 -21.757988 0.980455 -21.757988 0.0 -104.036243
790.0 0.0 110.556045 0.980322 -22.029524 0.980322 -22.029524 0.0 116.565051
800.0 0.0 -122.005383 0.980191 -22.301011 0.980191 -22.301011 0.0 -160.016893
810.0 0.0 108.434949 0.98006 -22.572447 0.98006 -22.572447 0.0 116.565051
820.0 0.0 -11.309932 0.97993 -22.843835 0.97993 -22.843835 0.0 -28.61046
830.0 0.0 153.434949 0.979801 -23.115174 0.979801 -23.115174 0.0 75.963757
840.0 0.0 -167.471192 0.979672 -23.386467 0.979672 -23.386467 0.0 165.963757
850.0 0.0 -57.994617 0.979544 -23.657714 0.979544 -23.657714 0.0 -45.0
860.0 0.0 -21.801409 0.979417 -23.928914 0.979417 -23.928914 0.0 -21.801409
870.0 0.0 -35.537678 0.97929 -24.200071 0.97929 -24.200071 0.0 -31.607502
880.0 0.0 45.0 0.979164 -24.471183 0.979164 -24.471183 0.0 15.945396
890.0 0.0 -45.0 0.979039 -24.742251 0.979039 -24.742251 0.0 -38.659808
900.0 0.0 -50.906141 0.978914 -25.013277 0.978914 -25.013277 0.0 -15.945396
910.0 0.0 180.0 0.97879 -25.284261 0.97879 -25.284261 0.0 180.0
920.0 0.0 -135.0 0.978666 -25.555204 0.978666 -25.555204 0.0 135.0
930.0 0.0 -47.121096 0.978543 -25.826106 0.978543 -25.826106 0.0 -43.025066
940.0 0.0 -36.869898 0.978421 -26.096968 0.978421 -26.096968 0.0 -36.869898
950.0 0.0 153.434949 0.978299 -26.36779 0.978299 -26.36779 0.0 146.309932
960.0 0.0 -29.744881 0.978178 -26.638574 0.978178 -26.638574 0.0 -14.931417
970.0 0.0 -39.805571 0.978057 -26.909319 0.978057 -26.909319 0.0 -53.130102
980.0 0.0 -38.659808 0.977937 -27.180027 0.977937 -27.180027 0.0 -63.434949
990.0 0.0 180.0 0.977817 -27.450697 0.977817 -27.450697 0.0 161.565051
1000.0 0.0 -66.037511 0.977698 -27.721331 0.977698 -27.721331 0.0 -66.801409
1010.0 0.0 -63.434949 0.97758 -27.991928 0.97758 -27.991928 0.0 -116.565051
1020.0 0.0 -7.125016 0.977462 -28.26249 0.977462 -28.26249 0.0 10.304846
1030.0 0.0 180.0 0.977344 -28.533016 0.977344 -28.533016 0.0 180.0
1040.0 0.0 -69.443955 0.977227 -28.803508 0.977227 -28.803508 0.0 -26.565051
1050.0 0.0 -75.963757 0.977111 -29.073966 0.977111 -29.073966 0.0 -116.565051
1060.0 0.0 -63.434949 0.976995 -29.34439 0.976995 -29.34439 0.0 -75.963757
1070.0 0.0 -135.0 0.976879 -29.61478 0.976879 -29.61478 0.0 135.0
1080.0 0.0 -90.0 0.976764 -29.885138 0.976764 -29.885138 0.0 158.198591
1090.0 0.0 -45.0 0.97665 -30.155463 0.97665 -30.155463 0.0 -63.434949
1100.0 0.0 110.556045 0.976535 -30.425756 0.976535 -30.425756 0.0 63.434949
1110.0 0.0 -69.443955 0.976422 -30.696018 0.976422 -30.696018 0.0 -53.130102
1120.0 0.0 -45.0 0.976309 -30.966248 0.976309 -30.966248 0.0 0.0
1130.0 0.0 0.0 0.976196 -31.236447 0.976196 -31.236447 0.0 153.434949
1140.0 0.0 -53.130102 0.976083 -31.506616 0.976083 -31.506616 0.0 -63.434949
1150.0 0.0 -9.462322 0.975971 -31.776755 0.975971 -31.776755 0.0 -40.601295
1160.0 0.0 0.0 0.97586 -32.046865 0.97586 -32.046865 0.0 45.0
1170.0 0.0 -90.0 0.975749 -32.316944 0.975749 -32.316944 0.0 -45.0
1180.0 0.0 -26.565051 0.975638 -32.586995 0.975638 -32.586995 0.0 -50.194429
1190.0 0.0 -90.0 0.975528 -32.857018 0.975528 -32.857018 0.0 -63.434949
1200.0 0.0 -161.565051 0.975418 -33.127012 0.975418 -33.127012 0.0 180.0
1210.0 0.0 153.434949 0.975308 -33.396978 0.975308 -33.396978 0.0 -90.0
1220.0 0.0 -56.309932 0.975199 -33.666916 0.975199 -33.666916 0.0 -26.565051
1230.0 0.0 0.0 0.975091 -33.936827 0.975091 -33.936827 0.0 180.0
1240.0 0.0 -11.309932 0.974982 -34.206711 0.974982 -34.206711 0.0 -9.462322
1250.0 0.0 11.309932 0.974874 -34.476568 0.974874 -34.476568 0.0 56.309932
1260.0 0.0 180.0 0.974767 -34.746399 0.974767 -34.746399 0.0 120.963757
1270.0 0.0 -129.805571 0.97466 -35.016203 0.97466 -35.016203 0.0 -164.054604
1280.0 0.0 116.565051 0.974553 -35.285982 0.974553 -35.285982 0.0 104.036243
1290.0 0.0 -123.690068 0.974446 -35.555735 0.974446 -35.555735 0.0 -135.0
1300.0 0.0 180.0 0.97434 -35.825463 0.97434 -35.825463 0.0 123.690068
1310.0 0.0 0.0 0.974235 -36.095166 0.974235 -36.095166 0.0 -63.434949
1320.0 0.0 -99.462322 0.974129 -36.364845 0.974129 -36.364845 0.0 -81.869898
1330.0 0.0 0.0 0.974024 -36.634498 0.974024 -36.634498 0.0 0.0
1340.0 0.0 60.255119 0.973919 -36.904128 0.973919 -36.904128 0.0 26.565051
1350.0 0.0 -56.309932 0.973815 -37.173734 0.973815 -37.173734 0.0 -26.565051
1360.0 0.0 -90.0 0.973711 -37.443315 0.973711 -37.443315 0.0 -104.036243
1370.0 0.0 -104.036243 0.973607 -37.712874 0.973607 -37.712874 0.0 -71.565051
1380.0 0.0 -90.0 0.973504 -37.982409 0.973504 -37.982409 0.0 -108.434949
1390.0 0.0 -45.0 0.973401 -38.251921 0.973401 -38.251921 0.0 -63.434949
1400.0 0.0 -33.690068 0.973298 -38.52141 0.973298 -38.52141 0.0 -45.0
1410.0 0.0 -69.443955 0.973196 -38.790877 0.973196 -38.790877 0.0 -63.434949
1420.0 0.0 123.690068 0.973094 -39.060322 0.973094 -39.060322 0.0 -71.565051
1430.0 0.0 -149.036243 0.972992 -39.329744 0.972992 -39.329744 0.0 -146.309932
1440.0 0.0 45.0 0.97289 -39.599145 0.97289 -39.599145 0.0 18.434949
1450.0 0.0 -45.0 0.972789 -39.868523 0.972789 -39.868523 0.0 -33.690068
1460.0 0.0 -26.565051 0.972688 -40.137881 0.972688 -40.137881 0.0 -26.565051
1470.0 0.0 -63.434949 0.972588 -40.407217 0.972588 -40.407217 0.0 -90.0
1480.0 0.0 -104.036243 0.972487 -40.676532 0.972487 -40.676532 0.0 -161.565051
1490.0 0.0 38.659808 0.972387 -40.945826 0.972387 -40.945826 0.0 -21.801409
1500.0 0.0 -161.565051 0.972288 -41.2151 0.972288 -41.2151 0.0 -120.963757
1510.0 0.0 -26.565051 0.972188 -41.484353 0.972188 -41.484353 0.0 0.0
1520.0 0.0 -18.434949 0.972089 -41.753586 0.972089 -41.753586 0.0 0.0
1530.0 0.0 135.0 0.97199 -42.022798 0.97199 -42.022798 0.0 116.565051
1540.0 0.0 -75.963757 0.971892 -42.291991 0.971892 -42.291991 0.0 -116.565051
1550.0 0.0 135.0 0.971793 -42.561164 0.971793 -42.561164 0.0 90.0
1560.0 0.0 -36.869898 0.971695 -42.830318 0.971695 -42.830318 0.0 -26.565051
1570.0 0.0 -90.0 0.971598 -43.099452 0.971598 -43.099452 0.0 -116.565051
1580.0 0.0 26.565051 0.9715 -43.368567 0.9715 -43.368567 0.0 -38.659808
1590.0 0.0 -54.462322 0.971403 -43.637663 0.971403 -43.637663 0.0 -60.255119
1600.0 0.0 -80.537678 0.971306 -43.90674 0.971306 -43.90674 0.0 -108.434949
1610.0 0.0 -75.963757 0.971209 -44.175798 0.971209 -44.175798 0.0 -75.963757
1620.0 0.0 0.0 0.971113 -44.444838 0.971113 -44.444838 0.0 45.0
1630.0 0.0 -56.309932 0.971016 -44.713859 0.971016 -44.713859 0.0 18.434949
1640.0 0.0 -146.309932 0.970921 -44.982862 0.970921 -44.982862 0.0 165.963757
1650.0 0.0 -38.659808 0.970825 -45.251847 0.970825 -45.251847 0.0 -36.869898
1660.0 0.0 -104.036243 0.970729 -45.520815 0.970729 -45.520815 0.0 -135.0
1670.0 0.0 135.0 0.970634 -45.789764 0.970634 -45.789764 0.0 135.0
1680.0 0.0 -63.434949 0.970539 -46.058696 0.970539 -46.058696 0.0 -135.0
1690.0 0.0 180.0 0.970444 -46.32761 0.970444 -46.32761 0.0 -135.0
1700.0 0.0 -116.565051 0.97035 -46.596507 0.97035 -46.596507 0.0 -109.983107
1710.0 0.0 -26.565051 0.970256 -46.865387 0.970256 -46.865387 0.0 -26.565051
1720.0 0.0 32.005383 0.970162 -47.134249 0.970162 -47.134249 0.0 7.125016
1730.0 0.0 -104.036243 0.970068 -47.403095 0.970068 -47.403095 0.0 -108.434949
1740.0 0.0 -90.0 0.969974 -47.671924 0.969974 -47.671924 0.0 -90.0
1750.0 0.0 -153.434949 0.969881 -47.940736 0.969881 -47.940736 0.0 180.0
1760.0 0.0 159.443955 0.969788 -48.209532 0.969788 -48.209532 0.0 174.289407
1770.0 0.0 90.0 0.969695 -48.478312 0.969695 -48.478312 0.0 180.0
1780.0 0.0 153.434949 0.969602 -48.747075 0.969602 -48.747075 0.0 153.434949
1790.0 0.0 -36.869898 0.96951 -49.015822 0.96951 -49.015822 0.0 -45.0
1800.0 0.0 -123.690068 0.969418 -49.284553 0.969418 -49.284553 0.0 -153.434949
1810.0 0.0 -140.194429 0.969326 -49.553268 0.969326 -49.553268 0.0 -135.0
1820.0 0.0 0.0 0.969234 -49.821968 0.969234 -49.821968 0.0 -14.036243
1830.0 0.0 180.0 0.969142 -50.090651 0.969142 -50.090651 0.0 -116.565051
1840.0 0.0 -41.185925 0.969051 -50.35932 0.969051 -50.35932 0.0 -36.869898
1850.0 0.0 -135.0 0.96896 -50.627973 0.96896 -50.627973 0.0 153.434949
1860.0 0.0 0.0 0.968869 -50.89661 0.968869 -50.89661 0.0 -90.0
1870.0 0.0 -153.434949 0.968778 -51.165233 0.968778 -51.165233 0.0 -165.963757
1880.0 0.0 153.434949 0.968688 -51.43384 0.968688 -51.43384 0.0 153.434949
1890.0 0.0 -90.0 0.968597 -51.702432 0.968597 -51.702432 0.0 -90.0
1900.0 0.0 123.690068 0.968507 -51.97101 0.968507 -51.97101 0.0 0.0
1910.0 0.0 45.0 0.968417 -52.239573 0.968417 -52.239573 0.0 26.565051
1920.0 0.0 172.874984 0.968328 -52.508121 0.968328 -52.508121 0.0 147.994617
1930.0 0.0 0.0 0.968238 -52.776655 0.968238 -52.776655 0.0 26.565051
1940.0 0.0 -135.0 0.968149 -53.045174 0.968149 -53.045174 0.0 -135.0
1950.0 0.0 -116.565051 0.96806 -53.313679 0.96806 -53.313679 0.0 -90.0
1960.0 0.0 165.963757 0.967971 -53.582169 0.967971 -53.582169 0.0 153.434949
1970.0 0.0 128.659808 0.967882 -53.850646 0.967882 -53.850646 0.0 135.0
1980.0 0.0 -165.963757 0.967794 -54.119109 0.967794 -54.119109 0.0 -172.874984
1990.0 0.0 -45.0 0.967705 -54.387557 0.967705 -54.387557 0.0 -116.565051
2000.0 0.0 -45.0 0.967617 -54.655992 0.967617 -54.655992 0.0 -135.0
2010.0 0.0 0.0 0.967529 -54.924413 0.967529 -54.924413 0.0 -111.801409
2020.0 0.0 -153.434949 0.967441 -55.192821 0.967441 -55.192821 0.0 135.0
2030.0 0.0 -90.0 0.967354 -55.461215 0.967354 -55.461215 0.0 0.0
2040.0 0.0 45.0 0.967266 -55.729595 0.967266 -55.729595 0.0 90.0
2050.0 0.0 -165.963757 0.967179 -55.997963 0.967179 -55.997963 0.0 -143.130102
2060.0 0.0 -90.0 0.967092 -56.266317 0.967092 -56.266317 0.0 -90.0
2070.0 0.0 -90.0 0.967005 -56.534657 0.967005 -56.534657 0.0 -63.434949
2080.0 0.0 -63.434949 0.966918 -56.802985 0.966918 -56.802985 0.0 -63.434949
2090.0 0.0 26.565051 0.966832 -57.0713 0.966832 -57.0713 0.0 -90.0
2100.0 0.0 -26.565051 0.966745 -57.339601 0.966745 -57.339601 0.0 -63.434949
2110.0 0.0 26.565051 0.966659 -57.60789 0.966659 -57.60789 0.0 -90.0
2120.0 0.0 153.434949 0.966573 -57.876167 0.966573 -57.876167 0.0 116.565051
2130.0 0.0 -128.659808 0.966487 -58.14443 0.966487 -58.14443 0.0 -143.130102
2140.0 0.0 -111.801409 0.966401 -58.412681 0.966401 -58.412681 0.0 -111.801409
2150.0 0.0 -123.690068 0.966316 -58.68092 0.966316 -58.68092 0.0 -90.0
2160.0 0.0 90.0 0.966231 -58.949146 0.966231 -58.949146 0.0 -135.0
2170.0 0.0 -153.434949 0.966145 -59.217359 0.966145 -59.217359 0.0 -128.659808
2180.0 0.0 0.0 0.96606 -59.485561 0.96606 -59.485561 0.0 -111.801409
2190.0 0.0 -105.945396 0.965976 -59.75375 0.965976 -59.75375 0.0 -104.036243
2200.0 0.0 -123.690068 0.965891 -60.021927 0.965891 -60.021927 0.0 -128.659808
2210.0 0.0 -140.194429 0.965806 -60.290092 0.965806 -60.290092 0.0 -153.434949
2220.0 0.0 -90.0 0.965722 -60.558245 0.965722 -60.558245 0.0 -90.0
2230.0 0.0 -90.0 0.965638 -60.826387 0.965638 -60.826387 0.0 -90.0
2240.0 0.0 63.434949 0.965554 -61.094516 0.965554 -61.094516 0.0 -153.434949
2250.0 0.0 -170.537678 0.96547 -61.362634 0.96547 -61.362634 0.0 153.434949
2260.0 0.0 -123.690068 0.965386 -61.63074 0.965386 -61.63074 0.0 -108.434949
2270.0 0.0 180.0 0.965302 -61.898835 0.965302 -61.898835 0.0 172.874984
2280.0 0.0 -135.0 0.965219 -62.166918 0.965219 -62.166918 0.0 26.565051
2290.0 0.0 90.0 0.965136 -62.434989 0.965136 -62.434989 0.0 165.963757
2300.0 0.0 -111.801409 0.965053 -62.703049 0.965053 -62.703049 0.0 -108.434949
2310.0 0.0 45.0 0.96497 -62.971098 0.96497 -62.971098 0.0 26.565051
2320.0 0.0 49.398705 0.964887 -63.239136 0.964887 -63.239136 0.0 45.0
2330.0 0.0 0.0 0.964804 -63.507162 0.964804 -63.507162 0.0 -26.565051
2340.0 0.0 143.130102 0.964722 -63.775177 0.964722 -63.775177 0.0 161.565051
2350.0 0.0 -165.963757 0.964639 -64.043182 0.964639 -64.043182 0.0 0.0
2360.0 0.0 -128.659808 0.964557 -64.311175 0.964557 -64.311175 0.0 90.0
2370.0 0.0 -153.434949 0.964475 -64.579157 0.964475 -64.579157 0.0 -128.659808
2380.0 0.0 56.309932 0.964393 -64.847129 0.964393 -64.847129 0.0 90.0
2390.0 0.0 90.0 0.964311 -65.11509 0.964311 -65.11509 0.0 153.434949
2400.0 0.0 -153.434949 0.964229 -65.38304 0.964229 -65.38304 0.0 153.434949
2410.0 0.0 0.0 0.964148 -65.650979 0.964148 -65.650979 0.0 9.462322
2420.0 0.0 -26.565051 0.964067 -65.918908 0.964067 -65.918908 0.0 -63.434949
2430.0 0.0 -63.434949 0.963985 -66.186826 0.963985 -66.186826 0.0 -56.309932
2440.0 0.0 45.0 0.963904 -66.454733 0.963904 -66.454733 0.0 45.0
2450.0 0.0 -36.869898 0.963823 -66.722631 0.963823 -66.722631 0.0 -32.005383
2460.0 0.0 180.0 0.963742 -66.990517 0.963742 -66.990517 0.0 -153.434949
2470.0 0.0 -56.309932 0.963662 -67.258394 0.963662 -67.258394 0.0 0.0
2480.0 0.0 -90.0 0.963581 -67.52626 0.963581 -67.52626 0.0 -90.0
2490.0 0.0 -123.690068 0.963501 -67.794116 0.963501 -67.794116 0.0 -123.690068
2500.0 0.0 56.309932 0.96342 -68.061962 0.96342 -68.061962 0.0 180.0
2510.0 0.0 -63.434949 0.96334 -68.329798 0.96334 -68.329798 0.0 0.0
2520.0 0.0 -135.0 0.96326 -68.597624 0.96326 -68.597624 0.0 0.0
2530.0 0.0 180.0 0.96318 -68.86544 0.96318 -68.86544 0.0 90.0
2540.0 0.0 -63.434949 0.963101 -69.133246 0.963101 -69.133246 0.0 -56.309932
2550.0 0.0 -14.036243 0.963021 -69.401042 0.963021 -69.401042 0.0 -45.0
2560.0 0.0 153.434949 0.962942 -69.668828 0.962942 -69.668828 0.0 170.537678
2570.0 0.0 180.0 0.962862 -69.936604 0.962862 -69.936604 0.0 -165.963757
2580.0 0.0 -135.0 0.962783 -70.204371 0.962783 -70.204371 0.0 0.0
2590.0 0.0 -161.565051 0.962704 -70.472128 0.962704 -70.472128 0.0 -135.0
2600.0 0.0 -170.537678 0.962625 -70.739876 0.962625 -70.739876 0.0 165.963757
2610.0 0.0 -161.565051 0.962546 -71.007614 0.962546 -71.007614 0.0 -153.434949
2620.0 0.0 -153.434949 0.962467 -71.275342 0.962467 -71.275342 0.0 -153.434949
2630.0 0.0 -174.289407 0.962389 -71.543061 0.962389 -71.543061 0.0 165.963757
2640.0 0.0 -172.874984 0.96231 -71.810771 0.96231 -71.810771 0.0 153.434949
2650.0 0.0 -90.0 0.962232 -72.078471 0.962232 -72.078471 0.0 -123.690068
2660.0 0.0 -90.0 0.962154 -72.346162 0.962154 -72.346162 0.0 90.0
2670.0 0.0 180.0 0.962075 -72.613843 0.962075 -72.613843 0.0 -172.874984
2680.0 0.0 90.0 0.961997 -72.881516 0.961997 -72.881516 0.0 128.659808
2690.0 0.0 -90.0 0.96192 -73.149179 0.96192 -73.149179 0.0 -111.801409
2700.0 0.0 -135.0 0.961842 -73.416833 0.961842 -73.416833 0.0 -119.744881
2710.0 0.0 -36.869898 0.961764 -73.684478 0.961764 -73.684478 0.0 9.462322
2720.0 0.0 56.309932 0.961687 -73.952114 0.961687 -73.952114 0.0 90.0
