! File created by SignalIntegrity v1.3.5: Signal and Power Integrity Tools
! https://github.com/TeledyneLeCroy/SignalIntegrity
# MHz S MA R 50.0
0.0 0.0 0.0 1.0 0.0 1.0 0.0 0.0 0.0
10.0 0.004373 -108.234775 0.994602 -0.997728 0.994602 -0.997728 0.004373 -108.234775
20.0 0.007791 -105.427797 0.992332 -1.813079 0.992332 -1.813079 0.007791 -105.427797
30.0 0.011061 -104.318968 0.99057 -2.597819 0.99057 -2.597819 0.011061 -104.318968
40.0 0.01425 -103.857374 0.989065 -3.366534 0.989065 -3.366534 0.01425 -103.857374
50.0 0.017386 -103.727553 0.987723 -4.124897 0.987723 -4.124897 0.017386 -103.727553
60.0 0.020482 -103.795362 0.986493 -4.875824 0.986493 -4.875824 0.020482 -103.795362
70.0 0.023544 -103.992326 0.985347 -5.62105 0.985347 -5.62105 0.023544 -103.992326
80.0 0.026579 -104.279216 0.984265 -6.361704 0.984265 -6.361704 0.026579 -104.279216
90.0 0.02959 -104.631675 0.983235 -7.098571 0.983235 -7.098571 0.02959 -104.631675
100.0 0.032577 -105.033653 0.982246 -7.832221 0.982246 -7.832221 0.032577 -105.033653
110.0 0.035545 -105.474078 0.981292 -8.563082 0.981292 -8.563082 0.035545 -105.474078
120.0 0.038492 -105.945026 0.980367 -9.291486 0.980367 -9.291486 0.038492 -105.945026
130.0 0.041421 -106.440654 0.979467 -10.017696 0.979467 -10.017696 0.041421 -106.440654
140.0 0.044332 -106.956546 0.978588 -10.741924 0.978588 -10.741924 0.044332 -106.956546
150.0 0.047226 -107.489292 0.977727 -11.464341 0.977727 -11.464341 0.047226 -107.489292
160.0 0.050102 -108.036212 0.976883 -12.185094 0.976883 -12.185094 0.050102 -108.036212
170.0 0.052961 -108.595166 0.976052 -12.9043 0.976052 -12.9043 0.052961 -108.595166
180.0 0.055803 -109.164419 0.975233 -13.622063 0.975233 -13.622063 0.055803 -109.164419
190.0 0.058628 -109.742553 0.974426 -14.33847 0.974426 -14.33847 0.058628 -109.742553
200.0 0.061436 -110.32839 0.973628 -15.053594 0.973628 -15.053594 0.061436 -110.32839
210.0 0.064228 -110.920946 0.972838 -15.767502 0.972838 -15.767502 0.064228 -110.920946
220.0 0.067002 -111.519391 0.972056 -16.48025 0.972056 -16.48025 0.067002 -111.519391
230.0 0.069759 -112.123017 0.971281 -17.191886 0.971281 -17.191886 0.069759 -112.123017
240.0 0.072499 -112.731219 0.970512 -17.902454 0.970512 -17.902454 0.072499 -112.731219
250.0 0.075222 -113.343475 0.969749 -18.611993 0.969749 -18.611993 0.075222 -113.343475
260.0 0.077927 -113.959332 0.96899 -19.320537 0.96899 -19.320537 0.077927 -113.959332
270.0 0.080614 -114.578394 0.968237 -20.028116 0.968237 -20.028116 0.080614 -114.578394
280.0 0.083283 -115.200314 0.967487 -20.734757 0.967487 -20.734757 0.083283 -115.200314
290.0 0.085934 -115.824786 0.966741 -21.440484 0.966741 -21.440484 0.085934 -115.824786
300.0 0.088566 -116.45154 0.965999 -22.14532 0.965999 -22.14532 0.088566 -116.45154
310.0 0.09118 -117.080333 0.96526 -22.849284 0.96526 -22.849284 0.09118 -117.080333
320.0 0.093775 -117.710952 0.964524 -23.552394 0.964524 -23.552394 0.093775 -117.710952
330.0 0.096351 -118.343205 0.963791 -24.254666 0.963791 -24.254666 0.096351 -118.343205
340.0 0.098907 -118.976916 0.96306 -24.956115 0.96306 -24.956115 0.098907 -118.976916
350.0 0.101444 -119.611932 0.962332 -25.656755 0.962332 -25.656755 0.101444 -119.611932
360.0 0.103962 -120.24811 0.961607 -26.356598 0.961607 -26.356598 0.103962 -120.24811
370.0 0.106459 -120.885323 0.960884 -27.055655 0.960884 -27.055655 0.106459 -120.885323
380.0 0.108935 -121.523454 0.960163 -27.753938 0.960163 -27.753938 0.108935 -121.523454
390.0 0.111392 -122.162397 0.959444 -28.451455 0.959444 -28.451455 0.111392 -122.162397
400.0 0.113827 -122.802054 0.958727 -29.148216 0.958727 -29.148216 0.113827 -122.802054
410.0 0.116242 -123.442339 0.958012 -29.84423 0.958012 -29.84423 0.116242 -123.442339
420.0 0.118635 -124.083168 0.957299 -30.539504 0.957299 -30.539504 0.118635 -124.083168
430.0 0.121006 -124.724467 0.956589 -31.234046 0.956589 -31.234046 0.121006 -124.724467
440.0 0.123356 -125.366167 0.95588 -31.927864 0.95588 -31.927864 0.123356 -125.366167
450.0 0.125684 -126.008205 0.955174 -32.620963 0.955174 -32.620963 0.125684 -126.008205
460.0 0.12799 -126.650521 0.954469 -33.313351 0.954469 -33.313351 0.12799 -126.650521
470.0 0.130274 -127.293062 0.953767 -34.005034 0.953767 -34.005034 0.130274 -127.293062
480.0 0.132534 -127.935778 0.953067 -34.696017 0.953067 -34.696017 0.132534 -127.935778
490.0 0.134772 -128.578621 0.952369 -35.386306 0.952369 -35.386306 0.134772 -128.578621
500.0 0.136987 -129.221548 0.951674 -36.075908 0.951674 -36.075908 0.136987 -129.221548
510.0 0.139178 -129.86452 0.95098 -36.764828 0.95098 -36.764828 0.139178 -129.86452
520.0 0.141346 -130.507498 0.950289 -37.45307 0.950289 -37.45307 0.141346 -130.507498
530.0 0.143491 -131.150449 0.949601 -38.140641 0.949601 -38.140641 0.143491 -131.150449
540.0 0.145611 -131.793339 0.948915 -38.827545 0.948915 -38.827545 0.145611 -131.793339
550.0 0.147707 -132.436138 0.948232 -39.513788 0.948232 -39.513788 0.147707 -132.436138
560.0 0.149779 -133.078819 0.947551 -40.199375 0.947551 -40.199375 0.149779 -133.078819
570.0 0.151826 -133.721355 0.946873 -40.884311 0.946873 -40.884311 0.151826 -133.721355
580.0 0.153849 -134.363721 0.946198 -41.568601 0.946198 -41.568601 0.153849 -134.363721
590.0 0.155847 -135.005895 0.945526 -42.252251 0.945526 -42.252251 0.155847 -135.005895
600.0 0.157819 -135.647856 0.944857 -42.935265 0.944857 -42.935265 0.157819 -135.647856
610.0 0.159767 -136.289583 0.944191 -43.61765 0.944191 -43.61765 0.159767 -136.289583
620.0 0.161689 -136.931058 0.943529 -44.299409 0.943529 -44.299409 0.161689 -136.931058
630.0 0.163585 -137.572264 0.94287 -44.98055 0.94287 -44.98055 0.163585 -137.572264
640.0 0.165456 -138.213185 0.942214 -45.661076 0.942214 -45.661076 0.165456 -138.213185
650.0 0.167301 -138.853804 0.941561 -46.340994 0.941561 -46.340994 0.167301 -138.853804
660.0 0.16912 -139.49411 0.940913 -47.020308 0.940913 -47.020308 0.16912 -139.49411
670.0 0.170912 -140.134088 0.940268 -47.699026 0.940268 -47.699026 0.170912 -140.134088
680.0 0.172678 -140.773726 0.939627 -48.377152 0.939627 -48.377152 0.172678 -140.773726
690.0 0.174418 -141.413014 0.93899 -49.054692 0.93899 -49.054692 0.174418 -141.413014
700.0 0.176131 -142.05194 0.938357 -49.731653 0.938357 -49.731653 0.176131 -142.05194
710.0 0.177817 -142.690496 0.937728 -50.40804 0.937728 -50.40804 0.177817 -142.690496
720.0 0.179476 -143.328671 0.937104 -51.083859 0.937104 -51.083859 0.179476 -143.328671
730.0 0.181108 -143.966459 0.936483 -51.759118 0.936483 -51.759118 0.181108 -143.966459
740.0 0.182713 -144.603851 0.935868 -52.433821 0.935868 -52.433821 0.182713 -144.603851
750.0 0.18429 -145.24084 0.935257 -53.107975 0.935257 -53.107975 0.18429 -145.24084
760.0 0.185841 -145.87742 0.93465 -53.781588 0.93465 -53.781588 0.185841 -145.87742
770.0 0.187363 -146.513586 0.934049 -54.454665 0.934049 -54.454665 0.187363 -146.513586
780.0 0.188858 -147.149331 0.933452 -55.127215 0.933452 -55.127215 0.188858 -147.149331
790.0 0.190325 -147.784651 0.93286 -55.799242 0.93286 -55.799242 0.190325 -147.784651
800.0 0.191764 -148.419542 0.932273 -56.470755 0.932273 -56.470755 0.191764 -148.419542
810.0 0.193176 -149.054 0.931692 -57.141761 0.931692 -57.141761 0.193176 -149.054
820.0 0.194559 -149.688022 0.931116 -57.812267 0.931116 -57.812267 0.194559 -149.688022
830.0 0.195914 -150.321603 0.930545 -58.48228 0.930545 -58.48228 0.195914 -150.321603
840.0 0.197241 -150.954743 0.92998 -59.151808 0.92998 -59.151808 0.197241 -150.954743
850.0 0.198539 -151.587437 0.92942 -59.820858 0.92942 -59.820858 0.198539 -151.587437
860.0 0.199809 -152.219685 0.928866 -60.489439 0.928866 -60.489439 0.199809 -152.219685
870.0 0.201051 -152.851485 0.928318 -61.157557 0.928318 -61.157557 0.201051 -152.851485
880.0 0.202264 -153.482836 0.927775 -61.825222 0.927775 -61.825222 0.202264 -153.482836
890.0 0.203448 -154.113736 0.927238 -62.49244 0.927238 -62.49244 0.203448 -154.113736
900.0 0.204603 -154.744185 0.926708 -63.159221 0.926708 -63.159221 0.204603 -154.744185
910.0 0.20573 -155.374182 0.926183 -63.825571 0.926183 -63.825571 0.20573 -155.374182
920.0 0.206828 -156.003727 0.925665 -64.491501 0.925665 -64.491501 0.206828 -156.003727
930.0 0.207896 -156.63282 0.925153 -65.157017 0.925153 -65.157017 0.207896 -156.63282
940.0 0.208936 -157.261462 0.924647 -65.822129 0.924647 -65.822129 0.208936 -157.261462
950.0 0.209947 -157.889652 0.924148 -66.486846 0.924148 -66.486846 0.209947 -157.889652
960.0 0.210929 -158.517391 0.923655 -67.151175 0.923655 -67.151175 0.210929 -158.517391
970.0 0.211881 -159.144681 0.923169 -67.815127 0.923169 -67.815127 0.211881 -159.144681
980.0 0.212805 -159.771522 0.922689 -68.478709 0.922689 -68.478709 0.212805 -159.771522
990.0 0.213699 -160.397915 0.922216 -69.14193 0.922216 -69.14193 0.213699 -160.397915
1000.0 0.214564 -161.023861 0.921749 -69.804801 0.921749 -69.804801 0.214564 -161.023861
1010.0 0.215399 -161.649362 0.92129 -70.467329 0.92129 -70.467329 0.215399 -161.649362
1020.0 0.216205 -162.27442 0.920837 -71.129525 0.920837 -71.129525 0.216205 -162.27442
1030.0 0.216982 -162.899035 0.920391 -71.791397 0.920391 -71.791397 0.216982 -162.899035
1040.0 0.217729 -163.523211 0.919952 -72.452954 0.919952 -72.452954 0.217729 -163.523211
1050.0 0.218447 -164.146947 0.91952 -73.114207 0.91952 -73.114207 0.218447 -164.146947
1060.0 0.219135 -164.770247 0.919095 -73.775165 0.919095 -73.775165 0.219135 -164.770247
1070.0 0.219794 -165.393112 0.918678 -74.435837 0.918678 -74.435837 0.219794 -165.393112
1080.0 0.220423 -166.015544 0.918267 -75.096233 0.918267 -75.096233 0.220423 -166.015544
1090.0 0.221023 -166.637545 0.917863 -75.756362 0.917863 -75.756362 0.221023 -166.637545
1100.0 0.221593 -167.259117 0.917467 -76.416235 0.917467 -76.416235 0.221593 -167.259117
1110.0 0.222133 -167.880262 0.917078 -77.07586 0.917078 -77.07586 0.222133 -167.880262
1120.0 0.222644 -168.500982 0.916696 -77.735248 0.916696 -77.735248 0.222644 -168.500982
1130.0 0.223125 -169.121279 0.916322 -78.394409 0.916322 -78.394409 0.223125 -169.121279
1140.0 0.223577 -169.741156 0.915955 -79.053352 0.915955 -79.053352 0.223577 -169.741156
1150.0 0.223999 -170.360613 0.915595 -79.712087 0.915595 -79.712087 0.223999 -170.360613
1160.0 0.224391 -170.979653 0.915242 -80.370625 0.915242 -80.370625 0.224391 -170.979653
1170.0 0.224753 -171.598279 0.914897 -81.028975 0.914897 -81.028975 0.224753 -171.598279
1180.0 0.225086 -172.21649 0.91456 -81.687147 0.91456 -81.687147 0.225086 -172.21649
1190.0 0.22539 -172.83429 0.914229 -82.345151 0.914229 -82.345151 0.22539 -172.83429
1200.0 0.225663 -173.45168 0.913906 -83.002997 0.913906 -83.002997 0.225663 -173.45168
1210.0 0.225908 -174.068662 0.913591 -83.660696 0.913591 -83.660696 0.225908 -174.068662
1220.0 0.226122 -174.685236 0.913283 -84.318256 0.913283 -84.318256 0.226122 -174.685236
1230.0 0.226307 -175.301405 0.912982 -84.975689 0.912982 -84.975689 0.226307 -175.301405
1240.0 0.226462 -175.917168 0.912689 -85.633004 0.912689 -85.633004 0.226462 -175.917168
1250.0 0.226588 -176.532528 0.912403 -86.290211 0.912403 -86.290211 0.226588 -176.532528
1260.0 0.226684 -177.147485 0.912124 -86.94732 0.912124 -86.94732 0.226684 -177.147485
1270.0 0.22675 -177.76204 0.911853 -87.604341 0.911853 -87.604341 0.22675 -177.76204
1280.0 0.226787 -178.376193 0.91159 -88.261285 0.91159 -88.261285 0.226787 -178.376193
1290.0 0.226794 -178.989945 0.911333 -88.91816 0.911333 -88.91816 0.226794 -178.989945
1300.0 0.226772 -179.603295 0.911084 -89.574978 0.911084 -89.574978 0.226772 -179.603295
1310.0 0.226721 179.783757 0.910843 -90.231747 0.910843 -90.231747 0.226721 179.783757
1320.0 0.22664 179.17121 0.910608 -90.888478 0.910608 -90.888478 0.22664 179.17121
1330.0 0.226529 178.559067 0.910381 -91.545181 0.910381 -91.545181 0.226529 178.559067
1340.0 0.226389 177.947327 0.910161 -92.201865 0.910161 -92.201865 0.226389 177.947327
1350.0 0.22622 177.335992 0.909948 -92.85854 0.909948 -92.85854 0.22622 177.335992
1360.0 0.226022 176.725064 0.909743 -93.515216 0.909743 -93.515216 0.226022 176.725064
1370.0 0.225794 176.114544 0.909544 -94.171902 0.909544 -94.171902 0.225794 176.114544
1380.0 0.225537 175.504435 0.909353 -94.828608 0.909353 -94.828608 0.225537 175.504435
1390.0 0.225251 174.894739 0.909168 -95.485344 0.909168 -95.485344 0.225251 174.894739
1400.0 0.224936 174.285459 0.908991 -96.142118 0.908991 -96.142118 0.224936 174.285459
1410.0 0.224592 173.676599 0.90882 -96.798941 0.90882 -96.798941 0.224592 173.676599
1420.0 0.224218 173.068162 0.908656 -97.455822 0.908656 -97.455822 0.224218 173.068162
1430.0 0.223816 172.460153 0.9085 -98.112769 0.9085 -98.112769 0.223816 172.460153
1440.0 0.223384 171.852576 0.908349 -98.769793 0.908349 -98.769793 0.223384 171.852576
1450.0 0.222924 171.245436 0.908206 -99.426902 0.908206 -99.426902 0.222924 171.245436
1460.0 0.222435 170.638739 0.908069 -100.084105 0.908069 -100.084105 0.222435 170.638739
1470.0 0.221917 170.032491 0.907939 -100.741411 0.907939 -100.741411 0.221917 170.032491
1480.0 0.221371 169.426699 0.907815 -101.39883 0.907815 -101.39883 0.221371 169.426699
1490.0 0.220796 168.821369 0.907698 -102.056369 0.907698 -102.056369 0.220796 168.821369
1500.0 0.220192 168.216511 0.907587 -102.714037 0.907587 -102.714037 0.220192 168.216511
1510.0 0.21956 167.612132 0.907482 -103.371843 0.907482 -103.371843 0.21956 167.612132
1520.0 0.218899 167.008241 0.907383 -104.029796 0.907383 -104.029796 0.218899 167.008241
1530.0 0.21821 166.404848 0.907291 -104.687903 0.907291 -104.687903 0.21821 166.404848
1540.0 0.217493 165.801964 0.907204 -105.346172 0.907204 -105.346172 0.217493 165.801964
1550.0 0.216748 165.1996 0.907124 -106.004613 0.907124 -106.004613 0.216748 165.1996
1560.0 0.215974 164.597767 0.907049 -106.663233 0.907049 -106.663233 0.215974 164.597767
1570.0 0.215173 163.996479 0.90698 -107.322039 0.90698 -107.322039 0.215173 163.996479
1580.0 0.214343 163.39575 0.906917 -107.98104 0.906917 -107.98104 0.214343 163.39575
1590.0 0.213486 162.795593 0.906859 -108.640242 0.906859 -108.640242 0.213486 162.795593
1600.0 0.212601 162.196024 0.906807 -109.299654 0.906807 -109.299654 0.212601 162.196024
1610.0 0.211688 161.597061 0.90676 -109.959283 0.90676 -109.959283 0.211688 161.597061
1620.0 0.210748 160.998719 0.906718 -110.619135 0.906718 -110.619135 0.210748 160.998719
1630.0 0.20978 160.401018 0.906681 -111.279218 0.906681 -111.279218 0.20978 160.401018
1640.0 0.208785 159.803976 0.90665 -111.93954 0.90665 -111.93954 0.208785 159.803976
1650.0 0.207762 159.207616 0.906623 -112.600105 0.906623 -112.600105 0.207762 159.207616
1660.0 0.206713 158.611959 0.906601 -113.260922 0.906601 -113.260922 0.206713 158.611959
1670.0 0.205636 158.017027 0.906584 -113.921996 0.906584 -113.921996 0.205636 158.017027
1680.0 0.204533 157.422846 0.906571 -114.583333 0.906571 -114.583333 0.204533 157.422846
1690.0 0.203403 156.829442 0.906563 -115.244941 0.906563 -115.244941 0.203403 156.829442
1700.0 0.202246 156.236841 0.906559 -115.906824 0.906559 -115.906824 0.202246 156.236841
1710.0 0.201063 155.645073 0.90656 -116.568988 0.90656 -116.568988 0.201063 155.645073
1720.0 0.199853 155.054168 0.906564 -117.23144 0.906564 -117.23144 0.199853 155.054168
1730.0 0.198617 154.464158 0.906573 -117.894184 0.906573 -117.894184 0.198617 154.464158
1740.0 0.197355 153.875078 0.906585 -118.557225 0.906585 -118.557225 0.197355 153.875078
1750.0 0.196067 153.286963 0.906601 -119.22057 0.906601 -119.22057 0.196067 153.286963
1760.0 0.194753 152.699851 0.906621 -119.884221 0.906621 -119.884221 0.194753 152.699851
1770.0 0.193414 152.113781 0.906644 -120.548185 0.906644 -120.548185 0.193414 152.113781
1780.0 0.192049 151.528797 0.90667 -121.212466 0.90667 -121.212466 0.192049 151.528797
1790.0 0.190658 150.944941 0.9067 -121.877068 0.9067 -121.877068 0.190658 150.944941
1800.0 0.189243 150.362262 0.906732 -122.541995 0.906732 -122.541995 0.189243 150.362262
1810.0 0.187802 149.780807 0.906768 -123.20725 0.906768 -123.20725 0.187802 149.780807
1820.0 0.186337 149.20063 0.906806 -123.872839 0.906806 -123.872839 0.186337 149.20063
1830.0 0.184846 148.621785 0.906847 -124.538764 0.906847 -124.538764 0.184846 148.621785
1840.0 0.183332 148.044329 0.90689 -125.205028 0.90689 -125.205028 0.183332 148.044329
1850.0 0.181793 147.468324 0.906936 -125.871635 0.906936 -125.871635 0.181793 147.468324
1860.0 0.180229 146.893834 0.906983 -126.538588 0.906983 -126.538588 0.180229 146.893834
1870.0 0.178642 146.320926 0.907033 -127.205889 0.907033 -127.205889 0.178642 146.320926
1880.0 0.177031 145.749674 0.907085 -127.873541 0.907085 -127.873541 0.177031 145.749674
1890.0 0.175397 145.180152 0.907139 -128.541546 0.907139 -128.541546 0.175397 145.180152
1900.0 0.173739 144.61244 0.907194 -129.209906 0.907194 -129.209906 0.173739 144.61244
1910.0 0.172058 144.046624 0.90725 -129.878623 0.90725 -129.878623 0.172058 144.046624
1920.0 0.170354 143.482792 0.907308 -130.547698 0.907308 -130.547698 0.170354 143.482792
1930.0 0.168627 142.921039 0.907367 -131.217134 0.907367 -131.217134 0.168627 142.921039
1940.0 0.166878 142.361464 0.907428 -131.886931 0.907428 -131.886931 0.166878 142.361464
1950.0 0.165107 141.804175 0.907488 -132.557091 0.907488 -132.557091 0.165107 141.804175
1960.0 0.163313 141.249283 0.90755 -133.227613 0.90755 -133.227613 0.163313 141.249283
1970.0 0.161498 140.696906 0.907612 -133.8985 0.907612 -133.8985 0.161498 140.696906
1980.0 0.159662 140.147172 0.907675 -134.56975 0.907675 -134.56975 0.159662 140.147172
1990.0 0.157803 139.600213 0.907738 -135.241364 0.907738 -135.241364 0.157803 139.600213
2000.0 0.155924 139.056173 0.907801 -135.913343 0.907801 -135.913343 0.155924 139.056173
2010.0 0.154025 138.515201 0.907864 -136.585685 0.907864 -136.585685 0.154025 138.515201
2020.0 0.152104 137.977458 0.907927 -137.258391 0.907927 -137.258391 0.152104 137.977458
2030.0 0.150164 137.443115 0.907989 -137.931458 0.907989 -137.931458 0.150164 137.443115
2040.0 0.148203 136.912353 0.908051 -138.604888 0.908051 -138.604888 0.148203 136.912353
2050.0 0.146223 136.385367 0.908113 -139.278677 0.908113 -139.278677 0.146223 136.385367
2060.0 0.144224 135.862363 0.908173 -139.952826 0.908173 -139.952826 0.144224 135.862363
2070.0 0.142205 135.343561 0.908233 -140.627332 0.908233 -140.627332 0.142205 135.343561
2080.0 0.140168 134.829198 0.908291 -141.302193 0.908291 -141.302193 0.140168 134.829198
2090.0 0.138112 134.319524 0.908349 -141.977407 0.908349 -141.977407 0.138112 134.319524
2100.0 0.136038 133.814812 0.908404 -142.652973 0.908404 -142.652973 0.136038 133.814812
2110.0 0.133946 133.315349 0.908459 -143.328887 0.908459 -143.328887 0.133946 133.315349
2120.0 0.131837 132.821446 0.908512 -144.005146 0.908512 -144.005146 0.131837 132.821446
2130.0 0.129711 132.333438 0.908562 -144.681749 0.908562 -144.681749 0.129711 132.333438
2140.0 0.127568 131.851682 0.908611 -145.358691 0.908611 -145.358691 0.127568 131.851682
2150.0 0.125409 131.376566 0.908658 -146.03597 0.908658 -146.03597 0.125409 131.376566
2160.0 0.123233 130.908506 0.908703 -146.713581 0.908703 -146.713581 0.123233 130.908506
2170.0 0.121043 130.447953 0.908745 -147.391522 0.908745 -147.391522 0.121043 130.447953
2180.0 0.118836 129.995393 0.908785 -148.069787 0.908785 -148.069787 0.118836 129.995393
2190.0 0.116616 129.551353 0.908822 -148.748373 0.908822 -148.748373 0.116616 129.551353
2200.0 0.11438 129.116406 0.908856 -149.427276 0.908856 -149.427276 0.11438 129.116406
2210.0 0.112131 128.691171 0.908888 -150.106491 0.908888 -150.106491 0.112131 128.691171
2220.0 0.109868 128.276325 0.908916 -150.786012 0.908916 -150.786012 0.109868 128.276325
2230.0 0.107593 127.872605 0.908941 -151.465836 0.908941 -151.465836 0.107593 127.872605
2240.0 0.105304 127.480815 0.908963 -152.145956 0.908963 -152.145956 0.105304 127.480815
2250.0 0.103004 127.101834 0.908982 -152.826368 0.908982 -152.826368 0.103004 127.101834
2260.0 0.100692 126.736628 0.908997 -153.507066 0.908997 -153.507066 0.100692 126.736628
