! File created by SignalIntegrity v1.3.5: Signal and Power Integrity Tools
! https://github.com/TeledyneLeCroy/SignalIntegrity
# MHz S MA R 50.0
0.0 0.0 0.0 1.0 0.0 1.0 0.0 0.0 0.0
10.0 0.001755 -107.637638 0.997839 -0.399168 0.997839 -0.399168 0.001755 -107.637638
20.0 0.003131 -104.343823 0.996932 -0.725435 0.996932 -0.725435 0.003131 -104.343823
30.0 0.004451 -102.767106 0.996231 -1.039499 0.996231 -1.039499 0.004451 -102.767106
40.0 0.00574 -101.847718 0.995634 -1.347192 0.995634 -1.347192 0.00574 -101.847718
50.0 0.007011 -101.26674 0.995105 -1.650785 0.995105 -1.650785 0.007011 -101.26674
60.0 0.008268 -100.88824 0.994622 -1.951448 0.994622 -1.951448 0.008268 -100.88824
70.0 0.009514 -100.642678 0.994175 -2.249876 0.994175 -2.249876 0.009514 -100.642678
80.0 0.010751 -100.490127 0.993756 -2.546523 0.993756 -2.546523 0.010751 -100.490127
90.0 0.011982 -100.405745 0.993359 -2.841708 0.993359 -2.841708 0.011982 -100.405745
100.0 0.013205 -100.37313 0.99298 -3.13566 0.99298 -3.13566 0.013205 -100.37313
110.0 0.014424 -100.380942 0.992618 -3.428555 0.992618 -3.428555 0.014424 -100.380942
120.0 0.015637 -100.421052 0.992268 -3.720528 0.992268 -3.720528 0.015637 -100.421052
130.0 0.016847 -100.487454 0.99193 -4.011687 0.99193 -4.011687 0.016847 -100.487454
140.0 0.018052 -100.5756 0.991602 -4.302121 0.991602 -4.302121 0.018052 -100.5756
150.0 0.019253 -100.681972 0.991283 -4.5919 0.991283 -4.5919 0.019253 -100.681972
160.0 0.020451 -100.803801 0.990972 -4.881087 0.990972 -4.881087 0.020451 -100.803801
170.0 0.021645 -100.938872 0.990668 -5.169731 0.990668 -5.169731 0.021645 -100.938872
180.0 0.022837 -101.085389 0.990371 -5.457877 0.990371 -5.457877 0.022837 -101.085389
190.0 0.024025 -101.241878 0.990079 -5.745562 0.990079 -5.745562 0.024025 -101.241878
200.0 0.025211 -101.407116 0.989792 -6.03282 0.989792 -6.03282 0.025211 -101.407116
210.0 0.026394 -101.580079 0.98951 -6.319677 0.98951 -6.319677 0.026394 -101.580079
220.0 0.027574 -101.759903 0.989232 -6.606161 0.989232 -6.606161 0.027574 -101.759903
230.0 0.028751 -101.945851 0.988958 -6.892294 0.988958 -6.892294 0.028751 -101.945851
240.0 0.029927 -102.137291 0.988688 -7.178094 0.988688 -7.178094 0.029927 -102.137291
250.0 0.031099 -102.333677 0.988421 -7.46358 0.988421 -7.46358 0.031099 -102.333677
260.0 0.032269 -102.534537 0.988157 -7.748769 0.988157 -7.748769 0.032269 -102.534537
270.0 0.033437 -102.739457 0.987896 -8.033674 0.987896 -8.033674 0.033437 -102.739457
280.0 0.034603 -102.948075 0.987637 -8.318308 0.987637 -8.318308 0.034603 -102.948075
290.0 0.035766 -103.160069 0.987381 -8.602685 0.987381 -8.602685 0.035766 -103.160069
300.0 0.036927 -103.375158 0.987127 -8.886813 0.987127 -8.886813 0.036927 -103.375158
310.0 0.038086 -103.593088 0.986875 -9.170704 0.986875 -9.170704 0.038086 -103.593088
320.0 0.039243 -103.813635 0.986625 -9.454366 0.986625 -9.454366 0.039243 -103.813635
330.0 0.040397 -104.036597 0.986376 -9.737807 0.986376 -9.737807 0.040397 -104.036597
340.0 0.041549 -104.261794 0.98613 -10.021036 0.98613 -10.021036 0.041549 -104.261794
350.0 0.042699 -104.489061 0.985884 -10.30406 0.985884 -10.30406 0.042699 -104.489061
360.0 0.043847 -104.718251 0.98564 -10.586884 0.98564 -10.586884 0.043847 -104.718251
370.0 0.044992 -104.949229 0.985398 -10.869515 0.985398 -10.869515 0.044992 -104.949229
380.0 0.046136 -105.181875 0.985157 -11.151959 0.985157 -11.151959 0.046136 -105.181875
390.0 0.047277 -105.416076 0.984916 -11.434221 0.984916 -11.434221 0.047277 -105.416076
400.0 0.048416 -105.651732 0.984677 -11.716305 0.984677 -11.716305 0.048416 -105.651732
410.0 0.049553 -105.888748 0.984439 -11.998217 0.984439 -11.998217 0.049553 -105.888748
420.0 0.050687 -106.12704 0.984202 -12.27996 0.984202 -12.27996 0.050687 -106.12704
430.0 0.05182 -106.366529 0.983965 -12.561538 0.983965 -12.561538 0.05182 -106.366529
440.0 0.05295 -106.607143 0.983729 -12.842956 0.983729 -12.842956 0.05295 -106.607143
450.0 0.054078 -106.848814 0.983494 -13.124215 0.983494 -13.124215 0.054078 -106.848814
460.0 0.055204 -107.091481 0.98326 -13.405321 0.98326 -13.405321 0.055204 -107.091481
470.0 0.056328 -107.335086 0.983026 -13.686276 0.983026 -13.686276 0.056328 -107.335086
480.0 0.057449 -107.579576 0.982793 -13.967082 0.982793 -13.967082 0.057449 -107.579576
490.0 0.058568 -107.824903 0.98256 -14.247743 0.98256 -14.247743 0.058568 -107.824903
500.0 0.059685 -108.071018 0.982328 -14.52826 0.982328 -14.52826 0.059685 -108.071018
510.0 0.0608 -108.31788 0.982097 -14.808637 0.982097 -14.808637 0.0608 -108.31788
520.0 0.061912 -108.565449 0.981865 -15.088875 0.981865 -15.088875 0.061912 -108.565449
530.0 0.063022 -108.813687 0.981634 -15.368976 0.981634 -15.368976 0.063022 -108.813687
540.0 0.06413 -109.062558 0.981404 -15.648944 0.981404 -15.648944 0.06413 -109.062558
550.0 0.065235 -109.31203 0.981173 -15.928778 0.981173 -15.928778 0.065235 -109.31203
560.0 0.066338 -109.562073 0.980943 -16.208482 0.980943 -16.208482 0.066338 -109.562073
570.0 0.067439 -109.812656 0.980714 -16.488057 0.980714 -16.488057 0.067439 -109.812656
580.0 0.068537 -110.063753 0.980484 -16.767505 0.980484 -16.767505 0.068537 -110.063753
590.0 0.069633 -110.315338 0.980255 -17.046826 0.980255 -17.046826 0.069633 -110.315338
600.0 0.070727 -110.567386 0.980026 -17.326023 0.980026 -17.326023 0.070727 -110.567386
610.0 0.071818 -110.819876 0.979797 -17.605097 0.979797 -17.605097 0.071818 -110.819876
620.0 0.072907 -111.072784 0.979568 -17.884048 0.979568 -17.884048 0.072907 -111.072784
630.0 0.073993 -111.326091 0.979339 -18.162879 0.979339 -18.162879 0.073993 -111.326091
640.0 0.075077 -111.579778 0.97911 -18.441591 0.97911 -18.441591 0.075077 -111.579778
650.0 0.076158 -111.833826 0.978882 -18.720184 0.978882 -18.720184 0.076158 -111.833826
660.0 0.077237 -112.088218 0.978653 -18.998659 0.978653 -18.998659 0.077237 -112.088218
670.0 0.078314 -112.342937 0.978425 -19.277018 0.978425 -19.277018 0.078314 -112.342937
680.0 0.079388 -112.597967 0.978197 -19.555261 0.978197 -19.555261 0.079388 -112.597967
690.0 0.080459 -112.853295 0.977969 -19.83339 0.977969 -19.83339 0.080459 -112.853295
700.0 0.081528 -113.108905 0.97774 -20.111405 0.97774 -20.111405 0.081528 -113.108905
710.0 0.082594 -113.364784 0.977512 -20.389307 0.977512 -20.389307 0.082594 -113.364784
720.0 0.083657 -113.62092 0.977284 -20.667097 0.977284 -20.667097 0.083657 -113.62092
730.0 0.084718 -113.8773 0.977056 -20.944775 0.977056 -20.944775 0.084718 -113.8773
740.0 0.085777 -114.133912 0.976828 -21.222342 0.976828 -21.222342 0.085777 -114.133912
750.0 0.086832 -114.390746 0.976599 -21.4998 0.976599 -21.4998 0.086832 -114.390746
760.0 0.087885 -114.647791 0.976371 -21.777147 0.976371 -21.777147 0.087885 -114.647791
770.0 0.088936 -114.905036 0.976143 -22.054386 0.976143 -22.054386 0.088936 -114.905036
780.0 0.089983 -115.162473 0.975914 -22.331517 0.975914 -22.331517 0.089983 -115.162473
790.0 0.091028 -115.420091 0.975686 -22.608539 0.975686 -22.608539 0.091028 -115.420091
800.0 0.09207 -115.677882 0.975458 -22.885454 0.975458 -22.885454 0.09207 -115.677882
810.0 0.09311 -115.935838 0.975229 -23.162263 0.975229 -23.162263 0.09311 -115.935838
820.0 0.094146 -116.193949 0.975001 -23.438965 0.975001 -23.438965 0.094146 -116.193949
830.0 0.09518 -116.452209 0.974772 -23.715561 0.974772 -23.715561 0.09518 -116.452209
840.0 0.096211 -116.71061 0.974544 -23.992052 0.974544 -23.992052 0.096211 -116.71061
850.0 0.097239 -116.969145 0.974315 -24.268438 0.974315 -24.268438 0.097239 -116.969145
860.0 0.098264 -117.227806 0.974086 -24.544719 0.974086 -24.544719 0.098264 -117.227806
870.0 0.099287 -117.486587 0.973857 -24.820896 0.973857 -24.820896 0.099287 -117.486587
880.0 0.100306 -117.745483 0.973628 -25.096969 0.973628 -25.096969 0.100306 -117.745483
890.0 0.101323 -118.004485 0.9734 -25.372938 0.9734 -25.372938 0.101323 -118.004485
900.0 0.102337 -118.26359 0.973171 -25.648804 0.973171 -25.648804 0.102337 -118.26359
910.0 0.103347 -118.52279 0.972941 -25.924568 0.972941 -25.924568 0.103347 -118.52279
920.0 0.104355 -118.782082 0.972712 -26.200228 0.972712 -26.200228 0.104355 -118.782082
930.0 0.10536 -119.041458 0.972483 -26.475787 0.972483 -26.475787 0.10536 -119.041458
940.0 0.106362 -119.300915 0.972254 -26.751243 0.972254 -26.751243 0.106362 -119.300915
950.0 0.107361 -119.560446 0.972024 -27.026598 0.972024 -27.026598 0.107361 -119.560446
960.0 0.108357 -119.820049 0.971795 -27.301851 0.971795 -27.301851 0.108357 -119.820049
970.0 0.109349 -120.079717 0.971566 -27.577003 0.971566 -27.577003 0.109349 -120.079717
980.0 0.110339 -120.339448 0.971336 -27.852054 0.971336 -27.852054 0.110339 -120.339448
990.0 0.111326 -120.599235 0.971106 -28.127004 0.971106 -28.127004 0.111326 -120.599235
1000.0 0.112309 -120.859076 0.970877 -28.401854 0.970877 -28.401854 0.112309 -120.859076
1010.0 0.113289 -121.118966 0.970647 -28.676603 0.970647 -28.676603 0.113289 -121.118966
1020.0 0.114267 -121.378902 0.970417 -28.951252 0.970417 -28.951252 0.114267 -121.378902
1030.0 0.115241 -121.638879 0.970188 -29.225802 0.970188 -29.225802 0.115241 -121.638879
1040.0 0.116212 -121.898895 0.969958 -29.500252 0.969958 -29.500252 0.116212 -121.898895
1050.0 0.117179 -122.158945 0.969728 -29.774602 0.969728 -29.774602 0.117179 -122.158945
1060.0 0.118144 -122.419027 0.969498 -30.048853 0.969498 -30.048853 0.118144 -122.419027
1070.0 0.119105 -122.679137 0.969268 -30.323005 0.969268 -30.323005 0.119105 -122.679137
1080.0 0.120063 -122.939272 0.969038 -30.597058 0.969038 -30.597058 0.120063 -122.939272
1090.0 0.121018 -123.199429 0.968808 -30.871012 0.968808 -30.871012 0.121018 -123.199429
1100.0 0.121969 -123.459605 0.968578 -31.144868 0.968578 -31.144868 0.121969 -123.459605
1110.0 0.122918 -123.719798 0.968348 -31.418625 0.968348 -31.418625 0.122918 -123.719798
1120.0 0.123863 -123.980004 0.968118 -31.692284 0.968118 -31.692284 0.123863 -123.980004
1130.0 0.124804 -124.24022 0.967888 -31.965845 0.967888 -31.965845 0.124804 -124.24022
1140.0 0.125742 -124.500445 0.967658 -32.239308 0.967658 -32.239308 0.125742 -124.500445
1150.0 0.126677 -124.760676 0.967428 -32.512674 0.967428 -32.512674 0.126677 -124.760676
1160.0 0.127609 -125.020909 0.967198 -32.785942 0.967198 -32.785942 0.127609 -125.020909
1170.0 0.128537 -125.281144 0.966968 -33.059112 0.966968 -33.059112 0.128537 -125.281144
1180.0 0.129462 -125.541377 0.966738 -33.332185 0.966738 -33.332185 0.129462 -125.541377
1190.0 0.130383 -125.801607 0.966508 -33.605161 0.966508 -33.605161 0.130383 -125.801607
1200.0 0.131301 -126.061831 0.966278 -33.87804 0.966278 -33.87804 0.131301 -126.061831
1210.0 0.132215 -126.322046 0.966048 -34.150822 0.966048 -34.150822 0.132215 -126.322046
1220.0 0.133126 -126.582252 0.965818 -34.423508 0.965818 -34.423508 0.133126 -126.582252
1230.0 0.134034 -126.842447 0.965589 -34.696097 0.965589 -34.696097 0.134034 -126.842447
1240.0 0.134937 -127.102627 0.965359 -34.96859 0.965359 -34.96859 0.134937 -127.102627
1250.0 0.135838 -127.362791 0.965129 -35.240986 0.965129 -35.240986 0.135838 -127.362791
1260.0 0.136735 -127.622939 0.9649 -35.513287 0.9649 -35.513287 0.136735 -127.622939
1270.0 0.137628 -127.883066 0.96467 -35.785491 0.96467 -35.785491 0.137628 -127.883066
1280.0 0.138518 -128.143173 0.964441 -36.0576 0.964441 -36.0576 0.138518 -128.143173
1290.0 0.139404 -128.403258 0.964211 -36.329613 0.964211 -36.329613 0.139404 -128.403258
1300.0 0.140287 -128.663318 0.963982 -36.601531 0.963982 -36.601531 0.140287 -128.663318
1310.0 0.141166 -128.923352 0.963753 -36.873353 0.963753 -36.873353 0.141166 -128.923352
1320.0 0.142041 -129.183359 0.963524 -37.145081 0.963524 -37.145081 0.142041 -129.183359
1330.0 0.142913 -129.443338 0.963295 -37.416713 0.963295 -37.416713 0.142913 -129.443338
1340.0 0.143781 -129.703286 0.963066 -37.688251 0.963066 -37.688251 0.143781 -129.703286
1350.0 0.144645 -129.963203 0.962838 -37.959693 0.962838 -37.959693 0.144645 -129.963203
1360.0 0.145506 -130.223086 0.962609 -38.231042 0.962609 -38.231042 0.145506 -130.223086
1370.0 0.146363 -130.482936 0.962381 -38.502296 0.962381 -38.502296 0.146363 -130.482936
1380.0 0.147216 -130.74275 0.962153 -38.773455 0.962153 -38.773455 0.147216 -130.74275
1390.0 0.148066 -131.002527 0.961925 -39.044521 0.961925 -39.044521 0.148066 -131.002527
1400.0 0.148912 -131.262266 0.961697 -39.315493 0.961697 -39.315493 0.148912 -131.262266
1410.0 0.149754 -131.521966 0.961469 -39.586371 0.961469 -39.586371 0.149754 -131.521966
1420.0 0.150592 -131.781626 0.961242 -39.857156 0.961242 -39.857156 0.150592 -131.781626
1430.0 0.151427 -132.041244 0.961015 -40.127847 0.961015 -40.127847 0.151427 -132.041244
1440.0 0.152258 -132.30082 0.960788 -40.398446 0.960788 -40.398446 0.152258 -132.30082
1450.0 0.153085 -132.560352 0.960561 -40.668951 0.960561 -40.668951 0.153085 -132.560352
1460.0 0.153908 -132.81984 0.960334 -40.939363 0.960334 -40.939363 0.153908 -132.81984
1470.0 0.154727 -133.079283 0.960108 -41.209683 0.960108 -41.209683 0.154727 -133.079283
1480.0 0.155542 -133.338678 0.959882 -41.479911 0.959882 -41.479911 0.155542 -133.338678
1490.0 0.156354 -133.598027 0.959656 -41.750046 0.959656 -41.750046 0.156354 -133.598027
1500.0 0.157162 -133.857327 0.95943 -42.020089 0.95943 -42.020089 0.157162 -133.857327
1510.0 0.157966 -134.116578 0.959205 -42.29004 0.959205 -42.29004 0.157966 -134.116578
1520.0 0.158766 -134.375779 0.95898 -42.5599 0.95898 -42.5599 0.158766 -134.375779
1530.0 0.159562 -134.634929 0.958755 -42.829668 0.958755 -42.829668 0.159562 -134.634929
1540.0 0.160354 -134.894028 0.958531 -43.099345 0.958531 -43.099345 0.160354 -134.894028
1550.0 0.161142 -135.153074 0.958306 -43.368931 0.958306 -43.368931 0.161142 -135.153074
1560.0 0.161926 -135.412066 0.958082 -43.638426 0.958082 -43.638426 0.161926 -135.412066
1570.0 0.162707 -135.671005 0.957859 -43.90783 0.957859 -43.90783 0.162707 -135.671005
1580.0 0.163483 -135.92989 0.957635 -44.177145 0.957635 -44.177145 0.163483 -135.92989
1590.0 0.164255 -136.188718 0.957413 -44.446368 0.957413 -44.446368 0.164255 -136.188718
1600.0 0.165024 -136.447491 0.95719 -44.715502 0.95719 -44.715502 0.165024 -136.447491
1610.0 0.165788 -136.706208 0.956968 -44.984547 0.956968 -44.984547 0.165788 -136.706208
1620.0 0.166548 -136.964867 0.956746 -45.253501 0.956746 -45.253501 0.166548 -136.964867
1630.0 0.167305 -137.223468 0.956524 -45.522367 0.956524 -45.522367 0.167305 -137.223468
1640.0 0.168057 -137.482011 0.956303 -45.791143 0.956303 -45.791143 0.168057 -137.482011
1650.0 0.168805 -137.740494 0.956082 -46.059831 0.956082 -46.059831 0.168805 -137.740494
1660.0 0.169549 -137.998918 0.955862 -46.32843 0.955862 -46.32843 0.169549 -137.998918
1670.0 0.170289 -138.257282 0.955642 -46.596941 0.955642 -46.596941 0.170289 -138.257282
1680.0 0.171025 -138.515586 0.955422 -46.865364 0.955422 -46.865364 0.171025 -138.515586
1690.0 0.171757 -138.773828 0.955203 -47.133699 0.955203 -47.133699 0.171757 -138.773828
1700.0 0.172485 -139.032009 0.954984 -47.401946 0.954984 -47.401946 0.172485 -139.032009
1710.0 0.173209 -139.290127 0.954766 -47.670107 0.954766 -47.670107 0.173209 -139.290127
1720.0 0.173928 -139.548183 0.954548 -47.93818 0.954548 -47.93818 0.173928 -139.548183
1730.0 0.174644 -139.806176 0.95433 -48.206166 0.95433 -48.206166 0.174644 -139.806176
1740.0 0.175355 -140.064106 0.954113 -48.474067 0.954113 -48.474067 0.175355 -140.064106
1750.0 0.176062 -140.321972 0.953897 -48.741881 0.953897 -48.741881 0.176062 -140.321972
1760.0 0.176765 -140.579774 0.95368 -49.009609 0.95368 -49.009609 0.176765 -140.579774
1770.0 0.177464 -140.837511 0.953465 -49.277251 0.953465 -49.277251 0.177464 -140.837511
1780.0 0.178158 -141.095184 0.95325 -49.544808 0.95325 -49.544808 0.178158 -141.095184
1790.0 0.178849 -141.352791 0.953035 -49.81228 0.953035 -49.81228 0.178849 -141.352791
1800.0 0.179535 -141.610333 0.952821 -50.079668 0.952821 -50.079668 0.179535 -141.610333
1810.0 0.180217 -141.867809 0.952607 -50.346971 0.952607 -50.346971 0.180217 -141.867809
1820.0 0.180894 -142.125218 0.952394 -50.61419 0.952394 -50.61419 0.180894 -142.125218
1830.0 0.181568 -142.382562 0.952182 -50.881325 0.952182 -50.881325 0.181568 -142.382562
1840.0 0.182237 -142.639838 0.95197 -51.148376 0.95197 -51.148376 0.182237 -142.639838
1850.0 0.182902 -142.897048 0.951758 -51.415345 0.951758 -51.415345 0.182902 -142.897048
1860.0 0.183563 -143.15419 0.951547 -51.68223 0.951547 -51.68223 0.183563 -143.15419
1870.0 0.184219 -143.411265 0.951337 -51.949033 0.951337 -51.949033 0.184219 -143.411265
1880.0 0.184872 -143.668272 0.951127 -52.215754 0.951127 -52.215754 0.184872 -143.668272
1890.0 0.18552 -143.925212 0.950918 -52.482393 0.950918 -52.482393 0.18552 -143.925212
1900.0 0.186163 -144.182083 0.950709 -52.74895 0.950709 -52.74895 0.186163 -144.182083
1910.0 0.186802 -144.438886 0.950501 -53.015426 0.950501 -53.015426 0.186802 -144.438886
1920.0 0.187437 -144.69562 0.950294 -53.281822 0.950294 -53.281822 0.187437 -144.69562
1930.0 0.188068 -144.952286 0.950087 -53.548137 0.950087 -53.548137 0.188068 -144.952286
1940.0 0.188694 -145.208883 0.949881 -53.814371 0.949881 -53.814371 0.188694 -145.208883
1950.0 0.189316 -145.465411 0.949675 -54.080526 0.949675 -54.080526 0.189316 -145.465411
1960.0 0.189934 -145.72187 0.94947 -54.346602 0.94947 -54.346602 0.189934 -145.72187
1970.0 0.190547 -145.97826 0.949266 -54.612598 0.949266 -54.612598 0.190547 -145.97826
1980.0 0.191156 -146.23458 0.949063 -54.878516 0.949063 -54.878516 0.191156 -146.23458
1990.0 0.191761 -146.490831 0.94886 -55.144355 0.94886 -55.144355 0.191761 -146.490831
2000.0 0.192361 -146.747012 0.948657 -55.410116 0.948657 -55.410116 0.192361 -146.747012
2010.0 0.192957 -147.003124 0.948456 -55.6758 0.948456 -55.6758 0.192957 -147.003124
2020.0 0.193548 -147.259166 0.948255 -55.941407 0.948255 -55.941407 0.193548 -147.259166
2030.0 0.194135 -147.515138 0.948054 -56.206936 0.948054 -56.206936 0.194135 -147.515138
2040.0 0.194718 -147.771041 0.947855 -56.47239 0.947855 -56.47239 0.194718 -147.771041
2050.0 0.195296 -148.026873 0.947656 -56.737767 0.947656 -56.737767 0.195296 -148.026873
2060.0 0.19587 -148.282636 0.947458 -57.003068 0.947458 -57.003068 0.19587 -148.282636
2070.0 0.196439 -148.538329 0.94726 -57.268295 0.94726 -57.268295 0.196439 -148.538329
2080.0 0.197004 -148.793951 0.947064 -57.533446 0.947064 -57.533446 0.197004 -148.793951
2090.0 0.197565 -149.049504 0.946868 -57.798523 0.946868 -57.798523 0.197565 -149.049504
2100.0 0.198121 -149.304987 0.946673 -58.063526 0.946673 -58.063526 0.198121 -149.304987
2110.0 0.198672 -149.560399 0.946478 -58.328456 0.946478 -58.328456 0.198672 -149.560399
2120.0 0.199219 -149.815742 0.946284 -58.593312 0.946284 -58.593312 0.199219 -149.815742
2130.0 0.199762 -150.071015 0.946091 -58.858096 0.946091 -58.858096 0.199762 -150.071015
2140.0 0.2003 -150.326217 0.945899 -59.122807 0.945899 -59.122807 0.2003 -150.326217
2150.0 0.200834 -150.58135 0.945708 -59.387446 0.945708 -59.387446 0.200834 -150.58135
2160.0 0.201363 -150.836413 0.945517 -59.652014 0.945517 -59.652014 0.201363 -150.836413
2170.0 0.201888 -151.091406 0.945327 -59.916511 0.945327 -59.916511 0.201888 -151.091406
2180.0 0.202408 -151.346329 0.945138 -60.180937 0.945138 -60.180937 0.202408 -151.346329
2190.0 0.202924 -151.601182 0.94495 -60.445293 0.94495 -60.445293 0.202924 -151.601182
2200.0 0.203435 -151.855965 0.944763 -60.709579 0.944763 -60.709579 0.203435 -151.855965
2210.0 0.203941 -152.110679 0.944576 -60.973796 0.944576 -60.973796 0.203941 -152.110679
2220.0 0.204444 -152.365324 0.944391 -61.237944 0.944391 -61.237944 0.204444 -152.365324
2230.0 0.204941 -152.619899 0.944206 -61.502024 0.944206 -61.502024 0.204941 -152.619899
2240.0 0.205434 -152.874404 0.944022 -61.766036 0.944022 -61.766036 0.205434 -152.874404
2250.0 0.205923 -153.12884 0.943838 -62.029981 0.943838 -62.029981 0.205923 -153.12884
2260.0 0.206407 -153.383207 0.943656 -62.293859 0.943656 -62.293859 0.206407 -153.383207
