! File created by SignalIntegrity v1.3.5: Signal and Power Integrity Tools
! https://github.com/TeledyneLeCroy/SignalIntegrity
# MHz S MA R 50.0
0.0 0.0 0.0 1.0 0.0 1.0 0.0 0.0 0.0
10.0 0.002791 82.588204 0.997017 -1.712343 0.997017 -1.712343 0.002791 82.588204
20.0 0.005393 82.42018 0.995674 -3.321528 0.995674 -3.321528 0.005393 82.42018
30.0 0.007955 81.500514 0.994595 -4.911809 0.994595 -4.911809 0.007955 81.500514
40.0 0.01049 80.331777 0.99365 -6.491818 0.99365 -6.491818 0.01049 80.331777
50.0 0.013003 79.045532 0.992789 -8.064991 0.992789 -8.064991 0.013003 79.045532
60.0 0.015494 77.693446 0.991987 -9.633123 0.991987 -9.633123 0.015494 77.693446
70.0 0.017965 76.30046 0.991226 -11.197295 0.991226 -11.197295 0.017965 76.30046
80.0 0.020415 74.880262 0.990499 -12.75822 0.990499 -12.75822 0.020415 74.880262
90.0 0.022842 73.441057 0.989797 -14.316394 0.989797 -14.316394 0.022842 73.441057
100.0 0.025247 71.988097 0.989117 -15.872182 0.989117 -15.872182 0.025247 71.988097
110.0 0.027627 70.524912 0.988454 -17.425859 0.988454 -17.425859 0.027627 70.524912
120.0 0.029981 69.053973 0.987806 -18.97764 0.987806 -18.97764 0.029981 69.053973
130.0 0.032309 67.577068 0.98717 -20.527693 0.98717 -20.527693 0.032309 67.577068
140.0 0.034609 66.09552 0.986545 -22.076158 0.986545 -22.076158 0.034609 66.09552
150.0 0.036879 64.610339 0.98593 -23.623145 0.98593 -23.623145 0.036879 64.610339
160.0 0.039119 63.122304 0.985322 -25.168751 0.985322 -25.168751 0.039119 63.122304
170.0 0.041326 61.63203 0.984723 -26.713054 0.984723 -26.713054 0.041326 61.63203
180.0 0.043499 60.140008 0.98413 -28.256121 0.98413 -28.256121 0.043499 60.140008
190.0 0.045638 58.646635 0.983544 -29.798013 0.983544 -29.798013 0.045638 58.646635
200.0 0.04774 57.152238 0.982963 -31.338779 0.982963 -31.338779 0.04774 57.152238
210.0 0.049805 55.657088 0.982388 -32.878465 0.982388 -32.878465 0.049805 55.657088
220.0 0.051831 54.161409 0.981819 -34.417111 0.981819 -34.417111 0.051831 54.161409
230.0 0.053817 52.665392 0.981254 -35.954753 0.981254 -35.954753 0.053817 52.665392
240.0 0.055761 51.169199 0.980695 -37.491424 0.980695 -37.491424 0.055761 51.169199
250.0 0.057662 49.672968 0.98014 -39.027153 0.98014 -39.027153 0.057662 49.672968
260.0 0.05952 48.176819 0.97959 -40.561969 0.97959 -40.561969 0.05952 48.176819
270.0 0.061333 46.680853 0.979045 -42.095898 0.979045 -42.095898 0.061333 46.680853
280.0 0.063099 45.185161 0.978504 -43.628964 0.978504 -43.628964 0.063099 45.185161
290.0 0.064818 43.689822 0.977969 -45.161191 0.977969 -45.161191 0.064818 43.689822
300.0 0.066489 42.194903 0.977438 -46.692602 0.977438 -46.692602 0.066489 42.194903
310.0 0.06811 40.700467 0.976913 -48.223217 0.976913 -48.223217 0.06811 40.700467
320.0 0.06968 39.206567 0.976393 -49.753059 0.976393 -49.753059 0.06968 39.206567
330.0 0.0712 37.713252 0.975877 -51.282149 0.975877 -51.282149 0.0712 37.713252
340.0 0.072667 36.220563 0.975367 -52.810506 0.975367 -52.810506 0.072667 36.220563
350.0 0.07408 34.728541 0.974863 -54.338151 0.974863 -54.338151 0.07408 34.728541
360.0 0.07544 33.237219 0.974364 -55.865105 0.974364 -55.865105 0.07544 33.237219
370.0 0.076744 31.746629 0.973871 -57.391387 0.973871 -57.391387 0.076744 31.746629
380.0 0.077993 30.2568 0.973384 -58.917018 0.973384 -58.917018 0.077993 30.2568
390.0 0.079185 28.767759 0.972903 -60.442019 0.972903 -60.442019 0.079185 28.767759
400.0 0.08032 27.27953 0.972428 -61.96641 0.972428 -61.96641 0.08032 27.27953
410.0 0.081397 25.792135 0.971959 -63.490211 0.971959 -63.490211 0.081397 25.792135
420.0 0.082416 24.305596 0.971496 -65.013443 0.971496 -65.013443 0.082416 24.305596
430.0 0.083376 22.819933 0.971041 -66.536127 0.971041 -66.536127 0.083376 22.819933
440.0 0.084275 21.335165 0.970591 -68.058285 0.970591 -68.058285 0.084275 21.335165
450.0 0.085115 19.851313 0.970149 -69.579937 0.970149 -69.579937 0.085115 19.851313
460.0 0.085894 18.368393 0.969713 -71.101105 0.969713 -71.101105 0.085894 18.368393
470.0 0.086612 16.886424 0.969284 -72.621811 0.969284 -72.621811 0.086612 16.886424
480.0 0.087268 15.405426 0.968863 -74.142077 0.968863 -74.142077 0.087268 15.405426
490.0 0.087863 13.925416 0.968448 -75.661924 0.968448 -75.661924 0.087863 13.925416
500.0 0.088395 12.446415 0.968041 -77.181374 0.968041 -77.181374 0.088395 12.446415
510.0 0.088865 10.968442 0.967641 -78.70045 0.967641 -78.70045 0.088865 10.968442
520.0 0.089272 9.491518 0.967248 -80.219174 0.967248 -80.219174 0.089272 9.491518
530.0 0.089617 8.015667 0.966862 -81.737567 0.966862 -81.737567 0.089617 8.015667
540.0 0.089898 6.540913 0.966484 -83.255653 0.966484 -83.255653 0.089898 6.540913
550.0 0.090116 5.06728 0.966113 -84.773453 0.966113 -84.773453 0.090116 5.06728
560.0 0.090271 3.594798 0.965749 -86.29099 0.965749 -86.29099 0.090271 3.594798
570.0 0.090363 2.123496 0.965393 -87.808286 0.965393 -87.808286 0.090363 2.123496
580.0 0.090392 0.653407 0.965044 -89.325361 0.965044 -89.325361 0.090392 0.653407
590.0 0.090357 -0.815432 0.964702 -90.84224 0.964702 -90.84224 0.090357 -0.815432
600.0 0.09026 -2.282984 0.964367 -92.358942 0.964367 -92.358942 0.09026 -2.282984
610.0 0.090099 -3.749204 0.96404 -93.875489 0.96404 -93.875489 0.090099 -3.749204
620.0 0.089876 -5.214047 0.963719 -95.391902 0.963719 -95.391902 0.089876 -5.214047
630.0 0.08959 -6.67746 0.963405 -96.908202 0.963405 -96.908202 0.08959 -6.67746
640.0 0.089242 -8.139387 0.963098 -98.424409 0.963098 -98.424409 0.089242 -8.139387
650.0 0.088832 -9.599766 0.962798 -99.940543 0.962798 -99.940543 0.088832 -9.599766
660.0 0.08836 -11.058529 0.962504 -101.456624 0.962504 -101.456624 0.08836 -11.058529
670.0 0.087827 -12.515601 0.962217 -102.972671 0.962217 -102.972671 0.087827 -12.515601
680.0 0.087233 -13.970899 0.961936 -104.488701 0.961936 -104.488701 0.087233 -13.970899
690.0 0.086578 -15.424334 0.96166 -106.004734 0.96166 -106.004734 0.086578 -15.424334
700.0 0.085864 -16.875806 0.961391 -107.520787 0.961391 -107.520787 0.085864 -16.875806
710.0 0.08509 -18.325204 0.961127 -109.036875 0.961127 -109.036875 0.08509 -18.325204
720.0 0.084257 -19.772408 0.960869 -110.553016 0.960869 -110.553016 0.084257 -19.772408
730.0 0.083366 -21.217285 0.960615 -112.069226 0.960615 -112.069226 0.083366 -21.217285
740.0 0.082418 -22.659687 0.960367 -113.585517 0.960367 -113.585517 0.082418 -22.659687
750.0 0.081412 -24.099453 0.960124 -115.101906 0.960124 -115.101906 0.081412 -24.099453
760.0 0.080351 -25.536402 0.959885 -116.618404 0.959885 -116.618404 0.080351 -25.536402
770.0 0.079234 -26.970336 0.95965 -118.135025 0.95965 -118.135025 0.079234 -26.970336
780.0 0.078062 -28.401034 0.959419 -119.651779 0.959419 -119.651779 0.078062 -28.401034
790.0 0.076837 -29.828251 0.959192 -121.168678 0.959192 -121.168678 0.076837 -29.828251
800.0 0.075559 -31.251717 0.958968 -122.685732 0.958968 -122.685732 0.075559 -31.251717
810.0 0.074228 -32.671126 0.958747 -124.20295 0.958747 -124.20295 0.074228 -32.671126
820.0 0.072847 -34.086143 0.958529 -125.720339 0.958529 -125.720339 0.072847 -34.086143
830.0 0.071416 -35.496386 0.958314 -127.237907 0.958314 -127.237907 0.071416 -35.496386
840.0 0.069935 -36.901433 0.958101 -128.755661 0.958101 -128.755661 0.069935 -36.901433
850.0 0.068407 -38.300806 0.95789 -130.273605 0.95789 -130.273605 0.068407 -38.300806
860.0 0.066832 -39.693965 0.957681 -131.791744 0.957681 -131.791744 0.066832 -39.693965
870.0 0.065211 -41.080302 0.957472 -133.310082 0.957472 -133.310082 0.065211 -41.080302
880.0 0.063546 -42.459125 0.957265 -134.828621 0.957265 -134.828621 0.063546 -42.459125
890.0 0.061837 -43.829645 0.957059 -136.347363 0.957059 -136.347363 0.061837 -43.829645
900.0 0.060087 -45.19096 0.956853 -137.866308 0.956853 -137.866308 0.060087 -45.19096
910.0 0.058295 -46.542033 0.956648 -139.385456 0.956648 -139.385456 0.058295 -46.542033
920.0 0.056464 -47.881666 0.956442 -140.904806 0.956442 -140.904806 0.056464 -47.881666
930.0 0.054595 -49.20847 0.956235 -142.424356 0.956235 -142.424356 0.054595 -49.20847
940.0 0.052689 -50.520823 0.956028 -143.944102 0.956028 -143.944102 0.052689 -50.520823
950.0 0.050748 -51.816819 0.95582 -145.46404 0.95582 -145.46404 0.050748 -51.816819
960.0 0.048772 -53.094207 0.955611 -146.984167 0.955611 -146.984167 0.048772 -53.094207
970.0 0.046765 -54.350306 0.9554 -148.504476 0.9554 -148.504476 0.046765 -54.350306
980.0 0.044727 -55.581899 0.955188 -150.02496 0.955188 -150.02496 0.044727 -55.581899
990.0 0.042659 -56.785094 0.954973 -151.545612 0.954973 -151.545612 0.042659 -56.785094
1000.0 0.040565 -57.955131 0.954756 -153.066425 0.954756 -153.066425 0.040565 -57.955131
1010.0 0.038444 -59.086138 0.954537 -154.587388 0.954537 -154.587388 0.038444 -59.086138
1020.0 0.036299 -60.170778 0.954314 -156.108493 0.954314 -156.108493 0.036299 -60.170778
1030.0 0.034133 -61.199767 0.954089 -157.62973 0.954089 -157.62973 0.034133 -61.199767
1040.0 0.031946 -62.161188 0.953861 -159.151086 0.953861 -159.151086 0.031946 -62.161188
1050.0 0.029742 -63.039487 0.953629 -160.67255 0.953629 -160.67255 0.029742 -63.039487
1060.0 0.027522 -63.813996 0.953393 -162.194111 0.953393 -162.194111 0.027522 -63.813996
1070.0 0.02529 -64.45665 0.953154 -163.715756 0.953154 -163.715756 0.02529 -64.45665
1080.0 0.023048 -64.928414 0.952911 -165.23747 0.952911 -165.23747 0.023048 -64.928414
1090.0 0.0208 -65.173429 0.952664 -166.759241 0.952664 -166.759241 0.0208 -65.173429
1100.0 0.018552 -65.10908 0.952413 -168.281053 0.952413 -168.281053 0.018552 -65.10908
1110.0 0.016311 -64.608316 0.952157 -169.802894 0.952157 -169.802894 0.016311 -64.608316
1120.0 0.014086 -63.466511 0.951898 -171.324747 0.951898 -171.324747 0.014086 -63.466511
1130.0 0.011894 -61.335754 0.951633 -172.846597 0.951633 -172.846597 0.011894 -61.335754
1140.0 0.009765 -57.587311 0.951364 -174.368429 0.951364 -174.368429 0.009765 -57.587311
1150.0 0.007758 -51.017772 0.951091 -175.890228 0.951091 -175.890228 0.007758 -51.017772
1160.0 0.006003 -39.311591 0.950813 -177.411977 0.950813 -177.411977 0.006003 -39.311591
1170.0 0.004791 -19.100364 0.95053 -178.93366 0.95053 -178.93366 0.004791 -19.100364
1180.0 0.004578 8.40337 0.950243 179.544738 0.950243 179.544738 0.004578 8.40337
1190.0 0.00548 31.963869 0.949951 178.023233 0.949951 178.023233 0.00548 31.963869
1200.0 0.00708 46.341736 0.949654 176.501842 0.949654 176.501842 0.00708 46.341736
1210.0 0.009009 54.407424 0.949353 174.98058 0.949353 174.98058 0.009009 54.407424
1220.0 0.011092 58.985384 0.949047 173.459463 0.949047 173.459463 0.011092 58.985384
1230.0 0.013252 61.604807 0.948737 171.938506 0.948737 171.938506 0.013252 61.604807
1240.0 0.01545 63.054245 0.948423 170.417725 0.948423 170.417725 0.01545 63.054245
1250.0 0.017666 63.760508 0.948104 168.897134 0.948104 168.897134 0.017666 63.760508
1260.0 0.01989 63.969349 0.947781 167.376749 0.947781 167.376749 0.01989 63.969349
1270.0 0.022112 63.830572 0.947453 165.856583 0.947453 165.856583 0.022112 63.830572
1280.0 0.024327 63.440076 0.947122 164.336651 0.947122 164.336651 0.024327 63.440076
1290.0 0.026532 62.861849 0.946787 162.816966 0.946787 162.816966 0.026532 62.861849
1300.0 0.028722 62.140114 0.946449 161.29754 0.946449 161.29754 0.028722 62.140114
1310.0 0.030896 61.306359 0.946107 159.778387 0.946107 159.778387 0.030896 61.306359
1320.0 0.033049 60.383588 0.945761 158.259518 0.945761 158.259518 0.033049 60.383588
1330.0 0.035181 59.388984 0.945413 156.740945 0.945413 156.740945 0.035181 59.388984
1340.0 0.037289 58.335635 0.945061 155.222678 0.945061 155.222678 0.037289 58.335635
1350.0 0.039372 57.233677 0.944707 153.704726 0.944707 153.704726 0.039372 57.233677
1360.0 0.041427 56.091088 0.94435 152.1871 0.94435 152.1871 0.041427 56.091088
1370.0 0.043453 54.914223 0.943992 150.669807 0.943992 150.669807 0.043453 54.914223
1380.0 0.045449 53.708214 0.943631 149.152857 0.943631 149.152857 0.045449 53.708214
1390.0 0.047412 52.477246 0.943268 147.636254 0.943268 147.636254 0.047412 52.477246
1400.0 0.049341 51.224768 0.942904 146.120007 0.942904 146.120007 0.049341 51.224768
1410.0 0.051236 49.953647 0.942538 144.60412 0.942538 144.60412 0.051236 49.953647
1420.0 0.053094 48.666286 0.942172 143.088599 0.942172 143.088599 0.053094 48.666286
1430.0 0.054914 47.364717 0.941804 141.573446 0.941804 141.573446 0.054914 47.364717
1440.0 0.056695 46.050668 0.941437 140.058664 0.941437 140.058664 0.056695 46.050668
1450.0 0.058435 44.725616 0.941068 138.544257 0.941068 138.544257 0.058435 44.725616
1460.0 0.060134 43.390837 0.9407 137.030225 0.9407 137.030225 0.060134 43.390837
1470.0 0.06179 42.047435 0.940333 135.516569 0.940333 135.516569 0.06179 42.047435
1480.0 0.063402 40.696371 0.939965 134.003288 0.939965 134.003288 0.063402 40.696371
1490.0 0.064969 39.338486 0.939599 132.49038 0.939599 132.49038 0.064969 39.338486
1500.0 0.06649 37.974521 0.939233 130.977845 0.939233 130.977845 0.06649 37.974521
1510.0 0.067964 36.60513 0.938869 129.465678 0.938869 129.465678 0.067964 36.60513
1520.0 0.06939 35.230892 0.938507 127.953876 0.938507 127.953876 0.06939 35.230892
1530.0 0.070767 33.852325 0.938146 126.442435 0.938146 126.442435 0.070767 33.852325
1540.0 0.072094 32.469891 0.937787 124.931348 0.937787 124.931348 0.072094 32.469891
1550.0 0.07337 31.084005 0.937431 123.42061 0.937431 123.42061 0.07337 31.084005
1560.0 0.074595 29.695042 0.937077 121.910214 0.937077 121.910214 0.074595 29.695042
1570.0 0.075767 28.303339 0.936726 120.400151 0.936726 120.400151 0.075767 28.303339
1580.0 0.076886 26.909205 0.936378 118.890414 0.936378 118.890414 0.076886 26.909205
1590.0 0.077951 25.512919 0.936034 117.380992 0.936034 117.380992 0.077951 25.512919
1600.0 0.078961 24.114739 0.935692 115.871877 0.935692 115.871877 0.078961 24.114739
1610.0 0.079916 22.7149 0.935355 114.363058 0.935355 114.363058 0.079916 22.7149
1620.0 0.080816 21.31362 0.935021 112.854522 0.935021 112.854522 0.080816 21.31362
1630.0 0.081659 19.911099 0.934691 111.34626 0.934691 111.34626 0.081659 19.911099
1640.0 0.082445 18.507527 0.934365 109.838258 0.934365 109.838258 0.082445 18.507527
1650.0 0.083174 17.103078 0.934044 108.330502 0.934044 108.330502 0.083174 17.103078
1660.0 0.083845 15.697916 0.933727 106.822981 0.933727 106.822981 0.083845 15.697916
1670.0 0.084458 14.292199 0.933415 105.31568 0.933415 105.31568 0.084458 14.292199
1680.0 0.085012 12.886072 0.933107 103.808585 0.933107 103.808585 0.085012 12.886072
1690.0 0.085508 11.479677 0.932805 102.301681 0.932805 102.301681 0.085508 11.479677
1700.0 0.085944 10.073149 0.932507 100.794954 0.932507 100.794954 0.085944 10.073149
1710.0 0.086321 8.666619 0.932214 99.288387 0.932214 99.288387 0.086321 8.666619
1720.0 0.086638 7.260215 0.931927 97.781965 0.931927 97.781965 0.086638 7.260215
1730.0 0.086896 5.85406 0.931644 96.275673 0.931644 96.275673 0.086896 5.85406
1740.0 0.087093 4.448276 0.931367 94.769495 0.931367 94.769495 0.087093 4.448276
1750.0 0.087231 3.042986 0.931095 93.263414 0.931095 93.263414 0.087231 3.042986
1760.0 0.087308 1.638311 0.930828 91.757414 0.930828 91.757414 0.087308 1.638311
1770.0 0.087326 0.234372 0.930567 90.25148 0.930567 90.25148 0.087326 0.234372
1780.0 0.087283 -1.168708 0.93031 88.745594 0.93031 88.745594 0.087283 -1.168708
1790.0 0.087181 -2.570803 0.930059 87.239741 0.930059 87.239741 0.087181 -2.570803
1800.0 0.087018 -3.971785 0.929814 85.733904 0.929814 85.733904 0.087018 -3.971785
1810.0 0.086796 -5.371522 0.929573 84.228067 0.929573 84.228067 0.086796 -5.371522
1820.0 0.086515 -6.769876 0.929338 82.722216 0.929338 82.722216 0.086515 -6.769876
1830.0 0.086174 -8.166705 0.929107 81.216333 0.929107 81.216333 0.086174 -8.166705
1840.0 0.085774 -9.56186 0.928882 79.710403 0.928882 79.710403 0.085774 -9.56186
1850.0 0.085316 -10.955183 0.928661 78.204412 0.928661 78.204412 0.085316 -10.955183
1860.0 0.084799 -12.346508 0.928445 76.698344 0.928445 76.698344 0.084799 -12.346508
1870.0 0.084225 -13.73566 0.928234 75.192186 0.928234 75.192186 0.084225 -13.73566
1880.0 0.083592 -15.122449 0.928027 73.685923 0.928027 73.685923 0.083592 -15.122449
1890.0 0.082903 -16.506676 0.927824 72.179541 0.927824 72.179541 0.082903 -16.506676
1900.0 0.082157 -17.888125 0.927626 70.673028 0.927626 70.673028 0.082157 -17.888125
1910.0 0.081355 -19.266564 0.927432 69.166371 0.927432 69.166371 0.081355 -19.266564
1920.0 0.080498 -20.641743 0.927241 67.659557 0.927241 67.659557 0.080498 -20.641743
1930.0 0.079586 -22.01339 0.927055 66.152576 0.927055 66.152576 0.079586 -22.01339
1940.0 0.078619 -23.38121 0.926871 64.645416 0.926871 64.645416 0.078619 -23.38121
1950.0 0.0776 -24.744882 0.926691 63.138068 0.926691 63.138068 0.0776 -24.744882
1960.0 0.076527 -26.104056 0.926514 61.630521 0.926514 61.630521 0.076527 -26.104056
1970.0 0.075402 -27.458346 0.92634 60.122768 0.92634 60.122768 0.075402 -27.458346
1980.0 0.074227 -28.807331 0.926169 58.614799 0.926169 58.614799 0.074227 -28.807331
1990.0 0.073 -30.150544 0.926 57.106607 0.926 57.106607 0.073 -30.150544
2000.0 0.071725 -31.487471 0.925833 55.598185 0.925833 55.598185 0.071725 -31.487471
2010.0 0.070401 -32.817542 0.925668 54.089528 0.925668 54.089528 0.070401 -32.817542
2020.0 0.069029 -34.140124 0.925504 52.580631 0.925504 52.580631 0.069029 -34.140124
2030.0 0.067611 -35.45451 0.925342 51.071489 0.925342 51.071489 0.067611 -35.45451
2040.0 0.066147 -36.759908 0.925182 49.562099 0.925182 49.562099 0.066147 -36.759908
2050.0 0.064639 -38.055433 0.925022 48.052457 0.925022 48.052457 0.064639 -38.055433
2060.0 0.063087 -39.340084 0.924862 46.542562 0.924862 46.542562 0.063087 -39.340084
2070.0 0.061494 -40.61273 0.924704 45.032414 0.924704 45.032414 0.061494 -40.61273
2080.0 0.059859 -41.872088 0.924545 43.522011 0.924545 43.522011 0.059859 -41.872088
2090.0 0.058184 -43.116695 0.924386 42.011355 0.924386 42.011355 0.058184 -43.116695
2100.0 0.056471 -44.344874 0.924227 40.500446 0.924227 40.500446 0.056471 -44.344874
2110.0 0.054721 -45.554698 0.924067 38.989287 0.924067 38.989287 0.054721 -45.554698
2120.0 0.052935 -46.743935 0.923907 37.477882 0.923907 37.477882 0.052935 -46.743935
2130.0 0.051115 -47.90999 0.923745 35.966233 0.923745 35.966233 0.051115 -47.90999
2140.0 0.049262 -49.049829 0.923582 34.454346 0.923582 34.454346 0.049262 -49.049829
2150.0 0.047377 -50.159877 0.923417 32.942226 0.923417 32.942226 0.047377 -50.159877
2160.0 0.045463 -51.235899 0.923251 31.42988 0.923251 31.42988 0.045463 -51.235899
2170.0 0.043521 -52.272836 0.923082 29.917314 0.923082 29.917314 0.043521 -52.272836
2180.0 0.041552 -53.264599 0.922911 28.404535 0.922911 28.404535 0.041552 -53.264599
2190.0 0.03956 -54.203793 0.922738 26.891554 0.922738 26.891554 0.03956 -54.203793
2200.0 0.037544 -55.081352 0.922562 25.378377 0.922562 25.378377 0.037544 -55.081352
2210.0 0.035509 -55.886046 0.922384 23.865016 0.922384 23.865016 0.035509 -55.886046
2220.0 0.033455 -56.603802 0.922202 22.35148 0.922202 22.35148 0.033455 -56.603802
2230.0 0.031387 -57.216763 0.922017 20.837781 0.922017 20.837781 0.031387 -57.216763
2240.0 0.029306 -57.701953 0.921828 19.32393 0.921828 19.32393 0.029306 -57.701953
2250.0 0.027217 -58.029351 0.921636 17.809938 0.921636 17.809938 0.027217 -58.029351
2260.0 0.025123 -58.15906 0.921441 16.29582 0.921441 16.29582 0.025123 -58.15906
2270.0 0.02303 -58.037058 0.921241 14.781587 0.921241 14.781587 0.02303 -58.037058
2280.0 0.020945 -57.588678 0.921038 13.267253 0.921038 13.267253 0.020945 -57.588678
2290.0 0.018876 -56.708427 0.92083 11.752831 0.92083 11.752831 0.018876 -56.708427
2300.0 0.016835 -55.243809 0.920618 10.238337 0.920618 10.238337 0.016835 -55.243809
2310.0 0.014842 -52.969583 0.920402 8.723784 0.920402 8.723784 0.014842 -52.969583
2320.0 0.012924 -49.547964 0.920182 7.209187 0.920182 7.209187 0.012924 -49.547964
2330.0 0.011127 -44.474275 0.919957 5.694561 0.919957 5.694561 0.011127 -44.474275
2340.0 0.009524 -37.03542 0.919728 4.179921 0.919728 4.179921 0.009524 -37.03542
2350.0 0.008235 -26.416113 0.919495 2.665283 0.919495 2.665283 0.008235 -26.416113
