! File created by SignalIntegrity v1.3.5: Signal and Power Integrity Tools
! https://github.com/TeledyneLeCroy/SignalIntegrity
# MHz S MA R 50.0
0.0 0.0 0.0 1.0 0.0 1.0 0.0 0.0 0.0
10.0 0.005766 80.755653 0.993816 -3.550467 0.993816 -3.550467 0.005766 80.755653
20.0 0.01111 78.870581 0.991019 -6.886796 0.991019 -6.886796 0.01111 78.870581
30.0 0.016332 76.257672 0.988758 -10.183584 0.988758 -10.183584 0.016332 76.257672
40.0 0.02145 73.409883 0.986765 -13.458617 0.986765 -13.458617 0.02145 73.409883
50.0 0.026461 70.454954 0.984935 -16.718909 0.984935 -16.718909 0.026461 70.454954
60.0 0.031356 67.442578 0.983218 -19.968083 0.983218 -19.968083 0.031356 67.442578
70.0 0.036125 64.396536 0.981582 -23.208293 0.981582 -23.208293 0.036125 64.396536
80.0 0.040757 61.329774 0.98001 -26.440941 0.98001 -26.440941 0.040757 61.329774
90.0 0.045241 58.250005 0.978489 -29.666997 0.978489 -29.666997 0.045241 58.250005
100.0 0.049564 55.162135 0.977012 -32.887168 0.977012 -32.887168 0.049564 55.162135
110.0 0.053715 52.069451 0.975572 -36.101994 0.975572 -36.101994 0.053715 52.069451
120.0 0.057683 48.974246 0.974168 -39.311904 0.974168 -39.311904 0.057683 48.974246
130.0 0.061458 45.878174 0.972795 -42.51725 0.972795 -42.51725 0.061458 45.878174
140.0 0.065029 42.782464 0.971453 -45.718336 0.971453 -45.718336 0.065029 42.782464
150.0 0.068388 39.68805 0.970143 -48.915429 0.970143 -48.915429 0.068388 39.68805
160.0 0.071524 36.595661 0.968862 -52.108775 0.968862 -52.108775 0.071524 36.595661
170.0 0.074431 33.505876 0.967612 -55.298604 0.967612 -55.298604 0.074431 33.505876
180.0 0.077099 30.419166 0.966394 -58.485137 0.966394 -58.485137 0.077099 30.419166
190.0 0.079524 27.335925 0.965208 -61.66859 0.965208 -61.66859 0.079524 27.335925
200.0 0.081698 24.256492 0.964054 -64.849175 0.964054 -64.849175 0.081698 24.256492
210.0 0.083616 21.181169 0.962933 -68.027106 0.962933 -68.027106 0.083616 21.181169
220.0 0.085274 18.110234 0.961846 -71.202595 0.961846 -71.202595 0.085274 18.110234
230.0 0.086667 15.043957 0.960793 -74.375854 0.960793 -74.375854 0.086667 15.043957
240.0 0.087793 11.982609 0.959775 -77.547096 0.959775 -77.547096 0.087793 11.982609
250.0 0.088649 8.926478 0.958792 -80.716535 0.958792 -80.716535 0.088649 8.926478
260.0 0.089234 5.875873 0.957844 -83.884383 0.957844 -83.884383 0.089234 5.875873
270.0 0.089546 2.831144 0.956931 -87.050852 0.956931 -87.050852 0.089546 2.831144
280.0 0.089586 -0.20731 0.956051 -90.216148 0.956051 -90.216148 0.089586 -0.20731
290.0 0.089354 -3.239022 0.955206 -93.380476 0.955206 -93.380476 0.089354 -3.239022
300.0 0.088851 -6.263446 0.954393 -96.544035 0.954393 -96.544035 0.088851 -6.263446
310.0 0.088081 -9.279929 0.953612 -99.707016 0.953612 -99.707016 0.088081 -9.279929
320.0 0.087045 -12.287695 0.952861 -102.869603 0.952861 -102.869603 0.087045 -12.287695
330.0 0.085747 -15.28581 0.952139 -106.03197 0.952139 -106.03197 0.085747 -15.28581
340.0 0.084192 -18.273148 0.951444 -109.194281 0.951444 -109.194281 0.084192 -18.273148
350.0 0.082385 -21.248346 0.950774 -112.356687 0.950774 -112.356687 0.082385 -21.248346
360.0 0.080332 -24.209746 0.950127 -115.519325 0.950127 -115.519325 0.080332 -24.209746
370.0 0.078038 -27.15532 0.9495 -118.682321 0.9495 -118.682321 0.078038 -27.15532
380.0 0.075513 -30.082569 0.948892 -121.845782 0.948892 -121.845782 0.075513 -30.082569
390.0 0.072763 -32.988396 0.9483 -125.0098 0.9483 -125.0098 0.072763 -32.988396
400.0 0.069797 -35.868925 0.94772 -128.174451 0.94772 -128.174451 0.069797 -35.868925
410.0 0.066625 -38.71925 0.947151 -131.339793 0.947151 -131.339793 0.066625 -38.71925
420.0 0.063257 -41.533093 0.94659 -134.505867 0.94659 -134.505867 0.063257 -41.533093
430.0 0.059703 -44.302293 0.946034 -137.672696 0.946034 -137.672696 0.059703 -44.302293
440.0 0.055976 -47.016068 0.945481 -140.840286 0.945481 -140.840286 0.055976 -47.016068
450.0 0.052086 -49.659882 0.944927 -144.008623 0.944927 -144.008623 0.052086 -49.659882
460.0 0.048049 -52.213676 0.94437 -147.17768 0.94437 -147.17768 0.048049 -52.213676
470.0 0.043876 -54.648989 0.943809 -150.347411 0.943809 -150.347411 0.043876 -54.648989
480.0 0.039584 -56.924081 0.943239 -153.517755 0.943239 -153.517755 0.039584 -56.924081
490.0 0.035189 -58.975235 0.942661 -156.688637 0.942661 -156.688637 0.035189 -58.975235
500.0 0.03071 -60.700254 0.94207 -159.859968 0.94207 -159.859968 0.03071 -60.700254
510.0 0.02617 -61.92476 0.941467 -163.031648 0.941467 -163.031648 0.02617 -61.92476
520.0 0.021599 -62.326574 0.940849 -166.203566 0.940849 -166.203566 0.021599 -62.326574
530.0 0.017046 -61.244853 0.940215 -169.375601 0.940215 -169.375601 0.017046 -61.244853
540.0 0.01261 -57.123489 0.939564 -172.547626 0.939564 -172.547626 0.01261 -57.123489
550.0 0.008556 -45.662975 0.938896 -175.719508 0.938896 -175.719508 0.008556 -45.662975
560.0 0.005835 -15.798582 0.938209 -178.891111 0.938209 -178.891111 0.005835 -15.798582
570.0 0.006463 27.140706 0.937505 177.937705 0.937505 177.937705 0.006463 27.140706
580.0 0.009801 49.335027 0.936782 174.767078 0.936782 174.767078 0.009801 49.335027
590.0 0.014001 57.553911 0.936041 171.597144 0.936041 171.597144 0.014001 57.553911
600.0 0.018446 60.401329 0.935284 168.428037 0.935284 168.428037 0.018446 60.401329
610.0 0.02295 60.897378 0.93451 165.259885 0.93451 165.259885 0.02295 60.897378
620.0 0.027439 60.192574 0.933721 162.092808 0.933721 162.092808 0.027439 60.192574
630.0 0.031872 58.800532 0.932918 158.926919 0.932918 158.926919 0.031872 58.800532
640.0 0.036224 56.981389 0.932103 155.76232 0.932103 155.76232 0.036224 56.981389
650.0 0.040472 54.880085 0.931278 152.599101 0.931278 152.599101 0.040472 54.880085
660.0 0.044601 52.583506 0.930444 149.437341 0.930444 149.437341 0.044601 52.583506
670.0 0.048595 50.146822 0.929604 146.277104 0.929604 146.277104 0.048595 50.146822
680.0 0.05244 47.60673 0.928759 143.118442 0.928759 143.118442 0.05244 47.60673
690.0 0.056125 44.988587 0.927912 139.961389 0.927912 139.961389 0.056125 44.988587
700.0 0.059636 42.310488 0.927065 136.805966 0.927065 136.805966 0.059636 42.310488
710.0 0.062964 39.585701 0.92622 133.652177 0.92622 133.652177 0.062964 39.585701
720.0 0.066099 36.824191 0.92538 130.500012 0.92538 130.500012 0.066099 36.824191
730.0 0.06903 34.033602 0.924547 127.349445 0.924547 127.349445 0.06903 34.033602
740.0 0.071751 31.21991 0.923722 124.200433 0.923722 124.200433 0.071751 31.21991
750.0 0.074252 28.387872 0.922909 121.052921 0.922909 121.052921 0.074252 28.387872
760.0 0.076528 25.541337 0.922108 117.906838 0.922108 117.906838 0.076528 25.541337
770.0 0.078571 22.683476 0.921323 114.762102 0.921323 114.762102 0.078571 22.683476
780.0 0.080376 19.816942 0.920553 111.618618 0.920553 111.618618 0.080376 19.816942
790.0 0.081939 16.943999 0.919802 108.476278 0.919802 108.476278 0.081939 16.943999
800.0 0.083254 14.066614 0.91907 105.334968 0.91907 105.334968 0.083254 14.066614
810.0 0.08432 11.186532 0.918359 102.194563 0.918359 102.194563 0.08432 11.186532
820.0 0.085132 8.305343 0.917669 99.054932 0.917669 99.054932 0.085132 8.305343
830.0 0.08569 5.424525 0.917 95.915939 0.917 95.915939 0.08569 5.424525
840.0 0.085992 2.545494 0.916354 92.777443 0.916354 92.777443 0.085992 2.545494
850.0 0.086038 -0.330356 0.915731 89.639302 0.915731 89.639302 0.086038 -0.330356
860.0 0.085828 -3.201616 0.91513 86.501373 0.91513 86.501373 0.085828 -3.201616
870.0 0.085362 -6.06682 0.914551 83.363515 0.914551 83.363515 0.085362 -6.06682
880.0 0.084644 -8.924408 0.913993 80.225587 0.913993 80.225587 0.084644 -8.924408
890.0 0.083676 -11.772678 0.913456 77.087456 0.913456 77.087456 0.083676 -11.772678
900.0 0.08246 -14.609734 0.912939 73.948992 0.912939 73.948992 0.08246 -14.609734
910.0 0.081 -17.43343 0.912441 70.810073 0.912441 70.810073 0.081 -17.43343
920.0 0.079303 -20.241294 0.91196 67.670587 0.91196 67.670587 0.079303 -20.241294
930.0 0.077372 -23.030434 0.911494 64.530431 0.911494 64.530431 0.077372 -23.030434
940.0 0.075214 -25.797428 0.911043 61.389511 0.911043 61.389511 0.075214 -25.797428
950.0 0.072836 -28.538169 0.910604 58.24775 0.910604 58.24775 0.072836 -28.538169
960.0 0.070245 -31.247666 0.910174 55.105079 0.910174 55.105079 0.070245 -31.247666
970.0 0.06745 -33.919782 0.909753 51.961446 0.909753 51.961446 0.06745 -33.919782
980.0 0.06446 -36.546859 0.909337 48.816813 0.909337 48.816813 0.06446 -36.546859
990.0 0.061285 -39.119215 0.908926 45.671155 0.908926 45.671155 0.061285 -39.119215
1000.0 0.057935 -41.624411 0.908515 42.524464 0.908515 42.524464 0.057935 -41.624411
1010.0 0.054422 -44.046186 0.908104 39.376746 0.908104 39.376746 0.054422 -44.046186
1020.0 0.050759 -46.362865 0.907691 36.228023 0.907691 36.228023 0.050759 -46.362865
1030.0 0.046958 -48.544908 0.907272 33.07833 0.907272 33.07833 0.046958 -48.544908
1040.0 0.043035 -50.551018 0.906846 29.927718 0.906846 29.927718 0.043035 -50.551018
1050.0 0.039007 -52.321712 0.906412 26.776251 0.906412 26.776251 0.039007 -52.321712
1060.0 0.034892 -53.768286 0.905967 23.624004 0.905967 23.624004 0.034892 -53.768286
1070.0 0.030716 -54.752897 0.905509 20.471067 0.905509 20.471067 0.030716 -54.752897
1080.0 0.02651 -55.050599 0.905038 17.317537 0.905038 17.317537 0.02651 -55.050599
1090.0 0.022318 -54.272576 0.904553 14.163524 0.904553 14.163524 0.022318 -54.272576
1100.0 0.018217 -51.701954 0.904051 11.009143 0.904051 11.009143 0.018217 -51.701954
1110.0 0.01435 -45.937524 0.903532 7.854518 0.903532 7.854518 0.01435 -45.937524
1120.0 0.011032 -34.272001 0.902996 4.699776 0.902996 4.699776 0.011032 -34.272001
1130.0 0.008947 -13.232169 0.902442 1.545049 0.902442 1.545049 0.008947 -13.232169
1140.0 0.009017 13.666902 0.90187 -1.60953 0.90187 -1.60953 0.009017 13.666902
1150.0 0.011195 34.075542 0.90128 -4.763828 0.90128 -4.763828 0.011195 34.075542
1160.0 0.014539 45.259695 0.900673 -7.917714 0.900673 -7.917714 0.014539 45.259695
1170.0 0.018393 50.76652 0.900049 -11.071059 0.900049 -11.071059 0.018393 50.76652
1180.0 0.022457 53.203426 0.899409 -14.223739 0.899409 -14.223739 0.022457 53.203426
1190.0 0.026595 53.911673 0.898754 -17.375636 0.898754 -17.375636 0.026595 53.911673
1200.0 0.030735 53.579426 0.898084 -20.526642 0.898084 -20.526642 0.030735 53.579426
1210.0 0.034832 52.581514 0.897403 -23.676655 0.897403 -23.676655 0.034832 52.581514
1220.0 0.038856 51.135661 0.89671 -26.825584 0.89671 -26.825584 0.038856 51.135661
1230.0 0.042784 49.375759 0.896007 -29.973351 0.896007 -29.973351 0.042784 49.375759
1240.0 0.046598 47.38824 0.895297 -33.119888 0.895297 -33.119888 0.046598 47.38824
1250.0 0.050282 45.231225 0.894582 -36.265142 0.894582 -36.265142 0.050282 45.231225
1260.0 0.053821 42.945181 0.893862 -39.409073 0.893862 -39.409073 0.053821 42.945181
1270.0 0.057203 40.559135 0.893141 -42.551653 0.893141 -42.551653 0.057203 40.559135
1280.0 0.060417 38.094452 0.89242 -45.692872 0.89242 -45.692872 0.060417 38.094452
1290.0 0.063452 35.567217 0.891702 -48.832732 0.891702 -48.832732 0.063452 35.567217
1300.0 0.066298 32.989793 0.890988 -51.971249 0.890988 -51.971249 0.066298 32.989793
1310.0 0.068946 30.371854 0.89028 -55.108455 0.89028 -55.108455 0.068946 30.371854
1320.0 0.071389 27.721105 0.88958 -58.244394 0.88958 -58.244394 0.071389 27.721105
1330.0 0.07362 25.043781 0.888891 -61.379124 0.888891 -61.379124 0.07362 25.043781
1340.0 0.075632 22.345011 0.888213 -64.512715 0.888213 -64.512715 0.075632 22.345011
1350.0 0.077418 19.629081 0.887549 -67.645248 0.887549 -67.645248 0.077418 19.629081
1360.0 0.078975 16.899632 0.886899 -70.776816 0.886899 -70.776816 0.078975 16.899632
1370.0 0.080298 14.159813 0.886265 -73.907518 0.886265 -73.907518 0.080298 14.159813
1380.0 0.081383 11.412402 0.885648 -77.037466 0.885648 -77.037466 0.081383 11.412402
1390.0 0.082228 8.659894 0.885049 -80.166776 0.885049 -80.166776 0.082228 8.659894
1400.0 0.08283 5.904587 0.884468 -83.295568 0.884468 -83.295568 0.08283 5.904587
1410.0 0.083188 3.148647 0.883906 -86.423969 0.883906 -86.423969 0.083188 3.148647
1420.0 0.083301 0.394164 0.883364 -89.552107 0.883364 -89.552107 0.083301 0.394164
1430.0 0.08317 -2.356789 0.88284 -92.680112 0.88284 -92.680112 0.08317 -2.356789
1440.0 0.082795 -5.102102 0.882336 -95.808113 0.882336 -95.808113 0.082795 -5.102102
1450.0 0.082178 -7.839577 0.88185 -98.936236 0.88185 -98.936236 0.082178 -7.839577
1460.0 0.08132 -10.566867 0.881382 -102.064605 0.881382 -102.064605 0.08132 -10.566867
1470.0 0.080226 -13.281409 0.880932 -105.193339 0.880932 -105.193339 0.080226 -13.281409
1480.0 0.078897 -15.980354 0.880497 -108.32255 0.880497 -108.32255 0.078897 -15.980354
1490.0 0.07734 -18.660474 0.880078 -111.452344 0.880078 -111.452344 0.07734 -18.660474
1500.0 0.075559 -21.31805 0.879672 -114.582816 0.879672 -114.582816 0.075559 -21.31805
1510.0 0.073559 -23.948738 0.879279 -117.714053 0.879279 -117.714053 0.073559 -23.948738
1520.0 0.071348 -26.547388 0.878896 -120.846131 0.878896 -120.846131 0.071348 -26.547388
1530.0 0.068932 -29.107817 0.878523 -123.979114 0.878523 -123.979114 0.068932 -29.107817
1540.0 0.06632 -31.622497 0.878156 -127.113053 0.878156 -127.113053 0.06632 -31.622497
1550.0 0.06352 -34.082142 0.877795 -130.247986 0.877795 -130.247986 0.06352 -34.082142
1560.0 0.060542 -36.475137 0.877437 -133.383938 0.877437 -133.383938 0.060542 -36.475137
1570.0 0.057397 -38.786731 0.87708 -136.520922 0.87708 -136.520922 0.057397 -38.786731
1580.0 0.054096 -40.997891 0.876723 -139.658933 0.876723 -139.658933 0.054096 -40.997891
1590.0 0.050651 -43.083612 0.876364 -142.797956 0.876364 -142.797956 0.050651 -43.083612
1600.0 0.047077 -45.010396 0.876 -145.93796 0.876 -145.93796 0.047077 -45.010396
1610.0 0.04339 -46.732357 0.87563 -149.078902 0.87563 -149.078902 0.04339 -46.732357
1620.0 0.039607 -48.185045 0.875252 -152.220726 0.875252 -152.220726 0.039607 -48.185045
1630.0 0.035751 -49.275346 0.874865 -155.363365 0.874865 -155.363365 0.035751 -49.275346
1640.0 0.031848 -49.864368 0.874467 -158.506738 0.874467 -158.506738 0.031848 -49.864368
1650.0 0.027933 -49.737509 0.874056 -161.650758 0.874056 -161.650758 0.027933 -49.737509
1660.0 0.024059 -48.550724 0.873632 -164.795325 0.873632 -164.795325 0.024059 -48.550724
1670.0 0.020306 -45.73433 0.873193 -167.940333 0.873193 -167.940333 0.020306 -45.73433
1680.0 0.016812 -40.337235 0.872739 -171.08567 0.872739 -171.08567 0.016812 -40.337235
1690.0 0.013829 -30.894452 0.87227 -174.231217 0.87227 -174.231217 0.013829 -30.894452
1700.0 0.011794 -15.957073 0.871784 -177.376853 0.871784 -177.376853 0.011794 -15.957073
1710.0 0.011257 3.289382 0.871281 179.477545 0.871281 179.477545 0.011257 3.289382
1720.0 0.012414 21.338281 0.870762 176.332103 0.870762 176.332103 0.012414 21.338281
1730.0 0.01486 34.070556 0.870227 173.186943 0.870227 173.186943 0.01486 34.070556
1740.0 0.018053 41.75853 0.869676 170.042187 0.869676 170.042187 0.018053 41.75853
1750.0 0.021633 46.025542 0.86911 166.897952 0.86911 166.897952 0.021633 46.025542
1760.0 0.0254 48.138383 0.86853 163.754351 0.86853 163.754351 0.0254 48.138383
1770.0 0.029243 48.879375 0.867936 160.611488 0.867936 160.611488 0.029243 48.879375
1780.0 0.033096 48.716137 0.86733 157.469462 0.86733 157.469462 0.033096 48.716137
1790.0 0.036915 47.934261 0.866713 154.328362 0.866713 154.328362 0.036915 47.934261
1800.0 0.040668 46.714454 0.866087 151.188264 0.866087 151.188264 0.040668 46.714454
1810.0 0.044332 45.17533 0.865453 148.049238 0.865453 148.049238 0.044332 45.17533
1820.0 0.047886 43.397451 0.864812 144.911338 0.864812 144.911338 0.047886 43.397451
1830.0 0.051315 41.437237 0.864168 141.774608 0.864168 141.774608 0.051315 41.437237
1840.0 0.054604 39.335288 0.86352 138.639078 0.86352 138.639078 0.054604 39.335288
1850.0 0.057741 37.121539 0.862872 135.504765 0.862872 135.504765 0.057741 37.121539
1860.0 0.060714 34.81854 0.862225 132.371674 0.862225 132.371674 0.060714 34.81854
1870.0 0.063512 32.443612 0.861581 129.239795 0.861581 129.239795 0.063512 32.443612
1880.0 0.066127 30.010303 0.860941 126.109105 0.860941 126.109105 0.066127 30.010303
1890.0 0.06855 27.529384 0.860308 122.979568 0.860308 122.979568 0.06855 27.529384
1900.0 0.070774 25.009557 0.859683 119.851138 0.859683 119.851138 0.070774 25.009557
1910.0 0.072791 22.457959 0.859068 116.723753 0.859068 116.723753 0.072791 22.457959
1920.0 0.074595 19.880535 0.858463 113.597344 0.858463 113.597344 0.074595 19.880535
1930.0 0.076182 17.282317 0.857871 110.471829 0.857871 110.471829 0.076182 17.282317
1940.0 0.077546 14.667632 0.857293 107.347119 0.857293 107.347119 0.077546 14.667632
1950.0 0.078684 12.040268 0.856729 104.223115 0.856729 104.223115 0.078684 12.040268
1960.0 0.079593 9.403606 0.856181 101.099714 0.856181 101.099714 0.079593 9.403606
1970.0 0.08027 6.760723 0.855649 97.976803 0.855649 97.976803 0.08027 6.760723
1980.0 0.080713 4.114484 0.855133 94.854268 0.855133 94.854268 0.080713 4.114484
1990.0 0.080922 1.467619 0.854634 91.731992 0.854634 91.731992 0.080922 1.467619
2000.0 0.080896 -1.177207 0.854153 88.609854 0.854153 88.609854 0.080896 -1.177207
2010.0 0.080636 -3.817326 0.853688 85.487735 0.853688 85.487735 0.080636 -3.817326
2020.0 0.080143 -6.450002 0.85324 82.365517 0.85324 82.365517 0.080143 -6.450002
2030.0 0.079419 -9.072363 0.852808 79.243083 0.852808 79.243083 0.079419 -9.072363
2040.0 0.078466 -11.681324 0.852392 76.120322 0.852392 76.120322 0.078466 -11.681324
2050.0 0.077287 -14.273503 0.851991 72.997126 0.851991 72.997126 0.077287 -14.273503
2060.0 0.075887 -16.845124 0.851603 69.873395 0.851603 69.873395 0.075887 -16.845124
2070.0 0.07427 -19.391898 0.851229 66.749036 0.851229 66.749036 0.07427 -19.391898
2080.0 0.072442 -21.908871 0.850865 63.623965 0.850865 63.623965 0.072442 -21.908871
2090.0 0.070408 -24.390243 0.850512 60.498108 0.850512 60.498108 0.070408 -24.390243
2100.0 0.068177 -26.829125 0.850167 57.3714 0.850167 57.3714 0.068177 -26.829125
2110.0 0.065755 -29.217228 0.849829 54.243789 0.849829 54.243789 0.065755 -29.217228
2120.0 0.063151 -31.544442 0.849497 51.115234 0.849497 51.115234 0.063151 -31.544442
2130.0 0.060374 -33.798274 0.849168 47.985707 0.849168 47.985707 0.060374 -33.798274
2140.0 0.057435 -35.963062 0.848841 44.855191 0.848841 44.855191 0.057435 -35.963062
2150.0 0.054345 -38.018888 0.848514 41.723683 0.848514 41.723683 0.054345 -38.018888
2160.0 0.051117 -39.940009 0.848186 38.591194 0.848186 38.591194 0.051117 -39.940009
2170.0 0.047764 -41.692584 0.847854 35.457746 0.847854 35.457746 0.047764 -41.692584
2180.0 0.044304 -43.231274 0.847517 32.323375 0.847517 32.323375 0.044304 -43.231274
2190.0 0.040754 -44.494088 0.847173 29.188126 0.847173 29.188126 0.040754 -44.494088
2200.0 0.037137 -45.394341 0.846822 26.05206 0.846822 26.05206 0.037137 -45.394341
2210.0 0.033481 -45.807898 0.846461 22.915244 0.846461 22.915244 0.033481 -45.807898
2220.0 0.029822 -45.552624 0.846089 19.777759 0.846089 19.777759 0.029822 -45.552624
2230.0 0.026211 -44.355355 0.845705 16.639693 0.845705 16.639693 0.026211 -44.355355
2240.0 0.022722 -41.80131 0.845309 13.501141 0.845309 13.501141 0.022722 -41.80131
2250.0 0.019471 -37.270441 0.844899 10.362206 0.844899 10.362206 0.019471 -37.270441
2260.0 0.016647 -29.920165 0.844474 7.222996 0.844474 7.222996 0.016647 -29.920165
2270.0 0.014538 -18.958205 0.844035 4.083623 0.844035 4.083623 0.014538 -18.958205
2280.0 0.013512 -4.645771 0.843581 0.944203 0.843581 0.944203 0.013512 -4.645771
2290.0 0.013819 10.589501 0.843112 -2.19515 0.843112 -2.19515 0.013819 10.589501
2300.0 0.015372 23.519941 0.842627 -5.334318 0.842627 -5.334318 0.015372 23.519941
2310.0 0.017832 32.755704 0.842129 -8.473187 0.842129 -8.473187 0.017832 32.755704
2320.0 0.020853 38.698712 0.841616 -11.611646 0.841616 -11.611646 0.020853 38.698712
2330.0 0.024195 42.235608 0.841089 -14.749587 0.841089 -14.749587 0.024195 42.235608
2340.0 0.027707 44.113485 0.84055 -17.886909 0.84055 -17.886909 0.027707 44.113485
2350.0 0.031296 44.850081 0.839999 -21.023516 0.839999 -21.023516 0.031296 44.850081
