! File created by SignalIntegrity v1.4.3: Signal and Power Integrity Tools
! https://github.com/Nubis-Communications/SignalIntegrity
# MHz S MA R 50.0
0.0 0.0 0.0 1.0 0.0 1.0 0.0 0.0 180.0
10.0 0.008568 -90.490912 0.999963 -0.490912 0.999963 -0.490912 0.008568 -90.490912
20.0 0.017135 -90.981838 0.999853 -0.981838 0.999853 -0.981838 0.017135 -90.981838
30.0 0.025702 -91.472795 0.99967 -1.472795 0.99967 -1.472795 0.025702 -91.472795
40.0 0.034268 -91.963798 0.999413 -1.963798 0.999413 -1.963798 0.034268 -91.963798
50.0 0.042832 -92.454861 0.999082 -2.454861 0.999082 -2.454861 0.042832 -92.454861
60.0 0.051395 -92.945999 0.998678 -2.945999 0.998678 -2.945999 0.051395 -92.945999
70.0 0.059955 -93.437229 0.998201 -3.437229 0.998201 -3.437229 0.059955 -93.437229
80.0 0.068513 -93.928564 0.99765 -3.928564 0.99765 -3.928564 0.068513 -93.928564
90.0 0.077067 -94.42002 0.997026 -4.42002 0.997026 -4.42002 0.077067 -94.42002
100.0 0.085619 -94.911611 0.996328 -4.911611 0.996328 -4.911611 0.085619 -94.911611
110.0 0.094167 -95.403354 0.995556 -5.403354 0.995556 -5.403354 0.094167 -95.403354
120.0 0.10271 -95.895263 0.994711 -5.895263 0.994711 -5.895263 0.10271 -95.895263
130.0 0.11125 -96.387352 0.993793 -6.387352 0.993793 -6.387352 0.11125 -96.387352
140.0 0.119784 -96.879638 0.9928 -6.879638 0.9928 -6.879638 0.119784 -96.879638
150.0 0.128313 -97.372134 0.991734 -7.372134 0.991734 -7.372134 0.128313 -97.372134
160.0 0.136837 -97.864856 0.990594 -7.864856 0.990594 -7.864856 0.136837 -97.864856
170.0 0.145355 -98.357818 0.98938 -8.357818 0.98938 -8.357818 0.145355 -98.357818
180.0 0.153866 -98.851035 0.988092 -8.851035 0.988092 -8.851035 0.153866 -98.851035
190.0 0.162371 -99.344522 0.98673 -9.344522 0.98673 -9.344522 0.162371 -99.344522
200.0 0.170868 -99.838294 0.985294 -9.838294 0.985294 -9.838294 0.170868 -99.838294
210.0 0.179358 -100.332365 0.983784 -10.332365 0.983784 -10.332365 0.179358 -100.332365
220.0 0.18784 -100.82675 0.9822 -10.82675 0.9822 -10.82675 0.18784 -100.82675
230.0 0.196313 -101.321463 0.980541 -11.321463 0.980541 -11.321463 0.196313 -101.321463
240.0 0.204778 -101.816519 0.978808 -11.816519 0.978808 -11.816519 0.204778 -101.816519
250.0 0.213234 -102.311932 0.977001 -12.311932 0.977001 -12.311932 0.213234 -102.311932
260.0 0.22168 -102.807716 0.97512 -12.807716 0.97512 -12.807716 0.22168 -102.807716
270.0 0.230116 -103.303887 0.973163 -13.303887 0.973163 -13.303887 0.230116 -103.303887
280.0 0.238541 -103.800457 0.971132 -13.800457 0.971132 -13.800457 0.238541 -103.800457
290.0 0.246956 -104.297442 0.969027 -14.297442 0.969027 -14.297442 0.246956 -104.297442
300.0 0.255359 -104.794855 0.966846 -14.794855 0.966846 -14.794855 0.255359 -104.794855
310.0 0.26375 -105.292709 0.964591 -15.292709 0.964591 -15.292709 0.26375 -105.292709
320.0 0.272129 -105.79102 0.962261 -15.79102 0.962261 -15.79102 0.272129 -105.79102
330.0 0.280496 -106.289801 0.959855 -16.289801 0.959855 -16.289801 0.280496 -106.289801
340.0 0.288849 -106.789065 0.957375 -16.789065 0.957375 -16.789065 0.288849 -106.789065
350.0 0.297189 -107.288826 0.954819 -17.288826 0.954819 -17.288826 0.297189 -107.288826
360.0 0.305514 -107.789098 0.952188 -17.789098 0.952188 -17.789098 0.305514 -107.789098
370.0 0.313825 -108.289893 0.949481 -18.289893 0.949481 -18.289893 0.313825 -108.289893
380.0 0.322121 -108.791226 0.946699 -18.791226 0.946699 -18.791226 0.322121 -108.791226
390.0 0.330401 -109.29311 0.943841 -19.29311 0.943841 -19.29311 0.330401 -109.29311
400.0 0.338665 -109.795557 0.940907 -19.795557 0.940907 -19.795557 0.338665 -109.795557
410.0 0.346912 -110.29858 0.937898 -20.29858 0.937898 -20.29858 0.346912 -110.29858
420.0 0.355143 -110.802193 0.934812 -20.802193 0.934812 -20.802193 0.355143 -110.802193
430.0 0.363355 -111.306407 0.931651 -21.306407 0.931651 -21.306407 0.363355 -111.306407
440.0 0.37155 -111.811237 0.928413 -21.811237 0.928413 -21.811237 0.37155 -111.811237
450.0 0.379726 -112.316693 0.925099 -22.316693 0.925099 -22.316693 0.379726 -112.316693
460.0 0.387882 -112.822789 0.921709 -22.822789 0.921709 -22.822789 0.387882 -112.822789
470.0 0.396019 -113.329536 0.918242 -23.329536 0.918242 -23.329536 0.396019 -113.329536
480.0 0.404135 -113.836947 0.914699 -23.836947 0.914699 -23.836947 0.404135 -113.836947
490.0 0.412231 -114.345033 0.91108 -24.345033 0.91108 -24.345033 0.412231 -114.345033
500.0 0.420304 -114.853806 0.907383 -24.853806 0.907383 -24.853806 0.420304 -114.853806
510.0 0.428356 -115.363278 0.90361 -25.363278 0.90361 -25.363278 0.428356 -115.363278
520.0 0.436385 -115.87346 0.89976 -25.87346 0.89976 -25.87346 0.436385 -115.87346
530.0 0.444391 -116.384363 0.895833 -26.384363 0.895833 -26.384363 0.444391 -116.384363
540.0 0.452372 -116.895999 0.891829 -26.895999 0.891829 -26.895999 0.452372 -116.895999
550.0 0.46033 -117.408378 0.887748 -27.408378 0.887748 -27.408378 0.46033 -117.408378
560.0 0.468262 -117.921512 0.88359 -27.921512 0.88359 -27.921512 0.468262 -117.921512
570.0 0.476168 -118.435409 0.879354 -28.435409 0.879354 -28.435409 0.476168 -118.435409
580.0 0.484047 -118.950082 0.875042 -28.950082 0.875042 -28.950082 0.484047 -118.950082
590.0 0.4919 -119.46554 0.870652 -29.46554 0.870652 -29.46554 0.4919 -119.46554
600.0 0.499725 -119.981792 0.866184 -29.981792 0.866184 -29.981792 0.499725 -119.981792
610.0 0.507521 -120.49885 0.861639 -30.49885 0.861639 -30.49885 0.507521 -120.49885
620.0 0.515288 -121.016721 0.857017 -31.016721 0.857017 -31.016721 0.515288 -121.016721
630.0 0.523026 -121.535417 0.852317 -31.535417 0.852317 -31.535417 0.523026 -121.535417
640.0 0.530732 -122.054945 0.84754 -32.054945 0.84754 -32.054945 0.530732 -122.054945
650.0 0.538408 -122.575314 0.842684 -32.575314 0.842684 -32.575314 0.538408 -122.575314
660.0 0.546051 -123.096534 0.837752 -33.096534 0.837752 -33.096534 0.546051 -123.096534
670.0 0.553662 -123.618613 0.832741 -33.618613 0.832741 -33.618613 0.553662 -123.618613
680.0 0.561239 -124.141559 0.827653 -34.141559 0.827653 -34.141559 0.561239 -124.141559
690.0 0.568783 -124.665379 0.822488 -34.665379 0.822488 -34.665379 0.568783 -124.665379
700.0 0.576291 -125.190082 0.817245 -35.190082 0.817245 -35.190082 0.576291 -125.190082
710.0 0.583763 -125.715675 0.811924 -35.715675 0.811924 -35.715675 0.583763 -125.715675
720.0 0.591199 -126.242165 0.806525 -36.242165 0.806525 -36.242165 0.591199 -126.242165
730.0 0.598598 -126.769559 0.80105 -36.769559 0.80105 -36.769559 0.598598 -126.769559
740.0 0.605959 -127.297864 0.795496 -37.297864 0.795496 -37.297864 0.605959 -127.297864
750.0 0.613281 -127.827087 0.789865 -37.827087 0.789865 -37.827087 0.613281 -127.827087
760.0 0.620563 -128.357232 0.784157 -38.357232 0.784157 -38.357232 0.620563 -128.357232
770.0 0.627804 -128.888307 0.778371 -38.888307 0.778371 -38.888307 0.627804 -128.888307
780.0 0.635004 -129.420316 0.772508 -39.420316 0.772508 -39.420316 0.635004 -129.420316
790.0 0.642163 -129.953266 0.766568 -39.953266 0.766568 -39.953266 0.642163 -129.953266
800.0 0.649278 -130.48716 0.760551 -40.48716 0.760551 -40.48716 0.649278 -130.48716
810.0 0.656349 -131.022004 0.754458 -41.022004 0.754458 -41.022004 0.656349 -131.022004
820.0 0.663375 -131.557801 0.748287 -41.557801 0.748287 -41.557801 0.663375 -131.557801
830.0 0.670356 -132.094557 0.74204 -42.094557 0.74204 -42.094557 0.670356 -132.094557
840.0 0.67729 -132.632274 0.735716 -42.632274 0.735716 -42.632274 0.67729 -132.632274
850.0 0.684177 -133.170956 0.729316 -43.170956 0.729316 -43.170956 0.684177 -133.170956
860.0 0.691016 -133.710607 0.722839 -43.710607 0.722839 -43.710607 0.691016 -133.710607
870.0 0.697806 -134.251228 0.716287 -44.251228 0.716287 -44.251228 0.697806 -134.251228
880.0 0.704545 -134.792822 0.709659 -44.792822 0.709659 -44.792822 0.704545 -134.792822
890.0 0.711234 -135.335392 0.702956 -45.335392 0.702956 -45.335392 0.711234 -135.335392
900.0 0.71787 -135.878939 0.696177 -45.878939 0.696177 -45.878939 0.71787 -135.878939
910.0 0.724454 -136.423464 0.689323 -46.423464 0.689323 -46.423464 0.724454 -136.423464
920.0 0.730984 -136.968969 0.682394 -46.968969 0.682394 -46.968969 0.730984 -136.968969
930.0 0.73746 -137.515453 0.675391 -47.515453 0.675391 -47.515453 0.73746 -137.515453
940.0 0.743879 -138.062918 0.668314 -48.062918 0.668314 -48.062918 0.743879 -138.062918
950.0 0.750242 -138.611363 0.661163 -48.611363 0.661163 -48.611363 0.750242 -138.611363
960.0 0.756548 -139.160788 0.653939 -49.160788 0.653939 -49.160788 0.756548 -139.160788
970.0 0.762795 -139.711192 0.646641 -49.711192 0.646641 -49.711192 0.762795 -139.711192
980.0 0.768982 -140.262574 0.63927 -50.262574 0.63927 -50.262574 0.768982 -140.262574
990.0 0.775109 -140.814932 0.631827 -50.814932 0.631827 -50.814932 0.775109 -140.814932
1000.0 0.781175 -141.368264 0.624312 -51.368264 0.624312 -51.368264 0.781175 -141.368264
1010.0 0.787178 -141.922569 0.616726 -51.922569 0.616726 -51.922569 0.787178 -141.922569
1020.0 0.793118 -142.477842 0.609068 -52.477842 0.609068 -52.477842 0.793118 -142.477842
1030.0 0.798993 -143.034081 0.60134 -53.034081 0.60134 -53.034081 0.798993 -143.034081
1040.0 0.804804 -143.591283 0.593541 -53.591283 0.593541 -53.591283 0.804804 -143.591283
1050.0 0.810547 -144.149444 0.585673 -54.149444 0.585673 -54.149444 0.810547 -144.149444
1060.0 0.816224 -144.708559 0.577736 -54.708559 0.577736 -54.708559 0.816224 -144.708559
1070.0 0.821832 -145.268623 0.56973 -55.268623 0.56973 -55.268623 0.821832 -145.268623
1080.0 0.827371 -145.829632 0.561656 -55.829632 0.561656 -55.829632 0.827371 -145.829632
1090.0 0.83284 -146.39158 0.553514 -56.39158 0.553514 -56.39158 0.83284 -146.39158
1100.0 0.838237 -146.954461 0.545305 -56.954461 0.545305 -56.954461 0.838237 -146.954461
1110.0 0.843563 -147.518268 0.537031 -57.518268 0.537031 -57.518268 0.843563 -147.518268
1120.0 0.848815 -148.082995 0.52869 -58.082995 0.52869 -58.082995 0.848815 -148.082995
1130.0 0.853993 -148.648635 0.520285 -58.648635 0.520285 -58.648635 0.853993 -148.648635
1140.0 0.859096 -149.21518 0.511815 -59.21518 0.511815 -59.21518 0.859096 -149.21518
1150.0 0.864122 -149.782622 0.503282 -59.782622 0.503282 -59.782622 0.864122 -149.782622
1160.0 0.869072 -150.350953 0.494686 -60.350953 0.494686 -60.350953 0.869072 -150.350953
1170.0 0.873943 -150.920163 0.486028 -60.920163 0.486028 -60.920163 0.873943 -150.920163
1180.0 0.878736 -151.490244 0.477308 -61.490244 0.477308 -61.490244 0.878736 -151.490244
1190.0 0.883448 -152.061187 0.468528 -62.061187 0.468528 -62.061187 0.883448 -152.061187
1200.0 0.88808 -152.63298 0.459689 -62.63298 0.459689 -62.63298 0.88808 -152.63298
1210.0 0.89263 -153.205614 0.45079 -63.205614 0.45079 -63.205614 0.89263 -153.205614
1220.0 0.897097 -153.779078 0.441833 -63.779078 0.441833 -63.779078 0.897097 -153.779078
1230.0 0.901481 -154.35336 0.43282 -64.35336 0.43282 -64.35336 0.901481 -154.35336
1240.0 0.905779 -154.928449 0.42375 -64.928449 0.42375 -64.928449 0.905779 -154.928449
1250.0 0.909993 -155.504333 0.414624 -65.504333 0.414624 -65.504333 0.909993 -155.504333
1260.0 0.91412 -156.081 0.405445 -66.081 0.405445 -66.081 0.91412 -156.081
1270.0 0.918159 -156.658436 0.396212 -66.658436 0.396212 -66.658436 0.918159 -156.658436
1280.0 0.922111 -157.236628 0.386926 -67.236628 0.386926 -67.236628 0.922111 -157.236628
1290.0 0.925973 -157.815563 0.377589 -67.815563 0.377589 -67.815563 0.925973 -157.815563
1300.0 0.929746 -158.395227 0.368202 -68.395227 0.368202 -68.395227 0.929746 -158.395227
1310.0 0.933428 -158.975606 0.358765 -68.975606 0.358765 -68.975606 0.933428 -158.975606
1320.0 0.937018 -159.556684 0.349281 -69.556684 0.349281 -69.556684 0.937018 -159.556684
1330.0 0.940516 -160.138447 0.339749 -70.138447 0.339749 -70.138447 0.940516 -160.138447
1340.0 0.943921 -160.72088 0.33017 -70.72088 0.33017 -70.72088 0.943921 -160.72088
1350.0 0.947232 -161.303966 0.320547 -71.303966 0.320547 -71.303966 0.947232 -161.303966
1360.0 0.950449 -161.887689 0.310881 -71.887689 0.310881 -71.887689 0.950449 -161.887689
1370.0 0.95357 -162.472033 0.301171 -72.472033 0.301171 -72.472033 0.95357 -162.472033
1380.0 0.956595 -163.056982 0.29142 -73.056982 0.29142 -73.056982 0.956595 -163.056982
1390.0 0.959523 -163.642517 0.28163 -73.642517 0.28163 -73.642517 0.959523 -163.642517
1400.0 0.962354 -164.228622 0.2718 -74.228622 0.2718 -74.228622 0.962354 -164.228622
1410.0 0.965086 -164.81528 0.261932 -74.81528 0.261932 -74.81528 0.965086 -164.81528
1420.0 0.96772 -165.402471 0.252028 -75.402471 0.252028 -75.402471 0.96772 -165.402471
1430.0 0.970254 -165.990177 0.242088 -75.990177 0.242088 -75.990177 0.970254 -165.990177
1440.0 0.972688 -166.578381 0.232115 -76.578381 0.232115 -76.578381 0.972688 -166.578381
1450.0 0.975022 -167.167062 0.222109 -77.167062 0.222109 -77.167062 0.975022 -167.167062
1460.0 0.977254 -167.756203 0.212072 -77.756203 0.212072 -77.756203 0.977254 -167.756203
1470.0 0.979385 -168.345783 0.202005 -78.345783 0.202005 -78.345783 0.979385 -168.345783
1480.0 0.981413 -168.935783 0.191909 -78.935783 0.191909 -78.935783 0.981413 -168.935783
1490.0 0.983338 -169.526183 0.181786 -79.526183 0.181786 -79.526183 0.983338 -169.526183
1500.0 0.98516 -170.116963 0.171637 -80.116963 0.171637 -80.116963 0.98516 -170.116963
1510.0 0.986879 -170.708102 0.161464 -80.708102 0.161464 -80.708102 0.986879 -170.708102
1520.0 0.988493 -171.29958 0.151268 -81.29958 0.151268 -81.29958 0.988493 -171.29958
1530.0 0.990002 -171.891377 0.14105 -81.891377 0.14105 -81.891377 0.990002 -171.891377
1540.0 0.991407 -172.483471 0.130812 -82.483471 0.130812 -82.483471 0.991407 -172.483471
1550.0 0.992707 -173.075842 0.120555 -83.075842 0.120555 -83.075842 0.992707 -173.075842
1560.0 0.9939 -173.668468 0.110281 -83.668468 0.110281 -83.668468 0.9939 -173.668468
1570.0 0.994988 -174.261327 0.099991 -84.261327 0.099991 -84.261327 0.994988 -174.261327
1580.0 0.99597 -174.854399 0.089687 -84.854399 0.089687 -84.854399 0.99597 -174.854399
1590.0 0.996845 -175.447662 0.07937 -85.447662 0.07937 -85.447662 0.996845 -175.447662
1600.0 0.997614 -176.041093 0.069041 -86.041093 0.069041 -86.041093 0.997614 -176.041093
1610.0 0.998276 -176.634671 0.058702 -86.634671 0.058702 -86.634671 0.998276 -176.634671
1620.0 0.99883 -177.228375 0.048355 -87.228375 0.048355 -87.228375 0.99883 -177.228375
1630.0 0.999278 -177.822182 0.038001 -87.822182 0.038001 -87.822182 0.999278 -177.822182
1640.0 0.999618 -178.41607 0.027641 -88.41607 0.027641 -88.41607 0.999618 -178.41607
1650.0 0.999851 -179.010017 0.017278 -89.010017 0.017278 -89.010017 0.999851 -179.010017
1660.0 0.999976 -179.604001 0.006911 -89.604001 0.006911 -89.604001 0.999976 -179.604001
1670.0 0.999994 179.802 0.003456 89.802 0.003456 89.802 0.999994 179.802
1680.0 0.999904 179.208009 0.013822 89.208009 0.013822 89.208009 0.999904 179.208009
1690.0 0.999707 178.614047 0.024187 88.614047 0.024187 88.614047 0.999707 178.614047
1700.0 0.999403 178.020137 0.034548 88.020137 0.034548 88.020137 0.999403 178.020137
1710.0 0.998991 177.4263 0.044904 87.4263 0.044904 87.4263 0.998991 177.4263
1720.0 0.998472 176.83256 0.055254 86.83256 0.055254 86.83256 0.998472 176.83256
1730.0 0.997846 176.238937 0.065596 86.238937 0.065596 86.238937 0.997846 176.238937
1740.0 0.997113 175.645454 0.075928 85.645454 0.075928 85.645454 0.997113 175.645454
1750.0 0.996274 175.052133 0.086249 85.052133 0.086249 85.052133 0.996274 175.052133
1760.0 0.995327 174.458995 0.096558 84.458995 0.096558 84.458995 0.995327 174.458995
1770.0 0.994275 173.866063 0.106853 83.866063 0.106853 83.866063 0.994275 173.866063
1780.0 0.993116 173.273357 0.117133 83.273357 0.117133 83.273357 0.993116 173.273357
1790.0 0.991852 172.680899 0.127395 82.680899 0.127395 82.680899 0.991852 172.680899
1800.0 0.990482 172.08871 0.13764 82.08871 0.13764 82.08871 0.990482 172.08871
1810.0 0.989008 171.496812 0.147864 81.496812 0.147864 81.496812 0.989008 171.496812
1820.0 0.987428 170.905225 0.158068 80.905225 0.158068 80.905225 0.987428 170.905225
1830.0 0.985745 170.31397 0.168249 80.31397 0.168249 80.31397 0.985745 170.31397
1840.0 0.983957 169.723068 0.178406 79.723068 0.178406 79.723068 0.983957 169.723068
1850.0 0.982066 169.132539 0.188538 79.132539 0.188538 79.132539 0.982066 169.132539
1860.0 0.980072 168.542404 0.198643 78.542404 0.198643 78.542404 0.980072 168.542404
1870.0 0.977976 167.952682 0.208719 77.952682 0.208719 77.952682 0.977976 167.952682
1880.0 0.975777 167.363392 0.218767 77.363392 0.218767 77.363392 0.975777 167.363392
1890.0 0.973477 166.774556 0.228783 76.774556 0.228783 76.774556 0.973477 166.774556
1900.0 0.971077 166.186191 0.238768 76.186191 0.238768 76.186191 0.971077 166.186191
1910.0 0.968576 165.598316 0.248718 75.598316 0.248718 75.598316 0.968576 165.598316
1920.0 0.965975 165.010952 0.258634 75.010952 0.258634 75.010952 0.965975 165.010952
1930.0 0.963276 164.424114 0.268514 74.424114 0.268514 74.424114 0.963276 164.424114
1940.0 0.960478 163.837823 0.278357 73.837823 0.278357 73.837823 0.960478 163.837823
1950.0 0.957582 163.252096 0.288161 73.252096 0.288161 73.252096 0.957582 163.252096
1960.0 0.954589 162.66695 0.297926 72.66695 0.297926 72.66695 0.954589 162.66695
1970.0 0.9515 162.082402 0.307649 72.082402 0.307649 72.082402 0.9515 162.082402
1980.0 0.948315 161.49847 0.31733 71.49847 0.31733 71.49847 0.948315 161.49847
1990.0 0.945036 160.91517 0.326968 70.91517 0.326968 70.91517 0.945036 160.91517
2000.0 0.941662 160.332518 0.336561 70.332518 0.336561 70.332518 0.941662 160.332518
2010.0 0.938195 159.75053 0.346108 69.75053 0.346108 69.75053 0.938195 159.75053
2020.0 0.934635 159.169222 0.355609 69.169222 0.355609 69.169222 0.934635 159.169222
2030.0 0.930983 158.588608 0.365062 68.588608 0.365062 68.588608 0.930983 158.588608
2040.0 0.927241 158.008704 0.374466 68.008704 0.374466 68.008704 0.927241 158.008704
2050.0 0.923408 157.429525 0.38382 67.429525 0.38382 67.429525 0.923408 157.429525
2060.0 0.919486 156.851083 0.393122 66.851083 0.393122 66.851083 0.919486 156.851083
2070.0 0.915476 156.273394 0.402373 66.273394 0.402373 66.273394 0.915476 156.273394
2080.0 0.911378 155.696469 0.411571 65.696469 0.411571 65.696469 0.911378 155.696469
2090.0 0.907193 155.120323 0.420714 65.120323 0.420714 65.120323 0.907193 155.120323
2100.0 0.902923 154.544968 0.429803 64.544968 0.429803 64.544968 0.902923 154.544968
2110.0 0.898568 153.970415 0.438835 63.970415 0.438835 63.970415 0.898568 153.970415
2120.0 0.894128 153.396677 0.447811 63.396677 0.447811 63.396677 0.894128 153.396677
2130.0 0.889606 152.823765 0.456729 62.823765 0.456729 62.823765 0.889606 152.823765
2140.0 0.885001 152.251691 0.465588 62.251691 0.465588 62.251691 0.885001 152.251691
2150.0 0.880316 151.680463 0.474388 61.680463 0.474388 61.680463 0.880316 151.680463
2160.0 0.87555 151.110094 0.483128 61.110094 0.483128 61.110094 0.87555 151.110094
2170.0 0.870704 150.540592 0.491807 60.540592 0.491807 60.540592 0.870704 150.540592
2180.0 0.865781 149.971967 0.500424 59.971967 0.500424 59.971967 0.865781 149.971967
2190.0 0.86078 149.404228 0.508978 59.404228 0.508978 59.404228 0.86078 149.404228
2200.0 0.855702 148.837383 0.517469 58.837383 0.517469 58.837383 0.855702 148.837383
2210.0 0.850549 148.271441 0.525896 58.271441 0.525896 58.271441 0.850549 148.271441
2220.0 0.845322 147.706408 0.534258 57.706408 0.534258 57.706408 0.845322 147.706408
2230.0 0.840021 147.142294 0.542555 57.142294 0.542555 57.142294 0.840021 147.142294
2240.0 0.834647 146.579103 0.550785 56.579103 0.550785 56.579103 0.834647 146.579103
2250.0 0.829202 146.016844 0.558949 56.016844 0.558949 56.016844 0.829202 146.016844
2260.0 0.823686 145.455522 0.567046 55.455522 0.567046 55.455522 0.823686 145.455522
2270.0 0.818101 144.895142 0.575075 54.895142 0.575075 54.895142 0.818101 144.895142
2280.0 0.812447 144.33571 0.583035 54.33571 0.583035 54.33571 0.812447 144.33571
2290.0 0.806726 143.777231 0.590926 53.777231 0.590926 53.777231 0.806726 143.777231
2300.0 0.800937 143.219709 0.598748 53.219709 0.598748 53.219709 0.800937 143.219709
