! File created by SignalIntegrity v1.4.3: Signal and Power Integrity Tools
! https://github.com/Nubis-Communications/SignalIntegrity
# MHz S MA R 50.0
0.0 0.0 0.0 1.0 0.0 1.0 0.0 0.0 0.0
10.0 0.001326 -90.724 0.999999 -0.724 0.999999 -0.724 0.001326 -90.724
20.0 0.002653 -91.447997 0.999996 -1.447997 0.999996 -1.447997 0.002653 -91.447997
30.0 0.003978 -92.171989 0.999992 -2.171989 0.999992 -2.171989 0.003978 -92.171989
40.0 0.005303 -92.895973 0.999986 -2.895973 0.999986 -2.895973 0.005303 -92.895973
50.0 0.006628 -93.619947 0.999978 -3.619947 0.999978 -3.619947 0.006628 -93.619947
60.0 0.007951 -94.343908 0.999968 -4.343908 0.999968 -4.343908 0.007951 -94.343908
70.0 0.009273 -95.067855 0.999957 -5.067855 0.999957 -5.067855 0.009273 -95.067855
80.0 0.010593 -95.791783 0.999944 -5.791783 0.999944 -5.791783 0.010593 -95.791783
90.0 0.011912 -96.515691 0.999929 -6.515691 0.999929 -6.515691 0.011912 -96.515691
100.0 0.013228 -97.239577 0.999913 -7.239577 0.999913 -7.239577 0.013228 -97.239577
110.0 0.014543 -97.963437 0.999894 -7.963437 0.999894 -7.963437 0.014543 -97.963437
120.0 0.015855 -98.68727 0.999874 -8.68727 0.999874 -8.68727 0.015855 -98.68727
130.0 0.017165 -99.411072 0.999853 -9.411072 0.999853 -9.411072 0.017165 -99.411072
140.0 0.018472 -100.134842 0.999829 -10.134842 0.999829 -10.134842 0.018472 -100.134842
150.0 0.019775 -100.858577 0.999804 -10.858577 0.999804 -10.858577 0.019775 -100.858577
160.0 0.021076 -101.582275 0.999778 -11.582275 0.999778 -11.582275 0.021076 -101.582275
170.0 0.022373 -102.305933 0.99975 -12.305933 0.99975 -12.305933 0.022373 -102.305933
180.0 0.023666 -103.02955 0.99972 -13.02955 0.99972 -13.02955 0.023666 -103.02955
190.0 0.024956 -103.753122 0.999689 -13.753122 0.999689 -13.753122 0.024956 -103.753122
200.0 0.026242 -104.476647 0.999656 -14.476647 0.999656 -14.476647 0.026242 -104.476647
210.0 0.027523 -105.200124 0.999621 -15.200124 0.999621 -15.200124 0.027523 -105.200124
220.0 0.0288 -105.923549 0.999585 -15.923549 0.999585 -15.923549 0.0288 -105.923549
230.0 0.030072 -106.646922 0.999548 -16.646922 0.999548 -16.646922 0.030072 -106.646922
240.0 0.031339 -107.370239 0.999509 -17.370239 0.999509 -17.370239 0.031339 -107.370239
250.0 0.032601 -108.093499 0.999468 -18.093499 0.999468 -18.093499 0.032601 -108.093499
260.0 0.033858 -108.8167 0.999427 -18.8167 0.999427 -18.8167 0.033858 -108.8167
270.0 0.035109 -109.539839 0.999383 -19.539839 0.999383 -19.539839 0.035109 -109.539839
280.0 0.036355 -110.262914 0.999339 -20.262914 0.999339 -20.262914 0.036355 -110.262914
290.0 0.037595 -110.985924 0.999293 -20.985924 0.999293 -20.985924 0.037595 -110.985924
300.0 0.038828 -111.708867 0.999246 -21.708867 0.999246 -21.708867 0.038828 -111.708867
310.0 0.040056 -112.431741 0.999197 -22.431741 0.999197 -22.431741 0.040056 -112.431741
320.0 0.041276 -113.154543 0.999148 -23.154543 0.999148 -23.154543 0.041276 -113.154543
330.0 0.042491 -113.877273 0.999097 -23.877273 0.999097 -23.877273 0.042491 -113.877273
340.0 0.043698 -114.599928 0.999045 -24.599928 0.999045 -24.599928 0.043698 -114.599928
350.0 0.044898 -115.322507 0.998992 -25.322507 0.998992 -25.322507 0.044898 -115.322507
360.0 0.046091 -116.045009 0.998937 -26.045009 0.998937 -26.045009 0.046091 -116.045009
370.0 0.047276 -116.767431 0.998882 -26.767431 0.998882 -26.767431 0.047276 -116.767431
380.0 0.048454 -117.489772 0.998825 -27.489772 0.998825 -27.489772 0.048454 -117.489772
390.0 0.049624 -118.212031 0.998768 -28.212031 0.998768 -28.212031 0.049624 -118.212031
400.0 0.050786 -118.934206 0.99871 -28.934206 0.99871 -28.934206 0.050786 -118.934206
410.0 0.05194 -119.656296 0.99865 -29.656296 0.99865 -29.656296 0.05194 -119.656296
420.0 0.053085 -120.378299 0.99859 -30.378299 0.99859 -30.378299 0.053085 -120.378299
430.0 0.054222 -121.100215 0.998529 -31.100215 0.998529 -31.100215 0.054222 -121.100215
440.0 0.05535 -121.822041 0.998467 -31.822041 0.998467 -31.822041 0.05535 -121.822041
450.0 0.056469 -122.543778 0.998404 -32.543778 0.998404 -32.543778 0.056469 -122.543778
460.0 0.057579 -123.265424 0.998341 -33.265424 0.998341 -33.265424 0.057579 -123.265424
470.0 0.05868 -123.986977 0.998277 -33.986977 0.998277 -33.986977 0.05868 -123.986977
480.0 0.059771 -124.708437 0.998212 -34.708437 0.998212 -34.708437 0.059771 -124.708437
490.0 0.060853 -125.429804 0.998147 -35.429804 0.998147 -35.429804 0.060853 -125.429804
500.0 0.061925 -126.151075 0.998081 -36.151075 0.998081 -36.151075 0.061925 -126.151075
510.0 0.062987 -126.872251 0.998014 -36.872251 0.998014 -36.872251 0.062987 -126.872251
520.0 0.064039 -127.59333 0.997947 -37.59333 0.997947 -37.59333 0.064039 -127.59333
530.0 0.06508 -128.314312 0.99788 -38.314312 0.99788 -38.314312 0.06508 -128.314312
540.0 0.066111 -129.035197 0.997812 -39.035197 0.997812 -39.035197 0.066111 -129.035197
550.0 0.067132 -129.755983 0.997744 -39.755983 0.997744 -39.755983 0.067132 -129.755983
560.0 0.068142 -130.476671 0.997676 -40.476671 0.997676 -40.476671 0.068142 -130.476671
570.0 0.06914 -131.19726 0.997607 -41.19726 0.997607 -41.19726 0.06914 -131.19726
580.0 0.070128 -131.917749 0.997538 -41.917749 0.997538 -41.917749 0.070128 -131.917749
590.0 0.071105 -132.638139 0.997469 -42.638139 0.997469 -42.638139 0.071105 -132.638139
600.0 0.07207 -133.358428 0.9974 -43.358428 0.9974 -43.358428 0.07207 -133.358428
610.0 0.073023 -134.078617 0.99733 -44.078617 0.99733 -44.078617 0.073023 -134.078617
620.0 0.073965 -134.798707 0.997261 -44.798707 0.997261 -44.798707 0.073965 -134.798707
630.0 0.074896 -135.518696 0.997191 -45.518696 0.997191 -45.518696 0.074896 -135.518696
640.0 0.075814 -136.238584 0.997122 -46.238584 0.997122 -46.238584 0.075814 -136.238584
650.0 0.07672 -136.958373 0.997053 -46.958373 0.997053 -46.958373 0.07672 -136.958373
660.0 0.077614 -137.678062 0.996984 -47.678062 0.996984 -47.678062 0.077614 -137.678062
670.0 0.078495 -138.39765 0.996914 -48.39765 0.996914 -48.39765 0.078495 -138.39765
680.0 0.079364 -139.11714 0.996846 -49.11714 0.996846 -49.11714 0.079364 -139.11714
690.0 0.080221 -139.83653 0.996777 -49.83653 0.996777 -49.83653 0.080221 -139.83653
700.0 0.081064 -140.555822 0.996709 -50.555822 0.996709 -50.555822 0.081064 -140.555822
710.0 0.081895 -141.275015 0.996641 -51.275015 0.996641 -51.275015 0.081895 -141.275015
720.0 0.082713 -141.99411 0.996573 -51.99411 0.996573 -51.99411 0.082713 -141.99411
730.0 0.083517 -142.713109 0.996506 -52.713109 0.996506 -52.713109 0.083517 -142.713109
740.0 0.084309 -143.432011 0.99644 -53.432011 0.99644 -53.432011 0.084309 -143.432011
750.0 0.085087 -144.150817 0.996374 -54.150817 0.996374 -54.150817 0.085087 -144.150817
760.0 0.085851 -144.869528 0.996308 -54.869528 0.996308 -54.869528 0.085851 -144.869528
770.0 0.086602 -145.588145 0.996243 -55.588145 0.996243 -55.588145 0.086602 -145.588145
780.0 0.087339 -146.306668 0.996179 -56.306668 0.996179 -56.306668 0.087339 -146.306668
790.0 0.088062 -147.025099 0.996115 -57.025099 0.996115 -57.025099 0.088062 -147.025099
800.0 0.088772 -147.743439 0.996052 -57.743439 0.996052 -57.743439 0.088772 -147.743439
810.0 0.089467 -148.461689 0.99599 -58.461689 0.99599 -58.461689 0.089467 -148.461689
820.0 0.090148 -149.179849 0.995928 -59.179849 0.995928 -59.179849 0.090148 -149.179849
830.0 0.090815 -149.897922 0.995868 -59.897922 0.995868 -59.897922 0.090815 -149.897922
840.0 0.091468 -150.615908 0.995808 -60.615908 0.995808 -60.615908 0.091468 -150.615908
850.0 0.092106 -151.333808 0.995749 -61.333808 0.995749 -61.333808 0.092106 -151.333808
860.0 0.092729 -152.051624 0.995691 -62.051624 0.995691 -62.051624 0.092729 -152.051624
870.0 0.093338 -152.769357 0.995634 -62.769357 0.995634 -62.769357 0.093338 -152.769357
880.0 0.093933 -153.487009 0.995579 -63.487009 0.995579 -63.487009 0.093933 -153.487009
890.0 0.094512 -154.204582 0.995524 -64.204582 0.995524 -64.204582 0.094512 -154.204582
900.0 0.095077 -154.922076 0.99547 -64.922076 0.99547 -64.922076 0.095077 -154.922076
910.0 0.095626 -155.639493 0.995417 -65.639493 0.995417 -65.639493 0.095626 -155.639493
920.0 0.096161 -156.356835 0.995366 -66.356835 0.995366 -66.356835 0.096161 -156.356835
930.0 0.096681 -157.074104 0.995315 -67.074104 0.995315 -67.074104 0.096681 -157.074104
940.0 0.097185 -157.791301 0.995266 -67.791301 0.995266 -67.791301 0.097185 -157.791301
950.0 0.097674 -158.508428 0.995218 -68.508428 0.995218 -68.508428 0.097674 -158.508428
960.0 0.098147 -159.225487 0.995172 -69.225487 0.995172 -69.225487 0.098147 -159.225487
970.0 0.098606 -159.94248 0.995127 -69.94248 0.995127 -69.94248 0.098606 -159.94248
980.0 0.099048 -160.659409 0.995083 -70.659409 0.995083 -70.659409 0.099048 -160.659409
990.0 0.099476 -161.376275 0.99504 -71.376275 0.99504 -71.376275 0.099476 -161.376275
1000.0 0.099887 -162.093081 0.994999 -72.093081 0.994999 -72.093081 0.099887 -162.093081
1010.0 0.100283 -162.809829 0.994959 -72.809829 0.994959 -72.809829 0.100283 -162.809829
1020.0 0.100663 -163.52652 0.994921 -73.52652 0.994921 -73.52652 0.100663 -163.52652
1030.0 0.101028 -164.243157 0.994884 -74.243157 0.994884 -74.243157 0.101028 -164.243157
1040.0 0.101376 -164.959741 0.994848 -74.959741 0.994848 -74.959741 0.101376 -164.959741
1050.0 0.101709 -165.676276 0.994814 -75.676276 0.994814 -75.676276 0.101709 -165.676276
1060.0 0.102026 -166.392763 0.994782 -76.392763 0.994782 -76.392763 0.102026 -166.392763
1070.0 0.102327 -167.109204 0.994751 -77.109204 0.994751 -77.109204 0.102327 -167.109204
1080.0 0.102612 -167.825602 0.994722 -77.825602 0.994722 -77.825602 0.102612 -167.825602
1090.0 0.10288 -168.541959 0.994694 -78.541959 0.994694 -78.541959 0.10288 -168.541959
1100.0 0.103133 -169.258276 0.994668 -79.258276 0.994668 -79.258276 0.103133 -169.258276
1110.0 0.10337 -169.974558 0.994643 -79.974558 0.994643 -79.974558 0.10337 -169.974558
1120.0 0.10359 -170.690805 0.99462 -80.690805 0.99462 -80.690805 0.10359 -170.690805
1130.0 0.103794 -171.40702 0.994599 -81.40702 0.994599 -81.40702 0.103794 -171.40702
1140.0 0.103982 -172.123206 0.994579 -82.123206 0.994579 -82.123206 0.103982 -172.123206
1150.0 0.104154 -172.839365 0.994561 -82.839365 0.994561 -82.839365 0.104154 -172.839365
1160.0 0.104309 -173.555499 0.994545 -83.555499 0.994545 -83.555499 0.104309 -173.555499
1170.0 0.104448 -174.271611 0.99453 -84.271611 0.99453 -84.271611 0.104448 -174.271611
1180.0 0.104571 -174.987703 0.994517 -84.987703 0.994517 -84.987703 0.104571 -174.987703
1190.0 0.104677 -175.703778 0.994506 -85.703778 0.994506 -85.703778 0.104677 -175.703778
1200.0 0.104768 -176.419838 0.994497 -86.419838 0.994497 -86.419838 0.104768 -176.419838
1210.0 0.104841 -177.135885 0.994489 -87.135885 0.994489 -87.135885 0.104841 -177.135885
1220.0 0.104899 -177.851922 0.994483 -87.851922 0.994483 -87.851922 0.104899 -177.851922
1230.0 0.10494 -178.567952 0.994479 -88.567952 0.994479 -88.567952 0.10494 -178.567952
1240.0 0.104964 -179.283977 0.994476 -89.283977 0.994476 -89.283977 0.104964 -179.283977
1250.0 0.104972 180.0 0.994475 -90.0 0.994475 -90.0 0.104972 180.0
1260.0 0.104964 179.283977 0.994476 -90.716023 0.994476 -90.716023 0.104964 179.283977
1270.0 0.10494 178.567952 0.994479 -91.432048 0.994479 -91.432048 0.10494 178.567952
1280.0 0.104899 177.851922 0.994483 -92.148078 0.994483 -92.148078 0.104899 177.851922
1290.0 0.104841 177.135885 0.994489 -92.864115 0.994489 -92.864115 0.104841 177.135885
1300.0 0.104768 176.419838 0.994497 -93.580162 0.994497 -93.580162 0.104768 176.419838
1310.0 0.104677 175.703778 0.994506 -94.296222 0.994506 -94.296222 0.104677 175.703778
1320.0 0.104571 174.987703 0.994517 -95.012297 0.994517 -95.012297 0.104571 174.987703
1330.0 0.104448 174.271611 0.99453 -95.728389 0.99453 -95.728389 0.104448 174.271611
1340.0 0.104309 173.555499 0.994545 -96.444501 0.994545 -96.444501 0.104309 173.555499
1350.0 0.104154 172.839365 0.994561 -97.160635 0.994561 -97.160635 0.104154 172.839365
1360.0 0.103982 172.123206 0.994579 -97.876794 0.994579 -97.876794 0.103982 172.123206
1370.0 0.103794 171.40702 0.994599 -98.59298 0.994599 -98.59298 0.103794 171.40702
1380.0 0.10359 170.690805 0.99462 -99.309195 0.99462 -99.309195 0.10359 170.690805
1390.0 0.10337 169.974558 0.994643 -100.025442 0.994643 -100.025442 0.10337 169.974558
1400.0 0.103133 169.258276 0.994668 -100.741724 0.994668 -100.741724 0.103133 169.258276
1410.0 0.10288 168.541959 0.994694 -101.458041 0.994694 -101.458041 0.10288 168.541959
1420.0 0.102612 167.825602 0.994722 -102.174398 0.994722 -102.174398 0.102612 167.825602
1430.0 0.102327 167.109204 0.994751 -102.890796 0.994751 -102.890796 0.102327 167.109204
1440.0 0.102026 166.392763 0.994782 -103.607237 0.994782 -103.607237 0.102026 166.392763
1450.0 0.101709 165.676276 0.994814 -104.323724 0.994814 -104.323724 0.101709 165.676276
1460.0 0.101376 164.959741 0.994848 -105.040259 0.994848 -105.040259 0.101376 164.959741
1470.0 0.101028 164.243157 0.994884 -105.756843 0.994884 -105.756843 0.101028 164.243157
1480.0 0.100663 163.52652 0.994921 -106.47348 0.994921 -106.47348 0.100663 163.52652
1490.0 0.100283 162.809829 0.994959 -107.190171 0.994959 -107.190171 0.100283 162.809829
1500.0 0.099887 162.093081 0.994999 -107.906919 0.994999 -107.906919 0.099887 162.093081
1510.0 0.099476 161.376275 0.99504 -108.623725 0.99504 -108.623725 0.099476 161.376275
1520.0 0.099048 160.659409 0.995083 -109.340591 0.995083 -109.340591 0.099048 160.659409
1530.0 0.098606 159.94248 0.995127 -110.05752 0.995127 -110.05752 0.098606 159.94248
1540.0 0.098147 159.225487 0.995172 -110.774513 0.995172 -110.774513 0.098147 159.225487
1550.0 0.097674 158.508428 0.995218 -111.491572 0.995218 -111.491572 0.097674 158.508428
1560.0 0.097185 157.791301 0.995266 -112.208699 0.995266 -112.208699 0.097185 157.791301
1570.0 0.096681 157.074104 0.995315 -112.925896 0.995315 -112.925896 0.096681 157.074104
1580.0 0.096161 156.356835 0.995366 -113.643165 0.995366 -113.643165 0.096161 156.356835
1590.0 0.095626 155.639493 0.995417 -114.360507 0.995417 -114.360507 0.095626 155.639493
1600.0 0.095077 154.922076 0.99547 -115.077924 0.99547 -115.077924 0.095077 154.922076
1610.0 0.094512 154.204582 0.995524 -115.795418 0.995524 -115.795418 0.094512 154.204582
1620.0 0.093933 153.487009 0.995579 -116.512991 0.995579 -116.512991 0.093933 153.487009
1630.0 0.093338 152.769357 0.995634 -117.230643 0.995634 -117.230643 0.093338 152.769357
1640.0 0.092729 152.051624 0.995691 -117.948376 0.995691 -117.948376 0.092729 152.051624
1650.0 0.092106 151.333808 0.995749 -118.666192 0.995749 -118.666192 0.092106 151.333808
1660.0 0.091468 150.615908 0.995808 -119.384092 0.995808 -119.384092 0.091468 150.615908
1670.0 0.090815 149.897922 0.995868 -120.102078 0.995868 -120.102078 0.090815 149.897922
1680.0 0.090148 149.179849 0.995928 -120.820151 0.995928 -120.820151 0.090148 149.179849
1690.0 0.089467 148.461689 0.99599 -121.538311 0.99599 -121.538311 0.089467 148.461689
1700.0 0.088772 147.743439 0.996052 -122.256561 0.996052 -122.256561 0.088772 147.743439
1710.0 0.088062 147.025099 0.996115 -122.974901 0.996115 -122.974901 0.088062 147.025099
1720.0 0.087339 146.306668 0.996179 -123.693332 0.996179 -123.693332 0.087339 146.306668
1730.0 0.086602 145.588145 0.996243 -124.411855 0.996243 -124.411855 0.086602 145.588145
1740.0 0.085851 144.869528 0.996308 -125.130472 0.996308 -125.130472 0.085851 144.869528
1750.0 0.085087 144.150817 0.996374 -125.849183 0.996374 -125.849183 0.085087 144.150817
1760.0 0.084309 143.432011 0.99644 -126.567989 0.99644 -126.567989 0.084309 143.432011
1770.0 0.083517 142.713109 0.996506 -127.286891 0.996506 -127.286891 0.083517 142.713109
1780.0 0.082713 141.99411 0.996573 -128.00589 0.996573 -128.00589 0.082713 141.99411
1790.0 0.081895 141.275015 0.996641 -128.724985 0.996641 -128.724985 0.081895 141.275015
1800.0 0.081064 140.555822 0.996709 -129.444178 0.996709 -129.444178 0.081064 140.555822
1810.0 0.080221 139.83653 0.996777 -130.16347 0.996777 -130.16347 0.080221 139.83653
1820.0 0.079364 139.11714 0.996846 -130.88286 0.996846 -130.88286 0.079364 139.11714
1830.0 0.078495 138.39765 0.996914 -131.60235 0.996914 -131.60235 0.078495 138.39765
1840.0 0.077614 137.678062 0.996984 -132.321938 0.996984 -132.321938 0.077614 137.678062
1850.0 0.07672 136.958373 0.997053 -133.041627 0.997053 -133.041627 0.07672 136.958373
1860.0 0.075814 136.238584 0.997122 -133.761416 0.997122 -133.761416 0.075814 136.238584
1870.0 0.074896 135.518696 0.997191 -134.481304 0.997191 -134.481304 0.074896 135.518696
1880.0 0.073965 134.798707 0.997261 -135.201293 0.997261 -135.201293 0.073965 134.798707
1890.0 0.073023 134.078617 0.99733 -135.921383 0.99733 -135.921383 0.073023 134.078617
1900.0 0.07207 133.358428 0.9974 -136.641572 0.9974 -136.641572 0.07207 133.358428
1910.0 0.071105 132.638139 0.997469 -137.361861 0.997469 -137.361861 0.071105 132.638139
1920.0 0.070128 131.917749 0.997538 -138.082251 0.997538 -138.082251 0.070128 131.917749
1930.0 0.06914 131.19726 0.997607 -138.80274 0.997607 -138.80274 0.06914 131.19726
1940.0 0.068142 130.476671 0.997676 -139.523329 0.997676 -139.523329 0.068142 130.476671
1950.0 0.067132 129.755983 0.997744 -140.244017 0.997744 -140.244017 0.067132 129.755983
1960.0 0.066111 129.035197 0.997812 -140.964803 0.997812 -140.964803 0.066111 129.035197
1970.0 0.06508 128.314312 0.99788 -141.685688 0.99788 -141.685688 0.06508 128.314312
1980.0 0.064039 127.59333 0.997947 -142.40667 0.997947 -142.40667 0.064039 127.59333
1990.0 0.062987 126.872251 0.998014 -143.127749 0.998014 -143.127749 0.062987 126.872251
2000.0 0.061925 126.151075 0.998081 -143.848925 0.998081 -143.848925 0.061925 126.151075
2010.0 0.060853 125.429804 0.998147 -144.570196 0.998147 -144.570196 0.060853 125.429804
2020.0 0.059771 124.708437 0.998212 -145.291563 0.998212 -145.291563 0.059771 124.708437
2030.0 0.05868 123.986977 0.998277 -146.013023 0.998277 -146.013023 0.05868 123.986977
2040.0 0.057579 123.265424 0.998341 -146.734576 0.998341 -146.734576 0.057579 123.265424
2050.0 0.056469 122.543778 0.998404 -147.456222 0.998404 -147.456222 0.056469 122.543778
2060.0 0.05535 121.822041 0.998467 -148.177959 0.998467 -148.177959 0.05535 121.822041
2070.0 0.054222 121.100215 0.998529 -148.899785 0.998529 -148.899785 0.054222 121.100215
2080.0 0.053085 120.378299 0.99859 -149.621701 0.99859 -149.621701 0.053085 120.378299
2090.0 0.05194 119.656296 0.99865 -150.343704 0.99865 -150.343704 0.05194 119.656296
2100.0 0.050786 118.934206 0.99871 -151.065794 0.99871 -151.065794 0.050786 118.934206
2110.0 0.049624 118.212031 0.998768 -151.787969 0.998768 -151.787969 0.049624 118.212031
2120.0 0.048454 117.489772 0.998825 -152.510228 0.998825 -152.510228 0.048454 117.489772
2130.0 0.047276 116.767431 0.998882 -153.232569 0.998882 -153.232569 0.047276 116.767431
2140.0 0.046091 116.045009 0.998937 -153.954991 0.998937 -153.954991 0.046091 116.045009
2150.0 0.044898 115.322507 0.998992 -154.677493 0.998992 -154.677493 0.044898 115.322507
2160.0 0.043698 114.599928 0.999045 -155.400072 0.999045 -155.400072 0.043698 114.599928
2170.0 0.042491 113.877273 0.999097 -156.122727 0.999097 -156.122727 0.042491 113.877273
2180.0 0.041276 113.154543 0.999148 -156.845457 0.999148 -156.845457 0.041276 113.154543
2190.0 0.040056 112.431741 0.999197 -157.568259 0.999197 -157.568259 0.040056 112.431741
2200.0 0.038828 111.708867 0.999246 -158.291133 0.999246 -158.291133 0.038828 111.708867
2210.0 0.037595 110.985924 0.999293 -159.014076 0.999293 -159.014076 0.037595 110.985924
2220.0 0.036355 110.262914 0.999339 -159.737086 0.999339 -159.737086 0.036355 110.262914
2230.0 0.035109 109.539839 0.999383 -160.460161 0.999383 -160.460161 0.035109 109.539839
2240.0 0.033858 108.8167 0.999427 -161.1833 0.999427 -161.1833 0.033858 108.8167
2250.0 0.032601 108.093499 0.999468 -161.906501 0.999468 -161.906501 0.032601 108.093499
2260.0 0.031339 107.370239 0.999509 -162.629761 0.999509 -162.629761 0.031339 107.370239
2270.0 0.030072 106.646922 0.999548 -163.353078 0.999548 -163.353078 0.030072 106.646922
