! File created by SignalIntegrity v1.4.3: Signal and Power Integrity Tools
! https://github.com/Nubis-Communications/SignalIntegrity
# MHz S MA R 50.0
0.0 0.0 0.0 1.0 0.0 1.0 0.0 0.0 0.0
10.0 0.001799 88.915092 0.999998 -1.084908 0.999998 -1.084908 0.001799 88.915092
20.0 0.003598 87.830191 0.999994 -2.169809 0.999994 -2.169809 0.003598 87.830191
30.0 0.005395 86.745304 0.999985 -3.254696 0.999985 -3.254696 0.005395 86.745304
40.0 0.00719 85.660438 0.999974 -4.339562 0.999974 -4.339562 0.00719 85.660438
50.0 0.008983 84.575601 0.99996 -5.424399 0.99996 -5.424399 0.008983 84.575601
60.0 0.010772 83.490798 0.999942 -6.509202 0.999942 -6.509202 0.010772 83.490798
70.0 0.012557 82.406037 0.999921 -7.593963 0.999921 -7.593963 0.012557 82.406037
80.0 0.014338 81.321324 0.999897 -8.678676 0.999897 -8.678676 0.014338 81.321324
90.0 0.016114 80.236667 0.99987 -9.763333 0.99987 -9.763333 0.016114 80.236667
100.0 0.017884 79.152071 0.99984 -10.847929 0.99984 -10.847929 0.017884 79.152071
110.0 0.019647 78.067545 0.999807 -11.932455 0.999807 -11.932455 0.019647 78.067545
120.0 0.021403 76.983093 0.999771 -13.016907 0.999771 -13.016907 0.021403 76.983093
130.0 0.023151 75.898722 0.999732 -14.101278 0.999732 -14.101278 0.023151 75.898722
140.0 0.024891 74.81444 0.99969 -15.18556 0.99969 -15.18556 0.024891 74.81444
150.0 0.026622 73.730251 0.999646 -16.269749 0.999646 -16.269749 0.026622 73.730251
160.0 0.028343 72.646161 0.999598 -17.353839 0.999598 -17.353839 0.028343 72.646161
170.0 0.030053 71.562177 0.999548 -18.437823 0.999548 -18.437823 0.030053 71.562177
180.0 0.031753 70.478305 0.999496 -19.521695 0.999496 -19.521695 0.031753 70.478305
190.0 0.033441 69.394549 0.999441 -20.605451 0.999441 -20.605451 0.033441 69.394549
200.0 0.035117 68.310915 0.999383 -21.689085 0.999383 -21.689085 0.035117 68.310915
210.0 0.036781 67.227408 0.999323 -22.772592 0.999323 -22.772592 0.036781 67.227408
220.0 0.038431 66.144034 0.999261 -23.855966 0.999261 -23.855966 0.038431 66.144034
230.0 0.040067 65.060796 0.999197 -24.939204 0.999197 -24.939204 0.040067 65.060796
240.0 0.041688 63.9777 0.999131 -26.0223 0.999131 -26.0223 0.041688 63.9777
250.0 0.043295 62.89475 0.999062 -27.10525 0.999062 -27.10525 0.043295 62.89475
260.0 0.044886 61.811951 0.998992 -28.188049 0.998992 -28.188049 0.044886 61.811951
270.0 0.04646 60.729305 0.99892 -29.270695 0.99892 -29.270695 0.04646 60.729305
280.0 0.048018 59.646817 0.998846 -30.353183 0.998846 -30.353183 0.048018 59.646817
290.0 0.049558 58.564491 0.998771 -31.435509 0.998771 -31.435509 0.049558 58.564491
300.0 0.05108 57.482329 0.998695 -32.517671 0.998695 -32.517671 0.05108 57.482329
310.0 0.052584 56.400335 0.998616 -33.599665 0.998616 -33.599665 0.052584 56.400335
320.0 0.054069 55.318512 0.998537 -34.681488 0.998537 -34.681488 0.054069 55.318512
330.0 0.055535 54.236861 0.998457 -35.763139 0.998457 -35.763139 0.055535 54.236861
340.0 0.05698 53.155386 0.998375 -36.844614 0.998375 -36.844614 0.05698 53.155386
350.0 0.058405 52.074089 0.998293 -37.925911 0.998293 -37.925911 0.058405 52.074089
360.0 0.059809 50.99297 0.99821 -39.00703 0.99821 -39.00703 0.059809 50.99297
370.0 0.061191 49.912032 0.998126 -40.087968 0.998126 -40.087968 0.061191 49.912032
380.0 0.062551 48.831277 0.998042 -41.168723 0.998042 -41.168723 0.062551 48.831277
390.0 0.063889 47.750704 0.997957 -42.249296 0.997957 -42.249296 0.063889 47.750704
400.0 0.065204 46.670316 0.997872 -43.329684 0.997872 -43.329684 0.065204 46.670316
410.0 0.066496 45.590111 0.997787 -44.409889 0.997787 -44.409889 0.066496 45.590111
420.0 0.067763 44.510092 0.997701 -45.489908 0.997701 -45.489908 0.067763 44.510092
430.0 0.069007 43.430257 0.997616 -46.569743 0.997616 -46.569743 0.069007 43.430257
440.0 0.070225 42.350606 0.997531 -47.649394 0.997531 -47.649394 0.070225 42.350606
450.0 0.071419 41.271139 0.997446 -48.728861 0.997446 -48.728861 0.071419 41.271139
460.0 0.072587 40.191855 0.997362 -49.808145 0.997362 -49.808145 0.072587 40.191855
470.0 0.073729 39.112753 0.997278 -50.887247 0.997278 -50.887247 0.073729 39.112753
480.0 0.074844 38.033831 0.997195 -51.966169 0.997195 -51.966169 0.074844 38.033831
490.0 0.075933 36.955089 0.997113 -53.044911 0.997113 -53.044911 0.075933 36.955089
500.0 0.076995 35.876523 0.997031 -54.123477 0.997031 -54.123477 0.076995 35.876523
510.0 0.07803 34.798133 0.996951 -55.201867 0.996951 -55.201867 0.07803 34.798133
520.0 0.079036 33.719915 0.996872 -56.280085 0.996872 -56.280085 0.079036 33.719915
530.0 0.080015 32.641868 0.996794 -57.358132 0.996794 -57.358132 0.080015 32.641868
540.0 0.080965 31.563988 0.996717 -58.436012 0.996717 -58.436012 0.080965 31.563988
550.0 0.081886 30.486273 0.996642 -59.513727 0.996642 -59.513727 0.081886 30.486273
560.0 0.082778 29.408718 0.996568 -60.591282 0.996568 -60.591282 0.082778 29.408718
570.0 0.083641 28.331321 0.996496 -61.668679 0.996496 -61.668679 0.083641 28.331321
580.0 0.084474 27.254078 0.996426 -62.745922 0.996426 -62.745922 0.084474 27.254078
590.0 0.085277 26.176985 0.996357 -63.823015 0.996357 -63.823015 0.085277 26.176985
600.0 0.086049 25.100038 0.996291 -64.899962 0.996291 -64.899962 0.086049 25.100038
610.0 0.086792 24.023232 0.996226 -65.976768 0.996226 -65.976768 0.086792 24.023232
620.0 0.087503 22.946563 0.996164 -67.053437 0.996164 -67.053437 0.087503 22.946563
630.0 0.088184 21.870026 0.996104 -68.129974 0.996104 -68.129974 0.088184 21.870026
640.0 0.088833 20.793616 0.996047 -69.206384 0.996047 -69.206384 0.088833 20.793616
650.0 0.089451 19.717329 0.995991 -70.282671 0.995991 -70.282671 0.089451 19.717329
660.0 0.090038 18.641158 0.995938 -71.358842 0.995938 -71.358842 0.090038 18.641158
670.0 0.090592 17.565099 0.995888 -72.434901 0.995888 -72.434901 0.090592 17.565099
680.0 0.091115 16.489146 0.99584 -73.510854 0.99584 -73.510854 0.091115 16.489146
690.0 0.091605 15.413293 0.995795 -74.586707 0.995795 -74.586707 0.091605 15.413293
700.0 0.092063 14.337534 0.995753 -75.662466 0.995753 -75.662466 0.092063 14.337534
710.0 0.092489 13.261863 0.995714 -76.738137 0.995714 -76.738137 0.092489 13.261863
720.0 0.092881 12.186274 0.995677 -77.813726 0.995677 -77.813726 0.092881 12.186274
730.0 0.093242 11.110761 0.995644 -78.889239 0.995644 -78.889239 0.093242 11.110761
740.0 0.093569 10.035318 0.995613 -79.964682 0.995613 -79.964682 0.093569 10.035318
750.0 0.093863 8.959938 0.995585 -81.040062 0.995585 -81.040062 0.093863 8.959938
760.0 0.094124 7.884615 0.99556 -82.115385 0.99556 -82.115385 0.094124 7.884615
770.0 0.094352 6.809341 0.995539 -83.190659 0.995539 -83.190659 0.094352 6.809341
780.0 0.094547 5.734111 0.99552 -84.265889 0.99552 -84.265889 0.094547 5.734111
790.0 0.094709 4.658917 0.995505 -85.341083 0.995505 -85.341083 0.094709 4.658917
800.0 0.094837 3.583753 0.995493 -86.416247 0.995493 -86.416247 0.094837 3.583753
810.0 0.094932 2.508612 0.995484 -87.491388 0.995484 -87.491388 0.094932 2.508612
820.0 0.094993 1.433487 0.995478 -88.566513 0.995478 -88.566513 0.094993 1.433487
830.0 0.095021 0.358371 0.995475 -89.641629 0.995475 -89.641629 0.095021 0.358371
840.0 0.095015 -0.716742 0.995476 -90.716742 0.995476 -90.716742 0.095015 -0.716742
850.0 0.094976 -1.791861 0.99548 -91.791861 0.99548 -91.791861 0.094976 -1.791861
860.0 0.094904 -2.86699 0.995486 -92.86699 0.995486 -92.86699 0.094904 -2.86699
870.0 0.094798 -3.942138 0.995497 -93.942138 0.995497 -93.942138 0.094798 -3.942138
880.0 0.094659 -5.017311 0.99551 -95.017311 0.99551 -95.017311 0.094659 -5.017311
890.0 0.094486 -6.092516 0.995526 -96.092516 0.995526 -96.092516 0.094486 -6.092516
900.0 0.09428 -7.16776 0.995546 -97.16776 0.995546 -97.16776 0.09428 -7.16776
910.0 0.094041 -8.24305 0.995568 -98.24305 0.995568 -98.24305 0.094041 -8.24305
920.0 0.093769 -9.318392 0.995594 -99.318392 0.995594 -99.318392 0.093769 -9.318392
930.0 0.093463 -10.393792 0.995623 -100.393792 0.995623 -100.393792 0.093463 -10.393792
940.0 0.093125 -11.469258 0.995654 -101.469258 0.995654 -101.469258 0.093125 -11.469258
950.0 0.092754 -12.544795 0.995689 -102.544795 0.995689 -102.544795 0.092754 -12.544795
960.0 0.09235 -13.62041 0.995727 -103.62041 0.995727 -103.62041 0.09235 -13.62041
970.0 0.091914 -14.69611 0.995767 -104.69611 0.995767 -104.69611 0.091914 -14.69611
980.0 0.091445 -15.771899 0.99581 -105.771899 0.99581 -105.771899 0.091445 -15.771899
990.0 0.090944 -16.847785 0.995856 -106.847785 0.995856 -106.847785 0.090944 -16.847785
1000.0 0.090411 -17.923773 0.995905 -107.923773 0.995905 -107.923773 0.090411 -17.923773
1010.0 0.089846 -18.999869 0.995956 -108.999869 0.995956 -108.999869 0.089846 -18.999869
1020.0 0.089249 -20.076078 0.996009 -110.076078 0.996009 -110.076078 0.089249 -20.076078
1030.0 0.08862 -21.152406 0.996065 -111.152406 0.996065 -111.152406 0.08862 -21.152406
1040.0 0.087961 -22.228857 0.996124 -112.228857 0.996124 -112.228857 0.087961 -22.228857
1050.0 0.08727 -23.305438 0.996185 -113.305438 0.996185 -113.305438 0.08727 -23.305438
1060.0 0.086548 -24.382152 0.996248 -114.382152 0.996248 -114.382152 0.086548 -24.382152
1070.0 0.085795 -25.459004 0.996313 -115.459004 0.996313 -115.459004 0.085795 -25.459004
1080.0 0.085012 -26.536 0.99638 -116.536 0.99638 -116.536 0.085012 -26.536
1090.0 0.084199 -27.613142 0.996449 -117.613142 0.996449 -117.613142 0.084199 -27.613142
1100.0 0.083356 -28.690436 0.99652 -118.690436 0.99652 -118.690436 0.083356 -28.690436
1110.0 0.082484 -29.767885 0.996592 -119.767885 0.996592 -119.767885 0.082484 -29.767885
1120.0 0.081582 -30.845493 0.996667 -120.845493 0.996667 -120.845493 0.081582 -30.845493
1130.0 0.080651 -31.923263 0.996742 -121.923263 0.996742 -121.923263 0.080651 -31.923263
1140.0 0.079692 -33.001198 0.99682 -123.001198 0.99682 -123.001198 0.079692 -33.001198
1150.0 0.078704 -34.079302 0.996898 -124.079302 0.996898 -124.079302 0.078704 -34.079302
1160.0 0.077688 -35.157577 0.996978 -125.157577 0.996978 -125.157577 0.077688 -35.157577
1170.0 0.076644 -36.236025 0.997059 -126.236025 0.997059 -126.236025 0.076644 -36.236025
1180.0 0.075573 -37.31465 0.99714 -127.31465 0.99714 -127.31465 0.075573 -37.31465
1190.0 0.074475 -38.393452 0.997223 -128.393452 0.997223 -128.393452 0.074475 -38.393452
1200.0 0.073351 -39.472433 0.997306 -129.472433 0.997306 -129.472433 0.073351 -39.472433
1210.0 0.0722 -40.551596 0.99739 -130.551596 0.99739 -130.551596 0.0722 -40.551596
1220.0 0.071024 -41.630941 0.997475 -131.630941 0.997475 -131.630941 0.071024 -41.630941
1230.0 0.069822 -42.710469 0.997559 -132.710469 0.997559 -132.710469 0.069822 -42.710469
1240.0 0.068595 -43.790181 0.997645 -133.790181 0.997645 -133.790181 0.068595 -43.790181
1250.0 0.067343 -44.870078 0.99773 -134.870078 0.99773 -134.870078 0.067343 -44.870078
1260.0 0.066068 -45.950159 0.997815 -135.950159 0.997815 -135.950159 0.066068 -45.950159
1270.0 0.064768 -47.030425 0.9979 -137.030425 0.9979 -137.030425 0.064768 -47.030425
1280.0 0.063446 -48.110875 0.997985 -138.110875 0.997985 -138.110875 0.063446 -48.110875
1290.0 0.0621 -49.191508 0.99807 -139.191508 0.99807 -139.191508 0.0621 -49.191508
1300.0 0.060733 -50.272325 0.998154 -140.272325 0.998154 -140.272325 0.060733 -50.272325
1310.0 0.059343 -51.353323 0.998238 -141.353323 0.998238 -141.353323 0.059343 -51.353323
1320.0 0.057932 -52.434501 0.998321 -142.434501 0.998321 -142.434501 0.057932 -52.434501
1330.0 0.0565 -53.515858 0.998403 -143.515858 0.998403 -143.515858 0.0565 -53.515858
1340.0 0.055048 -54.597392 0.998484 -144.597392 0.998484 -144.597392 0.055048 -54.597392
1350.0 0.053576 -55.6791 0.998564 -145.6791 0.998564 -145.6791 0.053576 -55.6791
1360.0 0.052085 -56.760981 0.998643 -146.760981 0.998643 -146.760981 0.052085 -56.760981
1370.0 0.050575 -57.843031 0.99872 -147.843031 0.99872 -147.843031 0.050575 -57.843031
1380.0 0.049046 -58.925248 0.998796 -148.925248 0.998796 -148.925248 0.049046 -58.925248
1390.0 0.0475 -60.007629 0.998871 -150.007629 0.998871 -150.007629 0.0475 -60.007629
1400.0 0.045937 -61.09017 0.998944 -151.09017 0.998944 -151.09017 0.045937 -61.09017
1410.0 0.044357 -62.172867 0.999016 -152.172867 0.999016 -152.172867 0.044357 -62.172867
1420.0 0.042761 -63.255717 0.999085 -153.255717 0.999085 -153.255717 0.042761 -63.255717
1430.0 0.04115 -64.338716 0.999153 -154.338716 0.999153 -154.338716 0.04115 -64.338716
1440.0 0.039523 -65.42186 0.999219 -155.42186 0.999219 -155.42186 0.039523 -65.42186
1450.0 0.037882 -66.505143 0.999282 -156.505143 0.999282 -156.505143 0.037882 -66.505143
1460.0 0.036228 -67.588563 0.999344 -157.588563 0.999344 -157.588563 0.036228 -67.588563
1470.0 0.03456 -68.672112 0.999403 -158.672112 0.999403 -158.672112 0.03456 -68.672112
1480.0 0.03288 -69.755787 0.999459 -159.755787 0.999459 -159.755787 0.03288 -69.755787
1490.0 0.031188 -70.839583 0.999514 -160.839583 0.999514 -160.839583 0.031188 -70.839583
1500.0 0.029484 -71.923493 0.999565 -161.923493 0.999565 -161.923493 0.029484 -71.923493
1510.0 0.02777 -73.007513 0.999614 -163.007513 0.999614 -163.007513 0.02777 -73.007513
1520.0 0.026046 -74.091636 0.999661 -164.091636 0.999661 -164.091636 0.026046 -74.091636
1530.0 0.024312 -75.175857 0.999704 -165.175857 0.999704 -165.175857 0.024312 -75.175857
1540.0 0.022569 -76.26017 0.999745 -166.26017 0.999745 -166.26017 0.022569 -76.26017
1550.0 0.020818 -77.344568 0.999783 -167.344568 0.999783 -167.344568 0.020818 -77.344568
1560.0 0.01906 -78.429045 0.999818 -168.429045 0.999818 -168.429045 0.01906 -78.429045
1570.0 0.017294 -79.513596 0.99985 -169.513596 0.99985 -169.513596 0.017294 -79.513596
1580.0 0.015523 -80.598212 0.99988 -170.598212 0.99988 -170.598212 0.015523 -80.598212
1590.0 0.013745 -81.682889 0.999906 -171.682889 0.999906 -171.682889 0.013745 -81.682889
1600.0 0.011963 -82.767618 0.999928 -172.767618 0.999928 -172.767618 0.011963 -82.767618
1610.0 0.010176 -83.852394 0.999948 -173.852394 0.999948 -173.852394 0.010176 -83.852394
1620.0 0.008386 -84.93721 0.999965 -174.93721 0.999965 -174.93721 0.008386 -84.93721
1630.0 0.006592 -86.022058 0.999978 -176.022058 0.999978 -176.022058 0.006592 -86.022058
1640.0 0.004796 -87.106931 0.999988 -177.106931 0.999988 -177.106931 0.004796 -87.106931
1650.0 0.002998 -88.191824 0.999996 -178.191824 0.999996 -178.191824 0.002998 -88.191824
1660.0 0.001199 -89.276728 0.999999 -179.276728 0.999999 -179.276728 0.001199 -89.276728
1670.0 0.0006 89.638364 1.0 179.638364 1.0 179.638364 0.0006 89.638364
1680.0 0.002399 88.553457 0.999997 178.553457 0.999997 178.553457 0.002399 88.553457
1690.0 0.004197 87.46856 0.999991 177.46856 0.999991 177.46856 0.004197 87.46856
1700.0 0.005994 86.38368 0.999982 176.38368 0.999982 176.38368 0.005994 86.38368
1710.0 0.007788 85.298822 0.99997 175.298822 0.99997 175.298822 0.007788 85.298822
1720.0 0.00958 84.213995 0.999954 174.213995 0.999954 174.213995 0.00958 84.213995
1730.0 0.011368 83.129206 0.999935 173.129206 0.999935 173.129206 0.011368 83.129206
1740.0 0.013152 82.04446 0.999914 172.04446 0.999914 172.04446 0.013152 82.04446
1750.0 0.014931 80.959765 0.999889 170.959765 0.999889 170.959765 0.014931 80.959765
1760.0 0.016704 79.875128 0.99986 169.875128 0.99986 169.875128 0.016704 79.875128
1770.0 0.018472 78.790554 0.999829 168.790554 0.999829 168.790554 0.018472 78.790554
1780.0 0.020233 77.706052 0.999795 167.706052 0.999795 167.706052 0.020233 77.706052
1790.0 0.021986 76.621627 0.999758 166.621627 0.999758 166.621627 0.021986 76.621627
1800.0 0.023732 75.537285 0.999718 165.537285 0.999718 165.537285 0.023732 75.537285
1810.0 0.025469 74.453033 0.999676 164.453033 0.999676 164.453033 0.025469 74.453033
1820.0 0.027196 73.368876 0.99963 163.368876 0.99963 163.368876 0.027196 73.368876
1830.0 0.028914 72.284821 0.999582 162.284821 0.999582 162.284821 0.028914 72.284821
1840.0 0.030621 71.200874 0.999531 161.200874 0.999531 161.200874 0.030621 71.200874
1850.0 0.032317 70.117039 0.999478 160.117039 0.999478 160.117039 0.032317 70.117039
1860.0 0.034001 69.033324 0.999422 159.033324 0.999422 159.033324 0.034001 69.033324
1870.0 0.035673 67.949732 0.999364 157.949732 0.999364 157.949732 0.035673 67.949732
1880.0 0.037332 66.866268 0.999303 156.866268 0.999303 156.866268 0.037332 66.866268
1890.0 0.038978 65.782939 0.99924 155.782939 0.99924 155.782939 0.038978 65.782939
1900.0 0.040609 64.699748 0.999175 154.699748 0.999175 154.699748 0.040609 64.699748
1910.0 0.042226 63.616701 0.999108 153.616701 0.999108 153.616701 0.042226 63.616701
1920.0 0.043827 62.5338 0.999039 152.5338 0.999039 152.5338 0.043827 62.5338
1930.0 0.045412 61.451051 0.998968 151.451051 0.998968 151.451051 0.045412 61.451051
1940.0 0.046981 60.368458 0.998896 150.368458 0.998896 150.368458 0.046981 60.368458
1950.0 0.048533 59.286024 0.998822 149.286024 0.998822 149.286024 0.048533 59.286024
1960.0 0.050067 58.203752 0.998746 148.203752 0.998746 148.203752 0.050067 58.203752
1970.0 0.051584 57.121646 0.998669 147.121646 0.998669 147.121646 0.051584 57.121646
1980.0 0.053081 56.039708 0.99859 146.039708 0.99859 146.039708 0.053081 56.039708
1990.0 0.05456 54.957942 0.998511 144.957942 0.998511 144.957942 0.05456 54.957942
2000.0 0.056019 53.87635 0.99843 143.87635 0.99843 143.87635 0.056019 53.87635
2010.0 0.057457 52.794934 0.998348 142.794934 0.998348 142.794934 0.057457 52.794934
2020.0 0.058875 51.713696 0.998265 141.713696 0.998265 141.713696 0.058875 51.713696
2030.0 0.060272 50.632637 0.998182 140.632637 0.998182 140.632637 0.060272 50.632637
2040.0 0.061647 49.55176 0.998098 139.55176 0.998098 139.55176 0.061647 49.55176
2050.0 0.063 48.471066 0.998014 138.471066 0.998014 138.471066 0.063 48.471066
2060.0 0.06433 47.390554 0.997929 137.390554 0.997929 137.390554 0.06433 47.390554
2070.0 0.065637 46.310227 0.997844 136.310227 0.997844 136.310227 0.065637 46.310227
2080.0 0.066921 45.230084 0.997758 135.230084 0.997758 135.230084 0.066921 45.230084
2090.0 0.06818 44.150126 0.997673 134.150126 0.997673 134.150126 0.06818 44.150126
2100.0 0.069416 43.070353 0.997588 133.070353 0.997588 133.070353 0.069416 43.070353
2110.0 0.070626 41.990763 0.997503 131.990763 0.997503 131.990763 0.070626 41.990763
2120.0 0.071811 40.911357 0.997418 130.911357 0.997418 130.911357 0.071811 40.911357
2130.0 0.07297 39.832134 0.997334 129.832134 0.997334 129.832134 0.07297 39.832134
2140.0 0.074103 38.753092 0.997251 128.753092 0.997251 128.753092 0.074103 38.753092
2150.0 0.07521 37.67423 0.997168 127.67423 0.997168 127.67423 0.07521 37.67423
2160.0 0.07629 36.595547 0.997086 126.595547 0.997086 126.595547 0.07629 36.595547
2170.0 0.077343 35.51704 0.997005 125.51704 0.997005 125.51704 0.077343 35.51704
2180.0 0.078368 34.438708 0.996924 124.438708 0.996924 124.438708 0.078368 34.438708
2190.0 0.079365 33.360547 0.996846 123.360547 0.996846 123.360547 0.079365 33.360547
2200.0 0.080334 32.282556 0.996768 122.282556 0.996768 122.282556 0.080334 32.282556
2210.0 0.081275 31.204731 0.996692 121.204731 0.996692 121.204731 0.081275 31.204731
2220.0 0.082186 30.12707 0.996617 120.12707 0.996617 120.12707 0.082186 30.12707
2230.0 0.083069 29.049568 0.996544 119.049568 0.996544 119.049568 0.083069 29.049568
2240.0 0.083922 27.972223 0.996472 117.972223 0.996472 117.972223 0.083922 27.972223
2250.0 0.084745 26.895031 0.996403 116.895031 0.996403 116.895031 0.084745 26.895031
2260.0 0.085538 25.817987 0.996335 115.817987 0.996335 115.817987 0.085538 25.817987
2270.0 0.0863 24.741087 0.996269 114.741087 0.996269 114.741087 0.0863 24.741087
2280.0 0.087032 23.664327 0.996205 113.664327 0.996205 113.664327 0.087032 23.664327
2290.0 0.087734 22.587703 0.996144 112.587703 0.996144 112.587703 0.087734 22.587703
2300.0 0.088404 21.511209 0.996085 111.511209 0.996085 111.511209 0.088404 21.511209
2310.0 0.089043 20.434841 0.996028 110.434841 0.996028 110.434841 0.089043 20.434841
2320.0 0.08965 19.358593 0.995973 109.358593 0.995973 109.358593 0.08965 19.358593
2330.0 0.090226 18.28246 0.995921 108.28246 0.995921 108.28246 0.090226 18.28246
2340.0 0.09077 17.206436 0.995872 107.206436 0.995872 107.206436 0.09077 17.206436
