! File created by SignalIntegrity v1.4.3: Signal and Power Integrity Tools
! https://github.com/Nubis-Communications/SignalIntegrity
# MHz S MA R 50.0
0.0 0.0 0.0 1.0 0.0 1.0 0.0 0.0 180.0
10.0 0.011889 -91.100507 0.999929 -1.100507 0.999929 -1.100507 0.011889 -91.100507
20.0 0.023771 -92.200721 0.999717 -2.200721 0.999717 -2.200721 0.023771 -92.200721
30.0 0.035637 -93.300348 0.999365 -3.300348 0.999365 -3.300348 0.035637 -93.300348
40.0 0.047482 -94.399097 0.998872 -4.399097 0.998872 -4.399097 0.047482 -94.399097
50.0 0.059297 -95.49668 0.99824 -5.49668 0.99824 -5.49668 0.059297 -95.49668
60.0 0.071075 -96.59281 0.997471 -6.59281 0.997471 -6.59281 0.071075 -96.59281
70.0 0.082809 -97.687204 0.996565 -7.687204 0.996565 -7.687204 0.082809 -97.687204
80.0 0.094493 -98.779584 0.995526 -8.779584 0.995526 -8.779584 0.094493 -98.779584
90.0 0.106118 -99.869678 0.994354 -9.869678 0.994354 -9.869678 0.106118 -99.869678
100.0 0.117679 -100.957218 0.993052 -10.957218 0.993052 -10.957218 0.117679 -100.957218
110.0 0.129169 -102.041943 0.991623 -12.041943 0.991623 -12.041943 0.129169 -102.041943
120.0 0.140582 -103.123598 0.990069 -13.123598 0.990069 -13.123598 0.140582 -103.123598
130.0 0.151912 -104.201937 0.988394 -14.201937 0.988394 -14.201937 0.151912 -104.201937
140.0 0.163151 -105.27672 0.986601 -15.27672 0.986601 -15.27672 0.163151 -105.27672
150.0 0.174296 -106.347717 0.984693 -16.347717 0.984693 -16.347717 0.174296 -106.347717
160.0 0.185341 -107.414705 0.982674 -17.414705 0.982674 -17.414705 0.185341 -107.414705
170.0 0.196279 -108.477472 0.980548 -18.477472 0.980548 -18.477472 0.196279 -108.477472
180.0 0.207107 -109.535814 0.978318 -19.535814 0.978318 -19.535814 0.207107 -109.535814
190.0 0.21782 -110.589537 0.975989 -20.589537 0.975989 -20.589537 0.21782 -110.589537
200.0 0.228412 -111.638457 0.973564 -21.638457 0.973564 -21.638457 0.228412 -111.638457
210.0 0.238881 -112.682401 0.971049 -22.682401 0.971049 -22.682401 0.238881 -112.682401
220.0 0.249222 -113.721205 0.968446 -23.721205 0.968446 -23.721205 0.249222 -113.721205
230.0 0.259432 -114.754716 0.965761 -24.754716 0.965761 -24.754716 0.259432 -114.754716
240.0 0.269507 -115.782791 0.962999 -25.782791 0.962999 -25.782791 0.269507 -115.782791
250.0 0.279444 -116.805299 0.960162 -26.805299 0.960162 -26.805299 0.279444 -116.805299
260.0 0.28924 -117.822118 0.957257 -27.822118 0.957257 -27.822118 0.28924 -117.822118
270.0 0.298893 -118.833136 0.954287 -28.833136 0.954287 -28.833136 0.298893 -118.833136
280.0 0.308401 -119.838254 0.951256 -29.838254 0.951256 -29.838254 0.308401 -119.838254
290.0 0.317761 -120.83738 0.948171 -30.83738 0.948171 -30.83738 0.317761 -120.83738
300.0 0.326972 -121.830435 0.945034 -31.830435 0.945034 -31.830435 0.326972 -121.830435
310.0 0.336032 -122.817349 0.94185 -32.817349 0.94185 -32.817349 0.336032 -122.817349
320.0 0.344941 -123.798061 0.938624 -33.798061 0.938624 -33.798061 0.344941 -123.798061
330.0 0.353696 -124.77252 0.935361 -34.77252 0.935361 -34.77252 0.353696 -124.77252
340.0 0.362297 -125.740685 0.932063 -35.740685 0.932063 -35.740685 0.362297 -125.740685
350.0 0.370743 -126.702523 0.928735 -36.702523 0.928735 -36.702523 0.370743 -126.702523
360.0 0.379035 -127.658013 0.925382 -37.658013 0.925382 -37.658013 0.379035 -127.658013
370.0 0.387171 -128.607139 0.922008 -38.607139 0.922008 -38.607139 0.387171 -128.607139
380.0 0.395151 -129.549894 0.918616 -39.549894 0.918616 -39.549894 0.395151 -129.549894
390.0 0.402977 -130.486281 0.91521 -40.486281 0.91521 -40.486281 0.402977 -130.486281
400.0 0.410647 -131.416309 0.911794 -41.416309 0.911794 -41.416309 0.410647 -131.416309
410.0 0.418162 -132.339996 0.908372 -42.339996 0.908372 -42.339996 0.418162 -132.339996
420.0 0.425524 -133.257366 0.904947 -43.257366 0.904947 -43.257366 0.425524 -133.257366
430.0 0.432732 -134.168449 0.901523 -44.168449 0.901523 -44.168449 0.432732 -134.168449
440.0 0.439788 -135.073284 0.898102 -45.073284 0.898102 -45.073284 0.439788 -135.073284
450.0 0.446692 -135.971915 0.894688 -45.971915 0.894688 -45.971915 0.446692 -135.971915
460.0 0.453445 -136.864392 0.891284 -46.864392 0.891284 -46.864392 0.453445 -136.864392
470.0 0.460049 -137.75077 0.887894 -47.75077 0.887894 -47.75077 0.460049 -137.75077
480.0 0.466505 -138.63111 0.884519 -48.63111 0.884519 -48.63111 0.466505 -138.63111
490.0 0.472813 -139.50548 0.881163 -49.50548 0.881163 -49.50548 0.472813 -139.50548
500.0 0.478976 -140.373949 0.877828 -50.373949 0.877828 -50.373949 0.478976 -140.373949
510.0 0.484995 -141.236594 0.874517 -51.236594 0.874517 -51.236594 0.484995 -141.236594
520.0 0.490872 -142.093495 0.871232 -52.093495 0.871232 -52.093495 0.490872 -142.093495
530.0 0.496607 -142.944735 0.867975 -52.944735 0.867975 -52.944735 0.496607 -142.944735
540.0 0.502203 -143.790402 0.86475 -53.790402 0.86475 -53.790402 0.502203 -143.790402
550.0 0.507661 -144.630587 0.861557 -54.630587 0.861557 -54.630587 0.507661 -144.630587
560.0 0.512983 -145.465386 0.858399 -55.465386 0.858399 -55.465386 0.512983 -145.465386
570.0 0.51817 -146.294896 0.855278 -56.294896 0.855278 -56.294896 0.51817 -146.294896
580.0 0.523224 -147.119218 0.852195 -57.119218 0.852195 -57.119218 0.523224 -147.119218
590.0 0.528148 -147.938454 0.849152 -57.938454 0.849152 -57.938454 0.528148 -147.938454
600.0 0.532942 -148.752712 0.846152 -58.752712 0.846152 -58.752712 0.532942 -148.752712
610.0 0.537608 -149.562099 0.843195 -59.562099 0.843195 -59.562099 0.537608 -149.562099
620.0 0.542149 -150.366726 0.840282 -60.366726 0.840282 -60.366726 0.542149 -150.366726
630.0 0.546566 -151.166705 0.837416 -61.166705 0.837416 -61.166705 0.546566 -151.166705
640.0 0.55086 -151.962151 0.834598 -61.962151 0.834598 -61.962151 0.55086 -151.962151
650.0 0.555034 -152.753179 0.831828 -62.753179 0.831828 -62.753179 0.555034 -152.753179
660.0 0.559088 -153.539907 0.829108 -63.539907 0.829108 -63.539907 0.559088 -153.539907
670.0 0.563026 -154.322455 0.826439 -64.322455 0.826439 -64.322455 0.563026 -154.322455
680.0 0.566848 -155.100942 0.823822 -65.100942 0.823822 -65.100942 0.566848 -155.100942
690.0 0.570556 -155.875491 0.821259 -65.875491 0.821259 -65.875491 0.570556 -155.875491
700.0 0.574152 -156.646223 0.818749 -66.646223 0.818749 -66.646223 0.574152 -156.646223
710.0 0.577637 -157.413264 0.816293 -67.413264 0.816293 -67.413264 0.577637 -157.413264
720.0 0.581014 -158.176738 0.813894 -68.176738 0.813894 -68.176738 0.581014 -158.176738
730.0 0.584283 -158.936771 0.81155 -68.936771 0.81155 -68.936771 0.584283 -158.936771
740.0 0.587446 -159.693488 0.809264 -69.693488 0.809264 -69.693488 0.587446 -159.693488
750.0 0.590504 -160.447019 0.807034 -70.447019 0.807034 -70.447019 0.590504 -160.447019
760.0 0.59346 -161.19749 0.804863 -71.19749 0.804863 -71.19749 0.59346 -161.19749
770.0 0.596314 -161.945031 0.802751 -71.945031 0.802751 -71.945031 0.596314 -161.945031
780.0 0.599068 -162.689771 0.800698 -72.689771 0.800698 -72.689771 0.599068 -162.689771
790.0 0.601724 -163.43184 0.798704 -73.43184 0.798704 -73.43184 0.601724 -163.43184
800.0 0.604282 -164.171368 0.796771 -74.171368 0.796771 -74.171368 0.604282 -164.171368
810.0 0.606743 -164.908488 0.794898 -74.908488 0.794898 -74.908488 0.606743 -164.908488
820.0 0.60911 -165.64333 0.793085 -75.64333 0.793085 -75.64333 0.60911 -165.64333
830.0 0.611384 -166.376027 0.791334 -76.376027 0.791334 -76.376027 0.611384 -166.376027
840.0 0.613565 -167.106712 0.789645 -77.106712 0.789645 -77.106712 0.613565 -167.106712
850.0 0.615654 -167.835517 0.788016 -77.835517 0.788016 -77.835517 0.615654 -167.835517
860.0 0.617654 -168.562578 0.78645 -78.562578 0.78645 -78.562578 0.617654 -168.562578
870.0 0.619564 -169.288027 0.784946 -79.288027 0.784946 -79.288027 0.619564 -169.288027
880.0 0.621386 -170.012001 0.783505 -80.012001 0.783505 -80.012001 0.621386 -170.012001
890.0 0.623121 -170.734635 0.782126 -80.734635 0.782126 -80.734635 0.623121 -170.734635
900.0 0.624769 -171.456065 0.780809 -81.456065 0.780809 -81.456065 0.624769 -171.456065
910.0 0.626333 -172.176427 0.779556 -82.176427 0.779556 -82.176427 0.626333 -172.176427
920.0 0.627812 -172.895859 0.778365 -82.895859 0.778365 -82.895859 0.627812 -172.895859
930.0 0.629207 -173.6145 0.777238 -83.6145 0.777238 -83.6145 0.629207 -173.6145
940.0 0.63052 -174.332488 0.776173 -84.332488 0.776173 -84.332488 0.63052 -174.332488
950.0 0.63175 -175.049962 0.775172 -85.049962 0.775172 -85.049962 0.63175 -175.049962
960.0 0.6329 -175.767064 0.774234 -85.767064 0.774234 -85.767064 0.6329 -175.767064
970.0 0.633968 -176.483934 0.773359 -86.483934 0.773359 -86.483934 0.633968 -176.483934
980.0 0.634957 -177.200715 0.772548 -87.200715 0.772548 -87.200715 0.634957 -177.200715
990.0 0.635866 -177.91755 0.7718 -87.91755 0.7718 -87.91755 0.635866 -177.91755
1000.0 0.636696 -178.634583 0.771115 -88.634583 0.771115 -88.634583 0.636696 -178.634583
1010.0 0.637448 -179.35196 0.770493 -89.35196 0.770493 -89.35196 0.637448 -179.35196
1020.0 0.638122 179.930172 0.769935 -90.069828 0.769935 -90.069828 0.638122 179.930172
1030.0 0.638719 179.211667 0.76944 -90.788333 0.76944 -90.788333 0.638719 179.211667
1040.0 0.639239 178.492373 0.769008 -91.507627 0.769008 -91.507627 0.639239 178.492373
1050.0 0.639682 177.772142 0.76864 -92.227858 0.76864 -92.227858 0.639682 177.772142
1060.0 0.640049 177.050821 0.768334 -92.949179 0.768334 -92.949179 0.640049 177.050821
1070.0 0.640341 176.328256 0.768091 -93.671744 0.768091 -93.671744 0.640341 176.328256
1080.0 0.640557 175.604291 0.767911 -94.395709 0.767911 -94.395709 0.640557 175.604291
1090.0 0.640697 174.87877 0.767793 -95.12123 0.767793 -95.12123 0.640697 174.87877
1100.0 0.640763 174.151533 0.767739 -95.848467 0.767739 -95.848467 0.640763 174.151533
1110.0 0.640754 173.422419 0.767746 -96.577581 0.767746 -96.577581 0.640754 173.422419
1120.0 0.64067 172.691265 0.767816 -97.308735 0.767816 -97.308735 0.64067 172.691265
1130.0 0.640512 171.957905 0.767948 -98.042095 0.767948 -98.042095 0.640512 171.957905
1140.0 0.64028 171.222171 0.768141 -98.777829 0.768141 -98.777829 0.64028 171.222171
1150.0 0.639974 170.483894 0.768397 -99.516106 0.768397 -99.516106 0.639974 170.483894
1160.0 0.639594 169.742898 0.768713 -100.257102 0.768713 -100.257102 0.639594 169.742898
1170.0 0.63914 168.99901 0.769091 -101.00099 0.769091 -101.00099 0.63914 168.99901
1180.0 0.638612 168.252049 0.769529 -101.747951 0.769529 -101.747951 0.638612 168.252049
1190.0 0.63801 167.501833 0.770028 -102.498167 0.770028 -102.498167 0.63801 167.501833
1200.0 0.637335 166.748178 0.770587 -103.251822 0.770587 -103.251822 0.637335 166.748178
1210.0 0.636586 165.990894 0.771206 -104.009106 0.771206 -104.009106 0.636586 165.990894
1220.0 0.635763 165.229787 0.771884 -104.770213 0.771884 -104.770213 0.635763 165.229787
1230.0 0.634867 164.464663 0.772621 -105.535337 0.772621 -105.535337 0.634867 164.464663
1240.0 0.633898 163.695318 0.773417 -106.304682 0.773417 -106.304682 0.633898 163.695318
1250.0 0.632855 162.921549 0.774271 -107.078451 0.774271 -107.078451 0.632855 162.921549
1260.0 0.631738 162.143145 0.775182 -107.856855 0.775182 -107.856855 0.631738 162.143145
1270.0 0.630549 161.359891 0.77615 -108.640109 0.77615 -108.640109 0.630549 161.359891
1280.0 0.629286 160.571567 0.777174 -109.428433 0.777174 -109.428433 0.629286 160.571567
1290.0 0.627951 159.777946 0.778253 -110.222054 0.778253 -110.222054 0.627951 159.777946
1300.0 0.626542 158.978796 0.779387 -111.021204 0.779387 -111.021204 0.626542 158.978796
1310.0 0.625061 158.17388 0.780576 -111.82612 0.780576 -111.82612 0.625061 158.17388
1320.0 0.623508 157.362951 0.781817 -112.637049 0.781817 -112.637049 0.623508 157.362951
1330.0 0.621882 156.545758 0.783111 -113.454242 0.783111 -113.454242 0.621882 156.545758
1340.0 0.620185 155.722041 0.784456 -114.277959 0.784456 -114.277959 0.620185 155.722041
1350.0 0.618417 154.89153 0.78585 -115.10847 0.78585 -115.10847 0.618417 154.89153
1360.0 0.616578 154.053948 0.787294 -115.946052 0.787294 -115.946052 0.616578 154.053948
1370.0 0.614668 153.209009 0.788786 -116.790991 0.788786 -116.790991 0.614668 153.209009
1380.0 0.61269 152.356416 0.790323 -117.643584 0.790323 -117.643584 0.61269 152.356416
1390.0 0.610643 151.495859 0.791906 -118.504141 0.791906 -118.504141 0.610643 151.495859
1400.0 0.608529 150.627021 0.793532 -119.372979 0.793532 -119.372979 0.608529 150.627021
1410.0 0.606349 149.749566 0.795199 -120.250434 0.795199 -120.250434 0.606349 149.749566
1420.0 0.604103 148.86315 0.796906 -121.13685 0.796906 -121.13685 0.604103 148.86315
1430.0 0.601795 147.967409 0.798651 -122.032591 0.798651 -122.032591 0.601795 147.967409
1440.0 0.599425 147.061967 0.800431 -122.938033 0.800431 -122.938033 0.599425 147.061967
1450.0 0.596995 146.146427 0.802245 -123.853573 0.802245 -123.853573 0.596995 146.146427
1460.0 0.594509 145.220373 0.804089 -124.779627 0.804089 -124.779627 0.594509 145.220373
1470.0 0.591968 144.28337 0.805961 -125.71663 0.805961 -125.71663 0.591968 144.28337
1480.0 0.589376 143.334957 0.807859 -126.665043 0.807859 -126.665043 0.589376 143.334957
1490.0 0.586736 142.374648 0.809778 -127.625352 0.809778 -127.625352 0.586736 142.374648
1500.0 0.584052 141.401929 0.811716 -128.598071 0.811716 -128.598071 0.584052 141.401929
1510.0 0.581328 140.416256 0.813669 -129.583744 0.813669 -129.583744 0.581328 140.416256
1520.0 0.57857 139.417048 0.815633 -130.582952 0.815633 -130.582952 0.57857 139.417048
1530.0 0.575783 138.403687 0.817603 -131.596313 0.817603 -131.596313 0.575783 138.403687
1540.0 0.572973 137.375512 0.819574 -132.624488 0.819574 -132.624488 0.572973 137.375512
1550.0 0.570147 136.331813 0.821542 -133.668187 0.821542 -133.668187 0.570147 136.331813
1560.0 0.567315 135.271828 0.823501 -134.728172 0.823501 -134.728172 0.567315 135.271828
1570.0 0.564483 134.194733 0.825445 -135.805267 0.825445 -135.805267 0.564483 134.194733
1580.0 0.561664 133.099637 0.827366 -136.900363 0.827366 -136.900363 0.561664 133.099637
1590.0 0.558868 131.985572 0.829257 -138.014428 0.829257 -138.014428 0.558868 131.985572
1600.0 0.556108 130.851481 0.83111 -139.148519 0.83111 -139.148519 0.556108 130.851481
1610.0 0.553399 129.696212 0.832916 -140.303788 0.832916 -140.303788 0.553399 129.696212
1620.0 0.550758 128.518493 0.834665 -141.481507 0.834665 -141.481507 0.550758 128.518493
1630.0 0.548204 127.316928 0.836345 -142.683072 0.836345 -142.683072 0.548204 127.316928
1640.0 0.545756 126.089968 0.837944 -143.910032 0.837944 -143.910032 0.545756 126.089968
1650.0 0.543441 124.835892 0.839448 -145.164108 0.839448 -145.164108 0.543441 124.835892
1660.0 0.541284 123.552778 0.84084 -146.447222 0.84084 -146.447222 0.541284 123.552778
1670.0 0.539317 122.238472 0.842103 -147.761528 0.842103 -147.761528 0.539317 122.238472
1680.0 0.537575 120.890548 0.843216 -149.109452 0.843216 -149.109452 0.537575 120.890548
1690.0 0.536098 119.506256 0.844156 -150.493744 0.844156 -150.493744 0.536098 119.506256
1700.0 0.534933 118.082474 0.844894 -151.917526 0.844894 -151.917526 0.534933 118.082474
1710.0 0.534133 116.61563 0.845401 -153.38437 0.845401 -153.38437 0.534133 116.61563
1720.0 0.533758 115.10162 0.845637 -154.89838 0.845637 -154.89838 0.533758 115.10162
1730.0 0.533878 113.5357 0.845561 -156.4643 0.845561 -156.4643 0.533878 113.5357
1740.0 0.534577 111.912362 0.84512 -158.087638 0.84512 -158.087638 0.534577 111.912362
1750.0 0.535947 110.225165 0.844252 -159.774835 0.844252 -159.774835 0.535947 110.225165
1760.0 0.538099 108.466536 0.842882 -161.533464 0.842882 -161.533464 0.538099 108.466536
1770.0 0.541162 106.627512 0.840918 -163.372488 0.840918 -163.372488 0.541162 106.627512
1780.0 0.545288 104.697418 0.838249 -165.302582 0.838249 -165.302582 0.545288 104.697418
1790.0 0.550655 102.663449 0.834733 -167.336551 0.834733 -167.336551 0.550655 102.663449
1800.0 0.557473 100.510137 0.830195 -169.489863 0.830195 -169.489863 0.557473 100.510137
1810.0 0.565991 98.218665 0.824411 -171.781335 0.824411 -171.781335 0.565991 98.218665
1820.0 0.576504 95.765975 0.817094 -174.234025 0.817094 -174.234025 0.576504 95.765975
1830.0 0.589359 93.123606 0.807871 -176.876394 0.807871 -176.876394 0.589359 93.123606
1840.0 0.604966 90.2562 0.796251 -179.7438 0.796251 -179.7438 0.604966 90.2562
1850.0 0.623798 87.119567 0.781585 177.119567 0.781585 177.119567 0.623798 87.119567
1860.0 0.646394 83.658256 0.763004 173.658256 0.763004 173.658256 0.646394 83.658256
1870.0 0.673337 79.802615 0.739336 169.802615 0.739336 169.802615 0.673337 79.802615
1880.0 0.705205 75.465515 0.709004 165.465515 0.709004 165.465515 0.705205 75.465515
1890.0 0.742457 70.539435 0.669893 160.539435 0.669893 160.539435 0.742457 70.539435
1900.0 0.785204 64.895617 0.619237 154.895617 0.619237 154.895617 0.785204 64.895617
1910.0 0.832793 58.389099 0.553585 148.389099 0.553585 148.389099 0.832793 58.389099
1920.0 0.883164 50.876634 0.469064 140.876634 0.469064 140.876634 0.883164 50.876634
1930.0 0.932072 42.257277 0.362273 132.257277 0.362273 132.257277 0.932072 42.257277
1940.0 0.972688 32.541258 0.232116 122.541258 0.232116 122.541258 0.972688 32.541258
1950.0 0.996609 21.929813 0.082282 111.929813 0.082282 111.929813 0.996609 21.929813
1960.0 0.996997 10.847989 0.077442 -79.152011 0.077442 -79.152011 0.996997 10.847989
1970.0 0.972392 -0.135885 0.233353 -90.135885 0.233353 -90.135885 0.972392 -0.135885
1980.0 0.927805 -10.486733 0.373067 -100.486733 0.373067 -100.486733 0.927805 -10.486733
1990.0 0.871862 -19.855565 0.489752 -109.855565 0.489752 -109.855565 0.871862 -19.855565
2000.0 0.812826 -28.115931 0.582506 -118.115931 0.582506 -118.115931 0.812826 -28.115931
2010.0 0.756403 -35.305865 0.654105 -125.305865 0.654105 -125.305865 0.756403 -35.305865
2020.0 0.705603 -41.547467 0.708608 -131.547467 0.708608 -131.547467 0.705603 -41.547467
2030.0 0.661516 -46.987688 0.749931 -136.987688 0.749931 -136.987688 0.661516 -46.987688
2040.0 0.62414 -51.766829 0.781313 -141.766829 0.781313 -141.766829 0.62414 -51.766829
2050.0 0.592949 -56.006168 0.80524 -146.006168 0.80524 -146.006168 0.592949 -56.006168
2060.0 0.567231 -59.805604 0.823558 -149.805604 0.823558 -149.805604 0.567231 -59.805604
2070.0 0.546252 -63.245531 0.837621 -153.245531 0.837621 -153.245531 0.546252 -63.245531
2080.0 0.529331 -66.390008 0.848415 -156.390008 0.848415 -156.390008 0.529331 -66.390008
2090.0 0.515871 -69.289963 0.856666 -159.289963 0.856666 -159.289963 0.515871 -69.289963
2100.0 0.505357 -71.985957 0.86291 -161.985957 0.86291 -161.985957 0.505357 -71.985957
2110.0 0.497354 -74.510444 0.867548 -164.510444 0.867548 -164.510444 0.497354 -74.510444
2120.0 0.491495 -76.889531 0.87088 -166.889531 0.87088 -166.889531 0.491495 -76.889531
2130.0 0.48747 -79.14436 0.87314 -169.14436 0.87314 -169.14436 0.48747 -79.14436
2140.0 0.485018 -81.292158 0.874504 -171.292158 0.874504 -171.292158 0.485018 -81.292158
2150.0 0.483919 -83.347058 0.875113 -173.347058 0.875113 -173.347058 0.483919 -83.347058
2160.0 0.483984 -85.320728 0.875077 -175.320728 0.875077 -175.320728 0.483984 -85.320728
2170.0 0.485055 -87.222859 0.874484 -177.222859 0.874484 -177.222859 0.485055 -87.222859
2180.0 0.486993 -89.061551 0.873406 -179.061551 0.873406 -179.061551 0.486993 -89.061551
2190.0 0.489682 -90.843605 0.871901 179.156395 0.871901 179.156395 0.489682 -90.843605
2200.0 0.493017 -92.574771 0.870019 177.425229 0.870019 177.425229 0.493017 -92.574771
2210.0 0.496913 -94.259928 0.867801 175.740072 0.867801 175.740072 0.496913 -94.259928
2220.0 0.501289 -95.903239 0.86528 174.096761 0.86528 174.096761 0.501289 -95.903239
2230.0 0.50608 -97.508272 0.862487 172.491728 0.862487 172.491728 0.50608 -97.508272
2240.0 0.511224 -99.078101 0.859447 170.921899 0.859447 170.921899 0.511224 -99.078101
2250.0 0.516671 -100.615383 0.856184 169.384617 0.856184 169.384617 0.516671 -100.615383
2260.0 0.522372 -102.122426 0.852718 167.877574 0.852718 167.877574 0.522372 -102.122426
2270.0 0.528288 -103.601244 0.849065 166.398756 0.849065 166.398756 0.528288 -103.601244
