! File created by SignalIntegrity v1.4.3: Signal and Power Integrity Tools
! https://github.com/Nubis-Communications/SignalIntegrity
# MHz S MA R 50.0
0.0 0.0 0.0 1.0 0.0 1.0 0.0 0.0 180.0
10.0 0.006981 -90.399999 0.999976 -0.399999 0.999976 -0.399999 0.006981 -90.399999
20.0 0.013962 -90.79999 0.999903 -0.79999 0.999903 -0.79999 0.013962 -90.79999
30.0 0.020942 -91.199967 0.999781 -1.199967 0.999781 -1.199967 0.020942 -91.199967
40.0 0.02792 -91.599921 0.99961 -1.599921 0.99961 -1.599921 0.02792 -91.599921
50.0 0.034897 -91.999846 0.999391 -1.999846 0.999391 -1.999846 0.034897 -91.999846
60.0 0.041871 -92.399733 0.999123 -2.399733 0.999123 -2.399733 0.041871 -92.399733
70.0 0.048842 -92.799577 0.998806 -2.799577 0.998806 -2.799577 0.048842 -92.799577
80.0 0.05581 -93.199368 0.998441 -3.199368 0.998441 -3.199368 0.05581 -93.199368
90.0 0.062775 -93.599101 0.998028 -3.599101 0.998028 -3.599101 0.062775 -93.599101
100.0 0.069735 -93.998767 0.997566 -3.998767 0.997566 -3.998767 0.069735 -93.998767
110.0 0.07669 -94.398359 0.997055 -4.398359 0.997055 -4.398359 0.07669 -94.398359
120.0 0.083641 -94.797871 0.996496 -4.797871 0.996496 -4.797871 0.083641 -94.797871
130.0 0.090586 -95.197293 0.995889 -5.197293 0.995889 -5.197293 0.090586 -95.197293
140.0 0.097524 -95.596621 0.995233 -5.596621 0.995233 -5.596621 0.097524 -95.596621
150.0 0.104456 -95.995845 0.994529 -5.995845 0.994529 -5.995845 0.104456 -95.995845
160.0 0.111382 -96.39496 0.993778 -6.39496 0.993778 -6.39496 0.111382 -96.39496
170.0 0.118299 -96.793957 0.992978 -6.793957 0.992978 -6.793957 0.118299 -96.793957
180.0 0.125209 -97.19283 0.99213 -7.19283 0.99213 -7.19283 0.125209 -97.19283
190.0 0.132111 -97.591572 0.991235 -7.591572 0.991235 -7.591572 0.132111 -97.591572
200.0 0.139003 -97.990175 0.990292 -7.990175 0.990292 -7.990175 0.139003 -97.990175
210.0 0.145887 -98.388633 0.989301 -8.388633 0.989301 -8.388633 0.145887 -98.388633
220.0 0.152761 -98.786938 0.988263 -8.786938 0.988263 -8.786938 0.152761 -98.786938
230.0 0.159624 -99.185083 0.987178 -9.185083 0.987178 -9.185083 0.159624 -99.185083
240.0 0.166477 -99.583063 0.986045 -9.583063 0.986045 -9.583063 0.166477 -99.583063
250.0 0.173319 -99.980868 0.984866 -9.980868 0.984866 -9.980868 0.173319 -99.980868
260.0 0.18015 -100.378494 0.983639 -10.378494 0.983639 -10.378494 0.18015 -100.378494
270.0 0.186969 -100.775933 0.982366 -10.775933 0.982366 -10.775933 0.186969 -100.775933
280.0 0.193775 -101.173179 0.981046 -11.173179 0.981046 -11.173179 0.193775 -101.173179
290.0 0.200569 -101.570224 0.97968 -11.570224 0.97968 -11.570224 0.200569 -101.570224
300.0 0.207349 -101.967062 0.978267 -11.967062 0.978267 -11.967062 0.207349 -101.967062
310.0 0.214116 -102.363686 0.976808 -12.363686 0.976808 -12.363686 0.214116 -102.363686
320.0 0.220869 -102.760091 0.975303 -12.760091 0.975303 -12.760091 0.220869 -102.760091
330.0 0.227608 -103.156269 0.973753 -13.156269 0.973753 -13.156269 0.227608 -103.156269
340.0 0.234331 -103.552214 0.972157 -13.552214 0.972157 -13.552214 0.234331 -103.552214
350.0 0.24104 -103.947921 0.970515 -13.947921 0.970515 -13.947921 0.24104 -103.947921
360.0 0.247733 -104.343381 0.968828 -14.343381 0.968828 -14.343381 0.247733 -104.343381
370.0 0.254409 -104.73859 0.967097 -14.73859 0.967097 -14.73859 0.254409 -104.73859
380.0 0.26107 -105.133541 0.96532 -15.133541 0.96532 -15.133541 0.26107 -105.133541
390.0 0.267713 -105.528228 0.963499 -15.528228 0.963499 -15.528228 0.267713 -105.528228
400.0 0.274339 -105.922645 0.961633 -15.922645 0.961633 -15.922645 0.274339 -105.922645
410.0 0.280948 -106.316786 0.959723 -16.316786 0.959723 -16.316786 0.280948 -106.316786
420.0 0.287538 -106.710646 0.957769 -16.710646 0.957769 -16.710646 0.287538 -106.710646
430.0 0.294111 -107.104217 0.955771 -17.104217 0.955771 -17.104217 0.294111 -107.104217
440.0 0.300664 -107.497496 0.95373 -17.497496 0.95373 -17.497496 0.300664 -107.497496
450.0 0.307198 -107.890475 0.951645 -17.890475 0.951645 -17.890475 0.307198 -107.890475
460.0 0.313713 -108.283149 0.949518 -18.283149 0.949518 -18.283149 0.313713 -108.283149
470.0 0.320208 -108.675514 0.947347 -18.675514 0.947347 -18.675514 0.320208 -108.675514
480.0 0.326683 -109.067562 0.945134 -19.067562 0.945134 -19.067562 0.326683 -109.067562
490.0 0.333137 -109.45929 0.942878 -19.45929 0.942878 -19.45929 0.333137 -109.45929
500.0 0.33957 -109.850692 0.940581 -19.850692 0.940581 -19.850692 0.33957 -109.850692
510.0 0.345982 -110.241762 0.938241 -20.241762 0.938241 -20.241762 0.345982 -110.241762
520.0 0.352372 -110.632495 0.93586 -20.632495 0.93586 -20.632495 0.352372 -110.632495
530.0 0.358741 -111.022887 0.933437 -21.022887 0.933437 -21.022887 0.358741 -111.022887
540.0 0.365087 -111.412932 0.930973 -21.412932 0.930973 -21.412932 0.365087 -111.412932
550.0 0.37141 -111.802625 0.928469 -21.802625 0.928469 -21.802625 0.37141 -111.802625
560.0 0.377711 -112.191962 0.925924 -22.191962 0.925924 -22.191962 0.377711 -112.191962
570.0 0.383988 -112.580939 0.923338 -22.580939 0.923338 -22.580939 0.383988 -112.580939
580.0 0.390242 -112.969549 0.920712 -22.969549 0.920712 -22.969549 0.390242 -112.969549
590.0 0.396472 -113.357789 0.918047 -23.357789 0.918047 -23.357789 0.396472 -113.357789
600.0 0.402677 -113.745655 0.915342 -23.745655 0.915342 -23.745655 0.402677 -113.745655
610.0 0.408858 -114.133141 0.912598 -24.133141 0.912598 -24.133141 0.408858 -114.133141
620.0 0.415015 -114.520244 0.909815 -24.520244 0.909815 -24.520244 0.415015 -114.520244
630.0 0.421146 -114.90696 0.906993 -24.90696 0.906993 -24.90696 0.421146 -114.90696
640.0 0.427252 -115.293283 0.904133 -25.293283 0.904133 -25.293283 0.427252 -115.293283
650.0 0.433332 -115.679212 0.901234 -25.679212 0.901234 -25.679212 0.433332 -115.679212
660.0 0.439386 -116.06474 0.898298 -26.06474 0.898298 -26.06474 0.439386 -116.06474
670.0 0.445415 -116.449865 0.895324 -26.449865 0.895324 -26.449865 0.445415 -116.449865
680.0 0.451416 -116.834583 0.892314 -26.834583 0.892314 -26.834583 0.451416 -116.834583
690.0 0.457391 -117.21889 0.889266 -27.21889 0.889266 -27.21889 0.457391 -117.21889
700.0 0.463339 -117.602782 0.886181 -27.602782 0.886181 -27.602782 0.463339 -117.602782
710.0 0.46926 -117.986257 0.88306 -27.986257 0.88306 -27.986257 0.46926 -117.986257
720.0 0.475153 -118.36931 0.879903 -28.36931 0.879903 -28.36931 0.475153 -118.36931
730.0 0.481018 -118.751939 0.87671 -28.751939 0.87671 -28.751939 0.481018 -118.751939
740.0 0.486856 -119.13414 0.873482 -29.13414 0.873482 -29.13414 0.486856 -119.13414
750.0 0.492665 -119.515909 0.870219 -29.515909 0.870219 -29.515909 0.492665 -119.515909
760.0 0.498446 -119.897245 0.866921 -29.897245 0.866921 -29.897245 0.498446 -119.897245
770.0 0.504198 -120.278144 0.863588 -30.278144 0.863588 -30.278144 0.504198 -120.278144
780.0 0.509922 -120.658603 0.860221 -30.658603 0.860221 -30.658603 0.509922 -120.658603
790.0 0.515616 -121.03862 0.85682 -31.03862 0.85682 -31.03862 0.515616 -121.03862
800.0 0.521281 -121.418192 0.853385 -31.418192 0.853385 -31.418192 0.521281 -121.418192
810.0 0.526916 -121.797316 0.849917 -31.797316 0.849917 -31.797316 0.526916 -121.797316
820.0 0.532522 -122.17599 0.846416 -32.17599 0.846416 -32.17599 0.532522 -122.17599
830.0 0.538097 -122.554211 0.842883 -32.554211 0.842883 -32.554211 0.538097 -122.554211
840.0 0.543643 -122.931978 0.839317 -32.931978 0.839317 -32.931978 0.543643 -122.931978
850.0 0.549158 -123.309287 0.835718 -33.309287 0.835718 -33.309287 0.549158 -123.309287
860.0 0.554643 -123.686138 0.832088 -33.686138 0.832088 -33.686138 0.554643 -123.686138
870.0 0.560097 -124.062527 0.828427 -34.062527 0.828427 -34.062527 0.560097 -124.062527
880.0 0.565521 -124.438453 0.824734 -34.438453 0.824734 -34.438453 0.565521 -124.438453
890.0 0.570913 -124.813915 0.821011 -34.813915 0.821011 -34.813915 0.570913 -124.813915
900.0 0.576274 -125.18891 0.817256 -35.18891 0.817256 -35.18891 0.576274 -125.18891
910.0 0.581604 -125.563436 0.813472 -35.563436 0.813472 -35.563436 0.581604 -125.563436
920.0 0.586902 -125.937493 0.809658 -35.937493 0.809658 -35.937493 0.586902 -125.937493
930.0 0.592169 -126.311079 0.805814 -36.311079 0.805814 -36.311079 0.592169 -126.311079
940.0 0.597404 -126.684192 0.801941 -36.684192 0.801941 -36.684192 0.597404 -126.684192
950.0 0.602607 -127.056831 0.798038 -37.056831 0.798038 -37.056831 0.602607 -127.056831
960.0 0.607778 -127.428995 0.794107 -37.428995 0.794107 -37.428995 0.607778 -127.428995
970.0 0.612916 -127.800682 0.790148 -37.800682 0.790148 -37.800682 0.612916 -127.800682
980.0 0.618023 -128.171893 0.78616 -38.171893 0.78616 -38.171893 0.618023 -128.171893
990.0 0.623097 -128.542625 0.782145 -38.542625 0.782145 -38.542625 0.623097 -128.542625
1000.0 0.628138 -128.912879 0.778102 -38.912879 0.778102 -38.912879 0.628138 -128.912879
1010.0 0.633147 -129.282653 0.774032 -39.282653 0.774032 -39.282653 0.633147 -129.282653
1020.0 0.638122 -129.651946 0.769935 -39.651946 0.769935 -39.651946 0.638122 -129.651946
1030.0 0.643065 -130.020758 0.765812 -40.020758 0.765812 -40.020758 0.643065 -130.020758
1040.0 0.647975 -130.389089 0.761662 -40.389089 0.761662 -40.389089 0.647975 -130.389089
1050.0 0.652851 -130.756937 0.757486 -40.756937 0.757486 -40.756937 0.652851 -130.756937
1060.0 0.657695 -131.124304 0.753284 -41.124304 0.753284 -41.124304 0.657695 -131.124304
1070.0 0.662505 -131.491188 0.749058 -41.491188 0.749058 -41.491188 0.662505 -131.491188
1080.0 0.667281 -131.857589 0.744806 -41.857589 0.744806 -41.857589 0.667281 -131.857589
1090.0 0.672024 -132.223508 0.740529 -42.223508 0.740529 -42.223508 0.672024 -132.223508
1100.0 0.676734 -132.588943 0.736228 -42.588943 0.736228 -42.588943 0.676734 -132.588943
1110.0 0.68141 -132.953896 0.731902 -42.953896 0.731902 -42.953896 0.68141 -132.953896
1120.0 0.686052 -133.318367 0.727553 -43.318367 0.727553 -43.318367 0.686052 -133.318367
1130.0 0.69066 -133.682355 0.72318 -43.682355 0.72318 -43.682355 0.69066 -133.682355
1140.0 0.695234 -134.045861 0.718784 -44.045861 0.718784 -44.045861 0.695234 -134.045861
1150.0 0.699774 -134.408886 0.714364 -44.408886 0.714364 -44.408886 0.699774 -134.408886
1160.0 0.70428 -134.77143 0.709922 -44.77143 0.709922 -44.77143 0.70428 -134.77143
1170.0 0.708752 -135.133493 0.705457 -45.133493 0.705457 -45.133493 0.708752 -135.133493
1180.0 0.71319 -135.495076 0.700971 -45.495076 0.700971 -45.495076 0.71319 -135.495076
1190.0 0.717594 -135.856179 0.696462 -45.856179 0.696462 -45.856179 0.717594 -135.856179
1200.0 0.721963 -136.216805 0.691931 -46.216805 0.691931 -46.216805 0.721963 -136.216805
1210.0 0.726298 -136.576953 0.68738 -46.576953 0.68738 -46.576953 0.726298 -136.576953
1220.0 0.730599 -136.936624 0.682807 -46.936624 0.682807 -46.936624 0.730599 -136.936624
1230.0 0.734865 -137.295819 0.678213 -47.295819 0.678213 -47.295819 0.734865 -137.295819
1240.0 0.739097 -137.65454 0.673599 -47.65454 0.673599 -47.65454 0.739097 -137.65454
1250.0 0.743294 -138.012788 0.668965 -48.012788 0.668965 -48.012788 0.743294 -138.012788
1260.0 0.747457 -138.370563 0.66431 -48.370563 0.66431 -48.370563 0.747457 -138.370563
1270.0 0.751585 -138.727867 0.659636 -48.727867 0.659636 -48.727867 0.751585 -138.727867
1280.0 0.755679 -139.084701 0.654943 -49.084701 0.654943 -49.084701 0.755679 -139.084701
1290.0 0.759738 -139.441068 0.65023 -49.441068 0.65023 -49.441068 0.759738 -139.441068
1300.0 0.763762 -139.796967 0.645498 -49.796967 0.645498 -49.796967 0.763762 -139.796967
1310.0 0.767751 -140.152402 0.640748 -50.152402 0.640748 -50.152402 0.767751 -140.152402
1320.0 0.771706 -140.507373 0.635979 -50.507373 0.635979 -50.507373 0.771706 -140.507373
1330.0 0.775627 -140.861882 0.631192 -50.861882 0.631192 -50.861882 0.775627 -140.861882
1340.0 0.779512 -141.21593 0.626387 -51.21593 0.626387 -51.21593 0.779512 -141.21593
1350.0 0.783363 -141.569521 0.621565 -51.569521 0.621565 -51.569521 0.783363 -141.569521
1360.0 0.787179 -141.922655 0.616725 -51.922655 0.616725 -51.922655 0.787179 -141.922655
1370.0 0.79096 -142.275335 0.611868 -52.275335 0.611868 -52.275335 0.79096 -142.275335
1380.0 0.794707 -142.627562 0.606994 -52.627562 0.606994 -52.627562 0.794707 -142.627562
1390.0 0.798418 -142.979339 0.602103 -52.979339 0.602103 -52.979339 0.798418 -142.979339
1400.0 0.802095 -143.330667 0.597196 -53.330667 0.597196 -53.330667 0.802095 -143.330667
1410.0 0.805738 -143.681549 0.592273 -53.681549 0.592273 -53.681549 0.805738 -143.681549
1420.0 0.809345 -144.031987 0.587334 -54.031987 0.587334 -54.031987 0.809345 -144.031987
1430.0 0.812918 -144.381984 0.582379 -54.381984 0.582379 -54.381984 0.812918 -144.381984
1440.0 0.816456 -144.731541 0.577408 -54.731541 0.577408 -54.731541 0.816456 -144.731541
1450.0 0.819959 -145.080661 0.572423 -55.080661 0.572423 -55.080661 0.819959 -145.080661
1460.0 0.823427 -145.429347 0.567422 -55.429347 0.567422 -55.429347 0.823427 -145.429347
1470.0 0.826861 -145.777601 0.562407 -55.777601 0.562407 -55.777601 0.826861 -145.777601
1480.0 0.83026 -146.125426 0.557377 -56.125426 0.557377 -56.125426 0.83026 -146.125426
1490.0 0.833624 -146.472824 0.552332 -56.472824 0.552332 -56.472824 0.833624 -146.472824
1500.0 0.836953 -146.819798 0.547274 -56.819798 0.547274 -56.819798 0.836953 -146.819798
1510.0 0.840248 -147.16635 0.542202 -57.16635 0.542202 -57.16635 0.840248 -147.16635
1520.0 0.843508 -147.512484 0.537116 -57.512484 0.537116 -57.512484 0.843508 -147.512484
1530.0 0.846734 -147.858202 0.532016 -57.858202 0.532016 -57.858202 0.846734 -147.858202
1540.0 0.849925 -148.203507 0.526904 -58.203507 0.526904 -58.203507 0.849925 -148.203507
1550.0 0.853081 -148.548403 0.521778 -58.548403 0.521778 -58.548403 0.853081 -148.548403
1560.0 0.856203 -148.892891 0.51664 -58.892891 0.51664 -58.892891 0.856203 -148.892891
1570.0 0.85929 -149.236975 0.511488 -59.236975 0.511488 -59.236975 0.85929 -149.236975
1580.0 0.862343 -149.580658 0.506325 -59.580658 0.506325 -59.580658 0.862343 -149.580658
1590.0 0.865361 -149.923943 0.501149 -59.923943 0.501149 -59.923943 0.865361 -149.923943
1600.0 0.868345 -150.266834 0.495961 -60.266834 0.495961 -60.266834 0.868345 -150.266834
1610.0 0.871294 -150.609333 0.490762 -60.609333 0.490762 -60.609333 0.871294 -150.609333
1620.0 0.874209 -150.951444 0.485551 -60.951444 0.485551 -60.951444 0.874209 -150.951444
1630.0 0.877089 -151.29317 0.480328 -61.29317 0.480328 -61.29317 0.877089 -151.29317
1640.0 0.879935 -151.634514 0.475094 -61.634514 0.475094 -61.634514 0.879935 -151.634514
1650.0 0.882747 -151.975479 0.469849 -61.975479 0.469849 -61.975479 0.882747 -151.975479
1660.0 0.885524 -152.31607 0.464594 -62.31607 0.464594 -62.31607 0.885524 -152.31607
1670.0 0.888267 -152.656289 0.459327 -62.656289 0.459327 -62.656289 0.888267 -152.656289
1680.0 0.890976 -152.99614 0.454051 -62.99614 0.454051 -62.99614 0.890976 -152.99614
1690.0 0.893651 -153.335627 0.448763 -63.335627 0.448763 -63.335627 0.893651 -153.335627
1700.0 0.896291 -153.674753 0.443466 -63.674753 0.443466 -63.674753 0.896291 -153.674753
1710.0 0.898897 -154.013521 0.438159 -64.013521 0.438159 -64.013521 0.898897 -154.013521
1720.0 0.90147 -154.351935 0.432842 -64.351935 0.432842 -64.351935 0.90147 -154.351935
1730.0 0.904008 -154.69 0.427516 -64.69 0.427516 -64.69 0.904008 -154.69
1740.0 0.906512 -155.027718 0.42218 -65.027718 0.42218 -65.027718 0.906512 -155.027718
1750.0 0.908982 -155.365093 0.416835 -65.365093 0.416835 -65.365093 0.908982 -155.365093
1760.0 0.911419 -155.702129 0.41148 -65.702129 0.41148 -65.702129 0.911419 -155.702129
1770.0 0.913821 -156.03883 0.406117 -66.03883 0.406117 -66.03883 0.913821 -156.03883
1780.0 0.916189 -156.3752 0.400746 -66.3752 0.400746 -66.3752 0.916189 -156.3752
1790.0 0.918524 -156.711242 0.395365 -66.711242 0.395365 -66.711242 0.918524 -156.711242
1800.0 0.920825 -157.046961 0.389977 -67.046961 0.389977 -67.046961 0.920825 -157.046961
1810.0 0.923092 -157.38236 0.38458 -67.38236 0.38458 -67.38236 0.923092 -157.38236
1820.0 0.925325 -157.717443 0.379174 -67.717443 0.379174 -67.717443 0.925325 -157.717443
1830.0 0.927525 -158.052215 0.373761 -68.052215 0.373761 -68.052215 0.927525 -158.052215
1840.0 0.929691 -158.386679 0.368341 -68.386679 0.368341 -68.386679 0.929691 -158.386679
1850.0 0.931823 -158.720839 0.362912 -68.720839 0.362912 -68.720839 0.931823 -158.720839
1860.0 0.933922 -159.054699 0.357477 -69.054699 0.357477 -69.054699 0.933922 -159.054699
1870.0 0.935987 -159.388264 0.352033 -69.388264 0.352033 -69.388264 0.935987 -159.388264
1880.0 0.938019 -159.721537 0.346583 -69.721537 0.346583 -69.721537 0.938019 -159.721537
1890.0 0.940018 -160.054524 0.341126 -70.054524 0.341126 -70.054524 0.940018 -160.054524
1900.0 0.941983 -160.387227 0.335662 -70.387227 0.335662 -70.387227 0.941983 -160.387227
1910.0 0.943914 -160.719651 0.330191 -70.719651 0.330191 -70.719651 0.943914 -160.719651
1920.0 0.945813 -161.0518 0.324713 -71.0518 0.324713 -71.0518 0.945813 -161.0518
1930.0 0.947678 -161.383679 0.319229 -71.383679 0.319229 -71.383679 0.947678 -161.383679
1940.0 0.949509 -161.715291 0.313739 -71.715291 0.313739 -71.715291 0.949509 -161.715291
1950.0 0.951308 -162.046642 0.308243 -72.046642 0.308243 -72.046642 0.951308 -162.046642
1960.0 0.953073 -162.377735 0.30274 -72.377735 0.30274 -72.377735 0.953073 -162.377735
1970.0 0.954805 -162.708574 0.297232 -72.708574 0.297232 -72.708574 0.954805 -162.708574
1980.0 0.956504 -163.039165 0.291718 -73.039165 0.291718 -73.039165 0.956504 -163.039165
1990.0 0.95817 -163.369511 0.286198 -73.369511 0.286198 -73.369511 0.95817 -163.369511
2000.0 0.959803 -163.699617 0.280673 -73.699617 0.280673 -73.699617 0.959803 -163.699617
2010.0 0.961403 -164.029487 0.275143 -74.029487 0.275143 -74.029487 0.961403 -164.029487
2020.0 0.96297 -164.359125 0.269607 -74.359125 0.269607 -74.359125 0.96297 -164.359125
2030.0 0.964505 -164.688537 0.264066 -74.688537 0.264066 -74.688537 0.964505 -164.688537
2040.0 0.966006 -165.017726 0.25852 -75.017726 0.25852 -75.017726 0.966006 -165.017726
2050.0 0.967474 -165.346697 0.25297 -75.346697 0.25297 -75.346697 0.967474 -165.346697
2060.0 0.96891 -165.675454 0.247414 -75.675454 0.247414 -75.675454 0.96891 -165.675454
2070.0 0.970313 -166.004003 0.241854 -76.004003 0.241854 -76.004003 0.970313 -166.004003
2080.0 0.971683 -166.332347 0.23629 -76.332347 0.23629 -76.332347 0.971683 -166.332347
2090.0 0.97302 -166.660491 0.230721 -76.660491 0.230721 -76.660491 0.97302 -166.660491
2100.0 0.974325 -166.988439 0.225148 -76.988439 0.225148 -76.988439 0.974325 -166.988439
2110.0 0.975597 -167.316197 0.21957 -77.316197 0.21957 -77.316197 0.975597 -167.316197
2120.0 0.976836 -167.643769 0.213989 -77.643769 0.213989 -77.643769 0.976836 -167.643769
2130.0 0.978043 -167.971159 0.208404 -77.971159 0.208404 -77.971159 0.978043 -167.971159
2140.0 0.979217 -168.298372 0.202815 -78.298372 0.202815 -78.298372 0.979217 -168.298372
2150.0 0.980359 -168.625413 0.197223 -78.625413 0.197223 -78.625413 0.980359 -168.625413
2160.0 0.981468 -168.952286 0.191626 -78.952286 0.191626 -78.952286 0.981468 -168.952286
2170.0 0.982545 -169.278996 0.186027 -79.278996 0.186027 -79.278996 0.982545 -169.278996
2180.0 0.983589 -169.605548 0.180424 -79.605548 0.180424 -79.605548 0.983589 -169.605548
2190.0 0.984601 -169.931946 0.174818 -79.931946 0.174818 -79.931946 0.984601 -169.931946
2200.0 0.98558 -170.258195 0.169209 -80.258195 0.169209 -80.258195 0.98558 -170.258195
2210.0 0.986527 -170.584299 0.163596 -80.584299 0.163596 -80.584299 0.986527 -170.584299
2220.0 0.987442 -170.910264 0.157981 -80.910264 0.157981 -80.910264 0.987442 -170.910264
2230.0 0.988325 -171.236095 0.152363 -81.236095 0.152363 -81.236095 0.988325 -171.236095
2240.0 0.989175 -171.561795 0.146743 -81.561795 0.146743 -81.561795 0.989175 -171.561795
2250.0 0.989993 -171.887369 0.141119 -81.887369 0.141119 -81.887369 0.989993 -171.887369
2260.0 0.990778 -172.212823 0.135494 -82.212823 0.135494 -82.212823 0.990778 -172.212823
2270.0 0.991532 -172.538161 0.129866 -82.538161 0.129866 -82.538161 0.991532 -172.538161
