! File created by SignalIntegrity v1.5.1: Signal and Power Integrity Tools
! https://github.com/Nubis-Communications/SignalIntegrity
# MHz S MA R 50.0
0.0 0.694737 180.0
200.0 0.689927 162.945881
400.0 0.676359 146.154931
600.0 0.656261 129.836083
800.0 0.632441 114.113904
1000.0 0.607527 99.028778
1200.0 0.583555 84.556593
1400.0 0.56189 70.633317
1600.0 0.543341 57.175275
1800.0 0.528326 44.092412
2000.0 0.517026 31.295401
2200.0 0.509494 18.698495
2400.0 0.505733 6.219805
2600.0 0.505733 -6.219805
2800.0 0.509494 -18.698495
3000.0 0.517026 -31.295401
3200.0 0.528326 -44.092412
3400.0 0.543341 -57.175275
3600.0 0.56189 -70.633317
3800.0 0.583555 -84.556593
4000.0 0.607527 -99.028778
4200.0 0.632441 -114.113904
4400.0 0.656261 -129.836083
4600.0 0.676359 -146.154931
4800.0 0.689927 -162.945881
5000.0 0.694737 180.0
5200.0 0.689927 162.945881
5400.0 0.676359 146.154931
5600.0 0.656261 129.836083
5800.0 0.632441 114.113904
6000.0 0.607527 99.028778
6200.0 0.583555 84.556593
6400.0 0.56189 70.633317
6600.0 0.543341 57.175275
6800.0 0.528326 44.092412
7000.0 0.517026 31.295401
7200.0 0.509494 18.698495
7400.0 0.505733 6.219805
7600.0 0.505733 -6.219805
7800.0 0.509494 -18.698495
8000.0 0.517026 -31.295401
8200.0 0.528326 -44.092412
8400.0 0.543341 -57.175275
8600.0 0.56189 -70.633317
8800.0 0.583555 -84.556593
9000.0 0.607527 -99.028778
9200.0 0.632441 -114.113904
9400.0 0.656261 -129.836083
9600.0 0.676359 -146.154931
9800.0 0.689927 -162.945881
10000.0 0.694737 180.0
10200.0 0.689927 162.945881
10400.0 0.676359 146.154931
10600.0 0.656261 129.836083
10800.0 0.632441 114.113904
11000.0 0.607527 99.028778
11200.0 0.583555 84.556593
11400.0 0.56189 70.633317
11600.0 0.543341 57.175275
11800.0 0.528326 44.092412
12000.0 0.517026 31.295401
12200.0 0.509494 18.698495
12400.0 0.505733 6.219805
12600.0 0.505733 -6.219805
12800.0 0.509494 -18.698495
13000.0 0.517026 -31.295401
13200.0 0.528326 -44.092412
13400.0 0.543341 -57.175275
13600.0 0.56189 -70.633317
13800.0 0.583555 -84.556593
14000.0 0.607527 -99.028778
14200.0 0.632441 -114.113904
14400.0 0.656261 -129.836083
14600.0 0.676359 -146.154931
14800.0 0.689927 -162.945881
15000.0 0.694737 180.0
15200.0 0.689927 162.945881
15400.0 0.676359 146.154931
15600.0 0.656261 129.836083
15800.0 0.632441 114.113904
16000.0 0.607527 99.028778
16200.0 0.583555 84.556593
16400.0 0.56189 70.633317
16600.0 0.543341 57.175275
16800.0 0.528326 44.092412
17000.0 0.517026 31.295401
17200.0 0.509494 18.698495
17400.0 0.505733 6.219805
17600.0 0.505733 -6.219805
17800.0 0.509494 -18.698495
18000.0 0.517026 -31.295401
18200.0 0.528326 -44.092412
18400.0 0.543341 -57.175275
18600.0 0.56189 -70.633317
18800.0 0.583555 -84.556593
19000.0 0.607527 -99.028778
19200.0 0.632441 -114.113904
19400.0 0.656261 -129.836083
19600.0 0.676359 -146.154931
19800.0 0.689927 -162.945881
20000.0 0.694737 180.0
20200.0 0.689927 162.945881
20400.0 0.676359 146.154931
20600.0 0.656261 129.836083
20800.0 0.632441 114.113904
21000.0 0.607527 99.028778
21200.0 0.583555 84.556593
21400.0 0.56189 70.633317
21600.0 0.543341 57.175275
21800.0 0.528326 44.092412
22000.0 0.517026 31.295401
22200.0 0.509494 18.698495
22400.0 0.505733 6.219805
22600.0 0.505733 -6.219805
22800.0 0.509494 -18.698495
23000.0 0.517026 -31.295401
23200.0 0.528326 -44.092412
23400.0 0.543341 -57.175275
23600.0 0.56189 -70.633317
23800.0 0.583555 -84.556593
24000.0 0.607527 -99.028778
24200.0 0.632441 -114.113904
24400.0 0.656261 -129.836083
24600.0 0.676359 -146.154931
24800.0 0.689927 -162.945881
25000.0 0.694737 180.0
25200.0 0.689927 162.945881
25400.0 0.676359 146.154931
25600.0 0.656261 129.836083
25800.0 0.632441 114.113904
26000.0 0.607527 99.028778
26200.0 0.583555 84.556593
26400.0 0.56189 70.633317
26600.0 0.543341 57.175275
26800.0 0.528326 44.092412
27000.0 0.517026 31.295401
27200.0 0.509494 18.698495
27400.0 0.505733 6.219805
27600.0 0.505733 -6.219805
27800.0 0.509494 -18.698495
28000.0 0.517026 -31.295401
28200.0 0.528326 -44.092412
28400.0 0.543341 -57.175275
28600.0 0.56189 -70.633317
28800.0 0.583555 -84.556593
29000.0 0.607527 -99.028778
29200.0 0.632441 -114.113904
29400.0 0.656261 -129.836083
29600.0 0.676359 -146.154931
29800.0 0.689927 -162.945881
30000.0 0.694737 180.0
30200.0 0.689927 162.945881
30400.0 0.676359 146.154931
30600.0 0.656261 129.836083
30800.0 0.632441 114.113904
31000.0 0.607527 99.028778
31200.0 0.583555 84.556593
31400.0 0.56189 70.633317
31600.0 0.543341 57.175275
31800.0 0.528326 44.092412
32000.0 0.517026 31.295401
32200.0 0.509494 18.698495
32400.0 0.505733 6.219805
32600.0 0.505733 -6.219805
32800.0 0.509494 -18.698495
33000.0 0.517026 -31.295401
33200.0 0.528326 -44.092412
33400.0 0.543341 -57.175275
33600.0 0.56189 -70.633317
33800.0 0.583555 -84.556593
34000.0 0.607527 -99.028778
34200.0 0.632441 -114.113904
34400.0 0.656261 -129.836083
34600.0 0.676359 -146.154931
34800.0 0.689927 -162.945881
35000.0 0.694737 180.0
35200.0 0.689927 162.945881
35400.0 0.676359 146.154931
35600.0 0.656261 129.836083
35800.0 0.632441 114.113904
36000.0 0.607527 99.028778
36200.0 0.583555 84.556593
36400.0 0.56189 70.633317
36600.0 0.543341 57.175275
36800.0 0.528326 44.092412
37000.0 0.517026 31.295401
37200.0 0.509494 18.698495
37400.0 0.505733 6.219805
37600.0 0.505733 -6.219805
37800.0 0.509494 -18.698495
38000.0 0.517026 -31.295401
38200.0 0.528326 -44.092412
38400.0 0.543341 -57.175275
38600.0 0.56189 -70.633317
38800.0 0.583555 -84.556593
39000.0 0.607527 -99.028778
39200.0 0.632441 -114.113904
39400.0 0.656261 -129.836083
39600.0 0.676359 -146.154931
39800.0 0.689927 -162.945881
40000.0 0.694737 180.0
