! C:\LeCroy\WavePulser\Measurements\HDMICableSENoDeembedding.s4p
!
! Tue Aug  6 13:28:56 2019
!
!!Measured using Teledyne LeCroy WavePulser LCRY4096E1
!SingleEnded 
!
! freq S11 S12 S13 S14 
! S21 S22 S23 S24 
! S31 S32 S33 S34 
! S41 S42 S43 S44 
! 
# MHz S MA R 50.00  
0.000000000   0.044169   0.000000   0.028439  -0.000000   0.010669 -180.000000   0.986577   0.000000 
  0.019990  -0.000000   0.025128  -0.000000   1.009838  -0.000000   0.000580  -0.000000 
  0.035311 -180.000000   0.990006   0.000000   0.070337  -0.000000   0.006659 -180.000000 
  0.987338   0.000000   0.001323 -180.000000   0.028061  -0.000000   0.065476  -0.000000 
5.000000000   0.052829  19.197271   0.034142  22.928056   0.015728 -158.551715   0.979003 -18.997422 
  0.027310  31.763611   0.034780  35.886063   1.003371 -18.856751   0.014403 -116.391436 
  0.036098 174.545481   0.976588 -19.698863   0.074728   2.120211   0.024990  86.206674 
  0.980899 -18.818393   0.013260 -123.376931   0.032100  18.986658   0.066722   4.978918 
10.000000000   0.070235  23.017916   0.046110  30.843903   0.025492 -166.705633   0.959710 -37.516177 
  0.041090  38.844474   0.061388  41.249091   0.986230 -37.250236   0.028242 -146.229898 
  0.038857 167.898321   0.947923 -38.265267   0.075639  -1.954026   0.044187  61.488070 
  0.964045 -37.274111   0.026437 -148.768078   0.040666  27.257992   0.071704   8.560025 
15.000000000   0.085641  17.594419   0.058321  30.133474   0.036361 174.172931   0.936076 -55.346710 
  0.054758  36.166660   0.087694  29.237568   0.963968 -55.204666   0.041025 -175.309523 
  0.043818 157.819741   0.922889 -55.572568   0.069832  -2.996976   0.056880  44.204271 
  0.942223 -55.180878   0.039121 -176.607323   0.049871  28.569653   0.078031   7.906418 
20.000000000   0.093518   8.664232   0.068846  26.222466   0.047140 150.413854   0.914215 -72.569804 
  0.066553  30.222280   0.102593  13.643732   0.941314 -72.514395   0.052327 155.792717 
  0.050266 142.842744   0.910219 -72.241179   0.067451  -0.534161   0.063610  31.618534 
  0.920425 -72.562218   0.050549 154.899118   0.058269  26.804410   0.080895   4.203879 
25.000000000   0.092180  -0.531251   0.077718  20.715621   0.056616 124.090853   0.896926 -89.398188 
  0.076120  22.761261   0.105164  -1.049347   0.921287 -89.430879   0.061749 126.790119 
  0.056996 122.841516   0.906691 -89.007002   0.065365  -1.041651   0.067076  22.939444 
  0.901282 -89.540500   0.060105 126.215356   0.066094  23.715781   0.078623   0.035607 
30.000000000   0.083202  -7.480527   0.084482  13.590914   0.063512  96.295999   0.884351 -106.022152 
  0.082840  13.909635   0.098835 -13.815365   0.905988 -106.016714   0.068560  97.429332 
  0.062532  98.400376   0.902435 -106.031416   0.057430   1.646631   0.070049  16.666857 
  0.885808 -106.210487   0.067135  97.330222   0.073900  18.781818   0.071981  -2.397253 
35.000000000   0.070995  -9.771979   0.087402   4.857926   0.066722  67.716859   0.875856 -122.535368 
  0.084813   3.740998   0.085693 -25.181016   0.895942 -122.417400   0.071579  67.725962 
  0.065246  70.687099   0.893055 -122.921347   0.056059  14.183393   0.073522  10.497721 
  0.875002 -122.633377   0.070582  68.091051   0.079596  11.153118   0.063870  -0.541931 
40.000000000   0.060795  -6.394449   0.084170  -4.791761   0.065288  38.813641   0.871693 -138.982672 
  0.079915  -6.678768   0.066152 -33.837887   0.891751 -138.701897   0.069613  38.105915 
  0.063905  41.351736   0.883118 -139.264247   0.066484  19.955118   0.075527   2.808990 
  0.870467 -138.911724   0.069047  38.726595   0.079894   1.958899   0.059603   5.986554 
45.000000000   0.054925   1.045169   0.073616 -13.398480   0.058526  10.242175   0.872861 -155.469349 
  0.068011 -15.031820   0.043048 -34.341930   0.893919 -155.057509   0.062127   9.452112 
  0.058017  12.237082   0.881335 -155.304662   0.073925  17.024221   0.072936  -5.721920 
  0.873293 -155.255166   0.061679  10.066164   0.073708  -6.816788   0.060728  11.800133 
50.000000000   0.053336  10.848217   0.057682 -17.068896   0.046526 -16.451654   0.879505 -172.201560 
  0.051938 -17.086933   0.025280  -6.708311   0.902125 -171.757047   0.049600 -16.546669 
  0.047727 -14.504945   0.889645 -171.573809   0.074937  14.514753   0.064610 -12.860618 
  0.882504 -171.943441   0.048879 -16.077603   0.061728 -12.971344   0.062064  14.417005 
55.000000000   0.057232  20.958411   0.042406  -8.381202   0.030825 -36.353169   0.889370 170.597997 
  0.038305  -4.634691   0.033934  41.368524   0.913116 171.030335   0.033807 -35.013443 
  0.033998 -34.318003   0.903663 171.407707   0.075356  13.706539   0.051620 -14.940380 
  0.894373 170.805060   0.032654 -34.503134   0.046381 -11.416043   0.061248  18.154365 
60.000000000   0.067038  27.304138   0.039080  16.799884   0.017460 -27.822602   0.897677 152.824465 
  0.038473  22.189297   0.061966  50.861706   0.921480 153.247829   0.021108 -27.541821 
  0.021734 -31.079142   0.913618 153.562408   0.073401  12.537337   0.038752  -2.908466 
  0.903293 152.949480   0.019872 -24.830067   0.035939   8.468407   0.063325  25.458575 
65.000000000   0.080430  28.545439   0.053312  34.447636   0.024441   2.710213   0.898615 134.592425 
  0.054410  36.976306   0.093341  43.755015   0.922760 135.094359   0.028138  -3.132734 
  0.026815  -6.260235   0.912240 135.239914   0.068529  17.121671   0.040824  26.308039 
  0.903760 134.658246   0.027892   0.341454   0.044358  35.822650   0.072597  31.459639 
70.000000000   0.095738  25.765872   0.076049  35.726512   0.043951  -9.607150   0.887948 116.247214 
  0.077438  36.822633   0.118732  31.671760   0.911759 116.732571   0.048200 -13.947502 
  0.046235 -14.358391   0.899065 116.969906   0.075409  27.302595   0.063433  38.765344 
  0.892183 116.270790   0.048015 -12.257734   0.068322  42.289202   0.087395  32.434085 
75.000000000   0.111259  19.110917   0.099721  28.466004   0.064006 -35.976458   0.865502  98.292851 
  0.101205  28.792298   0.134253  19.193662   0.888369  98.848783   0.069242 -38.664933 
  0.067158 -37.975615   0.876423  99.105025   0.095388  28.349901   0.092352  33.886888 
  0.868522  98.268211   0.068329 -37.934599   0.095206  35.509116   0.104769  28.196925 
80.000000000   0.122114   9.078538   0.119213  17.159342   0.081363 -66.405624   0.836673  81.230968 
  0.120221  16.925362   0.141298   7.112835   0.858157  81.819380   0.087339 -67.716486 
  0.084906 -66.557765   0.848656  81.994963   0.114019  21.034965   0.117439  22.567221 
  0.838162  81.160257   0.085598 -67.509754   0.117625  23.899293   0.119685  19.595095 
85.000000000   0.123245  -2.441487   0.130932   4.128289   0.094520 -98.290209   0.811189  65.287026 
  0.130878   3.613439   0.139408  -4.908905   0.831353  65.892841   0.100574 -98.470923 
  0.097365 -97.228208   0.823078  65.816190   0.124379  10.662293   0.133942   9.249691 
  0.811129  65.187776   0.098418 -98.684269   0.132381  10.631290   0.126618   8.737166 
90.000000000   0.113405 -13.069053   0.133282  -9.287369   0.102381 -130.740062   0.798544  50.172727 
  0.132013  -9.915467   0.126799 -16.515609   0.817529  50.885934   0.107594 -130.000652 
  0.103520 -128.989091   0.807891  50.570793   0.124553  -0.475518   0.140117  -4.554400 
  0.797192  50.079807   0.105484 -130.725986   0.137895  -3.168591   0.123512  -2.211526 
95.000000000   0.095443 -20.081750   0.126279 -22.333813   0.103608 -163.314404   0.803030  35.161713 
  0.123730 -22.971682   0.104398 -25.692683   0.822105  35.981246   0.107195 -161.806096 
  0.102719 -161.359391   0.808945  35.677538   0.114198 -10.622472   0.135355 -18.229064 
  0.801178  35.117586   0.105315 -163.069423   0.133580 -16.887029   0.111305 -11.604516 
100.000000000   0.075579 -19.577956   0.110582 -34.355968   0.096881 164.477106   0.821715  19.479770 
  0.106910 -34.815123   0.076947 -28.668430   0.841992  20.328617   0.098592 166.658287 
  0.094407 166.146601   0.827183  20.277057   0.095731 -17.273178   0.119853 -31.241890 
  0.820622  19.480691   0.096979 164.941685   0.119523 -30.134768   0.092321 -17.281906 
105.000000000   0.063494  -7.868003   0.087223 -43.880294   0.081685 133.449270   0.846192   2.715100 
  0.083000 -43.881522   0.052889 -17.094445   0.866585   3.601517   0.081919 136.251394 
  0.078398 134.341720   0.854890   3.731037   0.075143 -16.611933   0.094326 -42.431470 
  0.846665   2.704348   0.080634 134.150545   0.095673 -42.004308   0.071754 -14.571318 
110.000000000   0.067628   7.946063   0.059207 -45.563687   0.059094 105.480432   0.866839 -15.061219 
  0.055170 -44.475922   0.049606  15.548820   0.887722 -14.180861   0.058626 108.976069 
  0.055571 105.161381   0.878921 -14.050550   0.060196  -3.919577   0.061485 -46.850942 
  0.868694 -15.134719   0.057475 106.342007   0.063761 -48.275470   0.061234   1.485856 
115.000000000   0.084240  15.401172   0.039178 -22.007324   0.032348  88.341807   0.876960 -33.474510 
  0.036453 -17.564531   0.076811  32.598351   0.897242 -32.538549   0.032194  93.176812 
  0.028841  86.774971   0.890687 -32.579971   0.064025  18.993852   0.034176 -21.793881 
  0.879318 -33.614928   0.030499  90.181498   0.033937 -28.157400   0.070510  19.557495 
120.000000000   0.104988  14.739247   0.051018  11.108882   0.018209 130.073817   0.873922 -52.093137 
  0.050536  15.965876   0.111925  28.185993   0.892986 -51.098019   0.019444 132.770641 
  0.015829 138.347013   0.886606 -51.355542   0.091468  28.958561   0.047540  24.615214 
  0.875890 -52.251387   0.018678 136.688260   0.044061  24.139260   0.094383  26.618552 
125.000000000   0.124899   9.302139   0.078408  15.297344   0.041911 145.902427   0.857951 -70.507472 
  0.079044  18.792632   0.137568  17.161489   0.877528 -69.449857   0.042457 146.538683 
  0.041075 150.137422   0.867463 -69.707747   0.124564  24.351296   0.082848  28.850642 
  0.859400 -70.611309   0.043418 146.984113   0.080908  29.644832   0.125337  23.825170 
130.000000000   0.140002   1.178553   0.103451   8.747458   0.069993 123.298263   0.832095 -88.293794 
  0.104770  11.370470   0.151363   5.873673   0.850822 -87.201327   0.070144 123.975525 
  0.069050 125.372247   0.840022 -87.321224   0.150827  14.790503   0.116316  20.225642 
  0.833678 -88.318581   0.070938 123.727933   0.116596  20.778180   0.154010  14.677857 
135.000000000   0.147460  -7.966022   0.122662  -0.525530   0.092982  94.262445   0.803003 -105.103086 
  0.124680   1.409704   0.158027  -4.883080   0.821025 -103.966936   0.092990  94.791586 
  0.091738  95.228666   0.810359 -103.929513   0.168164   3.834795   0.142993   8.543905 
  0.804983 -105.099547   0.093833  94.906034   0.145795   8.524742   0.171503   2.983392 
140.000000000   0.146890 -16.919372   0.136121 -10.721206   0.108451  63.457951   0.779259 -120.873637 
  0.138635  -9.750340   0.157822 -16.227275   0.797015 -119.642840   0.108431  63.915173 
  0.106694  63.785231   0.787921 -119.533606   0.175784  -7.791934   0.162144  -4.443910 
  0.780942 -120.893801   0.110021  64.230651   0.166091  -5.182697   0.175834  -8.589331 
145.000000000   0.139369 -25.061763   0.143523 -21.773939   0.115601  32.171478   0.768062 -135.930032 
  0.144882 -21.894719   0.147995 -27.958781   0.786178 -134.626406   0.115852  32.722834 
  0.113411  32.210883   0.779544 -134.442375   0.171558 -19.488927   0.171440 -18.641967 
  0.768721 -135.965709   0.118057  32.750116   0.174766 -19.634509   0.169939 -19.135937 
150.000000000   0.125695 -31.913266   0.142780 -33.751848   0.114584   1.024769   0.772750 -150.915114 
  0.141593 -34.409231   0.128261 -38.783047   0.793784 -149.611425   0.115401   1.781031 
  0.112350   0.997817   0.787718 -149.467818   0.155494 -30.083368   0.167509 -33.474620 
  0.772279 -150.939888   0.117148   1.227815   0.170173 -34.204255   0.155787 -28.845325 
155.000000000   0.106708 -36.105223   0.131514 -46.026213   0.105996 -29.440154   0.791205 -166.545324 
  0.128501 -46.602322   0.101370 -46.514490   0.814404 -165.447927   0.107432 -28.405891 
  0.104073 -29.441915   0.808536 -165.341804   0.130935 -38.083762   0.149753 -47.823286 
  0.789690 -166.545135   0.107624 -29.470720   0.152268 -48.212864   0.132388 -37.427365 
160.000000000   0.085895 -34.221272   0.109751 -57.054360   0.090721 -58.418162   0.816001 176.731008 
  0.106120 -57.460240   0.072015 -47.893127   0.838874 177.640925   0.092603 -56.975799 
  0.089128 -58.244045   0.831389 177.646261   0.101893 -41.504012   0.120778 -60.357266 
  0.813667 176.778299   0.091271 -58.260115   0.122861 -60.426284   0.099885 -41.574312 
165.000000000   0.072740 -21.991045   0.080399 -63.850879   0.070251 -84.008344   0.837334 158.936765 
  0.076615 -63.885201   0.046963 -30.747454   0.856594 159.792024   0.072450 -81.942680 
  0.069026 -83.184374   0.848299 159.789544   0.074169 -34.647412   0.084581 -68.423618 
  0.834844 159.049171   0.070317 -83.453092   0.086224 -67.767029   0.069235 -30.514085 
170.000000000   0.077780  -6.093555   0.050300 -57.092821   0.047993 -101.032768   0.847639 140.490850 
  0.047267 -55.365571   0.053660   7.890516   0.863539 141.474894   0.050749 -98.110825 
  0.047764 -98.638611   0.854015 141.529197   0.065091 -11.093836   0.048550 -61.413269 
  0.845910 140.654152   0.047934 -100.122219   0.050786 -59.810396   0.068247  -2.162747 
175.000000000   0.096221   0.942735   0.040412 -19.032975   0.032780 -96.478940   0.844750 121.935505 
  0.040026 -15.292922   0.088552  15.324032   0.857963 123.272688   0.036631 -94.638983 
  0.034665 -93.323154   0.848752 123.301439   0.083994   6.165815   0.038295 -14.855933 
  0.844207 122.103917   0.032875 -94.731798   0.041111 -16.160377   0.094338  10.090889 
180.000000000   0.118008   0.023435   0.064647   4.057787   0.038345 -81.258532   0.831073 103.697526 
  0.065782   5.537296   0.121348   7.604135   0.845459 105.426052   0.042322 -83.096638 
  0.041475 -81.656379   0.834891 105.388026   0.111676   8.100229   0.067766   8.068655 
  0.831350 103.841011   0.039437 -79.871436   0.069968   6.413568   0.123718   9.140960 
185.000000000   0.138224  -5.581434   0.097509   2.248886   0.056558 -89.163505   0.810799  86.043597 
  0.098971   2.594781   0.145522  -3.129433   0.829112  88.030308   0.060293 -91.203188 
  0.059486 -90.789116   0.816727  87.986586   0.138005   3.281558   0.104653   4.586413 
  0.811508  86.175877   0.058362 -88.717232   0.107168   3.678685   0.150457   3.047574 
190.000000000   0.152655 -14.313015   0.125956  -7.404557   0.075047 -109.565186   0.788821  69.129347 
  0.127602  -7.689218   0.161300 -15.061628   0.812101  71.235482   0.078863 -110.981979 
  0.077289 -111.139894   0.797842  71.160949   0.158954  -5.105584   0.136440  -6.127881 
  0.789918  69.262945   0.077480 -109.482646   0.140162  -6.651442   0.171203  -6.273804 
195.000000000   0.156782 -24.743313   0.145238 -19.494237   0.089376 -134.522387   0.770473  52.966473 
  0.146942 -20.398244   0.166592 -28.020825   0.798325  54.997996   0.093396 -135.231597 
  0.090653 -135.623291   0.782502  55.063046   0.169954 -15.477031   0.158266 -19.078720 
  0.771885  53.104200   0.092773 -134.632474   0.163282 -19.688561   0.180565 -17.526452 
200.000000000   0.148724 -35.144768   0.153862 -32.203349   0.097774 -161.188717   0.760442  37.348194 
  0.154886 -33.767227   0.158537 -41.220995   0.790717  39.150055   0.102094 -161.177299 
  0.098132 -161.636717   0.775786  39.392514   0.168387 -26.237548   0.168377 -32.641850 
  0.762197  37.489647   0.102291 -161.594723   0.173481 -33.525840   0.175564 -29.026888 
205.000000000   0.130640 -43.710355   0.151789 -44.788143   0.099950 171.816032   0.761206  21.866041 
  0.151274 -46.849270   0.137636 -53.223033   0.791310  23.378876   0.104534 172.444044 
  0.099529 172.021472   0.779039  23.714226   0.155348 -35.970326   0.166345 -46.167137 
  0.763361  21.989438   0.105209 170.988569   0.170385 -47.107142   0.158005 -39.123676 
210.000000000   0.107221 -48.558802   0.139771 -56.707233   0.096507 145.238357   0.771919   6.043133 
  0.137473 -58.976170   0.107532 -62.111811   0.799558   7.275178   0.101067 146.412729 
  0.095364 146.148355   0.790399   7.585494   0.133606 -43.260116   0.152609 -59.069386 
  0.774132   6.114589   0.101852 144.039073   0.155609 -59.799840   0.132518 -46.361187 
215.000000000   0.083506 -46.978458   0.119162 -67.242616   0.088199 119.713657   0.788479 -10.472634 
  0.115468 -69.391436   0.073332 -63.558506   0.812196  -9.307488   0.092463 121.512965 
  0.086508 121.514368   0.803158  -9.204184   0.107921 -45.484869   0.128820 -70.462166 
  0.789992 -10.454821   0.093134 118.308678   0.131060 -70.959567   0.103592 -48.566918 
220.000000000   0.066778 -33.868144   0.091812 -74.634847   0.075790  96.400183   0.804828 -27.779679 
  0.087507 -76.284746   0.046460 -42.523917   0.824033 -26.460229   0.079894  98.963996 
  0.073982  99.346426   0.813056 -26.531955   0.087467 -38.808413   0.097586 -78.411182 
  0.805047 -27.768753   0.080133  94.925494   0.098885 -78.609453   0.078180 -39.879274 
225.000000000   0.070809 -12.792385   0.061911 -73.019177   0.060995  77.875648   0.815092 -45.709925 
  0.057815 -73.321138   0.055476  -3.142348   0.830984 -44.070319   0.065455  81.079423 
  0.059653  82.239574   0.817293 -44.074584   0.082890 -25.016245   0.064051 -76.260392 
  0.814160 -45.644600   0.064681  76.302333   0.064752 -75.627712   0.074338 -17.706332 
230.000000000   0.095335  -4.030654   0.043432 -46.654328   0.047979  68.920627   0.815796 -63.911460 
  0.041244 -43.429598   0.091445   5.545649   0.831276 -61.918599   0.053342  71.558953 
  0.047933  74.694207   0.816666 -61.745961   0.095094 -14.676255   0.045975 -46.792755 
  0.814494 -63.765155   0.051005  67.056832   0.047524 -45.389090   0.098205  -4.924691 
235.000000000   0.123684  -7.533607   0.058000 -15.577384   0.044454  71.076303   0.807020 -81.999734 
  0.058564 -13.170300   0.128365  -1.007006   0.824149 -79.684254   0.050156  70.515101 
  0.046134  76.127050   0.810906 -79.462641   0.116171 -12.461202   0.065106 -18.573901 
  0.806144 -81.794028   0.047175  68.849726   0.067900 -18.168622   0.129283  -6.375904 
240.000000000   0.145775 -16.061220   0.089106 -10.956750   0.054244  69.726799   0.791540 -99.675884 
  0.090456 -10.142834   0.156603 -12.202898   0.810966 -97.217257   0.058690  66.917048 
  0.056240  72.479612   0.799721 -97.058222   0.137559 -16.936959   0.098118 -16.716884 
  0.791442 -99.469389   0.057312  67.274864   0.101925 -16.577334   0.155453 -13.749911 
245.000000000   0.158595 -26.142183   0.120384 -17.270386   0.070796  56.612979   0.773468 -116.768819 
  0.121455 -17.164696   0.171777 -24.372765   0.796094 -114.293478   0.073742  54.013405 
  0.071835  58.162102   0.784632 -114.316193   0.152010 -24.683586   0.128525 -24.134737 
  0.773792 -116.620537   0.074375  54.167050   0.133361 -24.054116   0.173187 -23.417394 
250.000000000   0.162103 -36.376790   0.146543 -27.558420   0.087347  36.175226   0.757046 -133.241253 
  0.146726 -27.643122   0.174954 -35.892258   0.781473 -130.975972   0.089385  34.442614 
  0.087133  37.101901   0.768254 -131.024172   0.157610 -33.141534   0.152040 -34.479853 
  0.757110 -133.173183   0.091459  34.068185   0.157703 -34.540759   0.180497 -33.980717 
255.000000000   0.157423 -46.125319   0.164515 -39.670947   0.100123  12.244285   0.746145 -149.200925 
  0.163769 -39.658125   0.168790 -46.659876   0.771605 -147.121844   0.101921  11.342176 
  0.098851  12.598174   0.756510 -147.173537   0.155663 -41.099334   0.167273 -46.041797 
  0.745480 -149.192504   0.105141  10.558572   0.172953 -46.303419   0.176687 -44.342617 
260.000000000   0.145765 -55.073344   0.171966 -52.716586   0.107285 -13.251859   0.743424 -164.904317 
  0.170525 -52.473086   0.153988 -56.772380   0.767201 -163.081401   0.109312 -13.408867 
  0.105406 -13.455451   0.752461 -163.011142   0.147504 -48.262840   0.172740 -58.327185 
  0.742104 -164.922146   0.113507 -14.670446   0.177604 -58.617978   0.163319 -53.535819 
